! NanoVNA-App
! Date: 2025-09-25 15:58:56
! Start: 100MHz Stop: 1,5GHz Points: 101
! S-Parameter data: F S11 S21 S12 S22
# Hz S RI R 50
!     Frequency           S11_Real           S11_Imag           S21_Real           S21_Imag           S12_Real           S12_Imag           S22_Real           S22_Imag
      100000000   -2,824793197e-02   -2,850501798e-03    3,722660244e-01   -7,224486470e-01    0,000000000e+00    0,000000000e+00    0,000000000e+00    0,000000000e+00
      114000000   -1,567440480e-02    1,289653033e-02   -9,140873700e-02   -8,046113849e-01    0,000000000e+00    0,000000000e+00    0,000000000e+00    0,000000000e+00
      128000000    4,376474302e-03    1,195006166e-02   -5,160548687e-01   -6,186889410e-01    0,000000000e+00    0,000000000e+00    0,000000000e+00    0,000000000e+00
      142000000    1,547990274e-02   -1,777167548e-03   -7,672875524e-01   -2,341395319e-01    0,000000000e+00    0,000000000e+00    0,000000000e+00    0,000000000e+00
      156000000    1,536351815e-02   -1,292209513e-02   -7,642219663e-01    2,207168490e-01    0,000000000e+00    0,000000000e+00    0,000000000e+00    0,000000000e+00
      170000000    1,766658574e-02   -2,099853009e-02   -5,154197216e-01    6,062781215e-01    0,000000000e+00    0,000000000e+00    0,000000000e+00    0,000000000e+00
      184000000    2,205830999e-02   -3,554415330e-02   -9,831433743e-02    7,859033346e-01    0,000000000e+00    0,000000000e+00    0,000000000e+00    0,000000000e+00
      198000000    1,403798908e-02   -6,067982689e-02    3,457942605e-01    7,105202079e-01    0,000000000e+00    0,000000000e+00    0,000000000e+00    0,000000000e+00
      212000000   -1,767973788e-02   -7,918143272e-02    6,807045341e-01    4,064360261e-01    0,000000000e+00    0,000000000e+00    0,000000000e+00    0,000000000e+00
      226000000   -6,035267189e-02   -6,665751338e-02    7,957769036e-01   -3,561892360e-02    0,000000000e+00    0,000000000e+00    0,000000000e+00    0,000000000e+00
      240000000   -8,058416098e-02   -2,276127972e-02    6,416398287e-01   -4,717534781e-01    0,000000000e+00    0,000000000e+00    0,000000000e+00    0,000000000e+00
      254000000   -6,080029905e-02    1,980565675e-02    2,709955275e-01   -7,420316935e-01    0,000000000e+00    0,000000000e+00    0,000000000e+00    0,000000000e+00
      268000000   -2,094878443e-02    3,089771233e-02   -1,814261973e-01   -7,610062957e-01    0,000000000e+00    0,000000000e+00    0,000000000e+00    0,000000000e+00
      282000000    6,881384645e-03    1,369119622e-02   -5,630825162e-01   -5,325548649e-01    0,000000000e+00    0,000000000e+00    0,000000000e+00    0,000000000e+00
      296000000    1,234311610e-02   -6,262626033e-03   -7,605057955e-01   -1,344499141e-01    0,000000000e+00    0,000000000e+00    0,000000000e+00    0,000000000e+00
      310000000    1,346437912e-02   -1,459981315e-02   -7,077560425e-01    3,033300340e-01    0,000000000e+00    0,000000000e+00    0,000000000e+00    0,000000000e+00
      324000000    2,247298881e-02   -2,480438724e-02   -4,204389453e-01    6,396247745e-01    0,000000000e+00    0,000000000e+00    0,000000000e+00    0,000000000e+00
      338000000    2,837044559e-02   -5,057942867e-02   -9,997792076e-04    7,600229979e-01    0,000000000e+00    0,000000000e+00    0,000000000e+00    0,000000000e+00
      352000000    1,028971840e-02   -8,284056932e-02    4,109342992e-01    6,347965002e-01    0,000000000e+00    0,000000000e+00    0,000000000e+00    0,000000000e+00
      366000000   -3,171687201e-02   -9,384883195e-02    6,924320459e-01    3,038344681e-01    0,000000000e+00    0,000000000e+00    0,000000000e+00    0,000000000e+00
      380000000   -6,754775345e-02   -6,901701540e-02    7,453463078e-01   -1,350218654e-01    0,000000000e+00    0,000000000e+00    0,000000000e+00    0,000000000e+00
      394000000   -6,857135892e-02   -3,045348637e-02    5,400228500e-01   -5,286279917e-01    0,000000000e+00    0,000000000e+00    0,000000000e+00    0,000000000e+00
      408000000   -4,297304899e-02   -1,552014984e-02    1,490253806e-01   -7,334247828e-01    0,000000000e+00    0,000000000e+00    0,000000000e+00    0,000000000e+00
      422000000   -2,631654032e-02   -3,120670468e-02   -2,795561254e-01   -6,900649071e-01    0,000000000e+00    0,000000000e+00    0,000000000e+00    0,000000000e+00
      436000000   -3,943066671e-02   -4,889062047e-02   -6,100602746e-01   -4,191952348e-01    0,000000000e+00    0,000000000e+00    0,000000000e+00    0,000000000e+00
      450000000   -6,448654830e-02   -3,927483037e-02   -7,369572520e-01   -7,560823113e-03    0,000000000e+00    0,000000000e+00    0,000000000e+00    0,000000000e+00
      464000000   -6,777992845e-02   -6,237902679e-03   -6,081141829e-01    4,065871835e-01    0,000000000e+00    0,000000000e+00    0,000000000e+00    0,000000000e+00
      478000000   -3,873832896e-02    1,608778723e-02   -2,682054341e-01    6,701447368e-01    0,000000000e+00    0,000000000e+00    0,000000000e+00    0,000000000e+00
      492000000   -5,042067263e-03    6,590682548e-03    1,519080549e-01    6,959109306e-01    0,000000000e+00    0,000000000e+00    0,000000000e+00    0,000000000e+00
      506000000    6,923612207e-03   -2,009155229e-02    5,076799989e-01    4,887630939e-01    0,000000000e+00    0,000000000e+00    0,000000000e+00    0,000000000e+00
      520000000    4,889394040e-04   -3,842207789e-02    6,897686124e-01    1,208407432e-01    0,000000000e+00    0,000000000e+00    0,000000000e+00    0,000000000e+00
      534000000   -3,028969746e-03   -4,572096094e-02    6,328725219e-01   -2,822344899e-01    0,000000000e+00    0,000000000e+00    0,000000000e+00    0,000000000e+00
      548000000    7,511549047e-04   -5,955759808e-02    3,592285216e-01   -5,793052912e-01    0,000000000e+00    0,000000000e+00    0,000000000e+00    0,000000000e+00
      562000000   -7,569445297e-03   -8,840724081e-02   -2,638548240e-02   -6,725083590e-01    0,000000000e+00    0,000000000e+00    0,000000000e+00    0,000000000e+00
      576000000   -4,567311704e-02   -1,099893451e-01   -4,016612172e-01   -5,378683805e-01    0,000000000e+00    0,000000000e+00    0,000000000e+00    0,000000000e+00
      590000000   -9,487232566e-02   -9,331090003e-02   -6,399536133e-01   -2,166197896e-01    0,000000000e+00    0,000000000e+00    0,000000000e+00    0,000000000e+00
      604000000   -1,115514338e-01   -4,087477922e-02   -6,476829052e-01    1,988156438e-01    0,000000000e+00    0,000000000e+00    0,000000000e+00    0,000000000e+00
      618000000   -7,604610175e-02   -2,196599729e-03   -4,010412693e-01    5,368114114e-01    0,000000000e+00    0,000000000e+00    0,000000000e+00    0,000000000e+00
      632000000   -2,936585993e-02   -2,105121873e-02   -1,111533120e-02    6,538352966e-01    0,000000000e+00    0,000000000e+00    0,000000000e+00    0,000000000e+00
      646000000   -3,586516529e-02   -7,629124820e-02    3,659063578e-01    5,270789862e-01    0,000000000e+00    0,000000000e+00    0,000000000e+00    0,000000000e+00
      660000000   -1,120101810e-01   -9,930814803e-02    6,009701490e-01    1,933407784e-01    0,000000000e+00    0,000000000e+00    0,000000000e+00    0,000000000e+00
      674000000   -1,993989348e-01   -2,407983504e-02    5,650524497e-01   -2,399244905e-01    0,000000000e+00    0,000000000e+00    0,000000000e+00    0,000000000e+00
      688000000   -1,789535880e-01    1,453391910e-01    2,094866186e-01   -5,219631791e-01    0,000000000e+00    0,000000000e+00    0,000000000e+00    0,000000000e+00
      702000000    2,511477657e-02    2,476780266e-01   -2,027563751e-01   -4,071347415e-01    0,000000000e+00    0,000000000e+00    0,000000000e+00    0,000000000e+00
      716000000    2,634782791e-01    1,106843874e-01   -2,724728584e-01   -8,346595615e-02    0,000000000e+00    0,000000000e+00    0,000000000e+00    0,000000000e+00
      730000000    3,033161461e-01   -1,864962131e-01   -1,062048972e-01    3,201990575e-02    0,000000000e+00    0,000000000e+00    0,000000000e+00    0,000000000e+00
      744000000    9,370064735e-02   -4,278853536e-01   -4,248492792e-02   -6,573821604e-02    0,000000000e+00    0,000000000e+00    0,000000000e+00    0,000000000e+00
      758000000   -2,600871027e-01   -4,289636910e-01   -1,761589199e-01   -1,255873293e-01    0,000000000e+00    0,000000000e+00    0,000000000e+00    0,000000000e+00
      772000000   -4,843556881e-01   -1,182104647e-01   -3,366426229e-01    3,847879916e-02    0,000000000e+00    0,000000000e+00    0,000000000e+00    0,000000000e+00
      786000000   -3,405902088e-01    2,208894789e-01   -2,627932429e-01    3,169119060e-01    0,000000000e+00    0,000000000e+00    0,000000000e+00    0,000000000e+00
      800000000   -4,112351313e-02    2,761411369e-01    3,864107653e-03    4,369837642e-01    0,000000000e+00    0,000000000e+00    0,000000000e+00    0,000000000e+00
      814000000    1,442653686e-01    1,256434768e-01    2,638782561e-01    3,590367734e-01    0,000000000e+00    0,000000000e+00    0,000000000e+00    0,000000000e+00
      828000000    1,679651886e-01   -7,032398134e-02    4,325406253e-01    1,568505913e-01    0,000000000e+00    0,000000000e+00    0,000000000e+00    0,000000000e+00
      842000000    6,679946929e-02   -2,185629308e-01    4,666538239e-01   -1,202486008e-01    0,000000000e+00    0,000000000e+00    0,000000000e+00    0,000000000e+00
      856000000   -1,065534577e-01   -2,637011111e-01    3,200845718e-01   -3,950651288e-01    0,000000000e+00    0,000000000e+00    0,000000000e+00    0,000000000e+00
      870000000   -2,752161920e-01   -1,681234837e-01   -2,539536683e-03   -5,268063545e-01    0,000000000e+00    0,000000000e+00    0,000000000e+00    0,000000000e+00
      884000000   -3,202037513e-01    3,481978923e-02   -3,482744694e-01   -3,938147426e-01    0,000000000e+00    0,000000000e+00    0,000000000e+00    0,000000000e+00
      898000000   -1,916380525e-01    2,062155455e-01   -4,887520671e-01   -6,342899799e-02    0,000000000e+00    0,000000000e+00    0,000000000e+00    0,000000000e+00
      912000000    7,443184499e-03    2,196131200e-01   -4,044440389e-01    2,827158868e-01    0,000000000e+00    0,000000000e+00    0,000000000e+00    0,000000000e+00
      926000000    1,507893503e-01    1,131568328e-01   -1,667803228e-01    4,163301289e-01    0,000000000e+00    0,000000000e+00    0,000000000e+00    0,000000000e+00
      940000000    2,006230950e-01   -4,406706989e-02    6,456710398e-02    4,254398346e-01    0,000000000e+00    0,000000000e+00    0,000000000e+00    0,000000000e+00
      954000000    1,535803229e-01   -1,994861662e-01    2,609488666e-01    3,405881822e-01    0,000000000e+00    0,000000000e+00    0,000000000e+00    0,000000000e+00
      968000000    2,634725906e-02   -3,150477409e-01    4,091247916e-01    1,773825139e-01    0,000000000e+00    0,000000000e+00    0,000000000e+00    0,000000000e+00
      982000000   -1,588792056e-01   -3,303352892e-01    4,752237499e-01   -6,670752168e-02    0,000000000e+00    0,000000000e+00    0,000000000e+00    0,000000000e+00
      996000000   -3,269589841e-01   -2,111545652e-01    3,694393933e-01   -3,572013080e-01    0,000000000e+00    0,000000000e+00    0,000000000e+00    0,000000000e+00
     1010000000   -3,406219184e-01   -5,156540312e-03    4,144005477e-02   -5,243511200e-01    0,000000000e+00    0,000000000e+00    0,000000000e+00    0,000000000e+00
     1024000000   -2,039057761e-01    8,948948979e-02   -3,476472497e-01   -3,779633045e-01    0,000000000e+00    0,000000000e+00    0,000000000e+00    0,000000000e+00
     1038000000   -1,329201907e-01    9,137280285e-03   -4,824651480e-01    6,380931288e-02    0,000000000e+00    0,000000000e+00    0,000000000e+00    0,000000000e+00
     1052000000   -2,899434865e-01    5,223697424e-02   -9,293295443e-02    3,745794594e-01    0,000000000e+00    0,000000000e+00    0,000000000e+00    0,000000000e+00
     1066000000   -1,462239623e-01    2,998730540e-01    1,437722743e-01    1,342787743e-01    0,000000000e+00    0,000000000e+00    0,000000000e+00    0,000000000e+00
     1080000000    1,029939055e-01    2,465314865e-01    9,000004828e-02    2,300903015e-02    0,000000000e+00    0,000000000e+00    0,000000000e+00    0,000000000e+00
     1094000000    2,172088623e-01    8,829157799e-02    6,840297580e-02    8,087233640e-03    0,000000000e+00    0,000000000e+00    0,000000000e+00    0,000000000e+00
     1108000000    2,413282096e-01   -8,465693146e-02    8,103962988e-02    7,497911574e-04    0,000000000e+00    0,000000000e+00    0,000000000e+00    0,000000000e+00
     1122000000    1,818771660e-01   -2,506768703e-01    1,039365157e-01   -2,698535845e-02    0,000000000e+00    0,000000000e+00    0,000000000e+00    0,000000000e+00
     1136000000    5,039114878e-02   -3,775141537e-01    1,249272749e-01   -7,501827180e-02    0,000000000e+00    0,000000000e+00    0,000000000e+00    0,000000000e+00
     1150000000   -1,581815481e-01   -4,263736010e-01    1,391717345e-01   -1,527490467e-01    0,000000000e+00    0,000000000e+00    0,000000000e+00    0,000000000e+00
     1164000000   -3,770334721e-01   -3,287630081e-01    9,775003046e-02   -2,784003317e-01    0,000000000e+00    0,000000000e+00    0,000000000e+00    0,000000000e+00
     1178000000   -4,631397128e-01   -8,640269190e-02   -1,053239703e-01   -4,055477381e-01    0,000000000e+00    0,000000000e+00    0,000000000e+00    0,000000000e+00
     1192000000   -3,766432405e-01    3,762215748e-02   -4,628540576e-01   -1,955532879e-01    0,000000000e+00    0,000000000e+00    0,000000000e+00    0,000000000e+00
     1206000000   -4,109430015e-01    1,361787915e-01   -2,736430764e-01    2,381884456e-01    0,000000000e+00    0,000000000e+00    0,000000000e+00    0,000000000e+00
     1220000000   -2,756310701e-01    3,367007673e-01   -6,748396438e-03    1,641460955e-01    0,000000000e+00    0,000000000e+00    0,000000000e+00    0,000000000e+00
     1234000000   -5,100716650e-02    3,492960334e-01    2,290808409e-02    5,279043689e-02    0,000000000e+00    0,000000000e+00    0,000000000e+00    0,000000000e+00
     1248000000    1,235745624e-01    2,538037598e-01    3,934909124e-03    2,298562415e-02    0,000000000e+00    0,000000000e+00    0,000000000e+00    0,000000000e+00
     1262000000    2,121625990e-01    9,918321669e-02    3,882829333e-03    2,759275213e-02    0,000000000e+00    0,000000000e+00    0,000000000e+00    0,000000000e+00
     1276000000    2,398155332e-01   -5,826805532e-02    3,187100962e-02    3,545975313e-02    0,000000000e+00    0,000000000e+00    0,000000000e+00    0,000000000e+00
     1290000000    1,949991435e-01   -2,139201313e-01    5,590054020e-02    2,697456442e-02    0,000000000e+00    0,000000000e+00    0,000000000e+00    0,000000000e+00
     1304000000    8,243138343e-02   -3,531788290e-01    7,792820036e-02    7,628003135e-03    0,000000000e+00    0,000000000e+00    0,000000000e+00    0,000000000e+00
     1318000000   -1,067125723e-01   -4,479813576e-01    7,638867944e-02   -1,183450781e-02    0,000000000e+00    0,000000000e+00    0,000000000e+00    0,000000000e+00
     1332000000   -3,543981016e-01   -4,370126724e-01    8,622219414e-02   -2,007961832e-02    0,000000000e+00    0,000000000e+00    0,000000000e+00    0,000000000e+00
     1346000000   -5,824962258e-01   -2,478776723e-01    1,029674634e-01   -7,091067266e-03    0,000000000e+00    0,000000000e+00    0,000000000e+00    0,000000000e+00
     1360000000   -6,513702869e-01    7,412762195e-02    1,398251057e-01   -1,541621797e-02    0,000000000e+00    0,000000000e+00    0,000000000e+00    0,000000000e+00
     1374000000   -4,888896048e-01    3,356492221e-01    1,695429385e-01   -4,610661417e-02    0,000000000e+00    0,000000000e+00    0,000000000e+00    0,000000000e+00
     1388000000   -2,530219257e-01    4,203385711e-01    1,650267839e-01   -9,079559892e-02    0,000000000e+00    0,000000000e+00    0,000000000e+00    0,000000000e+00
     1402000000   -4,020662978e-02    3,858723938e-01    1,522816718e-01   -9,743104130e-02    0,000000000e+00    0,000000000e+00    0,000000000e+00    0,000000000e+00
     1416000000    1,021530926e-01    2,878773808e-01    1,334045380e-01   -8,376118541e-02    0,000000000e+00    0,000000000e+00    0,000000000e+00    0,000000000e+00
     1430000000    1,862533838e-01    1,418106556e-01    1,082662493e-01   -6,870073825e-02    0,000000000e+00    0,000000000e+00    0,000000000e+00    0,000000000e+00
     1444000000    2,158032656e-01   -1,000981312e-02    1,156745702e-01   -2,045877650e-02    0,000000000e+00    0,000000000e+00    0,000000000e+00    0,000000000e+00
     1458000000    1,798507273e-01   -1,815883666e-01    1,540186554e-01    1,730245352e-02    0,000000000e+00    0,000000000e+00    0,000000000e+00    0,000000000e+00
     1472000000    6,873533130e-02   -3,396703303e-01    1,891499162e-01    7,699427754e-02    0,000000000e+00    0,000000000e+00    0,000000000e+00    0,000000000e+00
     1486000000   -1,470908523e-01   -4,711777568e-01    2,766230404e-01    8,897402883e-02    0,000000000e+00    0,000000000e+00    0,000000000e+00    0,000000000e+00
     1500000000   -4,429093301e-01   -4,788351357e-01    4,110595286e-01    5,558671802e-02    0,000000000e+00    0,000000000e+00    0,000000000e+00    0,000000000e+00
