! NanoVNA-App
! Date: 2025-09-25 15:58:26
! Start: 100MHz Stop: 1,5GHz Points: 101
! S-Parameter data: F S11 S21 S12 S22
# Hz S RI R 50
!     Frequency           S11_Real           S11_Imag           S21_Real           S21_Imag           S12_Real           S12_Imag           S22_Real           S22_Imag
      100000000   -2,822825499e-02   -2,824961673e-03    3,722451627e-01   -7,224782705e-01    0,000000000e+00    0,000000000e+00    0,000000000e+00    0,000000000e+00
      114000000   -1,565736718e-02    1,288637333e-02   -9,132609516e-02   -8,045552373e-01    0,000000000e+00    0,000000000e+00    0,000000000e+00    0,000000000e+00
      128000000    4,391367547e-03    1,191382762e-02   -5,159192085e-01   -6,187036633e-01    0,000000000e+00    0,000000000e+00    0,000000000e+00    0,000000000e+00
      142000000    1,547096856e-02   -1,777622267e-03   -7,675772905e-01   -2,341517359e-01    0,000000000e+00    0,000000000e+00    0,000000000e+00    0,000000000e+00
      156000000    1,585613377e-02   -1,277481019e-02   -7,635014653e-01    2,218804806e-01    0,000000000e+00    0,000000000e+00    0,000000000e+00    0,000000000e+00
      170000000    1,768724807e-02   -2,099039592e-02   -5,154787302e-01    6,061788201e-01    0,000000000e+00    0,000000000e+00    0,000000000e+00    0,000000000e+00
      184000000    2,196917124e-02   -3,557696566e-02   -9,810808301e-02    7,858682871e-01    0,000000000e+00    0,000000000e+00    0,000000000e+00    0,000000000e+00
      198000000    1,400827710e-02   -6,067347899e-02    3,458327949e-01    7,106989026e-01    0,000000000e+00    0,000000000e+00    0,000000000e+00    0,000000000e+00
      212000000   -1,767750643e-02   -7,914238423e-02    6,807267666e-01    4,062667787e-01    0,000000000e+00    0,000000000e+00    0,000000000e+00    0,000000000e+00
      226000000   -6,037976220e-02   -6,664770842e-02    7,957293391e-01   -3,563932329e-02    0,000000000e+00    0,000000000e+00    0,000000000e+00    0,000000000e+00
      240000000   -8,051294833e-02   -2,279335260e-02    6,415725946e-01   -4,716656208e-01    0,000000000e+00    0,000000000e+00    0,000000000e+00    0,000000000e+00
      254000000   -6,078692526e-02    1,983547583e-02    2,709924877e-01   -7,420805693e-01    0,000000000e+00    0,000000000e+00    0,000000000e+00    0,000000000e+00
      268000000   -2,097519301e-02    3,089496680e-02   -1,811576188e-01   -7,606124282e-01    0,000000000e+00    0,000000000e+00    0,000000000e+00    0,000000000e+00
      282000000    6,939338055e-03    1,377299055e-02   -5,632666349e-01   -5,322878361e-01    0,000000000e+00    0,000000000e+00    0,000000000e+00    0,000000000e+00
      296000000    1,248222589e-02   -6,303878035e-03   -7,605383396e-01   -1,343438327e-01    0,000000000e+00    0,000000000e+00    0,000000000e+00    0,000000000e+00
      310000000    1,362990215e-02   -1,465838403e-02   -7,075939775e-01    3,033437729e-01    0,000000000e+00    0,000000000e+00    0,000000000e+00    0,000000000e+00
      324000000    2,247797884e-02   -2,451170050e-02   -4,220192730e-01    6,394928694e-01    0,000000000e+00    0,000000000e+00    0,000000000e+00    0,000000000e+00
      338000000    2,818100527e-02   -5,088113621e-02   -4,326720256e-03    7,603946328e-01    0,000000000e+00    0,000000000e+00    0,000000000e+00    0,000000000e+00
      352000000    1,017627027e-02   -8,266981691e-02    4,119588435e-01    6,346513033e-01    0,000000000e+00    0,000000000e+00    0,000000000e+00    0,000000000e+00
      366000000   -3,164463490e-02   -9,376157075e-02    6,931431890e-01    3,038316965e-01    0,000000000e+00    0,000000000e+00    0,000000000e+00    0,000000000e+00
      380000000   -6,763481349e-02   -6,875392050e-02    7,455506325e-01   -1,341464520e-01    0,000000000e+00    0,000000000e+00    0,000000000e+00    0,000000000e+00
      394000000   -6,874411553e-02   -3,078475967e-02    5,392290950e-01   -5,273525119e-01    0,000000000e+00    0,000000000e+00    0,000000000e+00    0,000000000e+00
      408000000   -4,281251505e-02   -1,570630446e-02    1,499851793e-01   -7,350488901e-01    0,000000000e+00    0,000000000e+00    0,000000000e+00    0,000000000e+00
      422000000   -2,626322396e-02   -3,078427166e-02   -2,796920240e-01   -6,889303923e-01    0,000000000e+00    0,000000000e+00    0,000000000e+00    0,000000000e+00
      436000000   -3,923941404e-02   -4,899997264e-02   -6,106897593e-01   -4,193153977e-01    0,000000000e+00    0,000000000e+00    0,000000000e+00    0,000000000e+00
      450000000   -6,477694213e-02   -3,915812448e-02   -7,375513911e-01   -7,655404508e-03    0,000000000e+00    0,000000000e+00    0,000000000e+00    0,000000000e+00
      464000000   -6,778103113e-02   -6,015293766e-03   -6,075268984e-01    4,064489901e-01    0,000000000e+00    0,000000000e+00    0,000000000e+00    0,000000000e+00
      478000000   -3,829883784e-02    1,584757864e-02   -2,676500678e-01    6,704415083e-01    0,000000000e+00    0,000000000e+00    0,000000000e+00    0,000000000e+00
      492000000   -5,424362142e-03    6,287928671e-03    1,522185951e-01    6,944794655e-01    0,000000000e+00    0,000000000e+00    0,000000000e+00    0,000000000e+00
      506000000    6,846612319e-03   -2,000498399e-02    5,076209903e-01    4,884780645e-01    0,000000000e+00    0,000000000e+00    0,000000000e+00    0,000000000e+00
      520000000    1,000169781e-03   -3,900795057e-02    6,908592582e-01    1,217497364e-01    0,000000000e+00    0,000000000e+00    0,000000000e+00    0,000000000e+00
      534000000   -3,519458463e-03   -4,566541314e-02    6,325508356e-01   -2,822850049e-01    0,000000000e+00    0,000000000e+00    0,000000000e+00    0,000000000e+00
      548000000    1,083515468e-03   -5,961104482e-02    3,604597747e-01   -5,787543654e-01    0,000000000e+00    0,000000000e+00    0,000000000e+00    0,000000000e+00
      562000000   -8,278020658e-03   -8,815062046e-02   -2,637216263e-02   -6,728460789e-01    0,000000000e+00    0,000000000e+00    0,000000000e+00    0,000000000e+00
      576000000   -4,560757056e-02   -1,094446629e-01   -4,013040364e-01   -5,377869606e-01    0,000000000e+00    0,000000000e+00    0,000000000e+00    0,000000000e+00
      590000000   -9,487453848e-02   -9,358717501e-02   -6,385682821e-01   -2,174101770e-01    0,000000000e+00    0,000000000e+00    0,000000000e+00    0,000000000e+00
      604000000   -1,117134169e-01   -4,142998531e-02   -6,474917531e-01    1,979396045e-01    0,000000000e+00    0,000000000e+00    0,000000000e+00    0,000000000e+00
      618000000   -7,582040876e-02   -2,785983030e-03   -4,011295736e-01    5,353316069e-01    0,000000000e+00    0,000000000e+00    0,000000000e+00    0,000000000e+00
      632000000   -2,968994901e-02   -2,125075087e-02   -1,198099833e-02    6,565948129e-01    0,000000000e+00    0,000000000e+00    0,000000000e+00    0,000000000e+00
      646000000   -3,707196191e-02   -7,713133097e-02    3,659902215e-01    5,273997784e-01    0,000000000e+00    0,000000000e+00    0,000000000e+00    0,000000000e+00
      660000000   -1,121378988e-01   -9,941729158e-02    6,006265879e-01    1,936325431e-01    0,000000000e+00    0,000000000e+00    0,000000000e+00    0,000000000e+00
      674000000   -1,998776644e-01   -2,304033004e-02    5,647068024e-01   -2,401313782e-01    0,000000000e+00    0,000000000e+00    0,000000000e+00    0,000000000e+00
      688000000   -1,794762164e-01    1,446276009e-01    2,090423256e-01   -5,212498903e-01    0,000000000e+00    0,000000000e+00    0,000000000e+00    0,000000000e+00
      702000000    2,683553658e-02    2,465752363e-01   -2,004692554e-01   -4,001791477e-01    0,000000000e+00    0,000000000e+00    0,000000000e+00    0,000000000e+00
      716000000    2,637073100e-01    1,100831181e-01   -2,728305161e-01   -8,305939287e-02    0,000000000e+00    0,000000000e+00    0,000000000e+00    0,000000000e+00
      730000000    3,031532764e-01   -1,861182302e-01   -1,067794412e-01    3,172848001e-02    0,000000000e+00    0,000000000e+00    0,000000000e+00    0,000000000e+00
      744000000    9,448160231e-02   -4,276526272e-01   -4,290835187e-02   -6,569153816e-02    0,000000000e+00    0,000000000e+00    0,000000000e+00    0,000000000e+00
      758000000   -2,572318912e-01   -4,281865656e-01   -1,764087677e-01   -1,257745177e-01    0,000000000e+00    0,000000000e+00    0,000000000e+00    0,000000000e+00
      772000000   -4,854082465e-01   -1,203445345e-01   -3,368501663e-01    3,820530698e-02    0,000000000e+00    0,000000000e+00    0,000000000e+00    0,000000000e+00
      786000000   -3,414917886e-01    2,209352553e-01   -2,628144026e-01    3,171485960e-01    0,000000000e+00    0,000000000e+00    0,000000000e+00    0,000000000e+00
      800000000   -4,145873711e-02    2,769978344e-01    3,139746841e-03    4,361872673e-01    0,000000000e+00    0,000000000e+00    0,000000000e+00    0,000000000e+00
      814000000    1,446166784e-01    1,251154393e-01    2,640166581e-01    3,592169285e-01    0,000000000e+00    0,000000000e+00    0,000000000e+00    0,000000000e+00
      828000000    1,677259654e-01   -7,030533254e-02    4,329327941e-01    1,564734280e-01    0,000000000e+00    0,000000000e+00    0,000000000e+00    0,000000000e+00
      842000000    6,737319380e-02   -2,182100117e-01    4,666286111e-01   -1,197204217e-01    0,000000000e+00    0,000000000e+00    0,000000000e+00    0,000000000e+00
      856000000   -1,071384549e-01   -2,636957467e-01    3,189517260e-01   -3,950659633e-01    0,000000000e+00    0,000000000e+00    0,000000000e+00    0,000000000e+00
      870000000   -2,740528286e-01   -1,680262983e-01   -2,623622073e-03   -5,264062285e-01    0,000000000e+00    0,000000000e+00    0,000000000e+00    0,000000000e+00
      884000000   -3,207691312e-01    3,509119898e-02   -3,476459384e-01   -3,932844400e-01    0,000000000e+00    0,000000000e+00    0,000000000e+00    0,000000000e+00
      898000000   -1,917745173e-01    2,060710192e-01   -4,887178838e-01   -6,362488866e-02    0,000000000e+00    0,000000000e+00    0,000000000e+00    0,000000000e+00
      912000000    6,510817446e-03    2,188949734e-01   -3,974949121e-01    2,795323730e-01    0,000000000e+00    0,000000000e+00    0,000000000e+00    0,000000000e+00
      926000000    1,498666257e-01    1,135927364e-01   -1,672539562e-01    4,177059829e-01    0,000000000e+00    0,000000000e+00    0,000000000e+00    0,000000000e+00
      940000000    2,008905709e-01   -4,685315490e-02    6,564221531e-02    4,237480462e-01    0,000000000e+00    0,000000000e+00    0,000000000e+00    0,000000000e+00
      954000000    1,508806348e-01   -2,035302967e-01    2,626281679e-01    3,424967229e-01    0,000000000e+00    0,000000000e+00    0,000000000e+00    0,000000000e+00
      968000000    2,514059097e-02   -3,164485097e-01    4,111856222e-01    1,772891581e-01    0,000000000e+00    0,000000000e+00    0,000000000e+00    0,000000000e+00
      982000000   -1,628963500e-01   -3,289057314e-01    4,749669135e-01   -6,715907902e-02    0,000000000e+00    0,000000000e+00    0,000000000e+00    0,000000000e+00
      996000000   -3,276365399e-01   -2,107961029e-01    3,716300428e-01   -3,565242290e-01    0,000000000e+00    0,000000000e+00    0,000000000e+00    0,000000000e+00
     1010000000   -3,387458920e-01   -5,640308373e-03    3,996504098e-02   -5,239322186e-01    0,000000000e+00    0,000000000e+00    0,000000000e+00    0,000000000e+00
     1024000000   -2,084482163e-01    9,486874193e-02   -3,465777338e-01   -3,799447715e-01    0,000000000e+00    0,000000000e+00    0,000000000e+00    0,000000000e+00
     1038000000   -1,377224326e-01    8,887161501e-03   -4,810878932e-01    6,368106604e-02    0,000000000e+00    0,000000000e+00    0,000000000e+00    0,000000000e+00
     1052000000   -2,881915569e-01    5,122524500e-02   -9,452790022e-02    3,707537353e-01    0,000000000e+00    0,000000000e+00    0,000000000e+00    0,000000000e+00
     1066000000   -1,461818814e-01    2,912466526e-01    1,465701312e-01    1,311859637e-01    0,000000000e+00    0,000000000e+00    0,000000000e+00    0,000000000e+00
     1080000000    1,024030149e-01    2,530355752e-01    9,008382261e-02    1,980596408e-02    0,000000000e+00    0,000000000e+00    0,000000000e+00    0,000000000e+00
     1094000000    2,206511199e-01    9,238106012e-02    6,819935888e-02    1,058117766e-02    0,000000000e+00    0,000000000e+00    0,000000000e+00    0,000000000e+00
     1108000000    2,398364246e-01   -8,544979244e-02    8,184251189e-02    1,081738155e-03    0,000000000e+00    0,000000000e+00    0,000000000e+00    0,000000000e+00
     1122000000    1,864066869e-01   -2,501530051e-01    1,028923169e-01   -2,612407319e-02    0,000000000e+00    0,000000000e+00    0,000000000e+00    0,000000000e+00
     1136000000    4,903768003e-02   -3,762476444e-01    1,239409968e-01   -7,245906442e-02    0,000000000e+00    0,000000000e+00    0,000000000e+00    0,000000000e+00
     1150000000   -1,527719945e-01   -4,241423905e-01    1,367061287e-01   -1,518302113e-01    0,000000000e+00    0,000000000e+00    0,000000000e+00    0,000000000e+00
     1164000000   -3,710946739e-01   -3,243980408e-01    9,959519655e-02   -2,753626406e-01    0,000000000e+00    0,000000000e+00    0,000000000e+00    0,000000000e+00
     1178000000   -4,618790150e-01   -8,329579234e-02   -1,046223938e-01   -4,040898979e-01    0,000000000e+00    0,000000000e+00    0,000000000e+00    0,000000000e+00
     1192000000   -3,741591573e-01    4,230380431e-02   -4,641013145e-01   -1,951485872e-01    0,000000000e+00    0,000000000e+00    0,000000000e+00    0,000000000e+00
     1206000000   -4,137967527e-01    1,304308474e-01   -2,723387480e-01    2,351965308e-01    0,000000000e+00    0,000000000e+00    0,000000000e+00    0,000000000e+00
     1220000000   -2,740667164e-01    3,305983245e-01   -8,728363318e-04    1,696227640e-01    0,000000000e+00    0,000000000e+00    0,000000000e+00    0,000000000e+00
     1234000000   -4,676849768e-02    3,541334867e-01    2,170695364e-02    5,819430575e-02    0,000000000e+00    0,000000000e+00    0,000000000e+00    0,000000000e+00
     1248000000    1,187383682e-01    2,513624728e-01    1,116265892e-03    2,146091685e-02    0,000000000e+00    0,000000000e+00    0,000000000e+00    0,000000000e+00
     1262000000    2,097819000e-01    9,912770987e-02    1,719712629e-03    2,685488015e-02    0,000000000e+00    0,000000000e+00    0,000000000e+00    0,000000000e+00
     1276000000    2,335065156e-01   -5,548733100e-02    2,421692759e-02    3,766116127e-02    0,000000000e+00    0,000000000e+00    0,000000000e+00    0,000000000e+00
     1290000000    1,906414181e-01   -2,175691873e-01    5,542045087e-02    2,277527563e-02    0,000000000e+00    0,000000000e+00    0,000000000e+00    0,000000000e+00
     1304000000    8,382137865e-02   -3,516740203e-01    7,669576257e-02    1,016214956e-02    0,000000000e+00    0,000000000e+00    0,000000000e+00    0,000000000e+00
     1318000000   -1,057815850e-01   -4,479489028e-01    7,872290909e-02   -1,377638243e-02    0,000000000e+00    0,000000000e+00    0,000000000e+00    0,000000000e+00
     1332000000   -3,575990498e-01   -4,381838441e-01    8,418239653e-02   -1,547880098e-02    0,000000000e+00    0,000000000e+00    0,000000000e+00    0,000000000e+00
     1346000000   -5,962828398e-01   -2,499872744e-01    1,035595760e-01   -7,629511878e-03    0,000000000e+00    0,000000000e+00    0,000000000e+00    0,000000000e+00
     1360000000   -6,477891803e-01    7,041852921e-02    1,465823650e-01   -1,680939831e-02    0,000000000e+00    0,000000000e+00    0,000000000e+00    0,000000000e+00
     1374000000   -4,951168895e-01    3,287892342e-01    1,638487875e-01   -5,194854364e-02    0,000000000e+00    0,000000000e+00    0,000000000e+00    0,000000000e+00
     1388000000   -2,516778708e-01    4,200898111e-01    1,535226107e-01   -9,092699736e-02    0,000000000e+00    0,000000000e+00    0,000000000e+00    0,000000000e+00
     1402000000   -4,647181556e-02    3,919613063e-01    1,396903694e-01   -9,382217377e-02    0,000000000e+00    0,000000000e+00    0,000000000e+00    0,000000000e+00
     1416000000    9,489390999e-02    2,842769921e-01    1,213992462e-01   -8,627527207e-02    0,000000000e+00    0,000000000e+00    0,000000000e+00    0,000000000e+00
     1430000000    1,938058734e-01    1,512660980e-01    1,105959490e-01   -4,973563552e-02    0,000000000e+00    0,000000000e+00    0,000000000e+00    0,000000000e+00
     1444000000    2,179620713e-01   -1,278897468e-02    1,247253120e-01   -2,940283716e-02    0,000000000e+00    0,000000000e+00    0,000000000e+00    0,000000000e+00
     1458000000    1,825002283e-01   -1,794881374e-01    1,539558470e-01    2,349123731e-02    0,000000000e+00    0,000000000e+00    0,000000000e+00    0,000000000e+00
     1472000000    6,671886891e-02   -3,459116220e-01    1,983035654e-01    7,461147755e-02    0,000000000e+00    0,000000000e+00    0,000000000e+00    0,000000000e+00
     1486000000   -1,497811824e-01   -4,736953676e-01    2,937298119e-01    9,176469594e-02    0,000000000e+00    0,000000000e+00    0,000000000e+00    0,000000000e+00
     1500000000   -4,458916783e-01   -4,771074355e-01    3,967600763e-01    4,450985789e-02    0,000000000e+00    0,000000000e+00    0,000000000e+00    0,000000000e+00
