! NanoVNA-App
! Date: 2025-09-25 15:56:06
! Start: 100MHz Stop: 1,5GHz Points: 101
! S-Parameter data: F S11 S21 S12 S22
# Hz S RI R 50
!     Frequency           S11_Real           S11_Imag           S21_Real           S21_Imag           S12_Real           S12_Imag           S22_Real           S22_Imag
      100000000   -2,817498147e-02   -2,824002877e-03    3,722373843e-01   -7,224844098e-01    0,000000000e+00    0,000000000e+00    0,000000000e+00    0,000000000e+00
      114000000   -1,557405852e-02    1,286592335e-02   -9,120909125e-02   -8,047493696e-01    0,000000000e+00    0,000000000e+00    0,000000000e+00    0,000000000e+00
      128000000    4,413607065e-03    1,186233666e-02   -5,158947110e-01   -6,187919974e-01    0,000000000e+00    0,000000000e+00    0,000000000e+00    0,000000000e+00
      142000000    1,551014092e-02   -1,841433579e-03   -7,674749494e-01   -2,341936082e-01    0,000000000e+00    0,000000000e+00    0,000000000e+00    0,000000000e+00
      156000000    1,615724526e-02   -1,397175621e-02   -7,705565691e-01    2,249134779e-01    0,000000000e+00    0,000000000e+00    0,000000000e+00    0,000000000e+00
      170000000    1,760053262e-02   -2,098214440e-02   -5,154684186e-01    6,062576771e-01    0,000000000e+00    0,000000000e+00    0,000000000e+00    0,000000000e+00
      184000000    2,198677324e-02   -3,558286279e-02   -9,845514596e-02    7,865704894e-01    0,000000000e+00    0,000000000e+00    0,000000000e+00    0,000000000e+00
      198000000    1,406643912e-02   -6,070053950e-02    3,459889293e-01    7,109287977e-01    0,000000000e+00    0,000000000e+00    0,000000000e+00    0,000000000e+00
      212000000   -1,770283468e-02   -7,915755361e-02    6,806531549e-01    4,063575268e-01    0,000000000e+00    0,000000000e+00    0,000000000e+00    0,000000000e+00
      226000000   -6,032398716e-02   -6,660164893e-02    7,957765460e-01   -3,555644676e-02    0,000000000e+00    0,000000000e+00    0,000000000e+00    0,000000000e+00
      240000000   -8,053884655e-02   -2,280277386e-02    6,414350271e-01   -4,717615247e-01    0,000000000e+00    0,000000000e+00    0,000000000e+00    0,000000000e+00
      254000000   -6,081208214e-02    1,970545575e-02    2,711485922e-01   -7,422214746e-01    0,000000000e+00    0,000000000e+00    0,000000000e+00    0,000000000e+00
      268000000   -2,100624703e-02    3,081355989e-02   -1,813257039e-01   -7,608439922e-01    0,000000000e+00    0,000000000e+00    0,000000000e+00    0,000000000e+00
      282000000    6,855287589e-03    1,372208167e-02   -5,632125735e-01   -5,327661037e-01    0,000000000e+00    0,000000000e+00    0,000000000e+00    0,000000000e+00
      296000000    1,223528571e-02   -6,354753394e-03   -7,603226900e-01   -1,341712773e-01    0,000000000e+00    0,000000000e+00    0,000000000e+00    0,000000000e+00
      310000000    1,345445681e-02   -1,450897008e-02   -7,094327211e-01    3,038026392e-01    0,000000000e+00    0,000000000e+00    0,000000000e+00    0,000000000e+00
      324000000    2,248803340e-02   -2,454984561e-02   -4,215615392e-01    6,393719316e-01    0,000000000e+00    0,000000000e+00    0,000000000e+00    0,000000000e+00
      338000000    2,815192193e-02   -5,069834366e-02   -1,565282466e-03    7,616763711e-01    0,000000000e+00    0,000000000e+00    0,000000000e+00    0,000000000e+00
      352000000    1,005016360e-02   -8,275781572e-02    4,122172594e-01    6,356287003e-01    0,000000000e+00    0,000000000e+00    0,000000000e+00    0,000000000e+00
      366000000   -3,181900829e-02   -9,351610392e-02    6,929978728e-01    3,043756485e-01    0,000000000e+00    0,000000000e+00    0,000000000e+00    0,000000000e+00
      380000000   -6,751524657e-02   -6,902594119e-02    7,460931540e-01   -1,342362016e-01    0,000000000e+00    0,000000000e+00    0,000000000e+00    0,000000000e+00
      394000000   -6,843146682e-02   -3,052445687e-02    5,401812792e-01   -5,278218985e-01    0,000000000e+00    0,000000000e+00    0,000000000e+00    0,000000000e+00
      408000000   -4,290518165e-02   -1,565837115e-02    1,494442672e-01   -7,337567210e-01    0,000000000e+00    0,000000000e+00    0,000000000e+00    0,000000000e+00
      422000000   -2,614966035e-02   -3,119179979e-02   -2,798790932e-01   -6,897516251e-01    0,000000000e+00    0,000000000e+00    0,000000000e+00    0,000000000e+00
      436000000   -3,927815706e-02   -4,886221141e-02   -6,097410321e-01   -4,194448292e-01    0,000000000e+00    0,000000000e+00    0,000000000e+00    0,000000000e+00
      450000000   -6,432066113e-02   -3,911676630e-02   -7,369942069e-01   -7,949045859e-03    0,000000000e+00    0,000000000e+00    0,000000000e+00    0,000000000e+00
      464000000   -6,749887764e-02   -5,913687404e-03   -6,078323722e-01    4,061643481e-01    0,000000000e+00    0,000000000e+00    0,000000000e+00    0,000000000e+00
      478000000   -3,843377158e-02    1,580220088e-02   -2,679341435e-01    6,700347662e-01    0,000000000e+00    0,000000000e+00    0,000000000e+00    0,000000000e+00
      492000000   -5,285670049e-03    6,480783224e-03    1,514765471e-01    6,953799725e-01    0,000000000e+00    0,000000000e+00    0,000000000e+00    0,000000000e+00
      506000000    6,673882715e-03   -2,008913085e-02    5,080920458e-01    4,881955981e-01    0,000000000e+00    0,000000000e+00    0,000000000e+00    0,000000000e+00
      520000000    4,024173832e-04   -3,856670484e-02    6,895110011e-01    1,218672469e-01    0,000000000e+00    0,000000000e+00    0,000000000e+00    0,000000000e+00
      534000000   -3,151942044e-03   -4,571348429e-02    6,326863766e-01   -2,820478976e-01    0,000000000e+00    0,000000000e+00    0,000000000e+00    0,000000000e+00
      548000000    8,221767494e-04   -5,969105288e-02    3,604720831e-01   -5,790256858e-01    0,000000000e+00    0,000000000e+00    0,000000000e+00    0,000000000e+00
      562000000   -8,158889599e-03   -8,830348402e-02   -2,678435668e-02   -6,720014215e-01    0,000000000e+00    0,000000000e+00    0,000000000e+00    0,000000000e+00
      576000000   -4,520721734e-02   -1,095199138e-01   -4,010730982e-01   -5,377254486e-01    0,000000000e+00    0,000000000e+00    0,000000000e+00    0,000000000e+00
      590000000   -9,451609105e-02   -9,350904077e-02   -6,394642591e-01   -2,195138484e-01    0,000000000e+00    0,000000000e+00    0,000000000e+00    0,000000000e+00
      604000000   -1,117811948e-01   -4,099092633e-02   -6,478047371e-01    1,984424144e-01    0,000000000e+00    0,000000000e+00    0,000000000e+00    0,000000000e+00
      618000000   -7,531868666e-02   -2,346692840e-03   -4,018154144e-01    5,358639359e-01    0,000000000e+00    0,000000000e+00    0,000000000e+00    0,000000000e+00
      632000000   -2,966052294e-02   -2,065350674e-02   -1,213381346e-02    6,552765369e-01    0,000000000e+00    0,000000000e+00    0,000000000e+00    0,000000000e+00
      646000000   -3,670056537e-02   -7,671978325e-02    3,654447496e-01    5,277529359e-01    0,000000000e+00    0,000000000e+00    0,000000000e+00    0,000000000e+00
      660000000   -1,120460927e-01   -1,003138945e-01    6,006612778e-01    1,932399571e-01    0,000000000e+00    0,000000000e+00    0,000000000e+00    0,000000000e+00
      674000000   -1,999426037e-01   -2,333064191e-02    5,645590425e-01   -2,391071916e-01    0,000000000e+00    0,000000000e+00    0,000000000e+00    0,000000000e+00
      688000000   -1,794889718e-01    1,447745860e-01    2,091118395e-01   -5,218526721e-01    0,000000000e+00    0,000000000e+00    0,000000000e+00    0,000000000e+00
      702000000    2,633245103e-02    2,450059056e-01   -1,978794932e-01   -4,021382332e-01    0,000000000e+00    0,000000000e+00    0,000000000e+00    0,000000000e+00
      716000000    2,638047934e-01    1,101004109e-01   -2,721570134e-01   -8,289925754e-02    0,000000000e+00    0,000000000e+00    0,000000000e+00    0,000000000e+00
      730000000    3,035296798e-01   -1,865219921e-01   -1,065469533e-01    3,175207600e-02    0,000000000e+00    0,000000000e+00    0,000000000e+00    0,000000000e+00
      744000000    9,352567047e-02   -4,264097810e-01   -4,236030951e-02   -6,601739675e-02    0,000000000e+00    0,000000000e+00    0,000000000e+00    0,000000000e+00
      758000000   -2,586025298e-01   -4,281853139e-01   -1,763601452e-01   -1,257063746e-01    0,000000000e+00    0,000000000e+00    0,000000000e+00    0,000000000e+00
      772000000   -4,842701256e-01   -1,202516034e-01   -3,368397355e-01    3,836742043e-02    0,000000000e+00    0,000000000e+00    0,000000000e+00    0,000000000e+00
      786000000   -3,406372368e-01    2,206043899e-01   -2,624379992e-01    3,170678914e-01    0,000000000e+00    0,000000000e+00    0,000000000e+00    0,000000000e+00
      800000000   -4,123541340e-02    2,766992450e-01    3,104176139e-03    4,356441498e-01    0,000000000e+00    0,000000000e+00    0,000000000e+00    0,000000000e+00
      814000000    1,438720971e-01    1,254985482e-01    2,637164593e-01    3,593779206e-01    0,000000000e+00    0,000000000e+00    0,000000000e+00    0,000000000e+00
      828000000    1,676890552e-01   -6,971374154e-02    4,327971935e-01    1,568466276e-01    0,000000000e+00    0,000000000e+00    0,000000000e+00    0,000000000e+00
      842000000    6,789545715e-02   -2,181591690e-01    4,672752321e-01   -1,198790520e-01    0,000000000e+00    0,000000000e+00    0,000000000e+00    0,000000000e+00
      856000000   -1,071545407e-01   -2,641748190e-01    3,201168478e-01   -3,946357369e-01    0,000000000e+00    0,000000000e+00    0,000000000e+00    0,000000000e+00
      870000000   -2,750865519e-01   -1,674828529e-01   -1,756347250e-03   -5,267041326e-01    0,000000000e+00    0,000000000e+00    0,000000000e+00    0,000000000e+00
      884000000   -3,213092089e-01    3,554726392e-02   -3,479604423e-01   -3,929394186e-01    0,000000000e+00    0,000000000e+00    0,000000000e+00    0,000000000e+00
      898000000   -1,920002997e-01    2,069851756e-01   -4,886443913e-01   -6,285626441e-02    0,000000000e+00    0,000000000e+00    0,000000000e+00    0,000000000e+00
      912000000    6,534080952e-03    2,181874067e-01   -3,974737823e-01    2,649382353e-01    0,000000000e+00    0,000000000e+00    0,000000000e+00    0,000000000e+00
      926000000    1,512758732e-01    1,127697974e-01   -1,670037955e-01    4,157550931e-01    0,000000000e+00    0,000000000e+00    0,000000000e+00    0,000000000e+00
      940000000    2,003976405e-01   -4,559243843e-02    6,398320198e-02    4,268991649e-01    0,000000000e+00    0,000000000e+00    0,000000000e+00    0,000000000e+00
      954000000    1,524779499e-01   -2,037733346e-01    2,608700395e-01    3,432621360e-01    0,000000000e+00    0,000000000e+00    0,000000000e+00    0,000000000e+00
      968000000    2,537957206e-02   -3,168492615e-01    4,108693302e-01    1,792970747e-01    0,000000000e+00    0,000000000e+00    0,000000000e+00    0,000000000e+00
      982000000   -1,636456251e-01   -3,293108046e-01    4,755535126e-01   -6,645280868e-02    0,000000000e+00    0,000000000e+00    0,000000000e+00    0,000000000e+00
      996000000   -3,266653419e-01   -2,106089741e-01    3,671596944e-01   -3,557116389e-01    0,000000000e+00    0,000000000e+00    0,000000000e+00    0,000000000e+00
     1010000000   -3,385531008e-01   -5,526991561e-03    4,337430000e-02   -5,229970217e-01    0,000000000e+00    0,000000000e+00    0,000000000e+00    0,000000000e+00
     1024000000   -2,045713812e-01    9,660629928e-02   -3,434337676e-01   -3,821088970e-01    0,000000000e+00    0,000000000e+00    0,000000000e+00    0,000000000e+00
     1038000000   -1,342094839e-01    1,410931535e-02   -4,828929007e-01    6,167579070e-02    0,000000000e+00    0,000000000e+00    0,000000000e+00    0,000000000e+00
     1052000000   -2,841282785e-01    4,945949838e-02   -9,733960778e-02    3,740399778e-01    0,000000000e+00    0,000000000e+00    0,000000000e+00    0,000000000e+00
     1066000000   -1,449617147e-01    2,944498062e-01    1,438707560e-01    1,353240907e-01    0,000000000e+00    0,000000000e+00    0,000000000e+00    0,000000000e+00
     1080000000    9,527164698e-02    2,482116818e-01    9,294485301e-02    2,115701512e-02    0,000000000e+00    0,000000000e+00    0,000000000e+00    0,000000000e+00
     1094000000    2,185660452e-01    8,671554923e-02    7,037177682e-02    8,535366505e-03    0,000000000e+00    0,000000000e+00    0,000000000e+00    0,000000000e+00
     1108000000    2,413322926e-01   -8,490847796e-02    8,113016933e-02   -8,925708244e-04    0,000000000e+00    0,000000000e+00    0,000000000e+00    0,000000000e+00
     1122000000    1,804191321e-01   -2,488651425e-01    1,058670729e-01   -2,722555585e-02    0,000000000e+00    0,000000000e+00    0,000000000e+00    0,000000000e+00
     1136000000    5,191146210e-02   -3,774092495e-01    1,255980730e-01   -7,452543825e-02    0,000000000e+00    0,000000000e+00    0,000000000e+00    0,000000000e+00
     1150000000   -1,541012526e-01   -4,206541777e-01    1,355791986e-01   -1,481667012e-01    0,000000000e+00    0,000000000e+00    0,000000000e+00    0,000000000e+00
     1164000000   -3,789581060e-01   -3,294801712e-01    9,700104594e-02   -2,802358866e-01    0,000000000e+00    0,000000000e+00    0,000000000e+00    0,000000000e+00
     1178000000   -4,672854245e-01   -8,538255095e-02   -1,065224111e-01   -4,059465230e-01    0,000000000e+00    0,000000000e+00    0,000000000e+00    0,000000000e+00
     1192000000   -3,717074394e-01    4,087938741e-02   -4,629713595e-01   -1,999867111e-01    0,000000000e+00    0,000000000e+00    0,000000000e+00    0,000000000e+00
     1206000000   -4,138180315e-01    1,316085309e-01   -2,762629688e-01    2,362141460e-01    0,000000000e+00    0,000000000e+00    0,000000000e+00    0,000000000e+00
     1220000000   -2,723675966e-01    3,284441829e-01   -2,982289065e-03    1,655486971e-01    0,000000000e+00    0,000000000e+00    0,000000000e+00    0,000000000e+00
     1234000000   -4,796790332e-02    3,452596366e-01    2,214145660e-02    5,617530644e-02    0,000000000e+00    0,000000000e+00    0,000000000e+00    0,000000000e+00
     1248000000    1,193975285e-01    2,492933571e-01    5,369293969e-03    2,385915443e-02    0,000000000e+00    0,000000000e+00    0,000000000e+00    0,000000000e+00
     1262000000    2,114721537e-01    1,059842780e-01    5,631269421e-03    3,166383132e-02    0,000000000e+00    0,000000000e+00    0,000000000e+00    0,000000000e+00
     1276000000    2,387718111e-01   -6,018247083e-02    3,243397176e-02    3,386908770e-02    0,000000000e+00    0,000000000e+00    0,000000000e+00    0,000000000e+00
     1290000000    1,962043643e-01   -2,120039165e-01    5,398647860e-02    2,706373110e-02    0,000000000e+00    0,000000000e+00    0,000000000e+00    0,000000000e+00
     1304000000    8,107706159e-02   -3,534257412e-01    7,542119175e-02    4,634410609e-03    0,000000000e+00    0,000000000e+00    0,000000000e+00    0,000000000e+00
     1318000000   -1,068402603e-01   -4,462318122e-01    8,273258805e-02   -1,841036975e-02    0,000000000e+00    0,000000000e+00    0,000000000e+00    0,000000000e+00
     1332000000   -3,549474478e-01   -4,380872846e-01    8,270309120e-02   -1,961445250e-02    0,000000000e+00    0,000000000e+00    0,000000000e+00    0,000000000e+00
     1346000000   -5,941448808e-01   -2,444701046e-01    1,072859690e-01   -8,132726070e-04    0,000000000e+00    0,000000000e+00    0,000000000e+00    0,000000000e+00
     1360000000   -6,523126960e-01    6,731916964e-02    1,497065276e-01   -1,701813564e-02    0,000000000e+00    0,000000000e+00    0,000000000e+00    0,000000000e+00
     1374000000   -4,915946126e-01    3,322813511e-01    1,629693061e-01   -4,661740363e-02    0,000000000e+00    0,000000000e+00    0,000000000e+00    0,000000000e+00
     1388000000   -2,501887977e-01    4,272342324e-01    1,601881236e-01   -8,173087984e-02    0,000000000e+00    0,000000000e+00    0,000000000e+00    0,000000000e+00
     1402000000   -3,949883208e-02    3,939526379e-01    1,480793059e-01   -8,926661313e-02    0,000000000e+00    0,000000000e+00    0,000000000e+00    0,000000000e+00
     1416000000    9,982427955e-02    2,914112508e-01    1,223009080e-01   -7,712486386e-02    0,000000000e+00    0,000000000e+00    0,000000000e+00    0,000000000e+00
     1430000000    1,859909147e-01    1,466591954e-01    9,681626409e-02   -5,939025432e-02    0,000000000e+00    0,000000000e+00    0,000000000e+00    0,000000000e+00
     1444000000    2,121224701e-01   -1,454894058e-02    1,120708287e-01   -3,490158543e-02    0,000000000e+00    0,000000000e+00    0,000000000e+00    0,000000000e+00
     1458000000    1,822660416e-01   -1,800621897e-01    1,415506750e-01    1,985106058e-02    0,000000000e+00    0,000000000e+00    0,000000000e+00    0,000000000e+00
     1472000000    7,208164781e-02   -3,539684117e-01    2,123974711e-01    6,976729631e-02    0,000000000e+00    0,000000000e+00    0,000000000e+00    0,000000000e+00
     1486000000   -1,365473270e-01   -4,732576013e-01    3,002194464e-01    8,084652573e-02    0,000000000e+00    0,000000000e+00    0,000000000e+00    0,000000000e+00
     1500000000   -4,337968230e-01   -4,826706052e-01    4,163606167e-01    3,480834886e-02    0,000000000e+00    0,000000000e+00    0,000000000e+00    0,000000000e+00
