! NanoVNA-App
! Date: 2025-09-25 15:58:09
! Start: 100MHz Stop: 1,5GHz Points: 101
! S-Parameter data: F S11 S21 S12 S22
# Hz S RI R 50
!     Frequency           S11_Real           S11_Imag           S21_Real           S21_Imag           S12_Real           S12_Imag           S22_Real           S22_Imag
      100000000   -2,822949551e-02   -2,848050091e-03    3,722771108e-01   -7,224391103e-01    0,000000000e+00    0,000000000e+00    0,000000000e+00    0,000000000e+00
      114000000   -1,565260440e-02    1,287843287e-02   -9,134729207e-02   -8,047684431e-01    0,000000000e+00    0,000000000e+00    0,000000000e+00    0,000000000e+00
      128000000    4,402971826e-03    1,194834430e-02   -5,161206126e-01   -6,188557744e-01    0,000000000e+00    0,000000000e+00    0,000000000e+00    0,000000000e+00
      142000000    1,547667198e-02   -1,789151342e-03   -7,671865821e-01   -2,340970635e-01    0,000000000e+00    0,000000000e+00    0,000000000e+00    0,000000000e+00
      156000000    1,690156013e-02   -1,388803869e-02   -7,702483535e-01    2,264862061e-01    0,000000000e+00    0,000000000e+00    0,000000000e+00    0,000000000e+00
      170000000    1,759161428e-02   -2,103442140e-02   -5,151705742e-01    6,059879661e-01    0,000000000e+00    0,000000000e+00    0,000000000e+00    0,000000000e+00
      184000000    2,202491835e-02   -3,554812074e-02   -9,821977466e-02    7,857281566e-01    0,000000000e+00    0,000000000e+00    0,000000000e+00    0,000000000e+00
      198000000    1,403138228e-02   -6,064767763e-02    3,460323811e-01    7,107874751e-01    0,000000000e+00    0,000000000e+00    0,000000000e+00    0,000000000e+00
      212000000   -1,768814586e-02   -7,918145508e-02    6,805068851e-01    4,065567255e-01    0,000000000e+00    0,000000000e+00    0,000000000e+00    0,000000000e+00
      226000000   -6,036596373e-02   -6,660547853e-02    7,957217097e-01   -3,564810008e-02    0,000000000e+00    0,000000000e+00    0,000000000e+00    0,000000000e+00
      240000000   -8,052401990e-02   -2,282410301e-02    6,414991617e-01   -4,716089666e-01    0,000000000e+00    0,000000000e+00    0,000000000e+00    0,000000000e+00
      254000000   -6,084000692e-02    1,978426427e-02    2,707695067e-01   -7,420154214e-01    0,000000000e+00    0,000000000e+00    0,000000000e+00    0,000000000e+00
      268000000   -2,099488117e-02    3,086608090e-02   -1,812218577e-01   -7,603785396e-01    0,000000000e+00    0,000000000e+00    0,000000000e+00    0,000000000e+00
      282000000    6,917542312e-03    1,372600626e-02   -5,633894205e-01   -5,324925184e-01    0,000000000e+00    0,000000000e+00    0,000000000e+00    0,000000000e+00
      296000000    1,239686273e-02   -6,174832117e-03   -7,603589296e-01   -1,343289763e-01    0,000000000e+00    0,000000000e+00    0,000000000e+00    0,000000000e+00
      310000000    1,355935261e-02   -1,451280247e-02   -7,085604072e-01    3,035414517e-01    0,000000000e+00    0,000000000e+00    0,000000000e+00    0,000000000e+00
      324000000    2,260421216e-02   -2,488114312e-02   -4,204365313e-01    6,388133764e-01    0,000000000e+00    0,000000000e+00    0,000000000e+00    0,000000000e+00
      338000000    2,838483639e-02   -5,066340044e-02   -6,637984188e-04    7,597187161e-01    0,000000000e+00    0,000000000e+00    0,000000000e+00    0,000000000e+00
      352000000    1,039148308e-02   -8,287706226e-02    4,119942486e-01    6,367137432e-01    0,000000000e+00    0,000000000e+00    0,000000000e+00    0,000000000e+00
      366000000   -3,173438832e-02   -9,414794296e-02    6,935900450e-01    3,039106727e-01    0,000000000e+00    0,000000000e+00    0,000000000e+00    0,000000000e+00
      380000000   -6,772122532e-02   -6,870733947e-02    7,454982400e-01   -1,340709031e-01    0,000000000e+00    0,000000000e+00    0,000000000e+00    0,000000000e+00
      394000000   -6,865994632e-02   -3,064998239e-02    5,399778485e-01   -5,284131169e-01    0,000000000e+00    0,000000000e+00    0,000000000e+00    0,000000000e+00
      408000000   -4,281043261e-02   -1,548255980e-02    1,486108899e-01   -7,346901298e-01    0,000000000e+00    0,000000000e+00    0,000000000e+00    0,000000000e+00
      422000000   -2,630673535e-02   -3,099860437e-02   -2,798036933e-01   -6,891104579e-01    0,000000000e+00    0,000000000e+00    0,000000000e+00    0,000000000e+00
      436000000   -3,925706074e-02   -4,923055694e-02   -6,100209355e-01   -4,202716351e-01    0,000000000e+00    0,000000000e+00    0,000000000e+00    0,000000000e+00
      450000000   -6,478686631e-02   -3,914298117e-02   -7,371315956e-01   -7,693415508e-03    0,000000000e+00    0,000000000e+00    0,000000000e+00    0,000000000e+00
      464000000   -6,730293483e-02   -6,259022746e-03   -6,072572470e-01    4,066405594e-01    0,000000000e+00    0,000000000e+00    0,000000000e+00    0,000000000e+00
      478000000   -3,848373145e-02    1,619459875e-02   -2,676213384e-01    6,698963046e-01    0,000000000e+00    0,000000000e+00    0,000000000e+00    0,000000000e+00
      492000000   -5,112558138e-03    6,142038386e-03    1,519202143e-01    6,947483420e-01    0,000000000e+00    0,000000000e+00    0,000000000e+00    0,000000000e+00
      506000000    6,909643300e-03   -2,014400810e-02    5,072927475e-01    4,886378646e-01    0,000000000e+00    0,000000000e+00    0,000000000e+00    0,000000000e+00
      520000000    1,169207506e-03   -3,884726390e-02    6,905035973e-01    1,223613173e-01    0,000000000e+00    0,000000000e+00    0,000000000e+00    0,000000000e+00
      534000000   -3,236245830e-03   -4,568725452e-02    6,327524185e-01   -2,822842598e-01    0,000000000e+00    0,000000000e+00    0,000000000e+00    0,000000000e+00
      548000000    9,600179619e-04   -5,933811143e-02    3,601006866e-01   -5,794082880e-01    0,000000000e+00    0,000000000e+00    0,000000000e+00    0,000000000e+00
      562000000   -8,248480968e-03   -8,819674700e-02   -2,747145481e-02   -6,722176075e-01    0,000000000e+00    0,000000000e+00    0,000000000e+00    0,000000000e+00
      576000000   -4,515004903e-02   -1,093271226e-01   -4,008595645e-01   -5,385959148e-01    0,000000000e+00    0,000000000e+00    0,000000000e+00    0,000000000e+00
      590000000   -9,469284862e-02   -9,334109724e-02   -6,392863989e-01   -2,178052366e-01    0,000000000e+00    0,000000000e+00    0,000000000e+00    0,000000000e+00
      604000000   -1,116205454e-01   -4,103323072e-02   -6,475592256e-01    1,984397024e-01    0,000000000e+00    0,000000000e+00    0,000000000e+00    0,000000000e+00
      618000000   -7,590319961e-02   -2,684030449e-03   -4,019025266e-01    5,353807211e-01    0,000000000e+00    0,000000000e+00    0,000000000e+00    0,000000000e+00
      632000000   -2,960329689e-02   -2,149258927e-02   -1,340815891e-02    6,550404429e-01    0,000000000e+00    0,000000000e+00    0,000000000e+00    0,000000000e+00
      646000000   -3,567813337e-02   -7,695512474e-02    3,670573235e-01    5,268796086e-01    0,000000000e+00    0,000000000e+00    0,000000000e+00    0,000000000e+00
      660000000   -1,119690388e-01   -9,987635165e-02    6,003813148e-01    1,932121217e-01    0,000000000e+00    0,000000000e+00    0,000000000e+00    0,000000000e+00
      674000000   -2,002086639e-01   -2,425347269e-02    5,650368929e-01   -2,397794574e-01    0,000000000e+00    0,000000000e+00    0,000000000e+00    0,000000000e+00
      688000000   -1,782265007e-01    1,446830779e-01    2,085804045e-01   -5,222680569e-01    0,000000000e+00    0,000000000e+00    0,000000000e+00    0,000000000e+00
      702000000    2,390285023e-02    2,450748980e-01   -1,919166446e-01   -4,031397998e-01    0,000000000e+00    0,000000000e+00    0,000000000e+00    0,000000000e+00
      716000000    2,630306482e-01    1,109386683e-01   -2,727034688e-01   -8,361689001e-02    0,000000000e+00    0,000000000e+00    0,000000000e+00    0,000000000e+00
      730000000    3,039234579e-01   -1,856661886e-01   -1,074216887e-01    3,232946992e-02    0,000000000e+00    0,000000000e+00    0,000000000e+00    0,000000000e+00
      744000000    9,331164509e-02   -4,268051684e-01   -4,223021120e-02   -6,485467404e-02    0,000000000e+00    0,000000000e+00    0,000000000e+00    0,000000000e+00
      758000000   -2,583676577e-01   -4,282712638e-01   -1,753780395e-01   -1,255993694e-01    0,000000000e+00    0,000000000e+00    0,000000000e+00    0,000000000e+00
      772000000   -4,843344688e-01   -1,201958656e-01   -3,367288411e-01    3,856229410e-02    0,000000000e+00    0,000000000e+00    0,000000000e+00    0,000000000e+00
      786000000   -3,423641324e-01    2,213196605e-01   -2,625647187e-01    3,171817660e-01    0,000000000e+00    0,000000000e+00    0,000000000e+00    0,000000000e+00
      800000000   -4,144095629e-02    2,761571109e-01    3,546917345e-03    4,372605085e-01    0,000000000e+00    0,000000000e+00    0,000000000e+00    0,000000000e+00
      814000000    1,442525834e-01    1,254767179e-01    2,638307214e-01    3,587851822e-01    0,000000000e+00    0,000000000e+00    0,000000000e+00    0,000000000e+00
      828000000    1,682676524e-01   -7,028589398e-02    4,329309165e-01    1,564457566e-01    0,000000000e+00    0,000000000e+00    0,000000000e+00    0,000000000e+00
      842000000    6,732117385e-02   -2,185929567e-01    4,662100375e-01   -1,200304627e-01    0,000000000e+00    0,000000000e+00    0,000000000e+00    0,000000000e+00
      856000000   -1,063913926e-01   -2,630040348e-01    3,201073706e-01   -3,944436014e-01    0,000000000e+00    0,000000000e+00    0,000000000e+00    0,000000000e+00
      870000000   -2,740120888e-01   -1,690672934e-01   -1,826008083e-03   -5,258678198e-01    0,000000000e+00    0,000000000e+00    0,000000000e+00    0,000000000e+00
      884000000   -3,210270107e-01    3,545983508e-02   -3,480096757e-01   -3,928726017e-01    0,000000000e+00    0,000000000e+00    0,000000000e+00    0,000000000e+00
      898000000   -1,920337379e-01    2,070416361e-01   -4,888117611e-01   -6,229451299e-02    0,000000000e+00    0,000000000e+00    0,000000000e+00    0,000000000e+00
      912000000    7,158000953e-03    2,196035981e-01   -3,936511576e-01    2,707988918e-01    0,000000000e+00    0,000000000e+00    0,000000000e+00    0,000000000e+00
      926000000    1,496074945e-01    1,123433486e-01   -1,694748849e-01    4,162344038e-01    0,000000000e+00    0,000000000e+00    0,000000000e+00    0,000000000e+00
      940000000    1,977080554e-01   -4,691675678e-02    6,447324902e-02    4,233560562e-01    0,000000000e+00    0,000000000e+00    0,000000000e+00    0,000000000e+00
      954000000    1,533905715e-01   -2,040864229e-01    2,618362606e-01    3,411964178e-01    0,000000000e+00    0,000000000e+00    0,000000000e+00    0,000000000e+00
      968000000    2,602367476e-02   -3,178115487e-01    4,084894359e-01    1,794703305e-01    0,000000000e+00    0,000000000e+00    0,000000000e+00    0,000000000e+00
      982000000   -1,641865075e-01   -3,320167363e-01    4,747115970e-01   -6,705635786e-02    0,000000000e+00    0,000000000e+00    0,000000000e+00    0,000000000e+00
      996000000   -3,254681230e-01   -2,116080225e-01    3,688533306e-01   -3,571451306e-01    0,000000000e+00    0,000000000e+00    0,000000000e+00    0,000000000e+00
     1010000000   -3,430987895e-01   -4,709162284e-03    4,316279665e-02   -5,249913931e-01    0,000000000e+00    0,000000000e+00    0,000000000e+00    0,000000000e+00
     1024000000   -2,094114572e-01    9,289551526e-02   -3,456579149e-01   -3,832035065e-01    0,000000000e+00    0,000000000e+00    0,000000000e+00    0,000000000e+00
     1038000000   -1,370199621e-01    8,382712491e-03   -4,836746156e-01    6,427640468e-02    0,000000000e+00    0,000000000e+00    0,000000000e+00    0,000000000e+00
     1052000000   -2,863450944e-01    5,108250305e-02   -9,750247747e-02    3,733414114e-01    0,000000000e+00    0,000000000e+00    0,000000000e+00    0,000000000e+00
     1066000000   -1,448011398e-01    2,937735617e-01    1,423529536e-01    1,352950335e-01    0,000000000e+00    0,000000000e+00    0,000000000e+00    0,000000000e+00
     1080000000    9,557096660e-02    2,475054264e-01    9,132362157e-02    2,186440304e-02    0,000000000e+00    0,000000000e+00    0,000000000e+00    0,000000000e+00
     1094000000    2,243692130e-01    9,026283771e-02    7,083282620e-02    9,814522229e-03    0,000000000e+00    0,000000000e+00    0,000000000e+00    0,000000000e+00
     1108000000    2,395306677e-01   -8,962982893e-02    8,255303651e-02    8,102119900e-04    0,000000000e+00    0,000000000e+00    0,000000000e+00    0,000000000e+00
     1122000000    1,879931092e-01   -2,511700690e-01    1,061295420e-01   -2,678350918e-02    0,000000000e+00    0,000000000e+00    0,000000000e+00    0,000000000e+00
     1136000000    5,301387981e-02   -3,767430782e-01    1,258036643e-01   -7,716436684e-02    0,000000000e+00    0,000000000e+00    0,000000000e+00    0,000000000e+00
     1150000000   -1,552969515e-01   -4,209623337e-01    1,383818239e-01   -1,493924111e-01    0,000000000e+00    0,000000000e+00    0,000000000e+00    0,000000000e+00
     1164000000   -3,771435916e-01   -3,299362957e-01    9,455842525e-02   -2,756085992e-01    0,000000000e+00    0,000000000e+00    0,000000000e+00    0,000000000e+00
     1178000000   -4,637489319e-01   -8,817955852e-02   -1,050286293e-01   -4,060442150e-01    0,000000000e+00    0,000000000e+00    0,000000000e+00    0,000000000e+00
     1192000000   -3,695527613e-01    3,596955538e-02   -4,620966315e-01   -1,958309263e-01    0,000000000e+00    0,000000000e+00    0,000000000e+00    0,000000000e+00
     1206000000   -4,132730067e-01    1,343474388e-01   -2,724384367e-01    2,392912060e-01    0,000000000e+00    0,000000000e+00    0,000000000e+00    0,000000000e+00
     1220000000   -2,753624320e-01    3,355130851e-01   -1,823074534e-03    1,664286703e-01    0,000000000e+00    0,000000000e+00    0,000000000e+00    0,000000000e+00
     1234000000   -4,770574719e-02    3,521194756e-01    2,621847577e-02    5,889822915e-02    0,000000000e+00    0,000000000e+00    0,000000000e+00    0,000000000e+00
     1248000000    1,201666594e-01    2,491125017e-01   -3,066810546e-03    2,659198828e-02    0,000000000e+00    0,000000000e+00    0,000000000e+00    0,000000000e+00
     1262000000    2,146290243e-01    1,039004177e-01    4,447096493e-03    3,078920767e-02    0,000000000e+00    0,000000000e+00    0,000000000e+00    0,000000000e+00
     1276000000    2,357616276e-01   -5,632688850e-02    2,902334183e-02    3,662027419e-02    0,000000000e+00    0,000000000e+00    0,000000000e+00    0,000000000e+00
     1290000000    1,916332543e-01   -2,129801661e-01    5,247188732e-02    2,874631248e-02    0,000000000e+00    0,000000000e+00    0,000000000e+00    0,000000000e+00
     1304000000    8,586127311e-02   -3,528768420e-01    7,874435186e-02    5,088417325e-03    0,000000000e+00    0,000000000e+00    0,000000000e+00    0,000000000e+00
     1318000000   -1,030845046e-01   -4,437512159e-01    8,353890479e-02   -7,360835560e-03    0,000000000e+00    0,000000000e+00    0,000000000e+00    0,000000000e+00
     1332000000   -3,550576568e-01   -4,349174798e-01    8,251269907e-02   -1,201915834e-02    0,000000000e+00    0,000000000e+00    0,000000000e+00    0,000000000e+00
     1346000000   -5,943617821e-01   -2,490158379e-01    9,590545297e-02   -5,528407637e-03    0,000000000e+00    0,000000000e+00    0,000000000e+00    0,000000000e+00
     1360000000   -6,489596963e-01    7,808255404e-02    1,412277818e-01   -9,141919203e-03    0,000000000e+00    0,000000000e+00    0,000000000e+00    0,000000000e+00
     1374000000   -4,865799844e-01    3,295414448e-01    1,729775667e-01   -4,848240316e-02    0,000000000e+00    0,000000000e+00    0,000000000e+00    0,000000000e+00
     1388000000   -2,528891563e-01    4,247953594e-01    1,574016064e-01   -8,559318632e-02    0,000000000e+00    0,000000000e+00    0,000000000e+00    0,000000000e+00
     1402000000   -4,200901836e-02    3,888433874e-01    1,454879493e-01   -9,562428296e-02    0,000000000e+00    0,000000000e+00    0,000000000e+00    0,000000000e+00
     1416000000    9,835575521e-02    2,832822502e-01    1,202346757e-01   -8,597324789e-02    0,000000000e+00    0,000000000e+00    0,000000000e+00    0,000000000e+00
     1430000000    1,919898689e-01    1,455107778e-01    1,100329384e-01   -6,306324154e-02    0,000000000e+00    0,000000000e+00    0,000000000e+00    0,000000000e+00
     1444000000    2,126635462e-01   -9,694527835e-03    1,145986468e-01   -2,283940651e-02    0,000000000e+00    0,000000000e+00    0,000000000e+00    0,000000000e+00
     1458000000    1,850739717e-01   -1,809522212e-01    1,490741372e-01    2,893570811e-02    0,000000000e+00    0,000000000e+00    0,000000000e+00    0,000000000e+00
     1472000000    7,482635975e-02   -3,501299620e-01    2,058709413e-01    6,032854691e-02    0,000000000e+00    0,000000000e+00    0,000000000e+00    0,000000000e+00
     1486000000   -1,315612197e-01   -4,699389935e-01    3,005434573e-01    9,424193949e-02    0,000000000e+00    0,000000000e+00    0,000000000e+00    0,000000000e+00
     1500000000   -4,461529255e-01   -4,771384001e-01    4,007371664e-01    5,655361712e-02    0,000000000e+00    0,000000000e+00    0,000000000e+00    0,000000000e+00
