! NanoVNA-App
! Date: 2025-09-25 15:56:27
! Start: 100MHz Stop: 1,5GHz Points: 101
! S-Parameter data: F S11 S21 S12 S22
# Hz S RI R 50
!     Frequency           S11_Real           S11_Imag           S21_Real           S21_Imag           S12_Real           S12_Imag           S22_Real           S22_Imag
      100000000   -2,818446420e-02   -2,814540174e-03    3,722137809e-01   -7,224941254e-01    0,000000000e+00    0,000000000e+00    0,000000000e+00    0,000000000e+00
      114000000   -1,559553389e-02    1,288256329e-02   -9,138329327e-02   -8,046526313e-01    0,000000000e+00    0,000000000e+00    0,000000000e+00    0,000000000e+00
      128000000    4,417751916e-03    1,189384330e-02   -5,160514116e-01   -6,188567877e-01    0,000000000e+00    0,000000000e+00    0,000000000e+00    0,000000000e+00
      142000000    1,550415903e-02   -1,856555697e-03   -7,673300505e-01   -2,341964841e-01    0,000000000e+00    0,000000000e+00    0,000000000e+00    0,000000000e+00
      156000000    1,690502465e-02   -1,398114488e-02   -7,702833414e-01    2,264565080e-01    0,000000000e+00    0,000000000e+00    0,000000000e+00    0,000000000e+00
      170000000    1,761729270e-02   -2,097270638e-02   -5,151795149e-01    6,059416533e-01    0,000000000e+00    0,000000000e+00    0,000000000e+00    0,000000000e+00
      184000000    2,202459425e-02   -3,557296842e-02   -9,811589122e-02    7,859756947e-01    0,000000000e+00    0,000000000e+00    0,000000000e+00    0,000000000e+00
      198000000    1,400671899e-02   -6,064639986e-02    3,460230231e-01    7,107450366e-01    0,000000000e+00    0,000000000e+00    0,000000000e+00    0,000000000e+00
      212000000   -1,767784730e-02   -7,914973050e-02    6,804611087e-01    4,063352644e-01    0,000000000e+00    0,000000000e+00    0,000000000e+00    0,000000000e+00
      226000000   -6,036577001e-02   -6,667830050e-02    7,956900597e-01   -3,554269299e-02    0,000000000e+00    0,000000000e+00    0,000000000e+00    0,000000000e+00
      240000000   -8,049792796e-02   -2,276125178e-02    6,414103508e-01   -4,715229571e-01    0,000000000e+00    0,000000000e+00    0,000000000e+00    0,000000000e+00
      254000000   -6,077395752e-02    1,979143731e-02    2,713261247e-01   -7,415021062e-01    0,000000000e+00    0,000000000e+00    0,000000000e+00    0,000000000e+00
      268000000   -2,095432207e-02    3,081414476e-02   -1,809704304e-01   -7,607651949e-01    0,000000000e+00    0,000000000e+00    0,000000000e+00    0,000000000e+00
      282000000    6,951578893e-03    1,377326529e-02   -5,632790327e-01   -5,326046944e-01    0,000000000e+00    0,000000000e+00    0,000000000e+00    0,000000000e+00
      296000000    1,241486520e-02   -6,315487903e-03   -7,603853941e-01   -1,342596412e-01    0,000000000e+00    0,000000000e+00    0,000000000e+00    0,000000000e+00
      310000000    1,345100068e-02   -1,451188326e-02   -7,084857225e-01    3,030172288e-01    0,000000000e+00    0,000000000e+00    0,000000000e+00    0,000000000e+00
      324000000    2,235558629e-02   -2,464222535e-02   -4,205279946e-01    6,387286782e-01    0,000000000e+00    0,000000000e+00    0,000000000e+00    0,000000000e+00
      338000000    2,851017192e-02   -5,048996210e-02   -2,917701378e-03    7,610480189e-01    0,000000000e+00    0,000000000e+00    0,000000000e+00    0,000000000e+00
      352000000    1,016235817e-02   -8,311181515e-02    4,115943611e-01    6,355047226e-01    0,000000000e+00    0,000000000e+00    0,000000000e+00    0,000000000e+00
      366000000   -3,187311068e-02   -9,390360862e-02    6,929882169e-01    3,035717309e-01    0,000000000e+00    0,000000000e+00    0,000000000e+00    0,000000000e+00
      380000000   -6,771257520e-02   -6,902257353e-02    7,453288436e-01   -1,345229894e-01    0,000000000e+00    0,000000000e+00    0,000000000e+00    0,000000000e+00
      394000000   -6,871067733e-02   -3,046525829e-02    5,383563638e-01   -5,278261304e-01    0,000000000e+00    0,000000000e+00    0,000000000e+00    0,000000000e+00
      408000000   -4,302409291e-02   -1,548716333e-02    1,493861824e-01   -7,344043851e-01    0,000000000e+00    0,000000000e+00    0,000000000e+00    0,000000000e+00
      422000000   -2,594745159e-02   -3,130046651e-02   -2,788218260e-01   -6,893773079e-01    0,000000000e+00    0,000000000e+00    0,000000000e+00    0,000000000e+00
      436000000   -3,937499598e-02   -4,919060320e-02   -6,105475426e-01   -4,196704626e-01    0,000000000e+00    0,000000000e+00    0,000000000e+00    0,000000000e+00
      450000000   -6,467673182e-02   -3,919955716e-02   -7,373197079e-01   -7,743521594e-03    0,000000000e+00    0,000000000e+00    0,000000000e+00    0,000000000e+00
      464000000   -6,786345690e-02   -5,965004675e-03   -6,078312993e-01    4,059652686e-01    0,000000000e+00    0,000000000e+00    0,000000000e+00    0,000000000e+00
      478000000   -3,833371028e-02    1,635131054e-02   -2,677336037e-01    6,701353192e-01    0,000000000e+00    0,000000000e+00    0,000000000e+00    0,000000000e+00
      492000000   -4,976383410e-03    6,643261295e-03    1,511956006e-01    6,945223808e-01    0,000000000e+00    0,000000000e+00    0,000000000e+00    0,000000000e+00
      506000000    6,840413436e-03   -2,047074027e-02    5,081107020e-01    4,882142842e-01    0,000000000e+00    0,000000000e+00    0,000000000e+00    0,000000000e+00
      520000000    7,040090277e-04   -3,909238055e-02    6,907626987e-01    1,219052747e-01    0,000000000e+00    0,000000000e+00    0,000000000e+00    0,000000000e+00
      534000000   -3,288600827e-03   -4,552698508e-02    6,320273280e-01   -2,816556096e-01    0,000000000e+00    0,000000000e+00    0,000000000e+00    0,000000000e+00
      548000000    1,145638409e-03   -5,949336290e-02    3,606184423e-01   -5,784773231e-01    0,000000000e+00    0,000000000e+00    0,000000000e+00    0,000000000e+00
      562000000   -7,798420731e-03   -8,795598894e-02   -2,649700269e-02   -6,721365452e-01    0,000000000e+00    0,000000000e+00    0,000000000e+00    0,000000000e+00
      576000000   -4,532410577e-02   -1,097403243e-01   -4,000535011e-01   -5,385984182e-01    0,000000000e+00    0,000000000e+00    0,000000000e+00    0,000000000e+00
      590000000   -9,488468617e-02   -9,348834306e-02   -6,395327449e-01   -2,167358100e-01    0,000000000e+00    0,000000000e+00    0,000000000e+00    0,000000000e+00
      604000000   -1,117464900e-01   -4,146373644e-02   -6,472743750e-01    1,979333013e-01    0,000000000e+00    0,000000000e+00    0,000000000e+00    0,000000000e+00
      618000000   -7,593964785e-02   -2,165947575e-03   -4,015999436e-01    5,360189080e-01    0,000000000e+00    0,000000000e+00    0,000000000e+00    0,000000000e+00
      632000000   -3,044646978e-02   -2,125378698e-02   -1,172259264e-02    6,559863687e-01    0,000000000e+00    0,000000000e+00    0,000000000e+00    0,000000000e+00
      646000000   -3,576833010e-02   -7,653957605e-02    3,653868437e-01    5,266703963e-01    0,000000000e+00    0,000000000e+00    0,000000000e+00    0,000000000e+00
      660000000   -1,116226017e-01   -9,932368249e-02    6,003927588e-01    1,928365380e-01    0,000000000e+00    0,000000000e+00    0,000000000e+00    0,000000000e+00
      674000000   -1,992379576e-01   -2,437440306e-02    5,653555989e-01   -2,399484068e-01    0,000000000e+00    0,000000000e+00    0,000000000e+00    0,000000000e+00
      688000000   -1,782451719e-01    1,444249749e-01    2,096668631e-01   -5,222889781e-01    0,000000000e+00    0,000000000e+00    0,000000000e+00    0,000000000e+00
      702000000    2,509316802e-02    2,462087572e-01   -1,983322650e-01   -4,095606208e-01    0,000000000e+00    0,000000000e+00    0,000000000e+00    0,000000000e+00
      716000000    2,632919848e-01    1,100890711e-01   -2,725491822e-01   -8,276513964e-02    0,000000000e+00    0,000000000e+00    0,000000000e+00    0,000000000e+00
      730000000    3,031754792e-01   -1,865636110e-01   -1,066298559e-01    3,185912967e-02    0,000000000e+00    0,000000000e+00    0,000000000e+00    0,000000000e+00
      744000000    9,380377084e-02   -4,269616306e-01   -4,238532856e-02   -6,526438892e-02    0,000000000e+00    0,000000000e+00    0,000000000e+00    0,000000000e+00
      758000000   -2,580904663e-01   -4,288707078e-01   -1,762224436e-01   -1,257390380e-01    0,000000000e+00    0,000000000e+00    0,000000000e+00    0,000000000e+00
      772000000   -4,836658835e-01   -1,193124652e-01   -3,365933895e-01    3,851701319e-02    0,000000000e+00    0,000000000e+00    0,000000000e+00    0,000000000e+00
      786000000   -3,418704271e-01    2,206453532e-01   -2,635188997e-01    3,169228137e-01    0,000000000e+00    0,000000000e+00    0,000000000e+00    0,000000000e+00
      800000000   -4,107392207e-02    2,755914330e-01    2,260663314e-03    4,371338785e-01    0,000000000e+00    0,000000000e+00    0,000000000e+00    0,000000000e+00
      814000000    1,440360844e-01    1,255967766e-01    2,640450895e-01    3,600761592e-01    0,000000000e+00    0,000000000e+00    0,000000000e+00    0,000000000e+00
      828000000    1,680060923e-01   -7,041980326e-02    4,327906370e-01    1,566704661e-01    0,000000000e+00    0,000000000e+00    0,000000000e+00    0,000000000e+00
      842000000    6,745872647e-02   -2,178757787e-01    4,665717781e-01   -1,205499247e-01    0,000000000e+00    0,000000000e+00    0,000000000e+00    0,000000000e+00
      856000000   -1,068034545e-01   -2,640840113e-01    3,211415112e-01   -3,943569958e-01    0,000000000e+00    0,000000000e+00    0,000000000e+00    0,000000000e+00
      870000000   -2,739285827e-01   -1,688483059e-01   -1,692558290e-03   -5,264778733e-01    0,000000000e+00    0,000000000e+00    0,000000000e+00    0,000000000e+00
      884000000   -3,210478723e-01    3,523022309e-02   -3,486051261e-01   -3,931041658e-01    0,000000000e+00    0,000000000e+00    0,000000000e+00    0,000000000e+00
      898000000   -1,920631230e-01    2,068217546e-01   -4,892573953e-01   -6,312908977e-02    0,000000000e+00    0,000000000e+00    0,000000000e+00    0,000000000e+00
      912000000    6,248137914e-03    2,192496657e-01   -4,118318558e-01    2,695794404e-01    0,000000000e+00    0,000000000e+00    0,000000000e+00    0,000000000e+00
      926000000    1,496493965e-01    1,140832528e-01   -1,694137454e-01    4,170322120e-01    0,000000000e+00    0,000000000e+00    0,000000000e+00    0,000000000e+00
      940000000    1,981532723e-01   -4,398555681e-02    6,313402951e-02    4,261355698e-01    0,000000000e+00    0,000000000e+00    0,000000000e+00    0,000000000e+00
      954000000    1,566817462e-01   -2,028101236e-01    2,618990242e-01    3,416734338e-01    0,000000000e+00    0,000000000e+00    0,000000000e+00    0,000000000e+00
      968000000    2,346222103e-02   -3,168051243e-01    4,108718932e-01    1,796431541e-01    0,000000000e+00    0,000000000e+00    0,000000000e+00    0,000000000e+00
      982000000   -1,590765864e-01   -3,330138922e-01    4,742730856e-01   -6,739272922e-02    0,000000000e+00    0,000000000e+00    0,000000000e+00    0,000000000e+00
      996000000   -3,239453733e-01   -2,109927088e-01    3,686599433e-01   -3,555862606e-01    0,000000000e+00    0,000000000e+00    0,000000000e+00    0,000000000e+00
     1010000000   -3,379664123e-01   -5,482630804e-03    4,261816666e-02   -5,252829194e-01    0,000000000e+00    0,000000000e+00    0,000000000e+00    0,000000000e+00
     1024000000   -2,054298371e-01    9,486626089e-02   -3,451826274e-01   -3,802419007e-01    0,000000000e+00    0,000000000e+00    0,000000000e+00    0,000000000e+00
     1038000000   -1,348404586e-01    7,629091386e-03   -4,836321771e-01    6,091736630e-02    0,000000000e+00    0,000000000e+00    0,000000000e+00    0,000000000e+00
     1052000000   -2,881546021e-01    5,369397253e-02   -9,609465301e-02    3,727848530e-01    0,000000000e+00    0,000000000e+00    0,000000000e+00    0,000000000e+00
     1066000000   -1,533708572e-01    2,891047299e-01    1,468751431e-01    1,333191693e-01    0,000000000e+00    0,000000000e+00    0,000000000e+00    0,000000000e+00
     1080000000    9,851263463e-02    2,445680350e-01    9,074958414e-02    2,055921406e-02    0,000000000e+00    0,000000000e+00    0,000000000e+00    0,000000000e+00
     1094000000    2,234267890e-01    8,668923378e-02    6,939282268e-02    9,572440758e-03    0,000000000e+00    0,000000000e+00    0,000000000e+00    0,000000000e+00
     1108000000    2,391395718e-01   -8,629417419e-02    8,021531999e-02    4,321738961e-04    0,000000000e+00    0,000000000e+00    0,000000000e+00    0,000000000e+00
     1122000000    1,847424954e-01   -2,476623952e-01    1,034836695e-01   -2,920098789e-02    0,000000000e+00    0,000000000e+00    0,000000000e+00    0,000000000e+00
     1136000000    5,149205402e-02   -3,778242469e-01    1,259923279e-01   -7,539597154e-02    0,000000000e+00    0,000000000e+00    0,000000000e+00    0,000000000e+00
     1150000000   -1,510983407e-01   -4,205428064e-01    1,360210031e-01   -1,489018500e-01    0,000000000e+00    0,000000000e+00    0,000000000e+00    0,000000000e+00
     1164000000   -3,766060770e-01   -3,209103346e-01    9,728333354e-02   -2,767104805e-01    0,000000000e+00    0,000000000e+00    0,000000000e+00    0,000000000e+00
     1178000000   -4,668367505e-01   -8,588288724e-02   -1,052975208e-01   -4,030657709e-01    0,000000000e+00    0,000000000e+00    0,000000000e+00    0,000000000e+00
     1192000000   -3,692516685e-01    3,849719465e-02   -4,599257112e-01   -1,976368278e-01    0,000000000e+00    0,000000000e+00    0,000000000e+00    0,000000000e+00
     1206000000   -4,162834287e-01    1,300439388e-01   -2,796701789e-01    2,347252667e-01    0,000000000e+00    0,000000000e+00    0,000000000e+00    0,000000000e+00
     1220000000   -2,753226757e-01    3,347647786e-01   -5,710355472e-03    1,658000201e-01    0,000000000e+00    0,000000000e+00    0,000000000e+00    0,000000000e+00
     1234000000   -4,863345996e-02    3,512353003e-01    1,992123947e-02    5,614906549e-02    0,000000000e+00    0,000000000e+00    0,000000000e+00    0,000000000e+00
     1248000000    1,159438342e-01    2,506333590e-01    2,213938395e-03    2,548833936e-02    0,000000000e+00    0,000000000e+00    0,000000000e+00    0,000000000e+00
     1262000000    2,140265703e-01    1,024604514e-01    5,020443350e-03    3,229231387e-02    0,000000000e+00    0,000000000e+00    0,000000000e+00    0,000000000e+00
     1276000000    2,309792340e-01   -5,582806095e-02    2,440929227e-02    3,960240260e-02    0,000000000e+00    0,000000000e+00    0,000000000e+00    0,000000000e+00
     1290000000    1,906688362e-01   -2,171836197e-01    5,670451000e-02    2,638028003e-02    0,000000000e+00    0,000000000e+00    0,000000000e+00    0,000000000e+00
     1304000000    8,673632890e-02   -3,534573913e-01    7,812807709e-02    9,589080699e-03    0,000000000e+00    0,000000000e+00    0,000000000e+00    0,000000000e+00
     1318000000   -1,006338522e-01   -4,416546226e-01    8,307047933e-02   -1,113584172e-02    0,000000000e+00    0,000000000e+00    0,000000000e+00    0,000000000e+00
     1332000000   -3,565033078e-01   -4,327087104e-01    8,890458941e-02   -1,120712329e-02    0,000000000e+00    0,000000000e+00    0,000000000e+00    0,000000000e+00
     1346000000   -5,870773196e-01   -2,448975742e-01    1,066135466e-01   -3,071932821e-03    0,000000000e+00    0,000000000e+00    0,000000000e+00    0,000000000e+00
     1360000000   -6,459495425e-01    7,201578468e-02    1,393308491e-01   -1,311621908e-02    0,000000000e+00    0,000000000e+00    0,000000000e+00    0,000000000e+00
     1374000000   -4,919745922e-01    3,309751153e-01    1,630244255e-01   -5,433920771e-02    0,000000000e+00    0,000000000e+00    0,000000000e+00    0,000000000e+00
     1388000000   -2,525537610e-01    4,271034002e-01    1,673423350e-01   -8,344162256e-02    0,000000000e+00    0,000000000e+00    0,000000000e+00    0,000000000e+00
     1402000000   -4,422108829e-02    3,891362846e-01    1,412967443e-01   -8,619755507e-02    0,000000000e+00    0,000000000e+00    0,000000000e+00    0,000000000e+00
     1416000000    1,043506190e-01    2,832358479e-01    1,272765547e-01   -8,599751443e-02    0,000000000e+00    0,000000000e+00    0,000000000e+00    0,000000000e+00
     1430000000    1,859449297e-01    1,535353214e-01    1,004751846e-01   -4,560913891e-02    0,000000000e+00    0,000000000e+00    0,000000000e+00    0,000000000e+00
     1444000000    2,116859257e-01   -1,422014181e-02    1,188419834e-01   -2,871833742e-02    0,000000000e+00    0,000000000e+00    0,000000000e+00    0,000000000e+00
     1458000000    1,836726367e-01   -1,811736375e-01    1,530050933e-01    1,623457298e-02    0,000000000e+00    0,000000000e+00    0,000000000e+00    0,000000000e+00
     1472000000    6,870030612e-02   -3,480099738e-01    1,912056357e-01    5,772479996e-02    0,000000000e+00    0,000000000e+00    0,000000000e+00    0,000000000e+00
     1486000000   -1,388299316e-01   -4,835322797e-01    3,091857135e-01    8,509929478e-02    0,000000000e+00    0,000000000e+00    0,000000000e+00    0,000000000e+00
     1500000000   -4,447028935e-01   -4,683308303e-01    3,952464461e-01    4,437552020e-02    0,000000000e+00    0,000000000e+00    0,000000000e+00    0,000000000e+00
