! NanoVNA-App
! Date: 2025-09-25 15:59:14
! Start: 100MHz Stop: 1,5GHz Points: 101
! S-Parameter data: F S11 S21 S12 S22
# Hz S RI R 50
!     Frequency           S11_Real           S11_Imag           S21_Real           S21_Imag           S12_Real           S12_Imag           S22_Real           S22_Imag
      100000000   -2,825896069e-02   -2,863141475e-03    3,722122312e-01   -7,224323750e-01    0,000000000e+00    0,000000000e+00    0,000000000e+00    0,000000000e+00
      114000000   -1,568419859e-02    1,286574174e-02   -9,124715626e-02   -8,045897484e-01    0,000000000e+00    0,000000000e+00    0,000000000e+00    0,000000000e+00
      128000000    4,376338329e-03    1,190723199e-02   -5,159583688e-01   -6,188291907e-01    0,000000000e+00    0,000000000e+00    0,000000000e+00    0,000000000e+00
      142000000    1,549819577e-02   -1,774425851e-03   -7,672468424e-01   -2,341190279e-01    0,000000000e+00    0,000000000e+00    0,000000000e+00    0,000000000e+00
      156000000    1,624898612e-02   -1,382218767e-02   -7,705458403e-01    2,249706388e-01    0,000000000e+00    0,000000000e+00    0,000000000e+00    0,000000000e+00
      170000000    1,769758761e-02   -2,099245414e-02   -5,153657794e-01    6,063534021e-01    0,000000000e+00    0,000000000e+00    0,000000000e+00    0,000000000e+00
      184000000    2,201886475e-02   -3,557387367e-02   -9,822778404e-02    7,861860991e-01    0,000000000e+00    0,000000000e+00    0,000000000e+00    0,000000000e+00
      198000000    1,403786242e-02   -6,065068021e-02    3,457868993e-01    7,107968926e-01    0,000000000e+00    0,000000000e+00    0,000000000e+00    0,000000000e+00
      212000000   -1,768163033e-02   -7,913389802e-02    6,805747747e-01    4,061475992e-01    0,000000000e+00    0,000000000e+00    0,000000000e+00    0,000000000e+00
      226000000   -6,029127911e-02   -6,662732363e-02    7,957151532e-01   -3,569022194e-02    0,000000000e+00    0,000000000e+00    0,000000000e+00    0,000000000e+00
      240000000   -8,058141917e-02   -2,268333174e-02    6,416449547e-01   -4,717974067e-01    0,000000000e+00    0,000000000e+00    0,000000000e+00    0,000000000e+00
      254000000   -6,077080965e-02    1,978475042e-02    2,711548507e-01   -7,419419289e-01    0,000000000e+00    0,000000000e+00    0,000000000e+00    0,000000000e+00
      268000000   -2,096032910e-02    3,085201047e-02   -1,812272072e-01   -7,606725693e-01    0,000000000e+00    0,000000000e+00    0,000000000e+00    0,000000000e+00
      282000000    6,910884753e-03    1,377462037e-02   -5,632414818e-01   -5,323948264e-01    0,000000000e+00    0,000000000e+00    0,000000000e+00    0,000000000e+00
      296000000    1,240960881e-02   -6,214428227e-03   -7,605071664e-01   -1,344139725e-01    0,000000000e+00    0,000000000e+00    0,000000000e+00    0,000000000e+00
      310000000    1,357631478e-02   -1,460321527e-02   -7,085996866e-01    3,036572039e-01    0,000000000e+00    0,000000000e+00    0,000000000e+00    0,000000000e+00
      324000000    2,256162278e-02   -2,459267341e-02   -4,216732979e-01    6,388649940e-01    0,000000000e+00    0,000000000e+00    0,000000000e+00    0,000000000e+00
      338000000    2,847040631e-02   -5,061108246e-02   -1,667474629e-03    7,614054084e-01    0,000000000e+00    0,000000000e+00    0,000000000e+00    0,000000000e+00
      352000000    1,008252334e-02   -8,291145414e-02    4,116909504e-01    6,348031163e-01    0,000000000e+00    0,000000000e+00    0,000000000e+00    0,000000000e+00
      366000000   -3,162165359e-02   -9,385614842e-02    6,934394836e-01    3,040146232e-01    0,000000000e+00    0,000000000e+00    0,000000000e+00    0,000000000e+00
      380000000   -6,763806939e-02   -6,879613549e-02    7,451813221e-01   -1,344278902e-01    0,000000000e+00    0,000000000e+00    0,000000000e+00    0,000000000e+00
      394000000   -6,834422797e-02   -3,041204065e-02    5,393940806e-01   -5,292486548e-01    0,000000000e+00    0,000000000e+00    0,000000000e+00    0,000000000e+00
      408000000   -4,301923141e-02   -1,567913964e-02    1,507344246e-01   -7,351852059e-01    0,000000000e+00    0,000000000e+00    0,000000000e+00    0,000000000e+00
      422000000   -2,620235458e-02   -3,133347631e-02   -2,802620530e-01   -6,903363466e-01    0,000000000e+00    0,000000000e+00    0,000000000e+00    0,000000000e+00
      436000000   -3,936171904e-02   -4,922512174e-02   -6,104760766e-01   -4,192458987e-01    0,000000000e+00    0,000000000e+00    0,000000000e+00    0,000000000e+00
      450000000   -6,496029347e-02   -3,886343911e-02   -7,373937368e-01   -7,149283309e-03    0,000000000e+00    0,000000000e+00    0,000000000e+00    0,000000000e+00
      464000000   -6,751047075e-02   -6,302391645e-03   -6,079670191e-01    4,062088728e-01    0,000000000e+00    0,000000000e+00    0,000000000e+00    0,000000000e+00
      478000000   -3,869218752e-02    1,594583504e-02   -2,674753368e-01    6,702024341e-01    0,000000000e+00    0,000000000e+00    0,000000000e+00    0,000000000e+00
      492000000   -5,258525256e-03    6,218730938e-03    1,517876238e-01    6,952757835e-01    0,000000000e+00    0,000000000e+00    0,000000000e+00    0,000000000e+00
      506000000    6,846756209e-03   -2,038845606e-02    5,076914430e-01    4,880621135e-01    0,000000000e+00    0,000000000e+00    0,000000000e+00    0,000000000e+00
      520000000    5,922008422e-04   -3,892690688e-02    6,913696527e-01    1,215726361e-01    0,000000000e+00    0,000000000e+00    0,000000000e+00    0,000000000e+00
      534000000   -3,039724892e-03   -4,590738937e-02    6,327576637e-01   -2,825441957e-01    0,000000000e+00    0,000000000e+00    0,000000000e+00    0,000000000e+00
      548000000    7,372521213e-04   -5,956147611e-02    3,599546552e-01   -5,787824988e-01    0,000000000e+00    0,000000000e+00    0,000000000e+00    0,000000000e+00
      562000000   -7,824235596e-03   -8,849810809e-02   -2,629777975e-02   -6,729142666e-01    0,000000000e+00    0,000000000e+00    0,000000000e+00    0,000000000e+00
      576000000   -4,554444179e-02   -1,100116596e-01   -4,013238847e-01   -5,380094051e-01    0,000000000e+00    0,000000000e+00    0,000000000e+00    0,000000000e+00
      590000000   -9,482438862e-02   -9,349709004e-02   -6,415039301e-01   -2,196165472e-01    0,000000000e+00    0,000000000e+00    0,000000000e+00    0,000000000e+00
      604000000   -1,117045656e-01   -4,091649130e-02   -6,479014754e-01    1,988292038e-01    0,000000000e+00    0,000000000e+00    0,000000000e+00    0,000000000e+00
      618000000   -7,532001287e-02   -2,251000609e-03   -4,016113281e-01    5,367511511e-01    0,000000000e+00    0,000000000e+00    0,000000000e+00    0,000000000e+00
      632000000   -2,977458201e-02   -2,154188231e-02   -1,174337324e-02    6,553602219e-01    0,000000000e+00    0,000000000e+00    0,000000000e+00    0,000000000e+00
      646000000   -3,591984138e-02   -7,737249881e-02    3,661918640e-01    5,276173949e-01    0,000000000e+00    0,000000000e+00    0,000000000e+00    0,000000000e+00
      660000000   -1,107597649e-01   -1,000409871e-01    6,012403369e-01    1,930217147e-01    0,000000000e+00    0,000000000e+00    0,000000000e+00    0,000000000e+00
      674000000   -2,002418041e-01   -2,419004962e-02    5,651279688e-01   -2,397221476e-01    0,000000000e+00    0,000000000e+00    0,000000000e+00    0,000000000e+00
      688000000   -1,794588417e-01    1,440211833e-01    2,087520510e-01   -5,227458477e-01    0,000000000e+00    0,000000000e+00    0,000000000e+00    0,000000000e+00
      702000000    2,546787076e-02    2,461133897e-01   -2,021244615e-01   -4,049999416e-01    0,000000000e+00    0,000000000e+00    0,000000000e+00    0,000000000e+00
      716000000    2,638969123e-01    1,104981005e-01   -2,724442482e-01   -8,348041773e-02    0,000000000e+00    0,000000000e+00    0,000000000e+00    0,000000000e+00
      730000000    3,034059405e-01   -1,867419183e-01   -1,069586128e-01    3,253641352e-02    0,000000000e+00    0,000000000e+00    0,000000000e+00    0,000000000e+00
      744000000    9,303890169e-02   -4,266450107e-01   -4,214335233e-02   -6,522443891e-02    0,000000000e+00    0,000000000e+00    0,000000000e+00    0,000000000e+00
      758000000   -2,594268024e-01   -4,291718006e-01   -1,757629812e-01   -1,255314052e-01    0,000000000e+00    0,000000000e+00    0,000000000e+00    0,000000000e+00
      772000000   -4,862439930e-01   -1,196935102e-01   -3,365118206e-01    3,865581751e-02    0,000000000e+00    0,000000000e+00    0,000000000e+00    0,000000000e+00
      786000000   -3,408964276e-01    2,218530923e-01   -2,629987895e-01    3,163129091e-01    0,000000000e+00    0,000000000e+00    0,000000000e+00    0,000000000e+00
      800000000   -4,056683183e-02    2,761665881e-01    3,076739376e-03    4,368760884e-01    0,000000000e+00    0,000000000e+00    0,000000000e+00    0,000000000e+00
      814000000    1,441429853e-01    1,251616180e-01    2,645492554e-01    3,595877886e-01    0,000000000e+00    0,000000000e+00    0,000000000e+00    0,000000000e+00
      828000000    1,679653376e-01   -6,979671866e-02    4,330480695e-01    1,564320475e-01    0,000000000e+00    0,000000000e+00    0,000000000e+00    0,000000000e+00
      842000000    6,714496017e-02   -2,184748352e-01    4,662519395e-01   -1,199670359e-01    0,000000000e+00    0,000000000e+00    0,000000000e+00    0,000000000e+00
      856000000   -1,062950566e-01   -2,635310888e-01    3,193747401e-01   -3,942987919e-01    0,000000000e+00    0,000000000e+00    0,000000000e+00    0,000000000e+00
      870000000   -2,743466496e-01   -1,682604104e-01   -2,202399308e-03   -5,266804099e-01    0,000000000e+00    0,000000000e+00    0,000000000e+00    0,000000000e+00
      884000000   -3,201353550e-01    3,603812307e-02   -3,471082449e-01   -3,922581673e-01    0,000000000e+00    0,000000000e+00    0,000000000e+00    0,000000000e+00
      898000000   -1,927577555e-01    2,069981694e-01   -4,895155132e-01   -6,256664544e-02    0,000000000e+00    0,000000000e+00    0,000000000e+00    0,000000000e+00
      912000000    6,475471426e-03    2,186393589e-01   -3,967911601e-01    2,773270011e-01    0,000000000e+00    0,000000000e+00    0,000000000e+00    0,000000000e+00
      926000000    1,506196409e-01    1,113747209e-01   -1,668859720e-01    4,150454402e-01    0,000000000e+00    0,000000000e+00    0,000000000e+00    0,000000000e+00
      940000000    1,998549253e-01   -4,758591205e-02    6,270445138e-02    4,251044989e-01    0,000000000e+00    0,000000000e+00    0,000000000e+00    0,000000000e+00
      954000000    1,511108130e-01   -2,007302642e-01    2,595620155e-01    3,419835567e-01    0,000000000e+00    0,000000000e+00    0,000000000e+00    0,000000000e+00
      968000000    2,587189339e-02   -3,132946193e-01    4,107685387e-01    1,799982786e-01    0,000000000e+00    0,000000000e+00    0,000000000e+00    0,000000000e+00
      982000000   -1,602597684e-01   -3,292731345e-01    4,745306969e-01   -6,736461073e-02    0,000000000e+00    0,000000000e+00    0,000000000e+00    0,000000000e+00
      996000000   -3,238245249e-01   -2,113477737e-01    3,679580986e-01   -3,548876047e-01    0,000000000e+00    0,000000000e+00    0,000000000e+00    0,000000000e+00
     1010000000   -3,432526290e-01   -5,379705690e-03    4,088492692e-02   -5,241946578e-01    0,000000000e+00    0,000000000e+00    0,000000000e+00    0,000000000e+00
     1024000000   -2,080930769e-01    9,026969224e-02   -3,469514251e-01   -3,805290163e-01    0,000000000e+00    0,000000000e+00    0,000000000e+00    0,000000000e+00
     1038000000   -1,362671107e-01    6,833588239e-03   -4,843994379e-01    6,537515670e-02    0,000000000e+00    0,000000000e+00    0,000000000e+00    0,000000000e+00
     1052000000   -2,872671783e-01    5,106234923e-02   -9,534975141e-02    3,726042807e-01    0,000000000e+00    0,000000000e+00    0,000000000e+00    0,000000000e+00
     1066000000   -1,446101964e-01    2,953442931e-01    1,420362294e-01    1,310157031e-01    0,000000000e+00    0,000000000e+00    0,000000000e+00    0,000000000e+00
     1080000000    1,037599519e-01    2,513796985e-01    9,036409110e-02    2,223551460e-02    0,000000000e+00    0,000000000e+00    0,000000000e+00    0,000000000e+00
     1094000000    2,179964036e-01    8,592126518e-02    6,777115911e-02    1,187339239e-02    0,000000000e+00    0,000000000e+00    0,000000000e+00    0,000000000e+00
     1108000000    2,425285429e-01   -8,481598645e-02    8,106401563e-02    4,247658071e-04    0,000000000e+00    0,000000000e+00    0,000000000e+00    0,000000000e+00
     1122000000    1,871749610e-01   -2,512682974e-01    1,044517681e-01   -2,491771244e-02    0,000000000e+00    0,000000000e+00    0,000000000e+00    0,000000000e+00
     1136000000    4,662118107e-02   -3,785881102e-01    1,265464723e-01   -7,371336222e-02    0,000000000e+00    0,000000000e+00    0,000000000e+00    0,000000000e+00
     1150000000   -1,536979973e-01   -4,221517146e-01    1,376807243e-01   -1,499691308e-01    0,000000000e+00    0,000000000e+00    0,000000000e+00    0,000000000e+00
     1164000000   -3,818185925e-01   -3,241110444e-01    9,886344522e-02   -2,773655355e-01    0,000000000e+00    0,000000000e+00    0,000000000e+00    0,000000000e+00
     1178000000   -4,683323503e-01   -8,668801188e-02   -1,094289646e-01   -4,056374431e-01    0,000000000e+00    0,000000000e+00    0,000000000e+00    0,000000000e+00
     1192000000   -3,734514713e-01    3,608909249e-02   -4,656324089e-01   -1,964564472e-01    0,000000000e+00    0,000000000e+00    0,000000000e+00    0,000000000e+00
     1206000000   -4,169906974e-01    1,374220699e-01   -2,739645839e-01    2,417788208e-01    0,000000000e+00    0,000000000e+00    0,000000000e+00    0,000000000e+00
     1220000000   -2,682734430e-01    3,274946213e-01   -7,465797244e-04    1,630175412e-01    0,000000000e+00    0,000000000e+00    0,000000000e+00    0,000000000e+00
     1234000000   -5,168197304e-02    3,476272523e-01    2,052680217e-02    5,073143542e-02    0,000000000e+00    0,000000000e+00    0,000000000e+00    0,000000000e+00
     1248000000    1,257471591e-01    2,532036602e-01   -1,589761931e-03    2,549480088e-02    0,000000000e+00    0,000000000e+00    0,000000000e+00    0,000000000e+00
     1262000000    2,096071541e-01    1,040235534e-01   -6,615390885e-04    3,600407392e-02    0,000000000e+00    0,000000000e+00    0,000000000e+00    0,000000000e+00
     1276000000    2,309934199e-01   -5,931998044e-02    2,175829746e-02    3,452676907e-02    0,000000000e+00    0,000000000e+00    0,000000000e+00    0,000000000e+00
     1290000000    1,958018541e-01   -2,129096985e-01    5,842374265e-02    2,726049535e-02    0,000000000e+00    0,000000000e+00    0,000000000e+00    0,000000000e+00
     1304000000    8,425192535e-02   -3,537585735e-01    7,051989436e-02    6,083439570e-03    0,000000000e+00    0,000000000e+00    0,000000000e+00    0,000000000e+00
     1318000000   -1,004276946e-01   -4,497379959e-01    8,516027778e-02   -1,630024239e-02    0,000000000e+00    0,000000000e+00    0,000000000e+00    0,000000000e+00
     1332000000   -3,562628925e-01   -4,332602918e-01    8,772315830e-02   -1,625028811e-02    0,000000000e+00    0,000000000e+00    0,000000000e+00    0,000000000e+00
     1346000000   -5,892971158e-01   -2,491309047e-01    1,077911034e-01   -1,734185591e-02    0,000000000e+00    0,000000000e+00    0,000000000e+00    0,000000000e+00
     1360000000   -6,565247774e-01    7,544152439e-02    1,340694427e-01   -1,514149550e-02    0,000000000e+00    0,000000000e+00    0,000000000e+00    0,000000000e+00
     1374000000   -4,882605970e-01    3,361480236e-01    1,729595810e-01   -4,587119073e-02    0,000000000e+00    0,000000000e+00    0,000000000e+00    0,000000000e+00
     1388000000   -2,534870803e-01    4,312840402e-01    1,608049572e-01   -7,532037795e-02    0,000000000e+00    0,000000000e+00    0,000000000e+00    0,000000000e+00
     1402000000   -3,640186414e-02    3,883213103e-01    1,473373026e-01   -9,587474912e-02    0,000000000e+00    0,000000000e+00    0,000000000e+00    0,000000000e+00
     1416000000    1,064248607e-01    2,907887399e-01    1,218496934e-01   -8,227793127e-02    0,000000000e+00    0,000000000e+00    0,000000000e+00    0,000000000e+00
     1430000000    1,861557364e-01    1,459237337e-01    1,089151949e-01   -6,380706280e-02    0,000000000e+00    0,000000000e+00    0,000000000e+00    0,000000000e+00
     1444000000    2,161268443e-01   -1,182838995e-02    1,203732193e-01   -2,288724296e-02    0,000000000e+00    0,000000000e+00    0,000000000e+00    0,000000000e+00
     1458000000    1,781527102e-01   -1,837822646e-01    1,479747444e-01    2,361249924e-02    0,000000000e+00    0,000000000e+00    0,000000000e+00    0,000000000e+00
     1472000000    7,131555676e-02   -3,543164432e-01    2,047376186e-01    6,056794524e-02    0,000000000e+00    0,000000000e+00    0,000000000e+00    0,000000000e+00
     1486000000   -1,447861642e-01   -4,788985550e-01    2,939021587e-01    8,618871123e-02    0,000000000e+00    0,000000000e+00    0,000000000e+00    0,000000000e+00
     1500000000   -4,409195483e-01   -4,628539979e-01    4,037517905e-01    6,160716340e-02    0,000000000e+00    0,000000000e+00    0,000000000e+00    0,000000000e+00
