! NanoVNA-App
! Date: 2025-09-25 16:03:35
! Start: 100MHz Stop: 1,5GHz Points: 101
! S-Parameter data: F S11 S21 S12 S22
# Hz S RI R 50
!     Frequency           S11_Real           S11_Imag           S21_Real           S21_Imag           S12_Real           S12_Imag           S22_Real           S22_Imag
      100000000   -2,830191702e-02   -2,886297880e-03    3,722919524e-01   -7,224846482e-01    0,000000000e+00    0,000000000e+00    0,000000000e+00    0,000000000e+00
      114000000   -1,575391740e-02    1,290410012e-02   -9,133417904e-02   -8,047651052e-01    0,000000000e+00    0,000000000e+00    0,000000000e+00    0,000000000e+00
      128000000    4,348719958e-03    1,198525820e-02   -5,159299374e-01   -6,186041236e-01    0,000000000e+00    0,000000000e+00    0,000000000e+00    0,000000000e+00
      142000000    1,547707245e-02   -1,699251356e-03   -7,675698400e-01   -2,341931015e-01    0,000000000e+00    0,000000000e+00    0,000000000e+00    0,000000000e+00
      156000000    1,685346104e-02   -1,390164532e-02   -7,703862190e-01    2,265392244e-01    0,000000000e+00    0,000000000e+00    0,000000000e+00    0,000000000e+00
      170000000    1,771182753e-02   -2,097274736e-02   -5,153592229e-01    6,062491536e-01    0,000000000e+00    0,000000000e+00    0,000000000e+00    0,000000000e+00
      184000000    2,203393541e-02   -3,554398566e-02   -9,821109474e-02    7,860242724e-01    0,000000000e+00    0,000000000e+00    0,000000000e+00    0,000000000e+00
      198000000    1,402341854e-02   -6,062968820e-02    3,460661173e-01    7,107399702e-01    0,000000000e+00    0,000000000e+00    0,000000000e+00    0,000000000e+00
      212000000   -1,767787337e-02   -7,918979228e-02    6,809703112e-01    4,063590467e-01    0,000000000e+00    0,000000000e+00    0,000000000e+00    0,000000000e+00
      226000000   -6,031191349e-02   -6,664003432e-02    7,958668470e-01   -3,554970026e-02    0,000000000e+00    0,000000000e+00    0,000000000e+00    0,000000000e+00
      240000000   -8,045507222e-02   -2,276342735e-02    6,416693926e-01   -4,716161788e-01    0,000000000e+00    0,000000000e+00    0,000000000e+00    0,000000000e+00
      254000000   -6,078688800e-02    1,986717992e-02    2,708944380e-01   -7,421933413e-01    0,000000000e+00    0,000000000e+00    0,000000000e+00    0,000000000e+00
      268000000   -2,099525370e-02    3,089941666e-02   -1,811059564e-01   -7,604027390e-01    0,000000000e+00    0,000000000e+00    0,000000000e+00    0,000000000e+00
      282000000    6,935931742e-03    1,381619647e-02   -5,633195043e-01   -5,324950814e-01    0,000000000e+00    0,000000000e+00    0,000000000e+00    0,000000000e+00
      296000000    1,238999330e-02   -6,159303710e-03   -7,604808807e-01   -1,344193220e-01    0,000000000e+00    0,000000000e+00    0,000000000e+00    0,000000000e+00
      310000000    1,356452797e-02   -1,457058638e-02   -7,089140415e-01    3,037793636e-01    0,000000000e+00    0,000000000e+00    0,000000000e+00    0,000000000e+00
      324000000    2,252557874e-02   -2,451376431e-02   -4,218907058e-01    6,396405101e-01    0,000000000e+00    0,000000000e+00    0,000000000e+00    0,000000000e+00
      338000000    2,837186120e-02   -5,070284009e-02   -4,080225248e-03    7,623314857e-01    0,000000000e+00    0,000000000e+00    0,000000000e+00    0,000000000e+00
      352000000    1,008117851e-02   -8,282654732e-02    4,117240012e-01    6,351609230e-01    0,000000000e+00    0,000000000e+00    0,000000000e+00    0,000000000e+00
      366000000   -3,190816194e-02   -9,380578250e-02    6,929706931e-01    3,044874668e-01    0,000000000e+00    0,000000000e+00    0,000000000e+00    0,000000000e+00
      380000000   -6,782986224e-02   -6,887277961e-02    7,454023957e-01   -1,342447400e-01    0,000000000e+00    0,000000000e+00    0,000000000e+00    0,000000000e+00
      394000000   -6,860630214e-02   -3,059087135e-02    5,389220715e-01   -5,287539363e-01    0,000000000e+00    0,000000000e+00    0,000000000e+00    0,000000000e+00
      408000000   -4,305202886e-02   -1,551409811e-02    1,503322721e-01   -7,340051532e-01    0,000000000e+00    0,000000000e+00    0,000000000e+00    0,000000000e+00
      422000000   -2,602966130e-02   -3,104862198e-02   -2,785332203e-01   -6,904910207e-01    0,000000000e+00    0,000000000e+00    0,000000000e+00    0,000000000e+00
      436000000   -3,919422999e-02   -4,912336543e-02   -6,104606986e-01   -4,202491045e-01    0,000000000e+00    0,000000000e+00    0,000000000e+00    0,000000000e+00
      450000000   -6,466086209e-02   -3,927896917e-02   -7,369483113e-01   -7,636810187e-03    0,000000000e+00    0,000000000e+00    0,000000000e+00    0,000000000e+00
      464000000   -6,721180677e-02   -6,238214206e-03   -6,085211039e-01    4,063525796e-01    0,000000000e+00    0,000000000e+00    0,000000000e+00    0,000000000e+00
      478000000   -3,853818402e-02    1,613269188e-02   -2,681218982e-01    6,714326739e-01    0,000000000e+00    0,000000000e+00    0,000000000e+00    0,000000000e+00
      492000000   -4,955922719e-03    6,121044047e-03    1,512240320e-01    6,955858469e-01    0,000000000e+00    0,000000000e+00    0,000000000e+00    0,000000000e+00
      506000000    7,094428875e-03   -2,024617977e-02    5,080717206e-01    4,887137711e-01    0,000000000e+00    0,000000000e+00    0,000000000e+00    0,000000000e+00
      520000000    2,065674780e-04   -3,849936649e-02    6,894291043e-01    1,211740226e-01    0,000000000e+00    0,000000000e+00    0,000000000e+00    0,000000000e+00
      534000000   -3,358126385e-03   -4,555126652e-02    6,325762868e-01   -2,823688984e-01    0,000000000e+00    0,000000000e+00    0,000000000e+00    0,000000000e+00
      548000000    7,737340056e-04   -5,990863219e-02    3,596690893e-01   -5,797617435e-01    0,000000000e+00    0,000000000e+00    0,000000000e+00    0,000000000e+00
      562000000   -7,793255150e-03   -8,826439083e-02   -2,651222795e-02   -6,733707786e-01    0,000000000e+00    0,000000000e+00    0,000000000e+00    0,000000000e+00
      576000000   -4,532247409e-02   -1,100656092e-01   -4,018042684e-01   -5,393688083e-01    0,000000000e+00    0,000000000e+00    0,000000000e+00    0,000000000e+00
      590000000   -9,497843683e-02   -9,359353036e-02   -6,390984654e-01   -2,190344036e-01    0,000000000e+00    0,000000000e+00    0,000000000e+00    0,000000000e+00
      604000000   -1,121498495e-01   -4,094355926e-02   -6,478113532e-01    1,988967657e-01    0,000000000e+00    0,000000000e+00    0,000000000e+00    0,000000000e+00
      618000000   -7,612627000e-02   -2,563660964e-03   -4,019069374e-01    5,356004834e-01    0,000000000e+00    0,000000000e+00    0,000000000e+00    0,000000000e+00
      632000000   -2,961212769e-02   -2,067641914e-02   -1,166723389e-02    6,552988291e-01    0,000000000e+00    0,000000000e+00    0,000000000e+00    0,000000000e+00
      646000000   -3,630929440e-02   -7,733061165e-02    3,666755259e-01    5,270394087e-01    0,000000000e+00    0,000000000e+00    0,000000000e+00    0,000000000e+00
      660000000   -1,114864051e-01   -9,895494580e-02    6,014369130e-01    1,935865581e-01    0,000000000e+00    0,000000000e+00    0,000000000e+00    0,000000000e+00
      674000000   -1,991227865e-01   -2,432610653e-02    5,653836131e-01   -2,397473603e-01    0,000000000e+00    0,000000000e+00    0,000000000e+00    0,000000000e+00
      688000000   -1,792456955e-01    1,440503597e-01    2,092366517e-01   -5,223302841e-01    0,000000000e+00    0,000000000e+00    0,000000000e+00    0,000000000e+00
      702000000    2,695385739e-02    2,461550236e-01   -2,001071870e-01   -4,016169310e-01    0,000000000e+00    0,000000000e+00    0,000000000e+00    0,000000000e+00
      716000000    2,631354928e-01    1,107881516e-01   -2,741152048e-01   -8,409469575e-02    0,000000000e+00    0,000000000e+00    0,000000000e+00    0,000000000e+00
      730000000    3,034435809e-01   -1,853623986e-01   -1,077365950e-01    3,266794607e-02    0,000000000e+00    0,000000000e+00    0,000000000e+00    0,000000000e+00
      744000000    9,555444121e-02   -4,276160598e-01   -4,260277748e-02   -6,427180022e-02    0,000000000e+00    0,000000000e+00    0,000000000e+00    0,000000000e+00
      758000000   -2,581590116e-01   -4,301152527e-01   -1,745789945e-01   -1,252521724e-01    0,000000000e+00    0,000000000e+00    0,000000000e+00    0,000000000e+00
      772000000   -4,853985608e-01   -1,191584915e-01   -3,358410001e-01    3,758754954e-02    0,000000000e+00    0,000000000e+00    0,000000000e+00    0,000000000e+00
      786000000   -3,427475095e-01    2,228273898e-01   -2,633993924e-01    3,160600364e-01    0,000000000e+00    0,000000000e+00    0,000000000e+00    0,000000000e+00
      800000000   -4,009859264e-02    2,772653997e-01    2,411692403e-03    4,365617037e-01    0,000000000e+00    0,000000000e+00    0,000000000e+00    0,000000000e+00
      814000000    1,445120722e-01    1,260972172e-01    2,641381919e-01    3,592050374e-01    0,000000000e+00    0,000000000e+00    0,000000000e+00    0,000000000e+00
      828000000    1,682497114e-01   -7,043420523e-02    4,318984151e-01    1,566629857e-01    0,000000000e+00    0,000000000e+00    0,000000000e+00    0,000000000e+00
      842000000    6,704567373e-02   -2,190399915e-01    4,666243196e-01   -1,198553592e-01    0,000000000e+00    0,000000000e+00    0,000000000e+00    0,000000000e+00
      856000000   -1,067888364e-01   -2,631733716e-01    3,200818300e-01   -3,948988020e-01    0,000000000e+00    0,000000000e+00    0,000000000e+00    0,000000000e+00
      870000000   -2,743510604e-01   -1,689521521e-01   -2,475189045e-03   -5,281239152e-01    0,000000000e+00    0,000000000e+00    0,000000000e+00    0,000000000e+00
      884000000   -3,214888275e-01    3,540323675e-02   -3,484545052e-01   -3,927342594e-01    0,000000000e+00    0,000000000e+00    0,000000000e+00    0,000000000e+00
      898000000   -1,927456111e-01    2,067995369e-01   -4,893477559e-01   -6,280285120e-02    0,000000000e+00    0,000000000e+00    0,000000000e+00    0,000000000e+00
      912000000    6,974051706e-03    2,188337296e-01   -4,059680700e-01    2,804306746e-01    0,000000000e+00    0,000000000e+00    0,000000000e+00    0,000000000e+00
      926000000    1,489239037e-01    1,131422967e-01   -1,701753736e-01    4,156576395e-01    0,000000000e+00    0,000000000e+00    0,000000000e+00    0,000000000e+00
      940000000    1,981041878e-01   -4,718335718e-02    6,325025856e-02    4,239577651e-01    0,000000000e+00    0,000000000e+00    0,000000000e+00    0,000000000e+00
      954000000    1,524311900e-01   -2,049423456e-01    2,607255280e-01    3,392632902e-01    0,000000000e+00    0,000000000e+00    0,000000000e+00    0,000000000e+00
      968000000    2,630765550e-02   -3,156318963e-01    4,099852443e-01    1,796431541e-01    0,000000000e+00    0,000000000e+00    0,000000000e+00    0,000000000e+00
      982000000   -1,653322130e-01   -3,318573534e-01    4,751125872e-01   -6,837485731e-02    0,000000000e+00    0,000000000e+00    0,000000000e+00    0,000000000e+00
      996000000   -3,258768022e-01   -2,065268755e-01    3,680888712e-01   -3,542236388e-01    0,000000000e+00    0,000000000e+00    0,000000000e+00    0,000000000e+00
     1010000000   -3,392424881e-01   -8,991721086e-03    4,321478307e-02   -5,233221054e-01    0,000000000e+00    0,000000000e+00    0,000000000e+00    0,000000000e+00
     1024000000   -2,035348415e-01    9,310500324e-02   -3,452989757e-01   -3,804243505e-01    0,000000000e+00    0,000000000e+00    0,000000000e+00    0,000000000e+00
     1038000000   -1,335235089e-01    1,228622533e-02   -4,813746810e-01    6,429373473e-02    0,000000000e+00    0,000000000e+00    0,000000000e+00    0,000000000e+00
     1052000000   -2,868891954e-01    5,100303888e-02   -9,291565418e-02    3,735629618e-01    0,000000000e+00    0,000000000e+00    0,000000000e+00    0,000000000e+00
     1066000000   -1,495230943e-01    3,010107577e-01    1,433114111e-01    1,318169981e-01    0,000000000e+00    0,000000000e+00    0,000000000e+00    0,000000000e+00
     1080000000    9,774802625e-02    2,512620091e-01    8,888530731e-02    2,106934227e-02    0,000000000e+00    0,000000000e+00    0,000000000e+00    0,000000000e+00
     1094000000    2,240108997e-01    9,094853699e-02    6,915050000e-02    9,264699183e-03    0,000000000e+00    0,000000000e+00    0,000000000e+00    0,000000000e+00
     1108000000    2,421152741e-01   -8,967442065e-02    8,022613823e-02    5,383992102e-04    0,000000000e+00    0,000000000e+00    0,000000000e+00    0,000000000e+00
     1122000000    1,864083260e-01   -2,518185079e-01    1,029880419e-01   -2,393962257e-02    0,000000000e+00    0,000000000e+00    0,000000000e+00    0,000000000e+00
     1136000000    4,943950847e-02   -3,798341751e-01    1,270779967e-01   -7,369073480e-02    0,000000000e+00    0,000000000e+00    0,000000000e+00    0,000000000e+00
     1150000000   -1,572231352e-01   -4,226617217e-01    1,381299645e-01   -1,494734436e-01    0,000000000e+00    0,000000000e+00    0,000000000e+00    0,000000000e+00
     1164000000   -3,818983734e-01   -3,243787587e-01    9,732396901e-02   -2,778884172e-01    0,000000000e+00    0,000000000e+00    0,000000000e+00    0,000000000e+00
     1178000000   -4,598842263e-01   -8,632453531e-02   -1,032398492e-01   -4,066127837e-01    0,000000000e+00    0,000000000e+00    0,000000000e+00    0,000000000e+00
     1192000000   -3,740672767e-01    3,447656333e-02   -4,608373642e-01   -1,979456693e-01    0,000000000e+00    0,000000000e+00    0,000000000e+00    0,000000000e+00
     1206000000   -4,138066471e-01    1,374149919e-01   -2,749956548e-01    2,419527471e-01    0,000000000e+00    0,000000000e+00    0,000000000e+00    0,000000000e+00
     1220000000   -2,736703753e-01    3,269796968e-01   -3,569433757e-04    1,629616022e-01    0,000000000e+00    0,000000000e+00    0,000000000e+00    0,000000000e+00
     1234000000   -4,349131137e-02    3,469501734e-01    2,561702952e-02    5,280339718e-02    0,000000000e+00    0,000000000e+00    0,000000000e+00    0,000000000e+00
     1248000000    1,194724292e-01    2,481992394e-01    1,121855457e-03    1,924374700e-02    0,000000000e+00    0,000000000e+00    0,000000000e+00    0,000000000e+00
     1262000000    2,131684124e-01    1,063057929e-01    4,595542123e-06    3,824214637e-02    0,000000000e+00    0,000000000e+00    0,000000000e+00    0,000000000e+00
     1276000000    2,377257496e-01   -6,074472889e-02    3,030429408e-02    3,798471019e-02    0,000000000e+00    0,000000000e+00    0,000000000e+00    0,000000000e+00
     1290000000    1,965839267e-01   -2,146328539e-01    6,045713276e-02    2,399965189e-02    0,000000000e+00    0,000000000e+00    0,000000000e+00    0,000000000e+00
     1304000000    8,204774559e-02   -3,533758521e-01    7,619421929e-02    8,000788279e-03    0,000000000e+00    0,000000000e+00    0,000000000e+00    0,000000000e+00
     1318000000   -1,014040858e-01   -4,485796690e-01    8,560092747e-02   -1,186356787e-02    0,000000000e+00    0,000000000e+00    0,000000000e+00    0,000000000e+00
     1332000000   -3,575253189e-01   -4,391644299e-01    7,966416329e-02   -1,474321634e-02    0,000000000e+00    0,000000000e+00    0,000000000e+00    0,000000000e+00
     1346000000   -5,947684646e-01   -2,479246557e-01    1,095620170e-01   -1,020452846e-02    0,000000000e+00    0,000000000e+00    0,000000000e+00    0,000000000e+00
     1360000000   -6,574167609e-01    7,912498713e-02    1,346232295e-01   -1,051307842e-02    0,000000000e+00    0,000000000e+00    0,000000000e+00    0,000000000e+00
     1374000000   -4,863851070e-01    3,383540213e-01    1,669600755e-01   -4,729515314e-02    0,000000000e+00    0,000000000e+00    0,000000000e+00    0,000000000e+00
     1388000000   -2,551814616e-01    4,270585179e-01    1,589876711e-01   -7,845626026e-02    0,000000000e+00    0,000000000e+00    0,000000000e+00    0,000000000e+00
     1402000000   -4,413722828e-02    3,873485923e-01    1,368116736e-01   -9,927478433e-02    0,000000000e+00    0,000000000e+00    0,000000000e+00    0,000000000e+00
     1416000000    1,001384780e-01    2,821682990e-01    1,153204963e-01   -8,770962059e-02    0,000000000e+00    0,000000000e+00    0,000000000e+00    0,000000000e+00
     1430000000    1,871387810e-01    1,503876150e-01    1,123914197e-01   -4,403437674e-02    0,000000000e+00    0,000000000e+00    0,000000000e+00    0,000000000e+00
     1444000000    2,127585113e-01   -1,403573900e-02    1,129082292e-01   -2,234427258e-02    0,000000000e+00    0,000000000e+00    0,000000000e+00    0,000000000e+00
     1458000000    1,848386228e-01   -1,785580367e-01    1,449522823e-01    2,564165369e-02    0,000000000e+00    0,000000000e+00    0,000000000e+00    0,000000000e+00
     1472000000    7,242346555e-02   -3,470305800e-01    2,038489729e-01    5,910116062e-02    0,000000000e+00    0,000000000e+00    0,000000000e+00    0,000000000e+00
     1486000000   -1,358463168e-01   -4,672225118e-01    3,034966290e-01    1,005915925e-01    0,000000000e+00    0,000000000e+00    0,000000000e+00    0,000000000e+00
     1500000000   -4,387320280e-01   -4,723727703e-01    4,054041207e-01    6,472708285e-02    0,000000000e+00    0,000000000e+00    0,000000000e+00    0,000000000e+00
