! NanoVNA-App
! Date: 2025-09-25 16:01:35
! Start: 100MHz Stop: 1,5GHz Points: 101
! S-Parameter data: F S11 S21 S12 S22
# Hz S RI R 50
!     Frequency           S11_Real           S11_Imag           S21_Real           S21_Imag           S12_Real           S12_Imag           S22_Real           S22_Imag
      100000000   -2,827833965e-02   -2,882902278e-03    3,722743392e-01   -7,223962545e-01    0,000000000e+00    0,000000000e+00    0,000000000e+00    0,000000000e+00
      114000000   -1,573155634e-02    1,292039268e-02   -9,136547148e-02   -8,047316074e-01    0,000000000e+00    0,000000000e+00    0,000000000e+00    0,000000000e+00
      128000000    4,301548470e-03    1,198155433e-02   -5,159225464e-01   -6,189299822e-01    0,000000000e+00    0,000000000e+00    0,000000000e+00    0,000000000e+00
      142000000    1,546488795e-02   -1,733874204e-03   -7,674237490e-01   -2,341380268e-01    0,000000000e+00    0,000000000e+00    0,000000000e+00    0,000000000e+00
      156000000    1,514086034e-02   -1,348228008e-02   -7,681688070e-01    2,213303149e-01    0,000000000e+00    0,000000000e+00    0,000000000e+00    0,000000000e+00
      170000000    1,765551977e-02   -2,099603973e-02   -5,153021216e-01    6,061190367e-01    0,000000000e+00    0,000000000e+00    0,000000000e+00    0,000000000e+00
      184000000    2,205676772e-02   -3,556177765e-02   -9,813702852e-02    7,860106230e-01    0,000000000e+00    0,000000000e+00    0,000000000e+00    0,000000000e+00
      198000000    1,405254100e-02   -6,068501621e-02    3,459126353e-01    7,106288075e-01    0,000000000e+00    0,000000000e+00    0,000000000e+00    0,000000000e+00
      212000000   -1,769563928e-02   -7,913417369e-02    6,806929708e-01    4,062951803e-01    0,000000000e+00    0,000000000e+00    0,000000000e+00    0,000000000e+00
      226000000   -6,036514044e-02   -6,662464142e-02    7,957234979e-01   -3,554172441e-02    0,000000000e+00    0,000000000e+00    0,000000000e+00    0,000000000e+00
      240000000   -8,062000573e-02   -2,275581658e-02    6,418699622e-01   -4,720887244e-01    0,000000000e+00    0,000000000e+00    0,000000000e+00    0,000000000e+00
      254000000   -6,081906334e-02    1,984618790e-02    2,706146538e-01   -7,421249151e-01    0,000000000e+00    0,000000000e+00    0,000000000e+00    0,000000000e+00
      268000000   -2,098299190e-02    3,091457859e-02   -1,810401976e-01   -7,608227730e-01    0,000000000e+00    0,000000000e+00    0,000000000e+00    0,000000000e+00
      282000000    6,951988209e-03    1,379533391e-02   -5,630828142e-01   -5,325468183e-01    0,000000000e+00    0,000000000e+00    0,000000000e+00    0,000000000e+00
      296000000    1,247060392e-02   -6,327503361e-03   -7,607318759e-01   -1,344043612e-01    0,000000000e+00    0,000000000e+00    0,000000000e+00    0,000000000e+00
      310000000    1,356624346e-02   -1,463937387e-02   -7,088835835e-01    3,040664792e-01    0,000000000e+00    0,000000000e+00    0,000000000e+00    0,000000000e+00
      324000000    2,257626504e-02   -2,458101325e-02   -4,218436778e-01    6,401020885e-01    0,000000000e+00    0,000000000e+00    0,000000000e+00    0,000000000e+00
      338000000    2,852147818e-02   -5,036373064e-02   -3,826922970e-03    7,589393854e-01    0,000000000e+00    0,000000000e+00    0,000000000e+00    0,000000000e+00
      352000000    1,027146913e-02   -8,278167993e-02    4,112465978e-01    6,350935698e-01    0,000000000e+00    0,000000000e+00    0,000000000e+00    0,000000000e+00
      366000000   -3,191851825e-02   -9,398835897e-02    6,931657791e-01    3,038042784e-01    0,000000000e+00    0,000000000e+00    0,000000000e+00    0,000000000e+00
      380000000   -6,761652231e-02   -6,891237944e-02    7,460330725e-01   -1,348770857e-01    0,000000000e+00    0,000000000e+00    0,000000000e+00    0,000000000e+00
      394000000   -6,856108457e-02   -3,053094447e-02    5,404523611e-01   -5,285688043e-01    0,000000000e+00    0,000000000e+00    0,000000000e+00    0,000000000e+00
      408000000   -4,290722311e-02   -1,571741886e-02    1,495715529e-01   -7,345839143e-01    0,000000000e+00    0,000000000e+00    0,000000000e+00    0,000000000e+00
      422000000   -2,626340277e-02   -3,109709173e-02   -2,797011733e-01   -6,899406314e-01    0,000000000e+00    0,000000000e+00    0,000000000e+00    0,000000000e+00
      436000000   -3,925100341e-02   -4,881792516e-02   -6,102401018e-01   -4,194219112e-01    0,000000000e+00    0,000000000e+00    0,000000000e+00    0,000000000e+00
      450000000   -6,491176784e-02   -3,908449411e-02   -7,372994423e-01   -7,435119711e-03    0,000000000e+00    0,000000000e+00    0,000000000e+00    0,000000000e+00
      464000000   -6,759916246e-02   -5,908166524e-03   -6,080972552e-01    4,063988030e-01    0,000000000e+00    0,000000000e+00    0,000000000e+00    0,000000000e+00
      478000000   -3,884001821e-02    1,625037938e-02   -2,683321536e-01    6,706194878e-01    0,000000000e+00    0,000000000e+00    0,000000000e+00    0,000000000e+00
      492000000   -4,973911215e-03    6,407750770e-03    1,513076276e-01    6,963188052e-01    0,000000000e+00    0,000000000e+00    0,000000000e+00    0,000000000e+00
      506000000    7,135592867e-03   -2,020407841e-02    5,078592896e-01    4,885736406e-01    0,000000000e+00    0,000000000e+00    0,000000000e+00    0,000000000e+00
      520000000    5,520684063e-04   -3,860948980e-02    6,886202693e-01    1,218116060e-01    0,000000000e+00    0,000000000e+00    0,000000000e+00    0,000000000e+00
      534000000   -3,040698357e-03   -4,508275166e-02    6,328766346e-01   -2,815479040e-01    0,000000000e+00    0,000000000e+00    0,000000000e+00    0,000000000e+00
      548000000    8,753084694e-04   -5,934556574e-02    3,599440455e-01   -5,791736245e-01    0,000000000e+00    0,000000000e+00    0,000000000e+00    0,000000000e+00
      562000000   -8,119815961e-03   -8,861199766e-02   -2,682201378e-02   -6,728898287e-01    0,000000000e+00    0,000000000e+00    0,000000000e+00    0,000000000e+00
      576000000   -4,566256702e-02   -1,095342264e-01   -4,013987184e-01   -5,380850434e-01    0,000000000e+00    0,000000000e+00    0,000000000e+00    0,000000000e+00
      590000000   -9,467744082e-02   -9,342455119e-02   -6,417282820e-01   -2,167060226e-01    0,000000000e+00    0,000000000e+00    0,000000000e+00    0,000000000e+00
      604000000   -1,113526449e-01   -4,130590707e-02   -6,473526955e-01    1,984806806e-01    0,000000000e+00    0,000000000e+00    0,000000000e+00    0,000000000e+00
      618000000   -7,624844462e-02   -2,250123303e-03   -4,015439451e-01    5,360503793e-01    0,000000000e+00    0,000000000e+00    0,000000000e+00    0,000000000e+00
      632000000   -2,948028408e-02   -2,111018263e-02   -1,166776847e-02    6,551940441e-01    0,000000000e+00    0,000000000e+00    0,000000000e+00    0,000000000e+00
      646000000   -3,656548262e-02   -7,726533711e-02    3,661943972e-01    5,272268057e-01    0,000000000e+00    0,000000000e+00    0,000000000e+00    0,000000000e+00
      660000000   -1,118848994e-01   -9,930445999e-02    6,012443900e-01    1,937013716e-01    0,000000000e+00    0,000000000e+00    0,000000000e+00    0,000000000e+00
      674000000   -1,994989365e-01   -2,449979633e-02    5,655868649e-01   -2,407028079e-01    0,000000000e+00    0,000000000e+00    0,000000000e+00    0,000000000e+00
      688000000   -1,783004403e-01    1,440949291e-01    2,101862878e-01   -5,213798285e-01    0,000000000e+00    0,000000000e+00    0,000000000e+00    0,000000000e+00
      702000000    2,539244108e-02    2,456249148e-01   -1,994730234e-01   -4,029500186e-01    0,000000000e+00    0,000000000e+00    0,000000000e+00    0,000000000e+00
      716000000    2,634841204e-01    1,104540899e-01   -2,732840180e-01   -8,338246495e-02    0,000000000e+00    0,000000000e+00    0,000000000e+00    0,000000000e+00
      730000000    3,036523461e-01   -1,865016073e-01   -1,072612926e-01    3,239643574e-02    0,000000000e+00    0,000000000e+00    0,000000000e+00    0,000000000e+00
      744000000    9,400315583e-02   -4,280768633e-01   -4,211881757e-02   -6,465313584e-02    0,000000000e+00    0,000000000e+00    0,000000000e+00    0,000000000e+00
      758000000   -2,599568069e-01   -4,287625253e-01   -1,755823344e-01   -1,260872632e-01    0,000000000e+00    0,000000000e+00    0,000000000e+00    0,000000000e+00
      772000000   -4,850544035e-01   -1,183541045e-01   -3,365485370e-01    3,841930628e-02    0,000000000e+00    0,000000000e+00    0,000000000e+00    0,000000000e+00
      786000000   -3,423322439e-01    2,221753895e-01   -2,628564239e-01    3,169965744e-01    0,000000000e+00    0,000000000e+00    0,000000000e+00    0,000000000e+00
      800000000   -4,031103849e-02    2,768000066e-01    2,674821997e-03    4,365091324e-01    0,000000000e+00    0,000000000e+00    0,000000000e+00    0,000000000e+00
      814000000    1,446994245e-01    1,250505745e-01    2,643522620e-01    3,599896133e-01    0,000000000e+00    0,000000000e+00    0,000000000e+00    0,000000000e+00
      828000000    1,674406081e-01   -7,020477951e-02    4,330901206e-01    1,566352397e-01    0,000000000e+00    0,000000000e+00    0,000000000e+00    0,000000000e+00
      842000000    6,688755751e-02   -2,183957547e-01    4,662897289e-01   -1,198957413e-01    0,000000000e+00    0,000000000e+00    0,000000000e+00    0,000000000e+00
      856000000   -1,065569296e-01   -2,650052905e-01    3,195274174e-01   -3,948245943e-01    0,000000000e+00    0,000000000e+00    0,000000000e+00    0,000000000e+00
      870000000   -2,751201987e-01   -1,677961051e-01   -2,936409786e-03   -5,275017619e-01    0,000000000e+00    0,000000000e+00    0,000000000e+00    0,000000000e+00
      884000000   -3,210372031e-01    3,616645560e-02   -3,483370543e-01   -3,925158381e-01    0,000000000e+00    0,000000000e+00    0,000000000e+00    0,000000000e+00
      898000000   -1,918862909e-01    2,064988613e-01   -4,890415668e-01   -6,255162507e-02    0,000000000e+00    0,000000000e+00    0,000000000e+00    0,000000000e+00
      912000000    5,537969526e-03    2,193399221e-01   -3,952222168e-01    2,776260078e-01    0,000000000e+00    0,000000000e+00    0,000000000e+00    0,000000000e+00
      926000000    1,510646194e-01    1,143856570e-01   -1,687944978e-01    4,166564643e-01    0,000000000e+00    0,000000000e+00    0,000000000e+00    0,000000000e+00
      940000000    1,996095628e-01   -4,805243388e-02    6,321647763e-02    4,234746695e-01    0,000000000e+00    0,000000000e+00    0,000000000e+00    0,000000000e+00
      954000000    1,552450359e-01   -2,027526647e-01    2,605710030e-01    3,404354751e-01    0,000000000e+00    0,000000000e+00    0,000000000e+00    0,000000000e+00
      968000000    2,248179168e-02   -3,164816499e-01    4,109918475e-01    1,788568497e-01    0,000000000e+00    0,000000000e+00    0,000000000e+00    0,000000000e+00
      982000000   -1,621747762e-01   -3,290196359e-01    4,754886925e-01   -6,582734734e-02    0,000000000e+00    0,000000000e+00    0,000000000e+00    0,000000000e+00
      996000000   -3,233413398e-01   -2,110417783e-01    3,676407933e-01   -3,547298908e-01    0,000000000e+00    0,000000000e+00    0,000000000e+00    0,000000000e+00
     1010000000   -3,383798003e-01   -6,228520069e-03    4,091791436e-02   -5,218756199e-01    0,000000000e+00    0,000000000e+00    0,000000000e+00    0,000000000e+00
     1024000000   -2,074355781e-01    9,028465301e-02   -3,462185860e-01   -3,809972405e-01    0,000000000e+00    0,000000000e+00    0,000000000e+00    0,000000000e+00
     1038000000   -1,367105246e-01    1,058982220e-02   -4,826627672e-01    6,274771690e-02    0,000000000e+00    0,000000000e+00    0,000000000e+00    0,000000000e+00
     1052000000   -2,909022868e-01    5,514508486e-02   -9,424738586e-02    3,728473783e-01    0,000000000e+00    0,000000000e+00    0,000000000e+00    0,000000000e+00
     1066000000   -1,513554603e-01    2,949474454e-01    1,456455737e-01    1,364084631e-01    0,000000000e+00    0,000000000e+00    0,000000000e+00    0,000000000e+00
     1080000000    9,644435346e-02    2,489029765e-01    9,024988115e-02    2,076897398e-02    0,000000000e+00    0,000000000e+00    0,000000000e+00    0,000000000e+00
     1094000000    2,241645902e-01    9,090068191e-02    6,770888716e-02    8,598743938e-03    0,000000000e+00    0,000000000e+00    0,000000000e+00    0,000000000e+00
     1108000000    2,419594526e-01   -8,444233239e-02    8,023928106e-02   -5,852009417e-05    0,000000000e+00    0,000000000e+00    0,000000000e+00    0,000000000e+00
     1122000000    1,842984408e-01   -2,537330091e-01    1,046223044e-01   -2,514442988e-02    0,000000000e+00    0,000000000e+00    0,000000000e+00    0,000000000e+00
     1136000000    4,900691286e-02   -3,777200282e-01    1,248610467e-01   -7,239981741e-02    0,000000000e+00    0,000000000e+00    0,000000000e+00    0,000000000e+00
     1150000000   -1,502654999e-01   -4,227549434e-01    1,395272464e-01   -1,486542523e-01    0,000000000e+00    0,000000000e+00    0,000000000e+00    0,000000000e+00
     1164000000   -3,834125400e-01   -3,277810514e-01    1,015633345e-01   -2,789495289e-01    0,000000000e+00    0,000000000e+00    0,000000000e+00    0,000000000e+00
     1178000000   -4,678485096e-01   -8,974496275e-02   -1,062210202e-01   -4,066026807e-01    0,000000000e+00    0,000000000e+00    0,000000000e+00    0,000000000e+00
     1192000000   -3,754805624e-01    4,095710814e-02   -4,631811678e-01   -1,920006722e-01    0,000000000e+00    0,000000000e+00    0,000000000e+00    0,000000000e+00
     1206000000   -4,166804850e-01    1,388644427e-01   -2,752113938e-01    2,410618961e-01    0,000000000e+00    0,000000000e+00    0,000000000e+00    0,000000000e+00
     1220000000   -2,726206481e-01    3,320032656e-01   -2,490146435e-04    1,634057909e-01    0,000000000e+00    0,000000000e+00    0,000000000e+00    0,000000000e+00
     1234000000   -4,555159062e-02    3,457274437e-01    2,503251284e-02    5,119490623e-02    0,000000000e+00    0,000000000e+00    0,000000000e+00    0,000000000e+00
     1248000000    1,235284582e-01    2,460438311e-01    8,797454648e-03    2,273968980e-02    0,000000000e+00    0,000000000e+00    0,000000000e+00    0,000000000e+00
     1262000000    2,102032453e-01    1,017335355e-01    3,827757319e-04    3,079842962e-02    0,000000000e+00    0,000000000e+00    0,000000000e+00    0,000000000e+00
     1276000000    2,340268940e-01   -6,128975376e-02    2,262206003e-02    3,505037352e-02    0,000000000e+00    0,000000000e+00    0,000000000e+00    0,000000000e+00
     1290000000    1,932271123e-01   -2,108445913e-01    5,964171141e-02    2,433968335e-02    0,000000000e+00    0,000000000e+00    0,000000000e+00    0,000000000e+00
     1304000000    8,516927063e-02   -3,529286981e-01    7,651299983e-02    7,853990421e-03    0,000000000e+00    0,000000000e+00    0,000000000e+00    0,000000000e+00
     1318000000   -1,073168889e-01   -4,487422109e-01    8,261468261e-02   -1,283747889e-02    0,000000000e+00    0,000000000e+00    0,000000000e+00    0,000000000e+00
     1332000000   -3,567599058e-01   -4,316814244e-01    9,288562089e-02   -1,008487865e-02    0,000000000e+00    0,000000000e+00    0,000000000e+00    0,000000000e+00
     1346000000   -5,940579176e-01   -2,450526357e-01    9,939766675e-02    7,195090293e-04    0,000000000e+00    0,000000000e+00    0,000000000e+00    0,000000000e+00
     1360000000   -6,505699158e-01    6,565076858e-02    1,370125562e-01   -2,219728753e-02    0,000000000e+00    0,000000000e+00    0,000000000e+00    0,000000000e+00
     1374000000   -4,958354533e-01    3,383493125e-01    1,609020531e-01   -3,796951473e-02    0,000000000e+00    0,000000000e+00    0,000000000e+00    0,000000000e+00
     1388000000   -2,543821335e-01    4,255938232e-01    1,593497992e-01   -8,413456380e-02    0,000000000e+00    0,000000000e+00    0,000000000e+00    0,000000000e+00
     1402000000   -4,478229582e-02    3,918692172e-01    1,464389861e-01   -9,395802766e-02    0,000000000e+00    0,000000000e+00    0,000000000e+00    0,000000000e+00
     1416000000    1,019177958e-01    2,860093117e-01    1,300053746e-01   -7,275447994e-02    0,000000000e+00    0,000000000e+00    0,000000000e+00    0,000000000e+00
     1430000000    1,865780503e-01    1,377455443e-01    9,450640529e-02   -6,483644992e-02    0,000000000e+00    0,000000000e+00    0,000000000e+00    0,000000000e+00
     1444000000    2,153988481e-01   -9,557734244e-03    1,066775322e-01   -1,977434009e-02    0,000000000e+00    0,000000000e+00    0,000000000e+00    0,000000000e+00
     1458000000    1,863637567e-01   -1,833759099e-01    1,473497152e-01    1,609023288e-02    0,000000000e+00    0,000000000e+00    0,000000000e+00    0,000000000e+00
     1472000000    6,763719767e-02   -3,487828970e-01    1,951704621e-01    7,484095544e-02    0,000000000e+00    0,000000000e+00    0,000000000e+00    0,000000000e+00
     1486000000   -1,422590315e-01   -4,575226605e-01    2,869471014e-01    1,039104015e-01    0,000000000e+00    0,000000000e+00    0,000000000e+00    0,000000000e+00
     1500000000   -4,287435710e-01   -4,797903299e-01    4,067981243e-01    4,755251110e-02    0,000000000e+00    0,000000000e+00    0,000000000e+00    0,000000000e+00
