! NanoVNA-App
! Date: 2025-09-25 15:59:42
! Start: 100MHz Stop: 1,5GHz Points: 101
! S-Parameter data: F S11 S21 S12 S22
# Hz S RI R 50
!     Frequency           S11_Real           S11_Imag           S21_Real           S21_Imag           S12_Real           S12_Imag           S22_Real           S22_Imag
      100000000   -2,825633250e-02   -2,861697227e-03    3,722432554e-01   -7,224404812e-01    0,000000000e+00    0,000000000e+00    0,000000000e+00    0,000000000e+00
      114000000   -1,568217762e-02    1,288695261e-02   -9,137949347e-02   -8,045612574e-01    0,000000000e+00    0,000000000e+00    0,000000000e+00    0,000000000e+00
      128000000    4,359260667e-03    1,195837650e-02   -5,159016848e-01   -6,186088920e-01    0,000000000e+00    0,000000000e+00    0,000000000e+00    0,000000000e+00
      142000000    1,547023933e-02   -1,788188005e-03   -7,674170732e-01   -2,341022938e-01    0,000000000e+00    0,000000000e+00    0,000000000e+00    0,000000000e+00
      156000000    1,514552440e-02   -1,341475826e-02   -7,682163715e-01    2,214142680e-01    0,000000000e+00    0,000000000e+00    0,000000000e+00    0,000000000e+00
      170000000    1,770168543e-02   -2,098674700e-02   -5,155860782e-01    6,063241363e-01    0,000000000e+00    0,000000000e+00    0,000000000e+00    0,000000000e+00
      184000000    2,200685255e-02   -3,551929817e-02   -9,836610407e-02    7,863261700e-01    0,000000000e+00    0,000000000e+00    0,000000000e+00    0,000000000e+00
      198000000    1,403062139e-02   -6,069482863e-02    3,458591998e-01    7,106302977e-01    0,000000000e+00    0,000000000e+00    0,000000000e+00    0,000000000e+00
      212000000   -1,762572676e-02   -7,917825133e-02    6,806920767e-01    4,060854316e-01    0,000000000e+00    0,000000000e+00    0,000000000e+00    0,000000000e+00
      226000000   -6,024774909e-02   -6,660941988e-02    7,955695391e-01   -3,561928868e-02    0,000000000e+00    0,000000000e+00    0,000000000e+00    0,000000000e+00
      240000000   -8,055359125e-02   -2,278368548e-02    6,417909265e-01   -4,716275334e-01    0,000000000e+00    0,000000000e+00    0,000000000e+00    0,000000000e+00
      254000000   -6,078506634e-02    1,983116008e-02    2,711438835e-01   -7,418618798e-01    0,000000000e+00    0,000000000e+00    0,000000000e+00    0,000000000e+00
      268000000   -2,091054805e-02    3,089011461e-02   -1,809566170e-01   -7,609543204e-01    0,000000000e+00    0,000000000e+00    0,000000000e+00    0,000000000e+00
      282000000    6,931222044e-03    1,378925052e-02   -5,635342002e-01   -5,326110721e-01    0,000000000e+00    0,000000000e+00    0,000000000e+00    0,000000000e+00
      296000000    1,241346914e-02   -6,163413636e-03   -7,604308128e-01   -1,344649494e-01    0,000000000e+00    0,000000000e+00    0,000000000e+00    0,000000000e+00
      310000000    1,372028608e-02   -1,463623997e-02   -7,079833150e-01    3,035968244e-01    0,000000000e+00    0,000000000e+00    0,000000000e+00    0,000000000e+00
      324000000    2,273964323e-02   -2,473147586e-02   -4,214390516e-01    6,388667226e-01    0,000000000e+00    0,000000000e+00    0,000000000e+00    0,000000000e+00
      338000000    2,818082459e-02   -5,074416474e-02   -4,811652470e-03    7,608340979e-01    0,000000000e+00    0,000000000e+00    0,000000000e+00    0,000000000e+00
      352000000    1,024412084e-02   -8,281189948e-02    4,112472832e-01    6,351439357e-01    0,000000000e+00    0,000000000e+00    0,000000000e+00    0,000000000e+00
      366000000   -3,187460825e-02   -9,395021945e-02    6,934556365e-01    3,033581972e-01    0,000000000e+00    0,000000000e+00    0,000000000e+00    0,000000000e+00
      380000000   -6,773225963e-02   -6,898327172e-02    7,457600236e-01   -1,347799450e-01    0,000000000e+00    0,000000000e+00    0,000000000e+00    0,000000000e+00
      394000000   -6,840170175e-02   -3,035847098e-02    5,402715802e-01   -5,284169912e-01    0,000000000e+00    0,000000000e+00    0,000000000e+00    0,000000000e+00
      408000000   -4,266748205e-02   -1,570191234e-02    1,505806446e-01   -7,335329652e-01    0,000000000e+00    0,000000000e+00    0,000000000e+00    0,000000000e+00
      422000000   -2,623122931e-02   -3,093346767e-02   -2,793870270e-01   -6,899095178e-01    0,000000000e+00    0,000000000e+00    0,000000000e+00    0,000000000e+00
      436000000   -3,929289803e-02   -4,913936555e-02   -6,102582812e-01   -4,197571278e-01    0,000000000e+00    0,000000000e+00    0,000000000e+00    0,000000000e+00
      450000000   -6,465305388e-02   -3,880045936e-02   -7,370114923e-01   -7,552754600e-03    0,000000000e+00    0,000000000e+00    0,000000000e+00    0,000000000e+00
      464000000   -6,765834242e-02   -6,591136102e-03   -6,082358956e-01    4,065094590e-01    0,000000000e+00    0,000000000e+00    0,000000000e+00    0,000000000e+00
      478000000   -3,840693831e-02    1,607136615e-02   -2,674491704e-01    6,704739928e-01    0,000000000e+00    0,000000000e+00    0,000000000e+00    0,000000000e+00
      492000000   -5,148190539e-03    6,244615652e-03    1,527226567e-01    6,946139932e-01    0,000000000e+00    0,000000000e+00    0,000000000e+00    0,000000000e+00
      506000000    7,206134498e-03   -2,020422369e-02    5,080205798e-01    4,884087145e-01    0,000000000e+00    0,000000000e+00    0,000000000e+00    0,000000000e+00
      520000000    7,050418062e-04   -3,830135986e-02    6,882950664e-01    1,204333231e-01    0,000000000e+00    0,000000000e+00    0,000000000e+00    0,000000000e+00
      534000000   -2,970386762e-03   -4,533708841e-02    6,329674125e-01   -2,815781832e-01    0,000000000e+00    0,000000000e+00    0,000000000e+00    0,000000000e+00
      548000000    9,090409148e-04   -5,952978507e-02    3,598848879e-01   -5,793853402e-01    0,000000000e+00    0,000000000e+00    0,000000000e+00    0,000000000e+00
      562000000   -7,886786014e-03   -8,836612850e-02   -2,737101167e-02   -6,726104021e-01    0,000000000e+00    0,000000000e+00    0,000000000e+00    0,000000000e+00
      576000000   -4,567328095e-02   -1,098395437e-01   -4,014871120e-01   -5,382827520e-01    0,000000000e+00    0,000000000e+00    0,000000000e+00    0,000000000e+00
      590000000   -9,476198256e-02   -9,347788244e-02   -6,415737271e-01   -2,161975056e-01    0,000000000e+00    0,000000000e+00    0,000000000e+00    0,000000000e+00
      604000000   -1,113453507e-01   -4,154888168e-02   -6,468427181e-01    1,983404160e-01    0,000000000e+00    0,000000000e+00    0,000000000e+00    0,000000000e+00
      618000000   -7,629108429e-02   -2,113975119e-03   -4,015044272e-01    5,359757543e-01    0,000000000e+00    0,000000000e+00    0,000000000e+00    0,000000000e+00
      632000000   -2,936762571e-02   -2,109805122e-02   -1,238016225e-02    6,561585069e-01    0,000000000e+00    0,000000000e+00    0,000000000e+00    0,000000000e+00
      646000000   -3,691622987e-02   -7,693898678e-02    3,656395078e-01    5,275262594e-01    0,000000000e+00    0,000000000e+00    0,000000000e+00    0,000000000e+00
      660000000   -1,117701083e-01   -1,004196405e-01    6,009719968e-01    1,940900385e-01    0,000000000e+00    0,000000000e+00    0,000000000e+00    0,000000000e+00
      674000000   -1,991486251e-01   -2,312216721e-02    5,651208758e-01   -2,399205863e-01    0,000000000e+00    0,000000000e+00    0,000000000e+00    0,000000000e+00
      688000000   -1,790725440e-01    1,447929442e-01    2,102489769e-01   -5,222406387e-01    0,000000000e+00    0,000000000e+00    0,000000000e+00    0,000000000e+00
      702000000    2,347393706e-02    2,436487526e-01   -1,940658987e-01   -4,066975713e-01    0,000000000e+00    0,000000000e+00    0,000000000e+00    0,000000000e+00
      716000000    2,626794875e-01    1,106953248e-01   -2,738099992e-01   -8,419492096e-02    0,000000000e+00    0,000000000e+00    0,000000000e+00    0,000000000e+00
      730000000    3,034797609e-01   -1,854007095e-01   -1,078226417e-01    3,271081299e-02    0,000000000e+00    0,000000000e+00    0,000000000e+00    0,000000000e+00
      744000000    9,366887808e-02   -4,279439449e-01   -4,220232740e-02   -6,421938539e-02    0,000000000e+00    0,000000000e+00    0,000000000e+00    0,000000000e+00
      758000000   -2,577937841e-01   -4,302578866e-01   -1,752620637e-01   -1,253294945e-01    0,000000000e+00    0,000000000e+00    0,000000000e+00    0,000000000e+00
      772000000   -4,861813784e-01   -1,203630865e-01   -3,357218206e-01    3,811459988e-02    0,000000000e+00    0,000000000e+00    0,000000000e+00    0,000000000e+00
      786000000   -3,423804343e-01    2,205974013e-01   -2,624286711e-01    3,168815374e-01    0,000000000e+00    0,000000000e+00    0,000000000e+00    0,000000000e+00
      800000000   -4,077609256e-02    2,774000466e-01    2,927424386e-03    4,358382523e-01    0,000000000e+00    0,000000000e+00    0,000000000e+00    0,000000000e+00
      814000000    1,440645307e-01    1,258899122e-01    2,638536990e-01    3,598411083e-01    0,000000000e+00    0,000000000e+00    0,000000000e+00    0,000000000e+00
      828000000    1,683301926e-01   -7,006206363e-02    4,335057139e-01    1,568565220e-01    0,000000000e+00    0,000000000e+00    0,000000000e+00    0,000000000e+00
      842000000    6,778445095e-02   -2,176759839e-01    4,665651321e-01   -1,201501712e-01    0,000000000e+00    0,000000000e+00    0,000000000e+00    0,000000000e+00
      856000000   -1,064510196e-01   -2,635941207e-01    3,196500540e-01   -3,945062160e-01    0,000000000e+00    0,000000000e+00    0,000000000e+00    0,000000000e+00
      870000000   -2,741162181e-01   -1,689814478e-01   -2,582120011e-03   -5,260116458e-01    0,000000000e+00    0,000000000e+00    0,000000000e+00    0,000000000e+00
      884000000   -3,211258352e-01    3,528532013e-02   -3,480473757e-01   -3,934635818e-01    0,000000000e+00    0,000000000e+00    0,000000000e+00    0,000000000e+00
      898000000   -1,922743618e-01    2,070227116e-01   -4,893541336e-01   -6,254064292e-02    0,000000000e+00    0,000000000e+00    0,000000000e+00    0,000000000e+00
      912000000    7,448045537e-03    2,192943841e-01   -4,064417183e-01    2,768903077e-01    0,000000000e+00    0,000000000e+00    0,000000000e+00    0,000000000e+00
      926000000    1,495009512e-01    1,133381352e-01   -1,701923013e-01    4,176847637e-01    0,000000000e+00    0,000000000e+00    0,000000000e+00    0,000000000e+00
      940000000    1,977725625e-01   -4,673269391e-02    6,201828271e-02    4,246960282e-01    0,000000000e+00    0,000000000e+00    0,000000000e+00    0,000000000e+00
      954000000    1,522427499e-01   -2,039606720e-01    2,597721815e-01    3,425416648e-01    0,000000000e+00    0,000000000e+00    0,000000000e+00    0,000000000e+00
      968000000    2,487494983e-02   -3,178360760e-01    4,107804000e-01    1,793256998e-01    0,000000000e+00    0,000000000e+00    0,000000000e+00    0,000000000e+00
      982000000   -1,650071740e-01   -3,295866549e-01    4,747698605e-01   -6,688877195e-02    0,000000000e+00    0,000000000e+00    0,000000000e+00    0,000000000e+00
      996000000   -3,275129497e-01   -2,090540230e-01    3,693186045e-01   -3,573862016e-01    0,000000000e+00    0,000000000e+00    0,000000000e+00    0,000000000e+00
     1010000000   -3,404809535e-01   -4,493101500e-03    4,018386453e-02   -5,241090059e-01    0,000000000e+00    0,000000000e+00    0,000000000e+00    0,000000000e+00
     1024000000   -2,067866027e-01    9,542814642e-02   -3,487305343e-01   -3,808947504e-01    0,000000000e+00    0,000000000e+00    0,000000000e+00    0,000000000e+00
     1038000000   -1,322414428e-01    7,863483392e-03   -4,826807976e-01    6,408587843e-02    0,000000000e+00    0,000000000e+00    0,000000000e+00    0,000000000e+00
     1052000000   -2,835977674e-01    5,422099307e-02   -9,358480573e-02    3,732770383e-01    0,000000000e+00    0,000000000e+00    0,000000000e+00    0,000000000e+00
     1066000000   -1,435285509e-01    2,974402308e-01    1,428115070e-01    1,336459219e-01    0,000000000e+00    0,000000000e+00    0,000000000e+00    0,000000000e+00
     1080000000    9,786038101e-02    2,476371825e-01    9,063474834e-02    2,160719782e-02    0,000000000e+00    0,000000000e+00    0,000000000e+00    0,000000000e+00
     1094000000    2,215505689e-01    9,179577231e-02    6,940349936e-02    9,684751742e-03    0,000000000e+00    0,000000000e+00    0,000000000e+00    0,000000000e+00
     1108000000    2,446666658e-01   -8,872719109e-02    8,178893477e-02    2,003030153e-03    0,000000000e+00    0,000000000e+00    0,000000000e+00    0,000000000e+00
     1122000000    1,867218316e-01   -2,494881153e-01    1,031727716e-01   -2,626204304e-02    0,000000000e+00    0,000000000e+00    0,000000000e+00    0,000000000e+00
     1136000000    4,934397712e-02   -3,762663901e-01    1,262462288e-01   -7,206143439e-02    0,000000000e+00    0,000000000e+00    0,000000000e+00    0,000000000e+00
     1150000000   -1,565419585e-01   -4,180050790e-01    1,383510977e-01   -1,518703848e-01    0,000000000e+00    0,000000000e+00    0,000000000e+00    0,000000000e+00
     1164000000   -3,735647202e-01   -3,255218863e-01    9,729583561e-02   -2,789213061e-01    0,000000000e+00    0,000000000e+00    0,000000000e+00    0,000000000e+00
     1178000000   -4,591098428e-01   -8,714684099e-02   -1,060923710e-01   -4,049238563e-01    0,000000000e+00    0,000000000e+00    0,000000000e+00    0,000000000e+00
     1192000000   -3,703056872e-01    4,032631963e-02   -4,618227780e-01   -1,934793442e-01    0,000000000e+00    0,000000000e+00    0,000000000e+00    0,000000000e+00
     1206000000   -4,175937176e-01    1,347611696e-01   -2,724815607e-01    2,390992194e-01    0,000000000e+00    0,000000000e+00    0,000000000e+00    0,000000000e+00
     1220000000   -2,727798522e-01    3,277364075e-01   -2,303789835e-03    1,597249210e-01    0,000000000e+00    0,000000000e+00    0,000000000e+00    0,000000000e+00
     1234000000   -4,237680137e-02    3,479437232e-01    2,625240758e-02    5,411299691e-02    0,000000000e+00    0,000000000e+00    0,000000000e+00    0,000000000e+00
     1248000000    1,169479489e-01    2,480788678e-01    5,146630574e-03    2,447631024e-02    0,000000000e+00    0,000000000e+00    0,000000000e+00    0,000000000e+00
     1262000000    2,162989378e-01    1,057918742e-01    6,593040191e-03    3,494049609e-02    0,000000000e+00    0,000000000e+00    0,000000000e+00    0,000000000e+00
     1276000000    2,366337776e-01   -5,413456634e-02    2,812219411e-02    3,596056998e-02    0,000000000e+00    0,000000000e+00    0,000000000e+00    0,000000000e+00
     1290000000    1,938438565e-01   -2,176879197e-01    5,826308206e-02    2,032801695e-02    0,000000000e+00    0,000000000e+00    0,000000000e+00    0,000000000e+00
     1304000000    8,188138902e-02   -3,545570672e-01    7,378700376e-02    6,989055779e-03    0,000000000e+00    0,000000000e+00    0,000000000e+00    0,000000000e+00
     1318000000   -1,027882174e-01   -4,479685426e-01    8,677665144e-02   -1,178631186e-02    0,000000000e+00    0,000000000e+00    0,000000000e+00    0,000000000e+00
     1332000000   -3,575475216e-01   -4,351796806e-01    8,337818086e-02   -2,253184654e-02    0,000000000e+00    0,000000000e+00    0,000000000e+00    0,000000000e+00
     1346000000   -5,908048749e-01   -2,415122986e-01    1,064257398e-01   -2,455309499e-03    0,000000000e+00    0,000000000e+00    0,000000000e+00    0,000000000e+00
     1360000000   -6,486347318e-01    7,379962504e-02    1,430075616e-01   -1,072042435e-02    0,000000000e+00    0,000000000e+00    0,000000000e+00    0,000000000e+00
     1374000000   -4,871383011e-01    3,293460310e-01    1,662400216e-01   -5,125569552e-02    0,000000000e+00    0,000000000e+00    0,000000000e+00    0,000000000e+00
     1388000000   -2,537513375e-01    4,314468503e-01    1,607359499e-01   -7,851166278e-02    0,000000000e+00    0,000000000e+00    0,000000000e+00    0,000000000e+00
     1402000000   -4,428538308e-02    3,856281340e-01    1,372265518e-01   -9,720543027e-02    0,000000000e+00    0,000000000e+00    0,000000000e+00    0,000000000e+00
     1416000000    1,017612666e-01    2,861526310e-01    1,171448156e-01   -9,085824341e-02    0,000000000e+00    0,000000000e+00    0,000000000e+00    0,000000000e+00
     1430000000    1,927068830e-01    1,546507925e-01    1,341771781e-01   -5,867604911e-02    0,000000000e+00    0,000000000e+00    0,000000000e+00    0,000000000e+00
     1444000000    2,147231400e-01   -9,529073723e-03    1,195237115e-01   -2,261073329e-02    0,000000000e+00    0,000000000e+00    0,000000000e+00    0,000000000e+00
     1458000000    1,792784333e-01   -1,846407801e-01    1,394857168e-01    1,472625043e-02    0,000000000e+00    0,000000000e+00    0,000000000e+00    0,000000000e+00
     1472000000    7,238334417e-02   -3,423303068e-01    2,060274035e-01    7,970772684e-02    0,000000000e+00    0,000000000e+00    0,000000000e+00    0,000000000e+00
     1486000000   -1,435125470e-01   -4,707056284e-01    2,893835008e-01    9,512628615e-02    0,000000000e+00    0,000000000e+00    0,000000000e+00    0,000000000e+00
     1500000000   -4,368609488e-01   -4,770519435e-01    4,153470397e-01    4,650276527e-02    0,000000000e+00    0,000000000e+00    0,000000000e+00    0,000000000e+00
