! NanoVNA-App
! Date: 2025-09-25 16:02:50
! Start: 100MHz Stop: 1,5GHz Points: 101
! S-Parameter data: F S11 S21 S12 S22
# Hz S RI R 50
!     Frequency           S11_Real           S11_Imag           S21_Real           S21_Imag           S12_Real           S12_Imag           S22_Real           S22_Imag
      100000000   -2,830567583e-02   -2,877777210e-03    3,723258078e-01   -7,224389315e-01    0,000000000e+00    0,000000000e+00    0,000000000e+00    0,000000000e+00
      114000000   -1,576038264e-02    1,288557146e-02   -9,133170545e-02   -8,048818111e-01    0,000000000e+00    0,000000000e+00    0,000000000e+00    0,000000000e+00
      128000000    4,324298818e-03    1,198407076e-02   -5,159360170e-01   -6,186742187e-01    0,000000000e+00    0,000000000e+00    0,000000000e+00    0,000000000e+00
      142000000    1,547413319e-02   -1,722550951e-03   -7,675420046e-01   -2,341120094e-01    0,000000000e+00    0,000000000e+00    0,000000000e+00    0,000000000e+00
      156000000    1,558552682e-02   -1,355116908e-02   -7,701442242e-01    2,231302261e-01    0,000000000e+00    0,000000000e+00    0,000000000e+00    0,000000000e+00
      170000000    1,767704450e-02   -2,092121914e-02   -5,154147148e-01    6,061993241e-01    0,000000000e+00    0,000000000e+00    0,000000000e+00    0,000000000e+00
      184000000    2,205221169e-02   -3,559118137e-02   -9,833906591e-02    7,859251499e-01    0,000000000e+00    0,000000000e+00    0,000000000e+00    0,000000000e+00
      198000000    1,400565635e-02   -6,060360745e-02    3,457928896e-01    7,107639909e-01    0,000000000e+00    0,000000000e+00    0,000000000e+00    0,000000000e+00
      212000000   -1,769295335e-02   -7,911042869e-02    6,808335185e-01    4,061097801e-01    0,000000000e+00    0,000000000e+00    0,000000000e+00    0,000000000e+00
      226000000   -6,026304513e-02   -6,661229581e-02    7,957860231e-01   -3,568996489e-02    0,000000000e+00    0,000000000e+00    0,000000000e+00    0,000000000e+00
      240000000   -8,048662543e-02   -2,275062725e-02    6,415455937e-01   -4,715997279e-01    0,000000000e+00    0,000000000e+00    0,000000000e+00    0,000000000e+00
      254000000   -6,079578772e-02    1,977801323e-02    2,713117301e-01   -7,421627641e-01    0,000000000e+00    0,000000000e+00    0,000000000e+00    0,000000000e+00
      268000000   -2,089790255e-02    3,091534041e-02   -1,815738678e-01   -7,612254024e-01    0,000000000e+00    0,000000000e+00    0,000000000e+00    0,000000000e+00
      282000000    6,904772017e-03    1,369551290e-02   -5,631343722e-01   -5,324547291e-01    0,000000000e+00    0,000000000e+00    0,000000000e+00    0,000000000e+00
      296000000    1,247489732e-02   -6,184726488e-03   -7,606127858e-01   -1,343421340e-01    0,000000000e+00    0,000000000e+00    0,000000000e+00    0,000000000e+00
      310000000    1,372486074e-02   -1,459547132e-02   -7,092322111e-01    3,050166368e-01    0,000000000e+00    0,000000000e+00    0,000000000e+00    0,000000000e+00
      324000000    2,260185033e-02   -2,489514835e-02   -4,215976894e-01    6,388341188e-01    0,000000000e+00    0,000000000e+00    0,000000000e+00    0,000000000e+00
      338000000    2,845812775e-02   -5,052386969e-02   -1,017086208e-03    7,591595054e-01    0,000000000e+00    0,000000000e+00    0,000000000e+00    0,000000000e+00
      352000000    1,011647657e-02   -8,266999573e-02    4,108932614e-01    6,357556581e-01    0,000000000e+00    0,000000000e+00    0,000000000e+00    0,000000000e+00
      366000000   -3,161321208e-02   -9,386099875e-02    6,939665675e-01    3,037970066e-01    0,000000000e+00    0,000000000e+00    0,000000000e+00    0,000000000e+00
      380000000   -6,758768111e-02   -6,867016852e-02    7,461828589e-01   -1,341902018e-01    0,000000000e+00    0,000000000e+00    0,000000000e+00    0,000000000e+00
      394000000   -6,844724715e-02   -3,067363985e-02    5,392427444e-01   -5,281189084e-01    0,000000000e+00    0,000000000e+00    0,000000000e+00    0,000000000e+00
      408000000   -4,278513789e-02   -1,572589204e-02    1,498112679e-01   -7,354527116e-01    0,000000000e+00    0,000000000e+00    0,000000000e+00    0,000000000e+00
      422000000   -2,612940967e-02   -3,087750822e-02   -2,791111171e-01   -6,898611188e-01    0,000000000e+00    0,000000000e+00    0,000000000e+00    0,000000000e+00
      436000000   -3,925228864e-02   -4,894137755e-02   -6,105796695e-01   -4,204607308e-01    0,000000000e+00    0,000000000e+00    0,000000000e+00    0,000000000e+00
      450000000   -6,477501243e-02   -3,893906251e-02   -7,372549176e-01   -7,842708379e-03    0,000000000e+00    0,000000000e+00    0,000000000e+00    0,000000000e+00
      464000000   -6,771869957e-02   -6,078724284e-03   -6,078798175e-01    4,062639177e-01    0,000000000e+00    0,000000000e+00    0,000000000e+00    0,000000000e+00
      478000000   -3,859220073e-02    1,596992090e-02   -2,676683366e-01    6,704421639e-01    0,000000000e+00    0,000000000e+00    0,000000000e+00    0,000000000e+00
      492000000   -5,300922319e-03    6,207521074e-03    1,518434137e-01    6,954633594e-01    0,000000000e+00    0,000000000e+00    0,000000000e+00    0,000000000e+00
      506000000    6,663059816e-03   -2,023042366e-02    5,075439811e-01    4,884505272e-01    0,000000000e+00    0,000000000e+00    0,000000000e+00    0,000000000e+00
      520000000    8,589946083e-04   -3,844265267e-02    6,906711459e-01    1,230878234e-01    0,000000000e+00    0,000000000e+00    0,000000000e+00    0,000000000e+00
      534000000   -2,846895019e-03   -4,546059668e-02    6,327133775e-01   -2,825181782e-01    0,000000000e+00    0,000000000e+00    0,000000000e+00    0,000000000e+00
      548000000    8,425029810e-04   -5,950779095e-02    3,603233695e-01   -5,782967210e-01    0,000000000e+00    0,000000000e+00    0,000000000e+00    0,000000000e+00
      562000000   -8,124765940e-03   -8,845816553e-02   -2,704792097e-02   -6,727036834e-01    0,000000000e+00    0,000000000e+00    0,000000000e+00    0,000000000e+00
      576000000   -4,548604414e-02   -1,100462154e-01   -4,009187222e-01   -5,386883616e-01    0,000000000e+00    0,000000000e+00    0,000000000e+00    0,000000000e+00
      590000000   -9,474909306e-02   -9,327231348e-02   -6,403128505e-01   -2,199895382e-01    0,000000000e+00    0,000000000e+00    0,000000000e+00    0,000000000e+00
      604000000   -1,117174774e-01   -4,105291143e-02   -6,479498744e-01    1,988650113e-01    0,000000000e+00    0,000000000e+00    0,000000000e+00    0,000000000e+00
      618000000   -7,636414468e-02   -2,435202477e-03   -4,014993310e-01    5,360850096e-01    0,000000000e+00    0,000000000e+00    0,000000000e+00    0,000000000e+00
      632000000   -2,982559055e-02   -2,057234384e-02   -1,196881570e-02    6,554628611e-01    0,000000000e+00    0,000000000e+00    0,000000000e+00    0,000000000e+00
      646000000   -3,611292318e-02   -7,722384483e-02    3,660750389e-01    5,284095407e-01    0,000000000e+00    0,000000000e+00    0,000000000e+00    0,000000000e+00
      660000000   -1,104642078e-01   -9,978958964e-02    6,011613011e-01    1,935285777e-01    0,000000000e+00    0,000000000e+00    0,000000000e+00    0,000000000e+00
      674000000   -1,990208626e-01   -2,331636287e-02    5,654354692e-01   -2,397384197e-01    0,000000000e+00    0,000000000e+00    0,000000000e+00    0,000000000e+00
      688000000   -1,786140054e-01    1,445302367e-01    2,102677822e-01   -5,221338868e-01    0,000000000e+00    0,000000000e+00    0,000000000e+00    0,000000000e+00
      702000000    2,578020655e-02    2,441776693e-01   -1,994564384e-01   -4,023877084e-01    0,000000000e+00    0,000000000e+00    0,000000000e+00    0,000000000e+00
      716000000    2,636150122e-01    1,110440120e-01   -2,743378580e-01   -8,427233249e-02    0,000000000e+00    0,000000000e+00    0,000000000e+00    0,000000000e+00
      730000000    3,035930693e-01   -1,855386496e-01   -1,079211235e-01    3,282206133e-02    0,000000000e+00    0,000000000e+00    0,000000000e+00    0,000000000e+00
      744000000    9,513793141e-02   -4,271228015e-01   -4,238671064e-02   -6,358774006e-02    0,000000000e+00    0,000000000e+00    0,000000000e+00    0,000000000e+00
      758000000   -2,591733932e-01   -4,301448762e-01   -1,738419086e-01   -1,248606965e-01    0,000000000e+00    0,000000000e+00    0,000000000e+00    0,000000000e+00
      772000000   -4,864377081e-01   -1,209646687e-01   -3,351714015e-01    3,739060834e-02    0,000000000e+00    0,000000000e+00    0,000000000e+00    0,000000000e+00
      786000000   -3,418827057e-01    2,221932560e-01   -2,628970742e-01    3,156899810e-01    0,000000000e+00    0,000000000e+00    0,000000000e+00    0,000000000e+00
      800000000   -4,093797505e-02    2,767308950e-01    3,134903498e-03    4,366705418e-01    0,000000000e+00    0,000000000e+00    0,000000000e+00    0,000000000e+00
      814000000    1,443271935e-01    1,257863045e-01    2,634227276e-01    3,593792021e-01    0,000000000e+00    0,000000000e+00    0,000000000e+00    0,000000000e+00
      828000000    1,679157615e-01   -6,993788481e-02    4,326586425e-01    1,567347199e-01    0,000000000e+00    0,000000000e+00    0,000000000e+00    0,000000000e+00
      842000000    6,753735989e-02   -2,184767425e-01    4,664133489e-01   -1,195355281e-01    0,000000000e+00    0,000000000e+00    0,000000000e+00    0,000000000e+00
      856000000   -1,066716611e-01   -2,635185122e-01    3,199940324e-01   -3,937084377e-01    0,000000000e+00    0,000000000e+00    0,000000000e+00    0,000000000e+00
      870000000   -2,751765549e-01   -1,684480160e-01   -2,950235037e-03   -5,265548229e-01    0,000000000e+00    0,000000000e+00    0,000000000e+00    0,000000000e+00
      884000000   -3,212495744e-01    3,588078544e-02   -3,478258848e-01   -3,917115331e-01    0,000000000e+00    0,000000000e+00    0,000000000e+00    0,000000000e+00
      898000000   -1,917377114e-01    2,068908960e-01   -4,883715212e-01   -6,287025660e-02    0,000000000e+00    0,000000000e+00    0,000000000e+00    0,000000000e+00
      912000000    7,716279477e-03    2,200558037e-01   -4,035785496e-01    2,649022341e-01    0,000000000e+00    0,000000000e+00    0,000000000e+00    0,000000000e+00
      926000000    1,514432728e-01    1,118064076e-01   -1,688842624e-01    4,150912166e-01    0,000000000e+00    0,000000000e+00    0,000000000e+00    0,000000000e+00
      940000000    1,972089559e-01   -4,619327188e-02    6,396548450e-02    4,229921997e-01    0,000000000e+00    0,000000000e+00    0,000000000e+00    0,000000000e+00
      954000000    1,559102684e-01   -2,013225406e-01    2,618806362e-01    3,409051299e-01    0,000000000e+00    0,000000000e+00    0,000000000e+00    0,000000000e+00
      968000000    2,588961832e-02   -3,124011159e-01    4,103060663e-01    1,796431690e-01    0,000000000e+00    0,000000000e+00    0,000000000e+00    0,000000000e+00
      982000000   -1,635324806e-01   -3,315124512e-01    4,743864834e-01   -6,558149308e-02    0,000000000e+00    0,000000000e+00    0,000000000e+00    0,000000000e+00
      996000000   -3,239348531e-01   -2,107270658e-01    3,670707643e-01   -3,559280336e-01    0,000000000e+00    0,000000000e+00    0,000000000e+00    0,000000000e+00
     1010000000   -3,429654539e-01   -9,254855104e-03    4,287932441e-02   -5,220870376e-01    0,000000000e+00    0,000000000e+00    0,000000000e+00    0,000000000e+00
     1024000000   -2,073320746e-01    9,181701392e-02   -3,448736966e-01   -3,797305524e-01    0,000000000e+00    0,000000000e+00    0,000000000e+00    0,000000000e+00
     1038000000   -1,382662505e-01    1,202991512e-02   -4,815146625e-01    6,143345311e-02    0,000000000e+00    0,000000000e+00    0,000000000e+00    0,000000000e+00
     1052000000   -2,843392789e-01    5,452847481e-02   -9,482475370e-02    3,722383082e-01    0,000000000e+00    0,000000000e+00    0,000000000e+00    0,000000000e+00
     1066000000   -1,449526101e-01    2,982984483e-01    1,430717558e-01    1,307402998e-01    0,000000000e+00    0,000000000e+00    0,000000000e+00    0,000000000e+00
     1080000000    1,015684381e-01    2,465042174e-01    8,940044791e-02    2,177214622e-02    0,000000000e+00    0,000000000e+00    0,000000000e+00    0,000000000e+00
     1094000000    2,181830853e-01    8,930512518e-02    6,845565140e-02    9,722080082e-03    0,000000000e+00    0,000000000e+00    0,000000000e+00    0,000000000e+00
     1108000000    2,425536513e-01   -8,608014882e-02    8,231858909e-02    2,540814457e-04    0,000000000e+00    0,000000000e+00    0,000000000e+00    0,000000000e+00
     1122000000    1,845563352e-01   -2,544915974e-01    1,049699038e-01   -2,732583880e-02    0,000000000e+00    0,000000000e+00    0,000000000e+00    0,000000000e+00
     1136000000    5,123206228e-02   -3,790175915e-01    1,275832504e-01   -7,279331982e-02    0,000000000e+00    0,000000000e+00    0,000000000e+00    0,000000000e+00
     1150000000   -1,588227749e-01   -4,235452712e-01    1,388107091e-01   -1,505904496e-01    0,000000000e+00    0,000000000e+00    0,000000000e+00    0,000000000e+00
     1164000000   -3,763527274e-01   -3,232334554e-01    9,560903162e-02   -2,750635743e-01    0,000000000e+00    0,000000000e+00    0,000000000e+00    0,000000000e+00
     1178000000   -4,682437181e-01   -8,280934393e-02   -1,061429381e-01   -4,074524045e-01    0,000000000e+00    0,000000000e+00    0,000000000e+00    0,000000000e+00
     1192000000   -3,766290545e-01    3,808616102e-02   -4,634553194e-01   -1,927074641e-01    0,000000000e+00    0,000000000e+00    0,000000000e+00    0,000000000e+00
     1206000000   -4,125096798e-01    1,366324872e-01   -2,730954587e-01    2,374339551e-01    0,000000000e+00    0,000000000e+00    0,000000000e+00    0,000000000e+00
     1220000000   -2,726817727e-01    3,261457086e-01   -1,562868827e-03    1,639215350e-01    0,000000000e+00    0,000000000e+00    0,000000000e+00    0,000000000e+00
     1234000000   -4,066437855e-02    3,498628438e-01    2,457593754e-02    5,388922244e-02    0,000000000e+00    0,000000000e+00    0,000000000e+00    0,000000000e+00
     1248000000    1,195432544e-01    2,457692772e-01    2,812135033e-03    2,002521977e-02    0,000000000e+00    0,000000000e+00    0,000000000e+00    0,000000000e+00
     1262000000    2,136221826e-01    9,774985909e-02    4,705256317e-03    2,520986460e-02    0,000000000e+00    0,000000000e+00    0,000000000e+00    0,000000000e+00
     1276000000    2,314264029e-01   -5,772075430e-02    2,436454035e-02    3,682578728e-02    0,000000000e+00    0,000000000e+00    0,000000000e+00    0,000000000e+00
     1290000000    1,880181283e-01   -2,159720808e-01    5,090046674e-02    2,341392450e-02    0,000000000e+00    0,000000000e+00    0,000000000e+00    0,000000000e+00
     1304000000    8,170714974e-02   -3,577396274e-01    7,424475998e-02    5,782310851e-03    0,000000000e+00    0,000000000e+00    0,000000000e+00    0,000000000e+00
     1318000000   -1,058693081e-01   -4,470887482e-01    8,007647842e-02   -7,303956896e-03    0,000000000e+00    0,000000000e+00    0,000000000e+00    0,000000000e+00
     1332000000   -3,519664109e-01   -4,325408340e-01    9,275317937e-02   -1,310765930e-02    0,000000000e+00    0,000000000e+00    0,000000000e+00    0,000000000e+00
     1346000000   -5,920016766e-01   -2,411194742e-01    1,040592268e-01   -4,934148747e-04    0,000000000e+00    0,000000000e+00    0,000000000e+00    0,000000000e+00
     1360000000   -6,466897726e-01    6,803400815e-02    1,464615464e-01   -1,366042346e-02    0,000000000e+00    0,000000000e+00    0,000000000e+00    0,000000000e+00
     1374000000   -4,890278578e-01    3,324205577e-01    1,740593910e-01   -4,921343550e-02    0,000000000e+00    0,000000000e+00    0,000000000e+00    0,000000000e+00
     1388000000   -2,555042207e-01    4,278326929e-01    1,592459530e-01   -8,572733402e-02    0,000000000e+00    0,000000000e+00    0,000000000e+00    0,000000000e+00
     1402000000   -4,653232172e-02    3,947063684e-01    1,426442116e-01   -9,438251704e-02    0,000000000e+00    0,000000000e+00    0,000000000e+00    0,000000000e+00
     1416000000    1,034416482e-01    2,877914310e-01    1,198533848e-01   -8,256845921e-02    0,000000000e+00    0,000000000e+00    0,000000000e+00    0,000000000e+00
     1430000000    1,929555237e-01    1,497247666e-01    1,127253771e-01   -5,951423198e-02    0,000000000e+00    0,000000000e+00    0,000000000e+00    0,000000000e+00
     1444000000    2,169742882e-01   -7,930853404e-03    1,269044727e-01   -1,443262864e-02    0,000000000e+00    0,000000000e+00    0,000000000e+00    0,000000000e+00
     1458000000    1,813010126e-01   -1,754195690e-01    1,454594582e-01    1,890771836e-02    0,000000000e+00    0,000000000e+00    0,000000000e+00    0,000000000e+00
     1472000000    7,292313874e-02   -3,474838138e-01    2,083085775e-01    6,929986924e-02    0,000000000e+00    0,000000000e+00    0,000000000e+00    0,000000000e+00
     1486000000   -1,391632855e-01   -4,694179595e-01    3,005997241e-01    9,797145426e-02    0,000000000e+00    0,000000000e+00    0,000000000e+00    0,000000000e+00
     1500000000   -4,435134232e-01   -4,646852612e-01    4,061263800e-01    6,005704030e-02    0,000000000e+00    0,000000000e+00    0,000000000e+00    0,000000000e+00
