! NanoVNA-App
! Date: 2025-09-25 15:57:25
! Start: 100MHz Stop: 1,5GHz Points: 101
! S-Parameter data: F S11 S21 S12 S22
# Hz S RI R 50
!     Frequency           S11_Real           S11_Imag           S21_Real           S21_Imag           S12_Real           S12_Imag           S22_Real           S22_Imag
      100000000   -2,820860036e-02   -2,844449831e-03    3,722195625e-01   -7,224668264e-01    0,000000000e+00    0,000000000e+00    0,000000000e+00    0,000000000e+00
      114000000   -1,563935727e-02    1,289393939e-02   -9,116563946e-02   -8,046627045e-01    0,000000000e+00    0,000000000e+00    0,000000000e+00    0,000000000e+00
      128000000    4,395388998e-03    1,189563423e-02   -5,158083439e-01   -6,186373830e-01    0,000000000e+00    0,000000000e+00    0,000000000e+00    0,000000000e+00
      142000000    1,549230795e-02   -1,803074381e-03   -7,674303651e-01   -2,340375781e-01    0,000000000e+00    0,000000000e+00    0,000000000e+00    0,000000000e+00
      156000000    1,540522184e-02   -1,295405813e-02   -7,644264698e-01    2,207103223e-01    0,000000000e+00    0,000000000e+00    0,000000000e+00    0,000000000e+00
      170000000    1,767064817e-02   -2,096451074e-02   -5,156573057e-01    6,061636209e-01    0,000000000e+00    0,000000000e+00    0,000000000e+00    0,000000000e+00
      184000000    2,200903185e-02   -3,554765135e-02   -9,858757257e-02    7,861931920e-01    0,000000000e+00    0,000000000e+00    0,000000000e+00    0,000000000e+00
      198000000    1,399751659e-02   -6,066460535e-02    3,462951183e-01    7,110126615e-01    0,000000000e+00    0,000000000e+00    0,000000000e+00    0,000000000e+00
      212000000   -1,767501794e-02   -7,914810628e-02    6,805983782e-01    4,062079489e-01    0,000000000e+00    0,000000000e+00    0,000000000e+00    0,000000000e+00
      226000000   -6,035234034e-02   -6,664022058e-02    7,957841158e-01   -3,551823273e-02    0,000000000e+00    0,000000000e+00    0,000000000e+00    0,000000000e+00
      240000000   -8,051463217e-02   -2,285267599e-02    6,415745616e-01   -4,717065692e-01    0,000000000e+00    0,000000000e+00    0,000000000e+00    0,000000000e+00
      254000000   -6,086576357e-02    1,975563169e-02    2,710106969e-01   -7,421180010e-01    0,000000000e+00    0,000000000e+00    0,000000000e+00    0,000000000e+00
      268000000   -2,099733055e-02    3,085043281e-02   -1,810453236e-01   -7,610070705e-01    0,000000000e+00    0,000000000e+00    0,000000000e+00    0,000000000e+00
      282000000    6,888587028e-03    1,377509814e-02   -5,634444356e-01   -5,326325893e-01    0,000000000e+00    0,000000000e+00    0,000000000e+00    0,000000000e+00
      296000000    1,242383104e-02   -6,194517948e-03   -7,605179548e-01   -1,342855245e-01    0,000000000e+00    0,000000000e+00    0,000000000e+00    0,000000000e+00
      310000000    1,347859763e-02   -1,472408790e-02   -7,082645893e-01    3,031700552e-01    0,000000000e+00    0,000000000e+00    0,000000000e+00    0,000000000e+00
      324000000    2,243935876e-02   -2,478490025e-02   -4,210494459e-01    6,396942735e-01    0,000000000e+00    0,000000000e+00    0,000000000e+00    0,000000000e+00
      338000000    2,821228281e-02   -5,085651204e-02   -1,699463348e-03    7,611181736e-01    0,000000000e+00    0,000000000e+00    0,000000000e+00    0,000000000e+00
      352000000    1,016058214e-02   -8,262487501e-02    4,114896357e-01    6,352205873e-01    0,000000000e+00    0,000000000e+00    0,000000000e+00    0,000000000e+00
      366000000   -3,167838603e-02   -9,394192696e-02    6,930962205e-01    3,033710122e-01    0,000000000e+00    0,000000000e+00    0,000000000e+00    0,000000000e+00
      380000000   -6,743061543e-02   -6,888666004e-02    7,457619905e-01   -1,342455298e-01    0,000000000e+00    0,000000000e+00    0,000000000e+00    0,000000000e+00
      394000000   -6,866037846e-02   -3,021894954e-02    5,402779579e-01   -5,278223753e-01    0,000000000e+00    0,000000000e+00    0,000000000e+00    0,000000000e+00
      408000000   -4,291595891e-02   -1,542263757e-02    1,494277865e-01   -7,334123254e-01    0,000000000e+00    0,000000000e+00    0,000000000e+00    0,000000000e+00
      422000000   -2,616088092e-02   -3,128492460e-02   -2,789259851e-01   -6,893625855e-01    0,000000000e+00    0,000000000e+00    0,000000000e+00    0,000000000e+00
      436000000   -3,931548819e-02   -4,893999174e-02   -6,100143790e-01   -4,189555645e-01    0,000000000e+00    0,000000000e+00    0,000000000e+00    0,000000000e+00
      450000000   -6,481454521e-02   -3,919224814e-02   -7,369489074e-01   -7,852289826e-03    0,000000000e+00    0,000000000e+00    0,000000000e+00    0,000000000e+00
      464000000   -6,752795726e-02   -6,559425965e-03   -6,076343060e-01    4,059925973e-01    0,000000000e+00    0,000000000e+00    0,000000000e+00    0,000000000e+00
      478000000   -3,851509839e-02    1,624444686e-02   -2,670586705e-01    6,700657010e-01    0,000000000e+00    0,000000000e+00    0,000000000e+00    0,000000000e+00
      492000000   -5,090365186e-03    6,475441158e-03    1,521518975e-01    6,951051354e-01    0,000000000e+00    0,000000000e+00    0,000000000e+00    0,000000000e+00
      506000000    7,026549894e-03   -2,047865838e-02    5,080085397e-01    4,883331656e-01    0,000000000e+00    0,000000000e+00    0,000000000e+00    0,000000000e+00
      520000000    1,170868636e-03   -3,841871396e-02    6,901154518e-01    1,224887893e-01    0,000000000e+00    0,000000000e+00    0,000000000e+00    0,000000000e+00
      534000000   -3,033193527e-03   -4,539841786e-02    6,325448155e-01   -2,817787230e-01    0,000000000e+00    0,000000000e+00    0,000000000e+00    0,000000000e+00
      548000000    7,542700041e-04   -5,929521844e-02    3,599810600e-01   -5,786830187e-01    0,000000000e+00    0,000000000e+00    0,000000000e+00    0,000000000e+00
      562000000   -8,149335161e-03   -8,844698220e-02   -2,671751194e-02   -6,719388962e-01    0,000000000e+00    0,000000000e+00    0,000000000e+00    0,000000000e+00
      576000000   -4,546996579e-02   -1,097711623e-01   -4,001626670e-01   -5,377208591e-01    0,000000000e+00    0,000000000e+00    0,000000000e+00    0,000000000e+00
      590000000   -9,469622374e-02   -9,334403276e-02   -6,393352747e-01   -2,188677937e-01    0,000000000e+00    0,000000000e+00    0,000000000e+00    0,000000000e+00
      604000000   -1,117058396e-01   -4,105140641e-02   -6,474868655e-01    1,986050904e-01    0,000000000e+00    0,000000000e+00    0,000000000e+00    0,000000000e+00
      618000000   -7,522074878e-02   -2,057381906e-03   -4,021804929e-01    5,350679755e-01    0,000000000e+00    0,000000000e+00    0,000000000e+00    0,000000000e+00
      632000000   -2,940376662e-02   -2,151783369e-02   -1,156708691e-02    6,551917791e-01    0,000000000e+00    0,000000000e+00    0,000000000e+00    0,000000000e+00
      646000000   -3,689473867e-02   -7,714961469e-02    3,657248318e-01    5,277580619e-01    0,000000000e+00    0,000000000e+00    0,000000000e+00    0,000000000e+00
      660000000   -1,112629175e-01   -9,926906228e-02    6,004858017e-01    1,929480880e-01    0,000000000e+00    0,000000000e+00    0,000000000e+00    0,000000000e+00
      674000000   -1,997984797e-01   -2,307709120e-02    5,648394227e-01   -2,400635928e-01    0,000000000e+00    0,000000000e+00    0,000000000e+00    0,000000000e+00
      688000000   -1,780069768e-01    1,446206421e-01    2,086916864e-01   -5,214816928e-01    0,000000000e+00    0,000000000e+00    0,000000000e+00    0,000000000e+00
      702000000    2,603597753e-02    2,473170608e-01   -2,024766803e-01   -4,035842121e-01    0,000000000e+00    0,000000000e+00    0,000000000e+00    0,000000000e+00
      716000000    2,636638582e-01    1,110115424e-01   -2,717342675e-01   -8,299402893e-02    0,000000000e+00    0,000000000e+00    0,000000000e+00    0,000000000e+00
      730000000    3,037623167e-01   -1,869957596e-01   -1,064290553e-01    3,175961599e-02    0,000000000e+00    0,000000000e+00    0,000000000e+00    0,000000000e+00
      744000000    9,321555495e-02   -4,274900556e-01   -4,236129299e-02   -6,621085107e-02    0,000000000e+00    0,000000000e+00    0,000000000e+00    0,000000000e+00
      758000000   -2,603618801e-01   -4,291988015e-01   -1,761047989e-01   -1,255800575e-01    0,000000000e+00    0,000000000e+00    0,000000000e+00    0,000000000e+00
      772000000   -4,851781726e-01   -1,200326383e-01   -3,369633853e-01    3,854852915e-02    0,000000000e+00    0,000000000e+00    0,000000000e+00    0,000000000e+00
      786000000   -3,415030837e-01    2,204987109e-01   -2,631419003e-01    3,172352016e-01    0,000000000e+00    0,000000000e+00    0,000000000e+00    0,000000000e+00
      800000000   -4,098489881e-02    2,769850492e-01    2,256531501e-03    4,368186891e-01    0,000000000e+00    0,000000000e+00    0,000000000e+00    0,000000000e+00
      814000000    1,442612410e-01    1,251036227e-01    2,643999755e-01    3,597539961e-01    0,000000000e+00    0,000000000e+00    0,000000000e+00    0,000000000e+00
      828000000    1,673155576e-01   -7,054043561e-02    4,328744113e-01    1,564876437e-01    0,000000000e+00    0,000000000e+00    0,000000000e+00    0,000000000e+00
      842000000    6,696607172e-02   -2,179859281e-01    4,666707218e-01   -1,202664375e-01    0,000000000e+00    0,000000000e+00    0,000000000e+00    0,000000000e+00
      856000000   -1,068508849e-01   -2,636272311e-01    3,199427426e-01   -3,945510685e-01    0,000000000e+00    0,000000000e+00    0,000000000e+00    0,000000000e+00
      870000000   -2,744387984e-01   -1,684996635e-01   -3,201570362e-03   -5,273741484e-01    0,000000000e+00    0,000000000e+00    0,000000000e+00    0,000000000e+00
      884000000   -3,195714951e-01    3,514670581e-02   -3,481736183e-01   -3,929650486e-01    0,000000000e+00    0,000000000e+00    0,000000000e+00    0,000000000e+00
      898000000   -1,915296316e-01    2,065673172e-01   -4,877897203e-01   -6,276037544e-02    0,000000000e+00    0,000000000e+00    0,000000000e+00    0,000000000e+00
      912000000    7,284889463e-03    2,192005366e-01   -3,956700265e-01    2,770652175e-01    0,000000000e+00    0,000000000e+00    0,000000000e+00    0,000000000e+00
      926000000    1,504437774e-01    1,133808196e-01   -1,672443748e-01    4,183428288e-01    0,000000000e+00    0,000000000e+00    0,000000000e+00    0,000000000e+00
      940000000    1,979795843e-01   -4,856554419e-02    6,423752010e-02    4,231924415e-01    0,000000000e+00    0,000000000e+00    0,000000000e+00    0,000000000e+00
      954000000    1,550315917e-01   -2,050491571e-01    2,629764378e-01    3,406733572e-01    0,000000000e+00    0,000000000e+00    0,000000000e+00    0,000000000e+00
      968000000    2,599100582e-02   -3,166278005e-01    4,108360112e-01    1,794498563e-01    0,000000000e+00    0,000000000e+00    0,000000000e+00    0,000000000e+00
      982000000   -1,593723297e-01   -3,309889138e-01    4,748124480e-01   -6,669038534e-02    0,000000000e+00    0,000000000e+00    0,000000000e+00    0,000000000e+00
      996000000   -3,270660639e-01   -2,121093571e-01    3,656890690e-01   -3,564260900e-01    0,000000000e+00    0,000000000e+00    0,000000000e+00    0,000000000e+00
     1010000000   -3,417052031e-01   -1,033670828e-02    4,248924553e-02   -5,248355269e-01    0,000000000e+00    0,000000000e+00    0,000000000e+00    0,000000000e+00
     1024000000   -2,049750239e-01    8,975848556e-02   -3,473368585e-01   -3,799594045e-01    0,000000000e+00    0,000000000e+00    0,000000000e+00    0,000000000e+00
     1038000000   -1,377058029e-01    1,293999981e-02   -4,832016826e-01    6,306814402e-02    0,000000000e+00    0,000000000e+00    0,000000000e+00    0,000000000e+00
     1052000000   -2,895529866e-01    5,382304266e-02   -9,512793273e-02    3,736362457e-01    0,000000000e+00    0,000000000e+00    0,000000000e+00    0,000000000e+00
     1066000000   -1,451167762e-01    2,956864834e-01    1,380494833e-01    1,336089969e-01    0,000000000e+00    0,000000000e+00    0,000000000e+00    0,000000000e+00
     1080000000    1,000553593e-01    2,462792546e-01    9,249034524e-02    2,169785090e-02    0,000000000e+00    0,000000000e+00    0,000000000e+00    0,000000000e+00
     1094000000    2,188480347e-01    9,021340311e-02    7,063207030e-02    9,288327768e-03    0,000000000e+00    0,000000000e+00    0,000000000e+00    0,000000000e+00
     1108000000    2,409169823e-01   -8,934012055e-02    8,191660792e-02    5,184533657e-04    0,000000000e+00    0,000000000e+00    0,000000000e+00    0,000000000e+00
     1122000000    1,817606091e-01   -2,492762804e-01    1,051162183e-01   -2,804177999e-02    0,000000000e+00    0,000000000e+00    0,000000000e+00    0,000000000e+00
     1136000000    5,007110164e-02   -3,760192990e-01    1,270916611e-01   -7,365881652e-02    0,000000000e+00    0,000000000e+00    0,000000000e+00    0,000000000e+00
     1150000000   -1,566128135e-01   -4,194477797e-01    1,365685910e-01   -1,526581049e-01    0,000000000e+00    0,000000000e+00    0,000000000e+00    0,000000000e+00
     1164000000   -3,759350181e-01   -3,271177709e-01    9,707400948e-02   -2,774560153e-01    0,000000000e+00    0,000000000e+00    0,000000000e+00    0,000000000e+00
     1178000000   -4,664273858e-01   -8,613646030e-02   -1,045697555e-01   -4,072812200e-01    0,000000000e+00    0,000000000e+00    0,000000000e+00    0,000000000e+00
     1192000000   -3,704469204e-01    4,164877906e-02   -4,614391923e-01   -1,971173435e-01    0,000000000e+00    0,000000000e+00    0,000000000e+00    0,000000000e+00
     1206000000   -4,120723307e-01    1,278580427e-01   -2,742899954e-01    2,372789085e-01    0,000000000e+00    0,000000000e+00    0,000000000e+00    0,000000000e+00
     1220000000   -2,764848173e-01    3,322114944e-01   -2,880303655e-03    1,634220779e-01    0,000000000e+00    0,000000000e+00    0,000000000e+00    0,000000000e+00
     1234000000   -4,288700223e-02    3,476490378e-01    2,527421154e-02    5,497545749e-02    0,000000000e+00    0,000000000e+00    0,000000000e+00    0,000000000e+00
     1248000000    1,242057383e-01    2,518976629e-01    3,154917154e-03    2,239311486e-02    0,000000000e+00    0,000000000e+00    0,000000000e+00    0,000000000e+00
     1262000000    2,143366933e-01    1,069153100e-01    6,439951248e-03    3,329886869e-02    0,000000000e+00    0,000000000e+00    0,000000000e+00    0,000000000e+00
     1276000000    2,323610932e-01   -5,568718910e-02    2,569834143e-02    3,728653863e-02    0,000000000e+00    0,000000000e+00    0,000000000e+00    0,000000000e+00
     1290000000    1,923853904e-01   -2,169956267e-01    5,447970703e-02    2,166325413e-02    0,000000000e+00    0,000000000e+00    0,000000000e+00    0,000000000e+00
     1304000000    8,239345998e-02   -3,615667820e-01    7,487042993e-02    8,068188909e-04    0,000000000e+00    0,000000000e+00    0,000000000e+00    0,000000000e+00
     1318000000   -1,015617549e-01   -4,516822696e-01    8,594216406e-02   -1,842371747e-02    0,000000000e+00    0,000000000e+00    0,000000000e+00    0,000000000e+00
     1332000000   -3,527598977e-01   -4,300092161e-01    8,150589466e-02   -1,628240384e-02    0,000000000e+00    0,000000000e+00    0,000000000e+00    0,000000000e+00
     1346000000   -5,906689763e-01   -2,448131740e-01    1,050430760e-01   -1,134348195e-02    0,000000000e+00    0,000000000e+00    0,000000000e+00    0,000000000e+00
     1360000000   -6,452874541e-01    7,449699193e-02    1,488459855e-01   -1,112926379e-02    0,000000000e+00    0,000000000e+00    0,000000000e+00    0,000000000e+00
     1374000000   -4,939036965e-01    3,392738104e-01    1,600536853e-01   -3,814386949e-02    0,000000000e+00    0,000000000e+00    0,000000000e+00    0,000000000e+00
     1388000000   -2,530275583e-01    4,224290848e-01    1,645590514e-01   -7,797113806e-02    0,000000000e+00    0,000000000e+00    0,000000000e+00    0,000000000e+00
     1402000000   -3,796129301e-02    3,850007355e-01    1,458873451e-01   -9,494062513e-02    0,000000000e+00    0,000000000e+00    0,000000000e+00    0,000000000e+00
     1416000000    1,036579385e-01    2,829907238e-01    1,198832244e-01   -9,107826650e-02    0,000000000e+00    0,000000000e+00    0,000000000e+00    0,000000000e+00
     1430000000    1,919305772e-01    1,542354971e-01    1,284215301e-01   -7,987654209e-02    0,000000000e+00    0,000000000e+00    0,000000000e+00    0,000000000e+00
     1444000000    2,136596292e-01   -1,198321860e-02    1,230956838e-01   -2,675089799e-02    0,000000000e+00    0,000000000e+00    0,000000000e+00    0,000000000e+00
     1458000000    1,803406626e-01   -1,826532781e-01    1,575722098e-01    2,513781004e-02    0,000000000e+00    0,000000000e+00    0,000000000e+00    0,000000000e+00
     1472000000    6,402588636e-02   -3,504777551e-01    1,945998818e-01    5,626774579e-02    0,000000000e+00    0,000000000e+00    0,000000000e+00    0,000000000e+00
     1486000000   -1,488389373e-01   -4,672828317e-01    2,763917744e-01    9,955357760e-02    0,000000000e+00    0,000000000e+00    0,000000000e+00    0,000000000e+00
     1500000000   -4,430145919e-01   -4,785895050e-01    3,987035751e-01    4,488988593e-02    0,000000000e+00    0,000000000e+00    0,000000000e+00    0,000000000e+00
