! NanoVNA-App
! Date: 2025-09-25 16:03:09
! Start: 100MHz Stop: 1,5GHz Points: 101
! S-Parameter data: F S11 S21 S12 S22
# Hz S RI R 50
!     Frequency           S11_Real           S11_Imag           S21_Real           S21_Imag           S12_Real           S12_Imag           S22_Real           S22_Imag
      100000000   -2,831533179e-02   -2,892187331e-03    3,722716570e-01   -7,224115729e-01    0,000000000e+00    0,000000000e+00    0,000000000e+00    0,000000000e+00
      114000000   -1,575580984e-02    1,289668493e-02   -9,140578657e-02   -8,045857549e-01    0,000000000e+00    0,000000000e+00    0,000000000e+00    0,000000000e+00
      128000000    4,339748994e-03    1,196162403e-02   -5,159655809e-01   -6,190614104e-01    0,000000000e+00    0,000000000e+00    0,000000000e+00    0,000000000e+00
      142000000    1,548481360e-02   -1,720246626e-03   -7,673772573e-01   -2,339916825e-01    0,000000000e+00    0,000000000e+00    0,000000000e+00    0,000000000e+00
      156000000    1,534657739e-02   -1,294915006e-02   -7,642865181e-01    2,207753509e-01    0,000000000e+00    0,000000000e+00    0,000000000e+00    0,000000000e+00
      170000000    1,764450036e-02   -2,098343708e-02   -5,153322816e-01    6,061984301e-01    0,000000000e+00    0,000000000e+00    0,000000000e+00    0,000000000e+00
      184000000    2,199754491e-02   -3,551920131e-02   -9,822992980e-02    7,860489488e-01    0,000000000e+00    0,000000000e+00    0,000000000e+00    0,000000000e+00
      198000000    1,402248908e-02   -6,065323576e-02    3,462708592e-01    7,107818723e-01    0,000000000e+00    0,000000000e+00    0,000000000e+00    0,000000000e+00
      212000000   -1,763824001e-02   -7,911187410e-02    6,808292270e-01    4,062100947e-01    0,000000000e+00    0,000000000e+00    0,000000000e+00    0,000000000e+00
      226000000   -6,034436822e-02   -6,663356721e-02    7,958689928e-01   -3,561965749e-02    0,000000000e+00    0,000000000e+00    0,000000000e+00    0,000000000e+00
      240000000   -8,055341244e-02   -2,279729769e-02    6,415885091e-01   -4,718306065e-01    0,000000000e+00    0,000000000e+00    0,000000000e+00    0,000000000e+00
      254000000   -6,079460680e-02    1,978016831e-02    2,710752487e-01   -7,421172261e-01    0,000000000e+00    0,000000000e+00    0,000000000e+00    0,000000000e+00
      268000000   -2,099641040e-02    3,087975271e-02   -1,810526848e-01   -7,609242797e-01    0,000000000e+00    0,000000000e+00    0,000000000e+00    0,000000000e+00
      282000000    6,909698248e-03    1,380434819e-02   -5,632686615e-01   -5,324183702e-01    0,000000000e+00    0,000000000e+00    0,000000000e+00    0,000000000e+00
      296000000    1,253685076e-02   -6,213468965e-03   -7,605777383e-01   -1,343178749e-01    0,000000000e+00    0,000000000e+00    0,000000000e+00    0,000000000e+00
      310000000    1,345045678e-02   -1,459493022e-02   -7,099408507e-01    3,039256632e-01    0,000000000e+00    0,000000000e+00    0,000000000e+00    0,000000000e+00
      324000000    2,255860716e-02   -2,462418564e-02   -4,220254123e-01    6,403447390e-01    0,000000000e+00    0,000000000e+00    0,000000000e+00    0,000000000e+00
      338000000    2,810536884e-02   -5,082211643e-02   -1,684746938e-03    7,628456354e-01    0,000000000e+00    0,000000000e+00    0,000000000e+00    0,000000000e+00
      352000000    1,008587144e-02   -8,293496817e-02    4,111516476e-01    6,354432702e-01    0,000000000e+00    0,000000000e+00    0,000000000e+00    0,000000000e+00
      366000000   -3,158839047e-02   -9,370768070e-02    6,939561367e-01    3,038369417e-01    0,000000000e+00    0,000000000e+00    0,000000000e+00    0,000000000e+00
      380000000   -6,749472022e-02   -6,879555434e-02    7,454666495e-01   -1,344305575e-01    0,000000000e+00    0,000000000e+00    0,000000000e+00    0,000000000e+00
      394000000   -6,861121953e-02   -3,040525876e-02    5,388212204e-01   -5,288243890e-01    0,000000000e+00    0,000000000e+00    0,000000000e+00    0,000000000e+00
      408000000   -4,277283698e-02   -1,541367825e-02    1,495792717e-01   -7,332915664e-01    0,000000000e+00    0,000000000e+00    0,000000000e+00    0,000000000e+00
      422000000   -2,605694346e-02   -3,109158576e-02   -2,789343297e-01   -6,885880232e-01    0,000000000e+00    0,000000000e+00    0,000000000e+00    0,000000000e+00
      436000000   -3,937323764e-02   -4,903557897e-02   -6,102266312e-01   -4,198394418e-01    0,000000000e+00    0,000000000e+00    0,000000000e+00    0,000000000e+00
      450000000   -6,497573853e-02   -3,918516263e-02   -7,372670770e-01   -7,880162448e-03    0,000000000e+00    0,000000000e+00    0,000000000e+00    0,000000000e+00
      464000000   -6,736117601e-02   -6,138960831e-03   -6,077448726e-01    4,062569737e-01    0,000000000e+00    0,000000000e+00    0,000000000e+00    0,000000000e+00
      478000000   -3,856703639e-02    1,638845541e-02   -2,681266963e-01    6,706002355e-01    0,000000000e+00    0,000000000e+00    0,000000000e+00    0,000000000e+00
      492000000   -5,238941871e-03    6,468698848e-03    1,522382349e-01    6,954100132e-01    0,000000000e+00    0,000000000e+00    0,000000000e+00    0,000000000e+00
      506000000    7,006576285e-03   -2,028319240e-02    5,080138445e-01    4,886616468e-01    0,000000000e+00    0,000000000e+00    0,000000000e+00    0,000000000e+00
      520000000    9,057818679e-04   -3,895877674e-02    6,908927560e-01    1,227430031e-01    0,000000000e+00    0,000000000e+00    0,000000000e+00    0,000000000e+00
      534000000   -3,002757905e-03   -4,563216493e-02    6,328493357e-01   -2,821168303e-01    0,000000000e+00    0,000000000e+00    0,000000000e+00    0,000000000e+00
      548000000    1,037400914e-03   -5,959904939e-02    3,604495823e-01   -5,787784457e-01    0,000000000e+00    0,000000000e+00    0,000000000e+00    0,000000000e+00
      562000000   -7,495698519e-03   -8,825042844e-02   -2,707156353e-02   -6,732037067e-01    0,000000000e+00    0,000000000e+00    0,000000000e+00    0,000000000e+00
      576000000   -4,551620781e-02   -1,094850078e-01   -4,011363387e-01   -5,389014482e-01    0,000000000e+00    0,000000000e+00    0,000000000e+00    0,000000000e+00
      590000000   -9,455776960e-02   -9,378763288e-02   -6,424953938e-01   -2,187361419e-01    0,000000000e+00    0,000000000e+00    0,000000000e+00    0,000000000e+00
      604000000   -1,118638441e-01   -4,134287685e-02   -6,478117704e-01    1,983653605e-01    0,000000000e+00    0,000000000e+00    0,000000000e+00    0,000000000e+00
      618000000   -7,568869740e-02   -2,693105256e-03   -4,023734033e-01    5,358477235e-01    0,000000000e+00    0,000000000e+00    0,000000000e+00    0,000000000e+00
      632000000   -3,036160581e-02   -2,051912062e-02   -1,272663102e-02    6,561154127e-01    0,000000000e+00    0,000000000e+00    0,000000000e+00    0,000000000e+00
      646000000   -3,673475236e-02   -7,631571591e-02    3,656865954e-01    5,270933509e-01    0,000000000e+00    0,000000000e+00    0,000000000e+00    0,000000000e+00
      660000000   -1,120076850e-01   -9,994089603e-02    6,011520624e-01    1,941127330e-01    0,000000000e+00    0,000000000e+00    0,000000000e+00    0,000000000e+00
      674000000   -1,990441978e-01   -2,329501510e-02    5,656678081e-01   -2,393730581e-01    0,000000000e+00    0,000000000e+00    0,000000000e+00    0,000000000e+00
      688000000   -1,790203750e-01    1,433659345e-01    2,104342580e-01   -5,223815441e-01    0,000000000e+00    0,000000000e+00    0,000000000e+00    0,000000000e+00
      702000000    2,309706807e-02    2,454739809e-01   -1,965728998e-01   -4,125279486e-01    0,000000000e+00    0,000000000e+00    0,000000000e+00    0,000000000e+00
      716000000    2,628710568e-01    1,117112115e-01   -2,743489146e-01   -8,426821232e-02    0,000000000e+00    0,000000000e+00    0,000000000e+00    0,000000000e+00
      730000000    3,042864799e-01   -1,856606603e-01   -1,085357592e-01    3,307491541e-02    0,000000000e+00    0,000000000e+00    0,000000000e+00    0,000000000e+00
      744000000    9,552177787e-02   -4,272540212e-01   -4,228777811e-02   -6,375894696e-02    0,000000000e+00    0,000000000e+00    0,000000000e+00    0,000000000e+00
      758000000   -2,591109872e-01   -4,307361245e-01   -1,742835194e-01   -1,251623183e-01    0,000000000e+00    0,000000000e+00    0,000000000e+00    0,000000000e+00
      772000000   -4,869211316e-01   -1,208323017e-01   -3,355962336e-01    3,735653684e-02    0,000000000e+00    0,000000000e+00    0,000000000e+00    0,000000000e+00
      786000000   -3,417931795e-01    2,220136225e-01   -2,633554041e-01    3,152979016e-01    0,000000000e+00    0,000000000e+00    0,000000000e+00    0,000000000e+00
      800000000   -4,111083224e-02    2,768597007e-01    2,426809166e-03    4,363560081e-01    0,000000000e+00    0,000000000e+00    0,000000000e+00    0,000000000e+00
      814000000    1,446600109e-01    1,256422251e-01    2,627739310e-01    3,595982790e-01    0,000000000e+00    0,000000000e+00    0,000000000e+00    0,000000000e+00
      828000000    1,680942327e-01   -6,999323517e-02    4,331862628e-01    1,574769467e-01    0,000000000e+00    0,000000000e+00    0,000000000e+00    0,000000000e+00
      842000000    6,843111664e-02   -2,188049853e-01    4,666886628e-01   -1,196347624e-01    0,000000000e+00    0,000000000e+00    0,000000000e+00    0,000000000e+00
      856000000   -1,068731323e-01   -2,643078864e-01    3,203254938e-01   -3,940984607e-01    0,000000000e+00    0,000000000e+00    0,000000000e+00    0,000000000e+00
      870000000   -2,744139433e-01   -1,691909581e-01   -2,230104525e-03   -5,277470350e-01    0,000000000e+00    0,000000000e+00    0,000000000e+00    0,000000000e+00
      884000000   -3,206166327e-01    3,527729586e-02   -3,472339511e-01   -3,934847414e-01    0,000000000e+00    0,000000000e+00    0,000000000e+00    0,000000000e+00
      898000000   -1,932719797e-01    2,068486959e-01   -4,895314872e-01   -6,218381599e-02    0,000000000e+00    0,000000000e+00    0,000000000e+00    0,000000000e+00
      912000000    7,574017625e-03    2,192135453e-01   -4,075755179e-01    2,663462758e-01    0,000000000e+00    0,000000000e+00    0,000000000e+00    0,000000000e+00
      926000000    1,502273828e-01    1,113598794e-01   -1,701567769e-01    4,152006209e-01    0,000000000e+00    0,000000000e+00    0,000000000e+00    0,000000000e+00
      940000000    1,972974092e-01   -4,482711852e-02    6,249373406e-02    4,253666699e-01    0,000000000e+00    0,000000000e+00    0,000000000e+00    0,000000000e+00
      954000000    1,530924737e-01   -2,035995275e-01    2,582085133e-01    3,424634933e-01    0,000000000e+00    0,000000000e+00    0,000000000e+00    0,000000000e+00
      968000000    2,344155870e-02   -3,157631457e-01    4,099020064e-01    1,795344949e-01    0,000000000e+00    0,000000000e+00    0,000000000e+00    0,000000000e+00
      982000000   -1,625667065e-01   -3,290271759e-01    4,755261242e-01   -6,773017347e-02    0,000000000e+00    0,000000000e+00    0,000000000e+00    0,000000000e+00
      996000000   -3,248163760e-01   -2,138445526e-01    3,689738214e-01   -3,575952053e-01    0,000000000e+00    0,000000000e+00    0,000000000e+00    0,000000000e+00
     1010000000   -3,411358893e-01   -9,299421683e-03    4,083862901e-02   -5,247896910e-01    0,000000000e+00    0,000000000e+00    0,000000000e+00    0,000000000e+00
     1024000000   -2,035130411e-01    9,307769686e-02   -3,446226716e-01   -3,818024993e-01    0,000000000e+00    0,000000000e+00    0,000000000e+00    0,000000000e+00
     1038000000   -1,366564184e-01    8,816169575e-03   -4,820981324e-01    6,309085339e-02    0,000000000e+00    0,000000000e+00    0,000000000e+00    0,000000000e+00
     1052000000   -2,838992774e-01    5,562374368e-02   -9,510532022e-02    3,755904436e-01    0,000000000e+00    0,000000000e+00    0,000000000e+00    0,000000000e+00
     1066000000   -1,508751661e-01    3,002351820e-01    1,438253522e-01    1,329421699e-01    0,000000000e+00    0,000000000e+00    0,000000000e+00    0,000000000e+00
     1080000000    9,833213687e-02    2,534658909e-01    9,012678266e-02    2,051595226e-02    0,000000000e+00    0,000000000e+00    0,000000000e+00    0,000000000e+00
     1094000000    2,174547017e-01    9,044867009e-02    6,779289991e-02    7,811640855e-03    0,000000000e+00    0,000000000e+00    0,000000000e+00    0,000000000e+00
     1108000000    2,410282791e-01   -9,054883569e-02    8,132991940e-02    1,246843371e-03    0,000000000e+00    0,000000000e+00    0,000000000e+00    0,000000000e+00
     1122000000    1,817291379e-01   -2,519233227e-01    1,041833162e-01   -2,544053644e-02    0,000000000e+00    0,000000000e+00    0,000000000e+00    0,000000000e+00
     1136000000    4,957039282e-02   -3,741814792e-01    1,276091188e-01   -7,366142422e-02    0,000000000e+00    0,000000000e+00    0,000000000e+00    0,000000000e+00
     1150000000   -1,553029567e-01   -4,270642698e-01    1,382088363e-01   -1,484711766e-01    0,000000000e+00    0,000000000e+00    0,000000000e+00    0,000000000e+00
     1164000000   -3,756543100e-01   -3,249509931e-01    9,913941473e-02   -2,774983346e-01    0,000000000e+00    0,000000000e+00    0,000000000e+00    0,000000000e+00
     1178000000   -4,630371034e-01   -8,447682112e-02   -1,046351641e-01   -4,053153992e-01    0,000000000e+00    0,000000000e+00    0,000000000e+00    0,000000000e+00
     1192000000   -3,741807640e-01    4,197449982e-02   -4,636425674e-01   -1,934853494e-01    0,000000000e+00    0,000000000e+00    0,000000000e+00    0,000000000e+00
     1206000000   -4,137621224e-01    1,351144016e-01   -2,762914300e-01    2,388192862e-01    0,000000000e+00    0,000000000e+00    0,000000000e+00    0,000000000e+00
     1220000000   -2,733034492e-01    3,287747800e-01   -2,880868560e-04    1,619364023e-01    0,000000000e+00    0,000000000e+00    0,000000000e+00    0,000000000e+00
     1234000000   -4,690507427e-02    3,501094878e-01    1,983802207e-02    5,362564698e-02    0,000000000e+00    0,000000000e+00    0,000000000e+00    0,000000000e+00
     1248000000    1,237993240e-01    2,487722337e-01    8,985402994e-03    1,838586107e-02    0,000000000e+00    0,000000000e+00    0,000000000e+00    0,000000000e+00
     1262000000    2,097085565e-01    1,013732851e-01    1,816361793e-03    3,095824644e-02    0,000000000e+00    0,000000000e+00    0,000000000e+00    0,000000000e+00
     1276000000    2,331041694e-01   -5,479245633e-02    2,041449770e-02    3,546972573e-02    0,000000000e+00    0,000000000e+00    0,000000000e+00    0,000000000e+00
     1290000000    1,908640265e-01   -2,159133554e-01    5,464437976e-02    2,788938396e-02    0,000000000e+00    0,000000000e+00    0,000000000e+00    0,000000000e+00
     1304000000    8,076229692e-02   -3,595087826e-01    7,493635267e-02    3,897594986e-03    0,000000000e+00    0,000000000e+00    0,000000000e+00    0,000000000e+00
     1318000000   -1,069452837e-01   -4,487352967e-01    8,224095404e-02   -1,865653507e-02    0,000000000e+00    0,000000000e+00    0,000000000e+00    0,000000000e+00
     1332000000   -3,552451432e-01   -4,335648119e-01    9,017802030e-02   -1,209786348e-02    0,000000000e+00    0,000000000e+00    0,000000000e+00    0,000000000e+00
     1346000000   -5,894431472e-01   -2,509449124e-01    1,029078290e-01   -6,152825430e-03    0,000000000e+00    0,000000000e+00    0,000000000e+00    0,000000000e+00
     1360000000   -6,467974782e-01    7,488407195e-02    1,437931508e-01   -2,179054357e-02    0,000000000e+00    0,000000000e+00    0,000000000e+00    0,000000000e+00
     1374000000   -4,926224053e-01    3,340480626e-01    1,593512893e-01   -4,857803509e-02    0,000000000e+00    0,000000000e+00    0,000000000e+00    0,000000000e+00
     1388000000   -2,494477481e-01    4,239232540e-01    1,711558998e-01   -8,467358351e-02    0,000000000e+00    0,000000000e+00    0,000000000e+00    0,000000000e+00
     1402000000   -4,293050244e-02    3,898079395e-01    1,434530765e-01   -9,257798642e-02    0,000000000e+00    0,000000000e+00    0,000000000e+00    0,000000000e+00
     1416000000    1,044326201e-01    2,888129056e-01    1,285793185e-01   -8,654165268e-02    0,000000000e+00    0,000000000e+00    0,000000000e+00    0,000000000e+00
     1430000000    1,928867400e-01    1,482263207e-01    1,118595377e-01   -6,655341387e-02    0,000000000e+00    0,000000000e+00    0,000000000e+00    0,000000000e+00
     1444000000    2,135141492e-01   -1,515369769e-02    1,172230765e-01   -3,809775785e-02    0,000000000e+00    0,000000000e+00    0,000000000e+00    0,000000000e+00
     1458000000    1,824684143e-01   -1,828171462e-01    1,559953839e-01    1,713309251e-02    0,000000000e+00    0,000000000e+00    0,000000000e+00    0,000000000e+00
     1472000000    6,228989735e-02   -3,545681238e-01    1,871405095e-01    4,926408827e-02    0,000000000e+00    0,000000000e+00    0,000000000e+00    0,000000000e+00
     1486000000   -1,429413110e-01   -4,706372321e-01    3,022840023e-01    9,225501120e-02    0,000000000e+00    0,000000000e+00    0,000000000e+00    0,000000000e+00
     1500000000   -4,352061749e-01   -4,696548581e-01    3,927124441e-01    6,509231776e-02    0,000000000e+00    0,000000000e+00    0,000000000e+00    0,000000000e+00
