! NanoVNA-App
! Date: 2025-09-25 16:03:08
! Start: 100MHz Stop: 1,5GHz Points: 101
! S-Parameter data: F S11 S21 S12 S22
# Hz S RI R 50
!     Frequency           S11_Real           S11_Imag           S21_Real           S21_Imag           S12_Real           S12_Imag           S22_Real           S22_Imag
      100000000   -2,831150219e-02   -2,866524737e-03    3,723008633e-01   -7,224849463e-01    0,000000000e+00    0,000000000e+00    0,000000000e+00    0,000000000e+00
      114000000   -1,576771401e-02    1,289507933e-02   -9,119901806e-02   -8,047057390e-01    0,000000000e+00    0,000000000e+00    0,000000000e+00    0,000000000e+00
      128000000    4,331002943e-03    1,197938249e-02   -5,159364939e-01   -6,188520193e-01    0,000000000e+00    0,000000000e+00    0,000000000e+00    0,000000000e+00
      142000000    1,545452699e-02   -1,695059356e-03   -7,673875093e-01   -2,339879125e-01    0,000000000e+00    0,000000000e+00    0,000000000e+00    0,000000000e+00
      156000000    1,565081254e-02   -1,358761080e-02   -7,700052261e-01    2,231677771e-01    0,000000000e+00    0,000000000e+00    0,000000000e+00    0,000000000e+00
      170000000    1,768945903e-02   -2,094601654e-02   -5,153441429e-01    6,061668992e-01    0,000000000e+00    0,000000000e+00    0,000000000e+00    0,000000000e+00
      184000000    2,197070047e-02   -3,558917716e-02   -9,821221977e-02    7,855718136e-01    0,000000000e+00    0,000000000e+00    0,000000000e+00    0,000000000e+00
      198000000    1,401727647e-02   -6,065658852e-02    3,460569680e-01    7,109307051e-01    0,000000000e+00    0,000000000e+00    0,000000000e+00    0,000000000e+00
      212000000   -1,764954627e-02   -7,909172773e-02    6,808246374e-01    4,063546658e-01    0,000000000e+00    0,000000000e+00    0,000000000e+00    0,000000000e+00
      226000000   -6,030147523e-02   -6,659522653e-02    7,959246635e-01   -3,561067209e-02    0,000000000e+00    0,000000000e+00    0,000000000e+00    0,000000000e+00
      240000000   -8,057639003e-02   -2,278891206e-02    6,418957114e-01   -4,718332291e-01    0,000000000e+00    0,000000000e+00    0,000000000e+00    0,000000000e+00
      254000000   -6,076918915e-02    1,984659396e-02    2,710191309e-01   -7,421130538e-01    0,000000000e+00    0,000000000e+00    0,000000000e+00    0,000000000e+00
      268000000   -2,100440860e-02    3,088860027e-02   -1,809869260e-01   -7,608561516e-01    0,000000000e+00    0,000000000e+00    0,000000000e+00    0,000000000e+00
      282000000    7,001772523e-03    1,379954908e-02   -5,631096959e-01   -5,326095223e-01    0,000000000e+00    0,000000000e+00    0,000000000e+00    0,000000000e+00
      296000000    1,241612341e-02   -6,207776722e-03   -7,604042888e-01   -1,343705207e-01    0,000000000e+00    0,000000000e+00    0,000000000e+00    0,000000000e+00
      310000000    1,355696283e-02   -1,444460545e-02   -7,079130411e-01    3,053921163e-01    0,000000000e+00    0,000000000e+00    0,000000000e+00    0,000000000e+00
      324000000    2,251179144e-02   -2,465256676e-02   -4,213028550e-01    6,405713558e-01    0,000000000e+00    0,000000000e+00    0,000000000e+00    0,000000000e+00
      338000000    2,857022360e-02   -5,063299090e-02   -3,145375522e-03    7,576230168e-01    0,000000000e+00    0,000000000e+00    0,000000000e+00    0,000000000e+00
      352000000    1,022166200e-02   -8,280666918e-02    4,109617174e-01    6,364886165e-01    0,000000000e+00    0,000000000e+00    0,000000000e+00    0,000000000e+00
      366000000   -3,172345087e-02   -9,388641268e-02    6,930763721e-01    3,036499023e-01    0,000000000e+00    0,000000000e+00    0,000000000e+00    0,000000000e+00
      380000000   -6,762749702e-02   -6,887978315e-02    7,464719415e-01   -1,350436211e-01    0,000000000e+00    0,000000000e+00    0,000000000e+00    0,000000000e+00
      394000000   -6,838566810e-02   -3,043433838e-02    5,400540829e-01   -5,289103985e-01    0,000000000e+00    0,000000000e+00    0,000000000e+00    0,000000000e+00
      408000000   -4,285999760e-02   -1,554127969e-02    1,494058222e-01   -7,334464788e-01    0,000000000e+00    0,000000000e+00    0,000000000e+00    0,000000000e+00
      422000000   -2,634469047e-02   -3,132995591e-02   -2,794410586e-01   -6,903257966e-01    0,000000000e+00    0,000000000e+00    0,000000000e+00    0,000000000e+00
      436000000   -3,919820487e-02   -4,891216010e-02   -6,107208729e-01   -4,202672243e-01    0,000000000e+00    0,000000000e+00    0,000000000e+00    0,000000000e+00
      450000000   -6,486380100e-02   -3,902235627e-02   -7,372043729e-01   -6,949312054e-03    0,000000000e+00    0,000000000e+00    0,000000000e+00    0,000000000e+00
      464000000   -6,780479848e-02   -6,501347292e-03   -6,079007983e-01    4,062646627e-01    0,000000000e+00    0,000000000e+00    0,000000000e+00    0,000000000e+00
      478000000   -3,846472502e-02    1,583107747e-02   -2,675929666e-01    6,708295345e-01    0,000000000e+00    0,000000000e+00    0,000000000e+00    0,000000000e+00
      492000000   -5,413100123e-03    6,646473426e-03    1,512542367e-01    6,959795952e-01    0,000000000e+00    0,000000000e+00    0,000000000e+00    0,000000000e+00
      506000000    6,807615049e-03   -2,033330314e-02    5,073330998e-01    4,888470173e-01    0,000000000e+00    0,000000000e+00    0,000000000e+00    0,000000000e+00
      520000000    7,530417060e-04   -3,840437904e-02    6,905639768e-01    1,226553172e-01    0,000000000e+00    0,000000000e+00    0,000000000e+00    0,000000000e+00
      534000000   -3,087567165e-03   -4,564197361e-02    6,326100826e-01   -2,821360230e-01    0,000000000e+00    0,000000000e+00    0,000000000e+00    0,000000000e+00
      548000000    1,110873884e-03   -5,978224427e-02    3,600721359e-01   -5,800251961e-01    0,000000000e+00    0,000000000e+00    0,000000000e+00    0,000000000e+00
      562000000   -7,953747176e-03   -8,838719875e-02   -2,712698653e-02   -6,727399826e-01    0,000000000e+00    0,000000000e+00    0,000000000e+00    0,000000000e+00
      576000000   -4,511127248e-02   -1,095927730e-01   -4,014529288e-01   -5,389018655e-01    0,000000000e+00    0,000000000e+00    0,000000000e+00    0,000000000e+00
      590000000   -9,481561184e-02   -9,350189567e-02   -6,402576566e-01   -2,168992460e-01    0,000000000e+00    0,000000000e+00    0,000000000e+00    0,000000000e+00
      604000000   -1,117860153e-01   -4,086576030e-02   -6,475061774e-01    1,987252235e-01    0,000000000e+00    0,000000000e+00    0,000000000e+00    0,000000000e+00
      618000000   -7,537342608e-02   -2,651704242e-03   -4,023225307e-01    5,353875756e-01    0,000000000e+00    0,000000000e+00    0,000000000e+00    0,000000000e+00
      632000000   -3,065623343e-02   -2,122609317e-02   -1,285619661e-02    6,563977599e-01    0,000000000e+00    0,000000000e+00    0,000000000e+00    0,000000000e+00
      646000000   -3,628673777e-02   -7,607536018e-02    3,663896918e-01    5,274276137e-01    0,000000000e+00    0,000000000e+00    0,000000000e+00    0,000000000e+00
      660000000   -1,116532981e-01   -9,913059324e-02    6,011545658e-01    1,939235330e-01    0,000000000e+00    0,000000000e+00    0,000000000e+00    0,000000000e+00
      674000000   -1,986715049e-01   -2,445191890e-02    5,658118725e-01   -2,393770069e-01    0,000000000e+00    0,000000000e+00    0,000000000e+00    0,000000000e+00
      688000000   -1,778877378e-01    1,441913992e-01    2,101370245e-01   -5,222406983e-01    0,000000000e+00    0,000000000e+00    0,000000000e+00    0,000000000e+00
      702000000    2,478358708e-02    2,430404723e-01   -1,944241226e-01   -4,022327363e-01    0,000000000e+00    0,000000000e+00    0,000000000e+00    0,000000000e+00
      716000000    2,627537549e-01    1,107477620e-01   -2,743649781e-01   -8,439782262e-02    0,000000000e+00    0,000000000e+00    0,000000000e+00    0,000000000e+00
      730000000    3,039515316e-01   -1,854910702e-01   -1,081941277e-01    3,308470547e-02    0,000000000e+00    0,000000000e+00    0,000000000e+00    0,000000000e+00
      744000000    9,511807561e-02   -4,279072583e-01   -4,238890111e-02   -6,354542077e-02    0,000000000e+00    0,000000000e+00    0,000000000e+00    0,000000000e+00
      758000000   -2,577461004e-01   -4,304177463e-01   -1,751878411e-01   -1,250663549e-01    0,000000000e+00    0,000000000e+00    0,000000000e+00    0,000000000e+00
      772000000   -4,847469926e-01   -1,199890450e-01   -3,360937834e-01    3,716628253e-02    0,000000000e+00    0,000000000e+00    0,000000000e+00    0,000000000e+00
      786000000   -3,415905237e-01    2,220178396e-01   -2,637820840e-01    3,157264590e-01    0,000000000e+00    0,000000000e+00    0,000000000e+00    0,000000000e+00
      800000000   -4,054589942e-02    2,776577473e-01    2,630511066e-03    4,357719421e-01    0,000000000e+00    0,000000000e+00    0,000000000e+00    0,000000000e+00
      814000000    1,445594579e-01    1,256892979e-01    2,633976936e-01    3,595264852e-01    0,000000000e+00    0,000000000e+00    0,000000000e+00    0,000000000e+00
      828000000    1,682396829e-01   -7,021350414e-02    4,324836731e-01    1,573693752e-01    0,000000000e+00    0,000000000e+00    0,000000000e+00    0,000000000e+00
      842000000    6,738685071e-02   -2,187752128e-01    4,665159881e-01   -1,197045222e-01    0,000000000e+00    0,000000000e+00    0,000000000e+00    0,000000000e+00
      856000000   -1,060955673e-01   -2,638361156e-01    3,192704916e-01   -3,945586383e-01    0,000000000e+00    0,000000000e+00    0,000000000e+00    0,000000000e+00
      870000000   -2,747255564e-01   -1,689658761e-01   -2,004810842e-03   -5,272441506e-01    0,000000000e+00    0,000000000e+00    0,000000000e+00    0,000000000e+00
      884000000   -3,202481270e-01    3,570549190e-02   -3,469152153e-01   -3,920541108e-01    0,000000000e+00    0,000000000e+00    0,000000000e+00    0,000000000e+00
      898000000   -1,925253719e-01    2,063872665e-01   -4,887031913e-01   -6,340740621e-02    0,000000000e+00    0,000000000e+00    0,000000000e+00    0,000000000e+00
      912000000    7,148678880e-03    2,200208008e-01   -3,974938989e-01    2,804958224e-01    0,000000000e+00    0,000000000e+00    0,000000000e+00    0,000000000e+00
      926000000    1,493493617e-01    1,138740703e-01   -1,708303541e-01    4,172358513e-01    0,000000000e+00    0,000000000e+00    0,000000000e+00    0,000000000e+00
      940000000    2,009799331e-01   -4,538751021e-02    6,449311227e-02    4,260629714e-01    0,000000000e+00    0,000000000e+00    0,000000000e+00    0,000000000e+00
      954000000    1,553437114e-01   -2,005292475e-01    2,617010176e-01    3,418070078e-01    0,000000000e+00    0,000000000e+00    0,000000000e+00    0,000000000e+00
      968000000    2,567152493e-02   -3,170225322e-01    4,106504917e-01    1,802781820e-01    0,000000000e+00    0,000000000e+00    0,000000000e+00    0,000000000e+00
      982000000   -1,593441516e-01   -3,320746720e-01    4,751156569e-01   -6,567300111e-02    0,000000000e+00    0,000000000e+00    0,000000000e+00    0,000000000e+00
      996000000   -3,271248043e-01   -2,121231556e-01    3,691547215e-01   -3,552526534e-01    0,000000000e+00    0,000000000e+00    0,000000000e+00    0,000000000e+00
     1010000000   -3,411172032e-01   -1,065311674e-02    4,388361797e-02   -5,245594978e-01    0,000000000e+00    0,000000000e+00    0,000000000e+00    0,000000000e+00
     1024000000   -2,036874145e-01    9,182164818e-02   -3,449079990e-01   -3,821613491e-01    0,000000000e+00    0,000000000e+00    0,000000000e+00    0,000000000e+00
     1038000000   -1,373980641e-01    1,157054026e-02   -4,817347229e-01    6,258075684e-02    0,000000000e+00    0,000000000e+00    0,000000000e+00    0,000000000e+00
     1052000000   -2,906971574e-01    5,125547200e-02   -9,553513676e-02    3,735727072e-01    0,000000000e+00    0,000000000e+00    0,000000000e+00    0,000000000e+00
     1066000000   -1,512208283e-01    2,901780009e-01    1,433729827e-01    1,324665844e-01    0,000000000e+00    0,000000000e+00    0,000000000e+00    0,000000000e+00
     1080000000    9,878095984e-02    2,526621521e-01    9,076724946e-02    2,139800787e-02    0,000000000e+00    0,000000000e+00    0,000000000e+00    0,000000000e+00
     1094000000    2,216349393e-01    8,662705868e-02    6,730924547e-02    9,150842205e-03    0,000000000e+00    0,000000000e+00    0,000000000e+00    0,000000000e+00
     1108000000    2,395957261e-01   -8,790442348e-02    7,973597944e-02    1,358124660e-03    0,000000000e+00    0,000000000e+00    0,000000000e+00    0,000000000e+00
     1122000000    1,810618192e-01   -2,506151497e-01    1,027269587e-01   -2,553840168e-02    0,000000000e+00    0,000000000e+00    0,000000000e+00    0,000000000e+00
     1136000000    4,884529114e-02   -3,746044338e-01    1,277979165e-01   -7,168260217e-02    0,000000000e+00    0,000000000e+00    0,000000000e+00    0,000000000e+00
     1150000000   -1,576042920e-01   -4,262369871e-01    1,364417821e-01   -1,501629204e-01    0,000000000e+00    0,000000000e+00    0,000000000e+00    0,000000000e+00
     1164000000   -3,805470169e-01   -3,225176930e-01    9,780462831e-02   -2,743370235e-01    0,000000000e+00    0,000000000e+00    0,000000000e+00    0,000000000e+00
     1178000000   -4,640218318e-01   -8,830041438e-02   -1,047739089e-01   -4,049851596e-01    0,000000000e+00    0,000000000e+00    0,000000000e+00    0,000000000e+00
     1192000000   -3,785475492e-01    3,985647857e-02   -4,594764411e-01   -1,965775043e-01    0,000000000e+00    0,000000000e+00    0,000000000e+00    0,000000000e+00
     1206000000   -4,195254743e-01    1,326041967e-01   -2,742064297e-01    2,359758019e-01    0,000000000e+00    0,000000000e+00    0,000000000e+00    0,000000000e+00
     1220000000   -2,727391720e-01    3,328976631e-01   -2,568280324e-03    1,661839634e-01    0,000000000e+00    0,000000000e+00    0,000000000e+00    0,000000000e+00
     1234000000   -4,824968055e-02    3,540117741e-01    2,931956947e-02    5,571356043e-02    0,000000000e+00    0,000000000e+00    0,000000000e+00    0,000000000e+00
     1248000000    1,194335595e-01    2,533875108e-01   -7,296265103e-04    2,854367904e-02    0,000000000e+00    0,000000000e+00    0,000000000e+00    0,000000000e+00
     1262000000    2,108396292e-01    1,030515730e-01   -2,628876828e-03    3,196249157e-02    0,000000000e+00    0,000000000e+00    0,000000000e+00    0,000000000e+00
     1276000000    2,322957069e-01   -6,180566922e-02    2,705820836e-02    3,305045515e-02    0,000000000e+00    0,000000000e+00    0,000000000e+00    0,000000000e+00
     1290000000    1,950147897e-01   -2,178805023e-01    5,539618805e-02    2,306127362e-02    0,000000000e+00    0,000000000e+00    0,000000000e+00    0,000000000e+00
     1304000000    8,252009749e-02   -3,523608744e-01    7,141916454e-02    1,239372604e-02    0,000000000e+00    0,000000000e+00    0,000000000e+00    0,000000000e+00
     1318000000   -9,770219773e-02   -4,500509501e-01    8,847842366e-02   -5,787800066e-03    0,000000000e+00    0,000000000e+00    0,000000000e+00    0,000000000e+00
     1332000000   -3,584237099e-01   -4,366048276e-01    8,152705431e-02   -1,270785928e-02    0,000000000e+00    0,000000000e+00    0,000000000e+00    0,000000000e+00
     1346000000   -5,896496177e-01   -2,492574453e-01    1,034948230e-01   -7,846939377e-03    0,000000000e+00    0,000000000e+00    0,000000000e+00    0,000000000e+00
     1360000000   -6,533041596e-01    7,216275483e-02    1,452452987e-01   -2,680726908e-02    0,000000000e+00    0,000000000e+00    0,000000000e+00    0,000000000e+00
     1374000000   -4,883045554e-01    3,379344046e-01    1,602157056e-01   -5,176623911e-02    0,000000000e+00    0,000000000e+00    0,000000000e+00    0,000000000e+00
     1388000000   -2,527599633e-01    4,307424128e-01    1,563796252e-01   -7,555880398e-02    0,000000000e+00    0,000000000e+00    0,000000000e+00    0,000000000e+00
     1402000000   -4,186819494e-02    3,918145299e-01    1,489452124e-01   -9,489063919e-02    0,000000000e+00    0,000000000e+00    0,000000000e+00    0,000000000e+00
     1416000000    9,836629778e-02    2,827367783e-01    1,127976254e-01   -8,931340277e-02    0,000000000e+00    0,000000000e+00    0,000000000e+00    0,000000000e+00
     1430000000    1,827178299e-01    1,520527601e-01    9,593166411e-02   -5,400982499e-02    0,000000000e+00    0,000000000e+00    0,000000000e+00    0,000000000e+00
     1444000000    2,189598829e-01   -1,628146134e-02    1,301486045e-01   -3,011710569e-02    0,000000000e+00    0,000000000e+00    0,000000000e+00    0,000000000e+00
     1458000000    1,783360988e-01   -1,819542497e-01    1,437072605e-01    2,147142030e-02    0,000000000e+00    0,000000000e+00    0,000000000e+00    0,000000000e+00
     1472000000    6,820379198e-02   -3,562956750e-01    2,030772567e-01    6,020629779e-02    0,000000000e+00    0,000000000e+00    0,000000000e+00    0,000000000e+00
     1486000000   -1,346463114e-01   -4,707998633e-01    3,039892018e-01    9,463405609e-02    0,000000000e+00    0,000000000e+00    0,000000000e+00    0,000000000e+00
     1500000000   -4,381612837e-01   -4,667194188e-01    4,115801454e-01    6,410402805e-02    0,000000000e+00    0,000000000e+00    0,000000000e+00    0,000000000e+00
