! NanoVNA-App
! Date: 2025-09-25 15:57:45
! Start: 100MHz Stop: 1,5GHz Points: 101
! S-Parameter data: F S11 S21 S12 S22
# Hz S RI R 50
!     Frequency           S11_Real           S11_Imag           S21_Real           S21_Imag           S12_Real           S12_Imag           S22_Real           S22_Imag
      100000000   -2,822015993e-02   -2,832185011e-03    3,722152710e-01   -7,224043608e-01    0,000000000e+00    0,000000000e+00    0,000000000e+00    0,000000000e+00
      114000000   -1,567860693e-02    1,289330516e-02   -9,135423601e-02   -8,047771454e-01    0,000000000e+00    0,000000000e+00    0,000000000e+00    0,000000000e+00
      128000000    4,359079991e-03    1,192873437e-02   -5,158590674e-01   -6,187778711e-01    0,000000000e+00    0,000000000e+00    0,000000000e+00    0,000000000e+00
      142000000    1,547848713e-02   -1,795505523e-03   -7,675163746e-01   -2,341413051e-01    0,000000000e+00    0,000000000e+00    0,000000000e+00    0,000000000e+00
      156000000    1,678235456e-02   -1,395951957e-02   -7,704308629e-01    2,265221924e-01    0,000000000e+00    0,000000000e+00    0,000000000e+00    0,000000000e+00
      170000000    1,761374623e-02   -2,101922780e-02   -5,154021978e-01    6,063477993e-01    0,000000000e+00    0,000000000e+00    0,000000000e+00    0,000000000e+00
      184000000    2,200193703e-02   -3,556147963e-02   -9,832364321e-02    7,861222625e-01    0,000000000e+00    0,000000000e+00    0,000000000e+00    0,000000000e+00
      198000000    1,404784154e-02   -6,064563245e-02    3,461777866e-01    7,109586000e-01    0,000000000e+00    0,000000000e+00    0,000000000e+00    0,000000000e+00
      212000000   -1,770482026e-02   -7,910118997e-02    6,808184981e-01    4,062024653e-01    0,000000000e+00    0,000000000e+00    0,000000000e+00    0,000000000e+00
      226000000   -6,034479290e-02   -6,665692478e-02    7,958003879e-01   -3,561650962e-02    0,000000000e+00    0,000000000e+00    0,000000000e+00    0,000000000e+00
      240000000   -8,056961745e-02   -2,276014350e-02    6,417677402e-01   -4,718942642e-01    0,000000000e+00    0,000000000e+00    0,000000000e+00    0,000000000e+00
      254000000   -6,077197194e-02    1,982128248e-02    2,708657384e-01   -7,420836091e-01    0,000000000e+00    0,000000000e+00    0,000000000e+00    0,000000000e+00
      268000000   -2,100220509e-02    3,089532629e-02   -1,811543703e-01   -7,607730031e-01    0,000000000e+00    0,000000000e+00    0,000000000e+00    0,000000000e+00
      282000000    6,918805651e-03    1,368183456e-02   -5,636166930e-01   -5,326838493e-01    0,000000000e+00    0,000000000e+00    0,000000000e+00    0,000000000e+00
      296000000    1,243277173e-02   -6,214743946e-03   -7,603499889e-01   -1,343900859e-01    0,000000000e+00    0,000000000e+00    0,000000000e+00    0,000000000e+00
      310000000    1,339218300e-02   -1,466392726e-02   -7,090164423e-01    3,033727705e-01    0,000000000e+00    0,000000000e+00    0,000000000e+00    0,000000000e+00
      324000000    2,231217176e-02   -2,472481132e-02   -4,218522608e-01    6,390714645e-01    0,000000000e+00    0,000000000e+00    0,000000000e+00    0,000000000e+00
      338000000    2,863999456e-02   -5,067845806e-02   -3,862344194e-03    7,585633993e-01    0,000000000e+00    0,000000000e+00    0,000000000e+00    0,000000000e+00
      352000000    1,004963927e-02   -8,299595118e-02    4,117161036e-01    6,345353723e-01    0,000000000e+00    0,000000000e+00    0,000000000e+00    0,000000000e+00
      366000000   -3,188619390e-02   -9,369631112e-02    6,930103302e-01    3,046429753e-01    0,000000000e+00    0,000000000e+00    0,000000000e+00    0,000000000e+00
      380000000   -6,741274148e-02   -6,901719421e-02    7,455285788e-01   -1,347753257e-01    0,000000000e+00    0,000000000e+00    0,000000000e+00    0,000000000e+00
      394000000   -6,842369586e-02   -3,055390529e-02    5,386043787e-01   -5,290346146e-01    0,000000000e+00    0,000000000e+00    0,000000000e+00    0,000000000e+00
      408000000   -4,273977876e-02   -1,543826051e-02    1,490529180e-01   -7,334648967e-01    0,000000000e+00    0,000000000e+00    0,000000000e+00    0,000000000e+00
      422000000   -2,581477910e-02   -3,123667836e-02   -2,794670165e-01   -6,907640696e-01    0,000000000e+00    0,000000000e+00    0,000000000e+00    0,000000000e+00
      436000000   -3,941078857e-02   -4,883906990e-02   -6,107937694e-01   -4,198362231e-01    0,000000000e+00    0,000000000e+00    0,000000000e+00    0,000000000e+00
      450000000   -6,488228589e-02   -3,898523748e-02   -7,376604080e-01   -7,641153876e-03    0,000000000e+00    0,000000000e+00    0,000000000e+00    0,000000000e+00
      464000000   -6,752493978e-02   -6,394399796e-03   -6,077787876e-01    4,060166180e-01    0,000000000e+00    0,000000000e+00    0,000000000e+00    0,000000000e+00
      478000000   -3,842581809e-02    1,601619646e-02   -2,674265504e-01    6,708008051e-01    0,000000000e+00    0,000000000e+00    0,000000000e+00    0,000000000e+00
      492000000   -5,193060730e-03    6,575728767e-03    1,517243385e-01    6,948901415e-01    0,000000000e+00    0,000000000e+00    0,000000000e+00    0,000000000e+00
      506000000    6,764140911e-03   -2,006917447e-02    5,075154305e-01    4,880777299e-01    0,000000000e+00    0,000000000e+00    0,000000000e+00    0,000000000e+00
      520000000    4,512699088e-04   -3,838972747e-02    6,881800294e-01    1,225297377e-01    0,000000000e+00    0,000000000e+00    0,000000000e+00    0,000000000e+00
      534000000   -2,915795892e-03   -4,519397393e-02    6,330873966e-01   -2,812183797e-01    0,000000000e+00    0,000000000e+00    0,000000000e+00    0,000000000e+00
      548000000    1,327983569e-03   -5,999579281e-02    3,602998257e-01   -5,790470243e-01    0,000000000e+00    0,000000000e+00    0,000000000e+00    0,000000000e+00
      562000000   -7,733261213e-03   -8,864919096e-02   -2,632468380e-02   -6,724095941e-01    0,000000000e+00    0,000000000e+00    0,000000000e+00    0,000000000e+00
      576000000   -4,495410249e-02   -1,094887257e-01   -4,016985893e-01   -5,381387472e-01    0,000000000e+00    0,000000000e+00    0,000000000e+00    0,000000000e+00
      590000000   -9,473536909e-02   -9,358316660e-02   -6,415637136e-01   -2,200488299e-01    0,000000000e+00    0,000000000e+00    0,000000000e+00    0,000000000e+00
      604000000   -1,116250604e-01   -4,087712616e-02   -6,480087638e-01    1,989177912e-01    0,000000000e+00    0,000000000e+00    0,000000000e+00    0,000000000e+00
      618000000   -7,606995851e-02   -2,217115834e-03   -4,012958109e-01    5,359494090e-01    0,000000000e+00    0,000000000e+00    0,000000000e+00    0,000000000e+00
      632000000   -3,034329042e-02   -2,129253186e-02   -1,208406594e-02    6,553390622e-01    0,000000000e+00    0,000000000e+00    0,000000000e+00    0,000000000e+00
      646000000   -3,618394583e-02   -7,635257393e-02    3,658053577e-01    5,264017582e-01    0,000000000e+00    0,000000000e+00    0,000000000e+00    0,000000000e+00
      660000000   -1,114398167e-01   -1,003653631e-01    6,009200215e-01    1,936215907e-01    0,000000000e+00    0,000000000e+00    0,000000000e+00    0,000000000e+00
      674000000   -2,002529651e-01   -2,329984121e-02    5,650743842e-01   -2,396921068e-01    0,000000000e+00    0,000000000e+00    0,000000000e+00    0,000000000e+00
      688000000   -1,783834845e-01    1,443685740e-01    2,087765485e-01   -5,218732953e-01    0,000000000e+00    0,000000000e+00    0,000000000e+00    0,000000000e+00
      702000000    2,486787923e-02    2,470032424e-01   -2,012375444e-01   -4,076695144e-01    0,000000000e+00    0,000000000e+00    0,000000000e+00    0,000000000e+00
      716000000    2,636384666e-01    1,100581810e-01   -2,719498873e-01   -8,346345276e-02    0,000000000e+00    0,000000000e+00    0,000000000e+00    0,000000000e+00
      730000000    3,037168384e-01   -1,867991239e-01   -1,067306250e-01    3,205960244e-02    0,000000000e+00    0,000000000e+00    0,000000000e+00    0,000000000e+00
      744000000    9,267166257e-02   -4,279396832e-01   -4,197752848e-02   -6,518840045e-02    0,000000000e+00    0,000000000e+00    0,000000000e+00    0,000000000e+00
      758000000   -2,582488060e-01   -4,289910495e-01   -1,766360849e-01   -1,258154958e-01    0,000000000e+00    0,000000000e+00    0,000000000e+00    0,000000000e+00
      772000000   -4,842462540e-01   -1,185634434e-01   -3,369994164e-01    3,870087489e-02    0,000000000e+00    0,000000000e+00    0,000000000e+00    0,000000000e+00
      786000000   -3,412438929e-01    2,208986729e-01   -2,629743814e-01    3,172037005e-01    0,000000000e+00    0,000000000e+00    0,000000000e+00    0,000000000e+00
      800000000   -4,046672210e-02    2,769199014e-01    2,876778366e-03    4,372651875e-01    0,000000000e+00    0,000000000e+00    0,000000000e+00    0,000000000e+00
      814000000    1,443949938e-01    1,255730838e-01    2,646851242e-01    3,589203656e-01    0,000000000e+00    0,000000000e+00    0,000000000e+00    0,000000000e+00
      828000000    1,676933467e-01   -7,029087096e-02    4,329464436e-01    1,566881388e-01    0,000000000e+00    0,000000000e+00    0,000000000e+00    0,000000000e+00
      842000000    6,771767139e-02   -2,177877128e-01    4,667695761e-01   -1,200543493e-01    0,000000000e+00    0,000000000e+00    0,000000000e+00    0,000000000e+00
      856000000   -1,070858464e-01   -2,633424103e-01    3,199479580e-01   -3,949009478e-01    0,000000000e+00    0,000000000e+00    0,000000000e+00    0,000000000e+00
      870000000   -2,750091255e-01   -1,681962460e-01   -2,155189402e-03   -5,277729630e-01    0,000000000e+00    0,000000000e+00    0,000000000e+00    0,000000000e+00
      884000000   -3,199992180e-01    3,603926301e-02   -3,482412994e-01   -3,920065165e-01    0,000000000e+00    0,000000000e+00    0,000000000e+00    0,000000000e+00
      898000000   -1,918885857e-01    2,073523700e-01   -4,892072976e-01   -6,223941222e-02    0,000000000e+00    0,000000000e+00    0,000000000e+00    0,000000000e+00
      912000000    6,500142626e-03    2,189027667e-01   -4,057460427e-01    2,636244595e-01    0,000000000e+00    0,000000000e+00    0,000000000e+00    0,000000000e+00
      926000000    1,492102593e-01    1,133146584e-01   -1,716522574e-01    4,171958566e-01    0,000000000e+00    0,000000000e+00    0,000000000e+00    0,000000000e+00
      940000000    1,969341189e-01   -4,577457532e-02    6,294614822e-02    4,264878333e-01    0,000000000e+00    0,000000000e+00    0,000000000e+00    0,000000000e+00
      954000000    1,517509520e-01   -2,038133889e-01    2,607538700e-01    3,414722085e-01    0,000000000e+00    0,000000000e+00    0,000000000e+00    0,000000000e+00
      968000000    2,503164299e-02   -3,157061040e-01    4,113820791e-01    1,779679060e-01    0,000000000e+00    0,000000000e+00    0,000000000e+00    0,000000000e+00
      982000000   -1,638094336e-01   -3,307853043e-01    4,747743607e-01   -6,784211099e-02    0,000000000e+00    0,000000000e+00    0,000000000e+00    0,000000000e+00
      996000000   -3,211946785e-01   -2,096093446e-01    3,672718108e-01   -3,551147282e-01    0,000000000e+00    0,000000000e+00    0,000000000e+00    0,000000000e+00
     1010000000   -3,411848545e-01   -1,102115680e-02    4,239309207e-02   -5,237136483e-01    0,000000000e+00    0,000000000e+00    0,000000000e+00    0,000000000e+00
     1024000000   -2,085504085e-01    9,388159215e-02   -3,467632532e-01   -3,783805370e-01    0,000000000e+00    0,000000000e+00    0,000000000e+00    0,000000000e+00
     1038000000   -1,312417984e-01    9,917410091e-03   -4,828758538e-01    6,371565908e-02    0,000000000e+00    0,000000000e+00    0,000000000e+00    0,000000000e+00
     1052000000   -2,874849737e-01    5,044337735e-02   -9,397637099e-02    3,733888268e-01    0,000000000e+00    0,000000000e+00    0,000000000e+00    0,000000000e+00
     1066000000   -1,470633596e-01    2,935241461e-01    1,440798938e-01    1,364112943e-01    0,000000000e+00    0,000000000e+00    0,000000000e+00    0,000000000e+00
     1080000000    1,028418094e-01    2,499446273e-01    9,115827829e-02    2,098557353e-02    0,000000000e+00    0,000000000e+00    0,000000000e+00    0,000000000e+00
     1094000000    2,186048776e-01    8,499096334e-02    7,030059397e-02    9,347975254e-03    0,000000000e+00    0,000000000e+00    0,000000000e+00    0,000000000e+00
     1108000000    2,408666611e-01   -8,291911334e-02    8,063965291e-02    6,147876265e-04    0,000000000e+00    0,000000000e+00    0,000000000e+00    0,000000000e+00
     1122000000    1,802183539e-01   -2,494994849e-01    1,035086662e-01   -2,551673725e-02    0,000000000e+00    0,000000000e+00    0,000000000e+00    0,000000000e+00
     1136000000    5,298154056e-02   -3,774622977e-01    1,270153522e-01   -7,411999255e-02    0,000000000e+00    0,000000000e+00    0,000000000e+00    0,000000000e+00
     1150000000   -1,556700319e-01   -4,200906754e-01    1,391019076e-01   -1,521972865e-01    0,000000000e+00    0,000000000e+00    0,000000000e+00    0,000000000e+00
     1164000000   -3,802864850e-01   -3,216599524e-01    9,938896447e-02   -2,775581181e-01    0,000000000e+00    0,000000000e+00    0,000000000e+00    0,000000000e+00
     1178000000   -4,664605558e-01   -8,598403633e-02   -1,080613881e-01   -4,011151195e-01    0,000000000e+00    0,000000000e+00    0,000000000e+00    0,000000000e+00
     1192000000   -3,704921305e-01    3,829896450e-02   -4,630484283e-01   -1,979944557e-01    0,000000000e+00    0,000000000e+00    0,000000000e+00    0,000000000e+00
     1206000000   -4,159408510e-01    1,311979890e-01   -2,782652676e-01    2,344587445e-01    0,000000000e+00    0,000000000e+00    0,000000000e+00    0,000000000e+00
     1220000000   -2,771518230e-01    3,319092691e-01   -4,745359067e-03    1,642583609e-01    0,000000000e+00    0,000000000e+00    0,000000000e+00    0,000000000e+00
     1234000000   -5,302135274e-02    3,477921784e-01    1,772749238e-02    5,141266063e-02    0,000000000e+00    0,000000000e+00    0,000000000e+00    0,000000000e+00
     1248000000    1,237826422e-01    2,500210106e-01    8,102372289e-03    2,977054566e-02    0,000000000e+00    0,000000000e+00    0,000000000e+00    0,000000000e+00
     1262000000    2,112427503e-01    1,032755077e-01    5,293475464e-03    3,361646831e-02    0,000000000e+00    0,000000000e+00    0,000000000e+00    0,000000000e+00
     1276000000    2,382272184e-01   -6,091189384e-02    3,278477490e-02    3,390295431e-02    0,000000000e+00    0,000000000e+00    0,000000000e+00    0,000000000e+00
     1290000000    1,904962063e-01   -2,192901671e-01    4,941814765e-02    1,926038787e-02    0,000000000e+00    0,000000000e+00    0,000000000e+00    0,000000000e+00
     1304000000    7,988447696e-02   -3,575654924e-01    7,563999295e-02    3,596890252e-03    0,000000000e+00    0,000000000e+00    0,000000000e+00    0,000000000e+00
     1318000000   -1,035341620e-01   -4,453290701e-01    7,911226153e-02   -7,461671717e-03    0,000000000e+00    0,000000000e+00    0,000000000e+00    0,000000000e+00
     1332000000   -3,544412553e-01   -4,307847917e-01    8,900628239e-02   -9,804322384e-03    0,000000000e+00    0,000000000e+00    0,000000000e+00    0,000000000e+00
     1346000000   -5,883107781e-01   -2,465718687e-01    1,012107581e-01   -9,999541566e-03    0,000000000e+00    0,000000000e+00    0,000000000e+00    0,000000000e+00
     1360000000   -6,451705098e-01    6,910486519e-02    1,445087940e-01   -1,800535247e-02    0,000000000e+00    0,000000000e+00    0,000000000e+00    0,000000000e+00
     1374000000   -4,885065258e-01    3,332073390e-01    1,712257713e-01   -4,437207803e-02    0,000000000e+00    0,000000000e+00    0,000000000e+00    0,000000000e+00
     1388000000   -2,512103617e-01    4,208215773e-01    1,613625437e-01   -8,797432482e-02    0,000000000e+00    0,000000000e+00    0,000000000e+00    0,000000000e+00
     1402000000   -4,135248810e-02    3,917920589e-01    1,471306682e-01   -9,765719622e-02    0,000000000e+00    0,000000000e+00    0,000000000e+00    0,000000000e+00
     1416000000    9,873539209e-02    2,872368991e-01    1,195420325e-01   -9,250026941e-02    0,000000000e+00    0,000000000e+00    0,000000000e+00    0,000000000e+00
     1430000000    1,912247241e-01    1,409926564e-01    1,062684059e-01   -9,237787873e-02    0,000000000e+00    0,000000000e+00    0,000000000e+00    0,000000000e+00
     1444000000    2,163234353e-01   -1,315699145e-02    1,278936863e-01   -2,837055176e-02    0,000000000e+00    0,000000000e+00    0,000000000e+00    0,000000000e+00
     1458000000    1,808736175e-01   -1,815160364e-01    1,397734582e-01    2,491193451e-02    0,000000000e+00    0,000000000e+00    0,000000000e+00    0,000000000e+00
     1472000000    6,665897369e-02   -3,546496034e-01    1,919940859e-01    6,471642107e-02    0,000000000e+00    0,000000000e+00    0,000000000e+00    0,000000000e+00
     1486000000   -1,447602361e-01   -4,801626503e-01    2,889416516e-01    8,300822228e-02    0,000000000e+00    0,000000000e+00    0,000000000e+00    0,000000000e+00
     1500000000   -4,337989390e-01   -4,739293158e-01    4,043043554e-01    4,416166246e-02    0,000000000e+00    0,000000000e+00    0,000000000e+00    0,000000000e+00
