! NanoVNA-App
! Date: 2025-09-25 16:01:49
! Start: 100MHz Stop: 1,5GHz Points: 101
! S-Parameter data: F S11 S21 S12 S22
# Hz S RI R 50
!     Frequency           S11_Real           S11_Imag           S21_Real           S21_Imag           S12_Real           S12_Imag           S22_Real           S22_Imag
      100000000   -2,828573436e-02   -2,872338984e-03    3,723164797e-01   -7,224587202e-01    0,000000000e+00    0,000000000e+00    0,000000000e+00    0,000000000e+00
      114000000   -1,571192220e-02    1,290307380e-02   -9,116625786e-02   -8,049421906e-01    0,000000000e+00    0,000000000e+00    0,000000000e+00    0,000000000e+00
      128000000    4,304122645e-03    1,193644572e-02   -5,159209371e-01   -6,188252568e-01    0,000000000e+00    0,000000000e+00    0,000000000e+00    0,000000000e+00
      142000000    1,546883117e-02   -1,741269254e-03   -7,673815489e-01   -2,341159582e-01    0,000000000e+00    0,000000000e+00    0,000000000e+00    0,000000000e+00
      156000000    1,511420403e-02   -1,324655302e-02   -7,662164569e-01    2,204916179e-01    0,000000000e+00    0,000000000e+00    0,000000000e+00    0,000000000e+00
      170000000    1,769549027e-02   -2,094707079e-02   -5,156363845e-01    6,063860655e-01    0,000000000e+00    0,000000000e+00    0,000000000e+00    0,000000000e+00
      184000000    2,203102969e-02   -3,553120419e-02   -9,826651216e-02    7,861080766e-01    0,000000000e+00    0,000000000e+00    0,000000000e+00    0,000000000e+00
      198000000    1,401261520e-02   -6,064366177e-02    3,461094797e-01    7,112274170e-01    0,000000000e+00    0,000000000e+00    0,000000000e+00    0,000000000e+00
      212000000   -1,766971499e-02   -7,912516594e-02    6,808448434e-01    4,063566625e-01    0,000000000e+00    0,000000000e+00    0,000000000e+00    0,000000000e+00
      226000000   -6,033864245e-02   -6,665010750e-02    7,957246900e-01   -3,551730886e-02    0,000000000e+00    0,000000000e+00    0,000000000e+00    0,000000000e+00
      240000000   -8,056516200e-02   -2,279013954e-02    6,416550875e-01   -4,716379642e-01    0,000000000e+00    0,000000000e+00    0,000000000e+00    0,000000000e+00
      254000000   -6,074398011e-02    1,983436756e-02    2,712049782e-01   -7,418328524e-01    0,000000000e+00    0,000000000e+00    0,000000000e+00    0,000000000e+00
      268000000   -2,095206827e-02    3,089071624e-02   -1,811570376e-01   -7,609616518e-01    0,000000000e+00    0,000000000e+00    0,000000000e+00    0,000000000e+00
      282000000    6,942360196e-03    1,370493136e-02   -5,633866191e-01   -5,323033333e-01    0,000000000e+00    0,000000000e+00    0,000000000e+00    0,000000000e+00
      296000000    1,247469056e-02   -6,312275771e-03   -7,605500817e-01   -1,343556195e-01    0,000000000e+00    0,000000000e+00    0,000000000e+00    0,000000000e+00
      310000000    1,346203033e-02   -1,468247920e-02   -7,090473175e-01    3,035432398e-01    0,000000000e+00    0,000000000e+00    0,000000000e+00    0,000000000e+00
      324000000    2,255232818e-02   -2,472306788e-02   -4,216776192e-01    6,394655704e-01    0,000000000e+00    0,000000000e+00    0,000000000e+00    0,000000000e+00
      338000000    2,857516892e-02   -5,064161494e-02   -3,462081077e-03    7,582322955e-01    0,000000000e+00    0,000000000e+00    0,000000000e+00    0,000000000e+00
      352000000    1,030715462e-02   -8,308920264e-02    4,115131199e-01    6,357534528e-01    0,000000000e+00    0,000000000e+00    0,000000000e+00    0,000000000e+00
      366000000   -3,145756572e-02   -9,381074458e-02    6,936722398e-01    3,037985265e-01    0,000000000e+00    0,000000000e+00    0,000000000e+00    0,000000000e+00
      380000000   -6,750727445e-02   -6,891859323e-02    7,456613183e-01   -1,347273737e-01    0,000000000e+00    0,000000000e+00    0,000000000e+00    0,000000000e+00
      394000000   -6,871215254e-02   -3,059590608e-02    5,386504531e-01   -5,280433297e-01    0,000000000e+00    0,000000000e+00    0,000000000e+00    0,000000000e+00
      408000000   -4,263649508e-02   -1,520280540e-02    1,491031051e-01   -7,331092358e-01    0,000000000e+00    0,000000000e+00    0,000000000e+00    0,000000000e+00
      422000000   -2,598583512e-02   -3,117470257e-02   -2,792218924e-01   -6,905309558e-01    0,000000000e+00    0,000000000e+00    0,000000000e+00    0,000000000e+00
      436000000   -3,922016919e-02   -4,919038340e-02   -6,101380587e-01   -4,195180833e-01    0,000000000e+00    0,000000000e+00    0,000000000e+00    0,000000000e+00
      450000000   -6,465071440e-02   -3,902976960e-02   -7,376921177e-01   -7,679641247e-03    0,000000000e+00    0,000000000e+00    0,000000000e+00    0,000000000e+00
      464000000   -6,768330187e-02   -6,563372444e-03   -6,083269119e-01    4,062050879e-01    0,000000000e+00    0,000000000e+00    0,000000000e+00    0,000000000e+00
      478000000   -3,869460151e-02    1,633772068e-02   -2,685234249e-01    6,704365611e-01    0,000000000e+00    0,000000000e+00    0,000000000e+00    0,000000000e+00
      492000000   -5,005188286e-03    6,219541188e-03    1,514361650e-01    6,951270700e-01    0,000000000e+00    0,000000000e+00    0,000000000e+00    0,000000000e+00
      506000000    6,622703280e-03   -1,998854801e-02    5,076032877e-01    4,884295762e-01    0,000000000e+00    0,000000000e+00    0,000000000e+00    0,000000000e+00
      520000000    1,058668830e-03   -3,873899207e-02    6,915070415e-01    1,220400408e-01    0,000000000e+00    0,000000000e+00    0,000000000e+00    0,000000000e+00
      534000000   -3,347327001e-03   -4,541340843e-02    6,323075891e-01   -2,819811702e-01    0,000000000e+00    0,000000000e+00    0,000000000e+00    0,000000000e+00
      548000000    1,281468431e-03   -5,950381607e-02    3,603477776e-01   -5,789905787e-01    0,000000000e+00    0,000000000e+00    0,000000000e+00    0,000000000e+00
      562000000   -7,535319310e-03   -8,840325475e-02   -2,635560185e-02   -6,730574965e-01    0,000000000e+00    0,000000000e+00    0,000000000e+00    0,000000000e+00
      576000000   -4,557230696e-02   -1,098072529e-01   -4,006650150e-01   -5,392891169e-01    0,000000000e+00    0,000000000e+00    0,000000000e+00    0,000000000e+00
      590000000   -9,493667632e-02   -9,332568198e-02   -6,390973330e-01   -2,183824927e-01    0,000000000e+00    0,000000000e+00    0,000000000e+00    0,000000000e+00
      604000000   -1,114562973e-01   -4,094877467e-02   -6,473016739e-01    1,990042627e-01    0,000000000e+00    0,000000000e+00    0,000000000e+00    0,000000000e+00
      618000000   -7,575800270e-02   -2,729415195e-03   -4,009928405e-01    5,362054706e-01    0,000000000e+00    0,000000000e+00    0,000000000e+00    0,000000000e+00
      632000000   -3,021100722e-02   -2,063442208e-02   -1,100451127e-02    6,549183726e-01    0,000000000e+00    0,000000000e+00    0,000000000e+00    0,000000000e+00
      646000000   -3,593693301e-02   -7,642957568e-02    3,661410809e-01    5,273026228e-01    0,000000000e+00    0,000000000e+00    0,000000000e+00    0,000000000e+00
      660000000   -1,119250879e-01   -1,002685577e-01    6,005918384e-01    1,930762529e-01    0,000000000e+00    0,000000000e+00    0,000000000e+00    0,000000000e+00
      674000000   -1,996832043e-01   -2,295408584e-02    5,651003718e-01   -2,397995889e-01    0,000000000e+00    0,000000000e+00    0,000000000e+00    0,000000000e+00
      688000000   -1,798136532e-01    1,445382386e-01    2,095195651e-01   -5,227929950e-01    0,000000000e+00    0,000000000e+00    0,000000000e+00    0,000000000e+00
      702000000    2,469460852e-02    2,463372797e-01   -1,979834735e-01   -4,107084572e-01    0,000000000e+00    0,000000000e+00    0,000000000e+00    0,000000000e+00
      716000000    2,631010115e-01    1,102962419e-01   -2,737172246e-01   -8,379421383e-02    0,000000000e+00    0,000000000e+00    0,000000000e+00    0,000000000e+00
      730000000    3,038412929e-01   -1,862131506e-01   -1,071924344e-01    3,243329003e-02    0,000000000e+00    0,000000000e+00    0,000000000e+00    0,000000000e+00
      744000000    9,404490888e-02   -4,285969436e-01   -4,252142459e-02   -6,437721103e-02    0,000000000e+00    0,000000000e+00    0,000000000e+00    0,000000000e+00
      758000000   -2,589630485e-01   -4,294264913e-01   -1,752554029e-01   -1,258171946e-01    0,000000000e+00    0,000000000e+00    0,000000000e+00    0,000000000e+00
      772000000   -4,856950939e-01   -1,186748371e-01   -3,363100886e-01    3,776605055e-02    0,000000000e+00    0,000000000e+00    0,000000000e+00    0,000000000e+00
      786000000   -3,424114883e-01    2,225842476e-01   -2,624151409e-01    3,163093925e-01    0,000000000e+00    0,000000000e+00    0,000000000e+00    0,000000000e+00
      800000000   -4,022560269e-02    2,772085667e-01    2,702542348e-03    4,363884330e-01    0,000000000e+00    0,000000000e+00    0,000000000e+00    0,000000000e+00
      814000000    1,441089660e-01    1,253336221e-01    2,641358376e-01    3,594893813e-01    0,000000000e+00    0,000000000e+00    0,000000000e+00    0,000000000e+00
      828000000    1,676367223e-01   -6,995524466e-02    4,330510795e-01    1,567826718e-01    0,000000000e+00    0,000000000e+00    0,000000000e+00    0,000000000e+00
      842000000    6,727043539e-02   -2,182969898e-01    4,665947855e-01   -1,200880781e-01    0,000000000e+00    0,000000000e+00    0,000000000e+00    0,000000000e+00
      856000000   -1,070633829e-01   -2,642226815e-01    3,199999034e-01   -3,941829503e-01    0,000000000e+00    0,000000000e+00    0,000000000e+00    0,000000000e+00
      870000000   -2,748040557e-01   -1,675405949e-01   -3,442061134e-03   -5,267061591e-01    0,000000000e+00    0,000000000e+00    0,000000000e+00    0,000000000e+00
      884000000   -3,201399744e-01    3,534226492e-02   -3,465977311e-01   -3,924114704e-01    0,000000000e+00    0,000000000e+00    0,000000000e+00    0,000000000e+00
      898000000   -1,925554872e-01    2,066268921e-01   -4,895672798e-01   -6,261500716e-02    0,000000000e+00    0,000000000e+00    0,000000000e+00    0,000000000e+00
      912000000    6,954876240e-03    2,202751189e-01   -3,974078596e-01    2,659585178e-01    0,000000000e+00    0,000000000e+00    0,000000000e+00    0,000000000e+00
      926000000    1,483852565e-01    1,138604581e-01   -1,703335047e-01    4,169865549e-01    0,000000000e+00    0,000000000e+00    0,000000000e+00    0,000000000e+00
      940000000    2,004440576e-01   -4,510501027e-02    6,429116428e-02    4,241533875e-01    0,000000000e+00    0,000000000e+00    0,000000000e+00    0,000000000e+00
      954000000    1,515584290e-01   -2,039995492e-01    2,624348700e-01    3,418482244e-01    0,000000000e+00    0,000000000e+00    0,000000000e+00    0,000000000e+00
      968000000    2,435636893e-02   -3,126752079e-01    4,103983343e-01    1,789494008e-01    0,000000000e+00    0,000000000e+00    0,000000000e+00    0,000000000e+00
      982000000   -1,608087867e-01   -3,328080475e-01    4,747183919e-01   -6,852600724e-02    0,000000000e+00    0,000000000e+00    0,000000000e+00    0,000000000e+00
      996000000   -3,230361342e-01   -2,099766731e-01    3,671741188e-01   -3,550883830e-01    0,000000000e+00    0,000000000e+00    0,000000000e+00    0,000000000e+00
     1010000000   -3,441618979e-01   -7,508144714e-03    4,277804494e-02   -5,238834023e-01    0,000000000e+00    0,000000000e+00    0,000000000e+00    0,000000000e+00
     1024000000   -2,090495378e-01    9,230043739e-02   -3,450127840e-01   -3,795063794e-01    0,000000000e+00    0,000000000e+00    0,000000000e+00    0,000000000e+00
     1038000000   -1,342400312e-01    1,241332386e-02   -4,835112095e-01    6,333322823e-02    0,000000000e+00    0,000000000e+00    0,000000000e+00    0,000000000e+00
     1052000000   -2,881878912e-01    5,793505162e-02   -9,550607204e-02    3,730629981e-01    0,000000000e+00    0,000000000e+00    0,000000000e+00    0,000000000e+00
     1066000000   -1,517813057e-01    2,980615795e-01    1,467432827e-01    1,317510605e-01    0,000000000e+00    0,000000000e+00    0,000000000e+00    0,000000000e+00
     1080000000    9,684363008e-02    2,502765656e-01    9,081591666e-02    2,176512778e-02    0,000000000e+00    0,000000000e+00    0,000000000e+00    0,000000000e+00
     1094000000    2,227662355e-01    9,141275287e-02    6,923712045e-02    1,041173842e-02    0,000000000e+00    0,000000000e+00    0,000000000e+00    0,000000000e+00
     1108000000    2,413396537e-01   -9,089653194e-02    7,916883379e-02    2,444642829e-03    0,000000000e+00    0,000000000e+00    0,000000000e+00    0,000000000e+00
     1122000000    1,821770221e-01   -2,512795031e-01    1,036880016e-01   -2,656465769e-02    0,000000000e+00    0,000000000e+00    0,000000000e+00    0,000000000e+00
     1136000000    4,764729366e-02   -3,790567219e-01    1,268774569e-01   -7,391189784e-02    0,000000000e+00    0,000000000e+00    0,000000000e+00    0,000000000e+00
     1150000000   -1,561263800e-01   -4,182762802e-01    1,369355172e-01   -1,494037956e-01    0,000000000e+00    0,000000000e+00    0,000000000e+00    0,000000000e+00
     1164000000   -3,823732436e-01   -3,209176958e-01    9,645553678e-02   -2,762423456e-01    0,000000000e+00    0,000000000e+00    0,000000000e+00    0,000000000e+00
     1178000000   -4,603416920e-01   -8,759909868e-02   -1,074107066e-01   -4,022616744e-01    0,000000000e+00    0,000000000e+00    0,000000000e+00    0,000000000e+00
     1192000000   -3,766734004e-01    3,667037562e-02   -4,644283056e-01   -2,000816464e-01    0,000000000e+00    0,000000000e+00    0,000000000e+00    0,000000000e+00
     1206000000   -4,147689939e-01    1,348712444e-01   -2,739747465e-01    2,436609268e-01    0,000000000e+00    0,000000000e+00    0,000000000e+00    0,000000000e+00
     1220000000   -2,748837173e-01    3,258144259e-01   -3,809924470e-03    1,623028815e-01    0,000000000e+00    0,000000000e+00    0,000000000e+00    0,000000000e+00
     1234000000   -4,311202094e-02    3,474304676e-01    2,558882348e-02    4,917467758e-02    0,000000000e+00    0,000000000e+00    0,000000000e+00    0,000000000e+00
     1248000000    1,245035306e-01    2,474077195e-01    3,841984086e-03    2,601716109e-02    0,000000000e+00    0,000000000e+00    0,000000000e+00    0,000000000e+00
     1262000000    2,077170610e-01    1,017035842e-01    1,185064786e-03    2,739290521e-02    0,000000000e+00    0,000000000e+00    0,000000000e+00    0,000000000e+00
     1276000000    2,345653474e-01   -5,642386526e-02    2,405057847e-02    4,115631059e-02    0,000000000e+00    0,000000000e+00    0,000000000e+00    0,000000000e+00
     1290000000    1,940440834e-01   -2,191335708e-01    5,574806407e-02    2,283321694e-02    0,000000000e+00    0,000000000e+00    0,000000000e+00    0,000000000e+00
     1304000000    8,156550676e-02   -3,532038927e-01    7,380546629e-02    1,025811583e-02    0,000000000e+00    0,000000000e+00    0,000000000e+00    0,000000000e+00
     1318000000   -9,914702177e-02   -4,511689842e-01    8,270573616e-02   -1,187572163e-02    0,000000000e+00    0,000000000e+00    0,000000000e+00    0,000000000e+00
     1332000000   -3,572374284e-01   -4,368996322e-01    8,465192467e-02   -1,144040097e-02    0,000000000e+00    0,000000000e+00    0,000000000e+00    0,000000000e+00
     1346000000   -5,916507244e-01   -2,456598133e-01    1,047867909e-01   -1,232504658e-02    0,000000000e+00    0,000000000e+00    0,000000000e+00    0,000000000e+00
     1360000000   -6,424208879e-01    7,352049649e-02    1,379982978e-01   -1,469713543e-02    0,000000000e+00    0,000000000e+00    0,000000000e+00    0,000000000e+00
     1374000000   -4,911848903e-01    3,323044777e-01    1,651320904e-01   -5,687544495e-02    0,000000000e+00    0,000000000e+00    0,000000000e+00    0,000000000e+00
     1388000000   -2,545692325e-01    4,213242531e-01    1,612494886e-01   -8,444988728e-02    0,000000000e+00    0,000000000e+00    0,000000000e+00    0,000000000e+00
     1402000000   -3,970847279e-02    3,900690079e-01    1,467663646e-01   -9,732109308e-02    0,000000000e+00    0,000000000e+00    0,000000000e+00    0,000000000e+00
     1416000000    9,946487099e-02    2,886160612e-01    1,186704263e-01   -8,885668218e-02    0,000000000e+00    0,000000000e+00    0,000000000e+00    0,000000000e+00
     1430000000    1,844241768e-01    1,452362239e-01    1,078657955e-01   -5,918885395e-02    0,000000000e+00    0,000000000e+00    0,000000000e+00    0,000000000e+00
     1444000000    2,162800282e-01   -7,400469854e-03    1,244264767e-01   -2,337468602e-02    0,000000000e+00    0,000000000e+00    0,000000000e+00    0,000000000e+00
     1458000000    1,787428111e-01   -1,846959144e-01    1,342880130e-01    1,499190181e-02    0,000000000e+00    0,000000000e+00    0,000000000e+00    0,000000000e+00
     1472000000    7,524479181e-02   -3,429081738e-01    2,079890519e-01    6,302154064e-02    0,000000000e+00    0,000000000e+00    0,000000000e+00    0,000000000e+00
     1486000000   -1,441207975e-01   -4,771336317e-01    2,880146801e-01    8,501306921e-02    0,000000000e+00    0,000000000e+00    0,000000000e+00    0,000000000e+00
     1500000000   -4,439458251e-01   -4,684338272e-01    3,977555335e-01    6,652755290e-02    0,000000000e+00    0,000000000e+00    0,000000000e+00    0,000000000e+00
