! NanoVNA-App
! Date: 2025-09-25 15:59:40
! Start: 100MHz Stop: 1,5GHz Points: 101
! S-Parameter data: F S11 S21 S12 S22
# Hz S RI R 50
!     Frequency           S11_Real           S11_Imag           S21_Real           S21_Imag           S12_Real           S12_Imag           S22_Real           S22_Imag
      100000000   -2,826122195e-02   -2,860114910e-03    3,722285032e-01   -7,223879099e-01    0,000000000e+00    0,000000000e+00    0,000000000e+00    0,000000000e+00
      114000000   -1,571847685e-02    1,285546739e-02   -9,133935720e-02   -8,047223687e-01    0,000000000e+00    0,000000000e+00    0,000000000e+00    0,000000000e+00
      128000000    4,375398625e-03    1,189130824e-02   -5,160166621e-01   -6,188447475e-01    0,000000000e+00    0,000000000e+00    0,000000000e+00    0,000000000e+00
      142000000    1,548877731e-02   -1,736275852e-03   -7,675392032e-01   -2,341140509e-01    0,000000000e+00    0,000000000e+00    0,000000000e+00    0,000000000e+00
      156000000    1,510896068e-02   -1,317901257e-02   -7,661608458e-01    2,204458714e-01    0,000000000e+00    0,000000000e+00    0,000000000e+00    0,000000000e+00
      170000000    1,764553227e-02   -2,093522996e-02   -5,152946115e-01    6,061345339e-01    0,000000000e+00    0,000000000e+00    0,000000000e+00    0,000000000e+00
      184000000    2,201588638e-02   -3,554200009e-02   -9,819927812e-02    7,857533097e-01    0,000000000e+00    0,000000000e+00    0,000000000e+00    0,000000000e+00
      198000000    1,400415041e-02   -6,064203009e-02    3,457588553e-01    7,107372284e-01    0,000000000e+00    0,000000000e+00    0,000000000e+00    0,000000000e+00
      212000000   -1,766611263e-02   -7,911407202e-02    6,808779836e-01    4,063349366e-01    0,000000000e+00    0,000000000e+00    0,000000000e+00    0,000000000e+00
      226000000   -6,032484025e-02   -6,663063914e-02    7,956218719e-01   -3,560900316e-02    0,000000000e+00    0,000000000e+00    0,000000000e+00    0,000000000e+00
      240000000   -8,051642030e-02   -2,270934358e-02    6,415681839e-01   -4,717158973e-01    0,000000000e+00    0,000000000e+00    0,000000000e+00    0,000000000e+00
      254000000   -6,079382822e-02    1,984084956e-02    2,708119750e-01   -7,418212891e-01    0,000000000e+00    0,000000000e+00    0,000000000e+00    0,000000000e+00
      268000000   -2,097960375e-02    3,081814758e-02   -1,816126406e-01   -7,610514760e-01    0,000000000e+00    0,000000000e+00    0,000000000e+00    0,000000000e+00
      282000000    6,912366487e-03    1,378330123e-02   -5,631484389e-01   -5,326757431e-01    0,000000000e+00    0,000000000e+00    0,000000000e+00    0,000000000e+00
      296000000    1,237607375e-02   -6,202796940e-03   -7,603397369e-01   -1,343450993e-01    0,000000000e+00    0,000000000e+00    0,000000000e+00    0,000000000e+00
      310000000    1,341165230e-02   -1,453610137e-02   -7,098386288e-01    3,045976162e-01    0,000000000e+00    0,000000000e+00    0,000000000e+00    0,000000000e+00
      324000000    2,236853726e-02   -2,479886450e-02   -4,216701388e-01    6,392986178e-01    0,000000000e+00    0,000000000e+00    0,000000000e+00    0,000000000e+00
      338000000    2,847620286e-02   -5,042720586e-02   -8,557626279e-04    7,602325082e-01    0,000000000e+00    0,000000000e+00    0,000000000e+00    0,000000000e+00
      352000000    1,023985445e-02   -8,280748129e-02    4,117094874e-01    6,350930929e-01    0,000000000e+00    0,000000000e+00    0,000000000e+00    0,000000000e+00
      366000000   -3,174538538e-02   -9,356989712e-02    6,938186884e-01    3,040184379e-01    0,000000000e+00    0,000000000e+00    0,000000000e+00    0,000000000e+00
      380000000   -6,764185429e-02   -6,884007901e-02    7,456465364e-01   -1,338883489e-01    0,000000000e+00    0,000000000e+00    0,000000000e+00    0,000000000e+00
      394000000   -6,858076155e-02   -3,054156154e-02    5,390876532e-01   -5,287687182e-01    0,000000000e+00    0,000000000e+00    0,000000000e+00    0,000000000e+00
      408000000   -4,276692495e-02   -1,594550908e-02    1,491766721e-01   -7,349569798e-01    0,000000000e+00    0,000000000e+00    0,000000000e+00    0,000000000e+00
      422000000   -2,630623803e-02   -3,119239956e-02   -2,796235681e-01   -6,902695894e-01    0,000000000e+00    0,000000000e+00    0,000000000e+00    0,000000000e+00
      436000000   -3,912110254e-02   -4,891150445e-02   -6,103245020e-01   -4,194141924e-01    0,000000000e+00    0,000000000e+00    0,000000000e+00    0,000000000e+00
      450000000   -6,471947581e-02   -3,893820941e-02   -7,373798490e-01   -7,372753695e-03    0,000000000e+00    0,000000000e+00    0,000000000e+00    0,000000000e+00
      464000000   -6,742288172e-02   -6,605932955e-03   -6,079571843e-01    4,060600996e-01    0,000000000e+00    0,000000000e+00    0,000000000e+00    0,000000000e+00
      478000000   -3,833296522e-02    1,578367874e-02   -2,672936916e-01    6,707782745e-01    0,000000000e+00    0,000000000e+00    0,000000000e+00    0,000000000e+00
      492000000   -5,062658805e-03    6,401059218e-03    1,518198848e-01    6,947116256e-01    0,000000000e+00    0,000000000e+00    0,000000000e+00    0,000000000e+00
      506000000    6,858391222e-03   -2,028625086e-02    5,076054335e-01    4,881361723e-01    0,000000000e+00    0,000000000e+00    0,000000000e+00    0,000000000e+00
      520000000    6,629374693e-04   -3,922037780e-02    6,906403899e-01    1,214013472e-01    0,000000000e+00    0,000000000e+00    0,000000000e+00    0,000000000e+00
      534000000   -3,029253799e-03   -4,587334022e-02    6,327497959e-01   -2,821531892e-01    0,000000000e+00    0,000000000e+00    0,000000000e+00    0,000000000e+00
      548000000    6,703032996e-04   -5,962099880e-02    3,597806394e-01   -5,799070001e-01    0,000000000e+00    0,000000000e+00    0,000000000e+00    0,000000000e+00
      562000000   -7,610508706e-03   -8,828311414e-02   -2,594316192e-02   -6,731272340e-01    0,000000000e+00    0,000000000e+00    0,000000000e+00    0,000000000e+00
      576000000   -4,531652480e-02   -1,099423468e-01   -4,011482596e-01   -5,388693810e-01    0,000000000e+00    0,000000000e+00    0,000000000e+00    0,000000000e+00
      590000000   -9,482365102e-02   -9,348113090e-02   -6,392655373e-01   -2,168552130e-01    0,000000000e+00    0,000000000e+00    0,000000000e+00    0,000000000e+00
      604000000   -1,117301136e-01   -4,151634872e-02   -6,472824812e-01    1,982996017e-01    0,000000000e+00    0,000000000e+00    0,000000000e+00    0,000000000e+00
      618000000   -7,547881454e-02   -2,610708354e-03   -4,017370343e-01    5,357595086e-01    0,000000000e+00    0,000000000e+00    0,000000000e+00    0,000000000e+00
      632000000   -3,020646051e-02   -2,081298828e-02   -1,248145569e-02    6,547865868e-01    0,000000000e+00    0,000000000e+00    0,000000000e+00    0,000000000e+00
      646000000   -3,593274951e-02   -7,679130882e-02    3,666601777e-01    5,270107985e-01    0,000000000e+00    0,000000000e+00    0,000000000e+00    0,000000000e+00
      660000000   -1,123344973e-01   -9,996458888e-02    6,014048457e-01    1,938373297e-01    0,000000000e+00    0,000000000e+00    0,000000000e+00    0,000000000e+00
      674000000   -1,999873221e-01   -2,428390272e-02    5,652552843e-01   -2,400032878e-01    0,000000000e+00    0,000000000e+00    0,000000000e+00    0,000000000e+00
      688000000   -1,788917184e-01    1,449710429e-01    2,098463327e-01   -5,215379596e-01    0,000000000e+00    0,000000000e+00    0,000000000e+00    0,000000000e+00
      702000000    2,457721718e-02    2,432435751e-01   -1,930680573e-01   -4,064615965e-01    0,000000000e+00    0,000000000e+00    0,000000000e+00    0,000000000e+00
      716000000    2,639439702e-01    1,107303947e-01   -2,733371854e-01   -8,381726593e-02    0,000000000e+00    0,000000000e+00    0,000000000e+00    0,000000000e+00
      730000000    3,032481670e-01   -1,856166571e-01   -1,076729596e-01    3,241894767e-02    0,000000000e+00    0,000000000e+00    0,000000000e+00    0,000000000e+00
      744000000    9,478907287e-02   -4,267984927e-01   -4,239547998e-02   -6,477322429e-02    0,000000000e+00    0,000000000e+00    0,000000000e+00    0,000000000e+00
      758000000   -2,586351633e-01   -4,305477440e-01   -1,751997620e-01   -1,249537542e-01    0,000000000e+00    0,000000000e+00    0,000000000e+00    0,000000000e+00
      772000000   -4,862598479e-01   -1,193013415e-01   -3,356130719e-01    3,801377863e-02    0,000000000e+00    0,000000000e+00    0,000000000e+00    0,000000000e+00
      786000000   -3,414636552e-01    2,217263281e-01   -2,628975511e-01    3,162294328e-01    0,000000000e+00    0,000000000e+00    0,000000000e+00    0,000000000e+00
      800000000   -4,088409618e-02    2,772778571e-01    1,894881367e-03    4,369602501e-01    0,000000000e+00    0,000000000e+00    0,000000000e+00    0,000000000e+00
      814000000    1,441113204e-01    1,253291816e-01    2,642888725e-01    3,596847951e-01    0,000000000e+00    0,000000000e+00    0,000000000e+00    0,000000000e+00
      828000000    1,678616405e-01   -6,976631284e-02    4,325970411e-01    1,565404236e-01    0,000000000e+00    0,000000000e+00    0,000000000e+00    0,000000000e+00
      842000000    6,709717214e-02   -2,182413638e-01    4,663174152e-01   -1,204436645e-01    0,000000000e+00    0,000000000e+00    0,000000000e+00    0,000000000e+00
      856000000   -1,062389240e-01   -2,636089921e-01    3,203086257e-01   -3,950615823e-01    0,000000000e+00    0,000000000e+00    0,000000000e+00    0,000000000e+00
      870000000   -2,748402953e-01   -1,688939482e-01   -1,898767543e-03   -5,274233222e-01    0,000000000e+00    0,000000000e+00    0,000000000e+00    0,000000000e+00
      884000000   -3,211127222e-01    3,589825705e-02   -3,486688137e-01   -3,917357326e-01    0,000000000e+00    0,000000000e+00    0,000000000e+00    0,000000000e+00
      898000000   -1,916660219e-01    2,067960948e-01   -4,881819189e-01   -6,264920533e-02    0,000000000e+00    0,000000000e+00    0,000000000e+00    0,000000000e+00
      912000000    6,465547718e-03    2,188867927e-01   -4,054591954e-01    2,788484991e-01    0,000000000e+00    0,000000000e+00    0,000000000e+00    0,000000000e+00
      926000000    1,489438117e-01    1,135357693e-01   -1,707139015e-01    4,169729650e-01    0,000000000e+00    0,000000000e+00    0,000000000e+00    0,000000000e+00
      940000000    2,001485825e-01   -4,397958517e-02    6,424531341e-02    4,258200526e-01    0,000000000e+00    0,000000000e+00    0,000000000e+00    0,000000000e+00
      954000000    1,523838639e-01   -2,042026669e-01    2,588768899e-01    3,406977355e-01    0,000000000e+00    0,000000000e+00    0,000000000e+00    0,000000000e+00
      968000000    2,410746366e-02   -3,123309314e-01    4,119094610e-01    1,788586378e-01    0,000000000e+00    0,000000000e+00    0,000000000e+00    0,000000000e+00
      982000000   -1,604663581e-01   -3,330832124e-01    4,751669765e-01   -6,662946194e-02    0,000000000e+00    0,000000000e+00    0,000000000e+00    0,000000000e+00
      996000000   -3,227671683e-01   -2,092899829e-01    3,680756688e-01   -3,577235341e-01    0,000000000e+00    0,000000000e+00    0,000000000e+00    0,000000000e+00
     1010000000   -3,388451040e-01   -5,670872517e-03    4,001290724e-02   -5,247523189e-01    0,000000000e+00    0,000000000e+00    0,000000000e+00    0,000000000e+00
     1024000000   -2,076605856e-01    9,033411741e-02   -3,458471596e-01   -3,797388375e-01    0,000000000e+00    0,000000000e+00    0,000000000e+00    0,000000000e+00
     1038000000   -1,352839023e-01    1,255807932e-02   -4,833799601e-01    6,477292627e-02    0,000000000e+00    0,000000000e+00    0,000000000e+00    0,000000000e+00
     1052000000   -2,873662114e-01    5,243312940e-02   -9,561280161e-02    3,715352714e-01    0,000000000e+00    0,000000000e+00    0,000000000e+00    0,000000000e+00
     1066000000   -1,512330770e-01    2,979853749e-01    1,436033845e-01    1,272252351e-01    0,000000000e+00    0,000000000e+00    0,000000000e+00    0,000000000e+00
     1080000000    1,044587865e-01    2,493463010e-01    9,124920517e-02    2,272438630e-02    0,000000000e+00    0,000000000e+00    0,000000000e+00    0,000000000e+00
     1094000000    2,247095406e-01    9,152489901e-02    6,860595196e-02    8,491062559e-03    0,000000000e+00    0,000000000e+00    0,000000000e+00    0,000000000e+00
     1108000000    2,421789914e-01   -8,405759186e-02    8,063736558e-02   -4,688429181e-04    0,000000000e+00    0,000000000e+00    0,000000000e+00    0,000000000e+00
     1122000000    1,863102317e-01   -2,535370290e-01    1,039661467e-01   -2,639625221e-02    0,000000000e+00    0,000000000e+00    0,000000000e+00    0,000000000e+00
     1136000000    4,780872539e-02   -3,777587414e-01    1,249046847e-01   -7,443030924e-02    0,000000000e+00    0,000000000e+00    0,000000000e+00    0,000000000e+00
     1150000000   -1,579255462e-01   -4,255577624e-01    1,368772238e-01   -1,506996453e-01    0,000000000e+00    0,000000000e+00    0,000000000e+00    0,000000000e+00
     1164000000   -3,792987466e-01   -3,222742081e-01    9,832690656e-02   -2,775174379e-01    0,000000000e+00    0,000000000e+00    0,000000000e+00    0,000000000e+00
     1178000000   -4,610271454e-01   -8,999988437e-02   -1,035296172e-01   -4,049249291e-01    0,000000000e+00    0,000000000e+00    0,000000000e+00    0,000000000e+00
     1192000000   -3,779045641e-01    3,594324738e-02   -4,641207755e-01   -1,957410574e-01    0,000000000e+00    0,000000000e+00    0,000000000e+00    0,000000000e+00
     1206000000   -4,159714282e-01    1,344404370e-01   -2,740274668e-01    2,397873998e-01    0,000000000e+00    0,000000000e+00    0,000000000e+00    0,000000000e+00
     1220000000   -2,735387981e-01    3,301765919e-01   -1,830730587e-03    1,650525779e-01    0,000000000e+00    0,000000000e+00    0,000000000e+00    0,000000000e+00
     1234000000   -4,692200199e-02    3,456740975e-01    2,397624403e-02    5,112801120e-02    0,000000000e+00    0,000000000e+00    0,000000000e+00    0,000000000e+00
     1248000000    1,227932498e-01    2,465399355e-01    6,208785344e-03    2,245229296e-02    0,000000000e+00    0,000000000e+00    0,000000000e+00    0,000000000e+00
     1262000000    2,107281834e-01    1,024943963e-01   -9,069259395e-04    3,409649059e-02    0,000000000e+00    0,000000000e+00    0,000000000e+00    0,000000000e+00
     1276000000    2,384344041e-01   -5,897383019e-02    2,704006620e-02    3,137159348e-02    0,000000000e+00    0,000000000e+00    0,000000000e+00    0,000000000e+00
     1290000000    1,909295768e-01   -2,204836756e-01    5,121102557e-02    1,967313141e-02    0,000000000e+00    0,000000000e+00    0,000000000e+00    0,000000000e+00
     1304000000    8,222956955e-02   -3,558678329e-01    7,718603313e-02    9,784274735e-03    0,000000000e+00    0,000000000e+00    0,000000000e+00    0,000000000e+00
     1318000000   -1,030839756e-01   -4,456827343e-01    7,801579684e-02   -9,523693472e-03    0,000000000e+00    0,000000000e+00    0,000000000e+00    0,000000000e+00
     1332000000   -3,584489524e-01   -4,320464730e-01    8,681124449e-02   -1,746529900e-02    0,000000000e+00    0,000000000e+00    0,000000000e+00    0,000000000e+00
     1346000000   -5,885060430e-01   -2,487057298e-01    1,161423400e-01   -5,846361164e-03    0,000000000e+00    0,000000000e+00    0,000000000e+00    0,000000000e+00
     1360000000   -6,477257609e-01    7,875086367e-02    1,410884559e-01   -1,075727679e-02    0,000000000e+00    0,000000000e+00    0,000000000e+00    0,000000000e+00
     1374000000   -4,887407720e-01    3,346476853e-01    1,682714075e-01   -4,677272961e-02    0,000000000e+00    0,000000000e+00    0,000000000e+00    0,000000000e+00
     1388000000   -2,485183626e-01    4,224873781e-01    1,605606377e-01   -8,531688154e-02    0,000000000e+00    0,000000000e+00    0,000000000e+00    0,000000000e+00
     1402000000   -4,618924484e-02    3,895553648e-01    1,374650300e-01   -9,440400451e-02    0,000000000e+00    0,000000000e+00    0,000000000e+00    0,000000000e+00
     1416000000    9,786333144e-02    2,856319845e-01    1,196878776e-01   -8,655913174e-02    0,000000000e+00    0,000000000e+00    0,000000000e+00    0,000000000e+00
     1430000000    1,937996745e-01    1,412594765e-01    1,247452870e-01   -8,049685508e-02    0,000000000e+00    0,000000000e+00    0,000000000e+00    0,000000000e+00
     1444000000    2,160443068e-01   -1,607839204e-02    1,289861500e-01   -2,967863344e-02    0,000000000e+00    0,000000000e+00    0,000000000e+00    0,000000000e+00
     1458000000    1,799114645e-01   -1,825385541e-01    1,354783326e-01    2,589818649e-02    0,000000000e+00    0,000000000e+00    0,000000000e+00    0,000000000e+00
     1472000000    6,804960966e-02   -3,536168337e-01    1,830895245e-01    6,362787634e-02    0,000000000e+00    0,000000000e+00    0,000000000e+00    0,000000000e+00
     1486000000   -1,430087835e-01   -4,726129174e-01    2,814949751e-01    9,062815458e-02    0,000000000e+00    0,000000000e+00    0,000000000e+00    0,000000000e+00
     1500000000   -4,469909072e-01   -4,832283854e-01    4,017489254e-01    3,971820325e-02    0,000000000e+00    0,000000000e+00    0,000000000e+00    0,000000000e+00
