! NanoVNA-App
! Date: 2025-09-25 15:57:26
! Start: 100MHz Stop: 1,5GHz Points: 101
! S-Parameter data: F S11 S21 S12 S22
# Hz S RI R 50
!     Frequency           S11_Real           S11_Imag           S21_Real           S21_Imag           S12_Real           S12_Imag           S22_Real           S22_Imag
      100000000   -2,821020596e-02   -2,835370833e-03    3,722146749e-01   -7,225075960e-01    0,000000000e+00    0,000000000e+00    0,000000000e+00    0,000000000e+00
      114000000   -1,565042883e-02    1,287546102e-02   -9,133429080e-02   -8,047431707e-01    0,000000000e+00    0,000000000e+00    0,000000000e+00    0,000000000e+00
      128000000    4,343706649e-03    1,192813180e-02   -5,158646107e-01   -6,188228726e-01    0,000000000e+00    0,000000000e+00    0,000000000e+00    0,000000000e+00
      142000000    1,549063623e-02   -1,807151013e-03   -7,675082684e-01   -2,340833694e-01    0,000000000e+00    0,000000000e+00    0,000000000e+00    0,000000000e+00
      156000000    1,556627080e-02   -1,380026899e-02   -7,700774670e-01    2,231458873e-01    0,000000000e+00    0,000000000e+00    0,000000000e+00    0,000000000e+00
      170000000    1,765017211e-02   -2,101116069e-02   -5,153688192e-01    6,060084701e-01    0,000000000e+00    0,000000000e+00    0,000000000e+00    0,000000000e+00
      184000000    2,202343382e-02   -3,554022312e-02   -9,852310270e-02    7,864480615e-01    0,000000000e+00    0,000000000e+00    0,000000000e+00    0,000000000e+00
      198000000    1,402103249e-02   -6,065687537e-02    3,457698822e-01    7,108967900e-01    0,000000000e+00    0,000000000e+00    0,000000000e+00    0,000000000e+00
      212000000   -1,764435135e-02   -7,916130871e-02    6,804116368e-01    4,061622024e-01    0,000000000e+00    0,000000000e+00    0,000000000e+00    0,000000000e+00
      226000000   -6,041947752e-02   -6,662802398e-02    7,957956195e-01   -3,563942015e-02    0,000000000e+00    0,000000000e+00    0,000000000e+00    0,000000000e+00
      240000000   -8,058260381e-02   -2,276378311e-02    6,416381598e-01   -4,717032313e-01    0,000000000e+00    0,000000000e+00    0,000000000e+00    0,000000000e+00
      254000000   -6,081116945e-02    1,976883784e-02    2,707699835e-01   -7,419589758e-01    0,000000000e+00    0,000000000e+00    0,000000000e+00    0,000000000e+00
      268000000   -2,097812109e-02    3,090219758e-02   -1,811688840e-01   -7,609093785e-01    0,000000000e+00    0,000000000e+00    0,000000000e+00    0,000000000e+00
      282000000    6,972640287e-03    1,373534743e-02   -5,634543896e-01   -5,322701931e-01    0,000000000e+00    0,000000000e+00    0,000000000e+00    0,000000000e+00
      296000000    1,231216453e-02   -6,282784510e-03   -7,601371408e-01   -1,343014240e-01    0,000000000e+00    0,000000000e+00    0,000000000e+00    0,000000000e+00
      310000000    1,343991607e-02   -1,475517452e-02   -7,093437910e-01    3,045418262e-01    0,000000000e+00    0,000000000e+00    0,000000000e+00    0,000000000e+00
      324000000    2,244795300e-02   -2,483852953e-02   -4,215874374e-01    6,389025450e-01    0,000000000e+00    0,000000000e+00    0,000000000e+00    0,000000000e+00
      338000000    2,801156417e-02   -5,073354021e-02   -1,211134135e-03    7,576568723e-01    0,000000000e+00    0,000000000e+00    0,000000000e+00    0,000000000e+00
      352000000    1,000722125e-02   -8,287692070e-02    4,110683203e-01    6,345219612e-01    0,000000000e+00    0,000000000e+00    0,000000000e+00    0,000000000e+00
      366000000   -3,195645288e-02   -9,383430332e-02    6,933850050e-01    3,033040762e-01    0,000000000e+00    0,000000000e+00    0,000000000e+00    0,000000000e+00
      380000000   -6,765192747e-02   -6,881701201e-02    7,455392480e-01   -1,339081526e-01    0,000000000e+00    0,000000000e+00    0,000000000e+00    0,000000000e+00
      394000000   -6,880055368e-02   -3,066312894e-02    5,386216044e-01   -5,273768306e-01    0,000000000e+00    0,000000000e+00    0,000000000e+00    0,000000000e+00
      408000000   -4,290056601e-02   -1,563105732e-02    1,492204070e-01   -7,346705794e-01    0,000000000e+00    0,000000000e+00    0,000000000e+00    0,000000000e+00
      422000000   -2,613124624e-02   -3,135549277e-02   -2,798009813e-01   -6,908107996e-01    0,000000000e+00    0,000000000e+00    0,000000000e+00    0,000000000e+00
      436000000   -3,911723942e-02   -4,910678044e-02   -6,104257107e-01   -4,189504087e-01    0,000000000e+00    0,000000000e+00    0,000000000e+00    0,000000000e+00
      450000000   -6,482149661e-02   -3,889396787e-02   -7,370830774e-01   -7,746708114e-03    0,000000000e+00    0,000000000e+00    0,000000000e+00    0,000000000e+00
      464000000   -6,757839024e-02   -6,431073882e-03   -6,079642177e-01    4,066745937e-01    0,000000000e+00    0,000000000e+00    0,000000000e+00    0,000000000e+00
      478000000   -3,875327855e-02    1,594284177e-02   -2,672616541e-01    6,699127555e-01    0,000000000e+00    0,000000000e+00    0,000000000e+00    0,000000000e+00
      492000000   -4,936901852e-03    6,327402312e-03    1,519682556e-01    6,944665313e-01    0,000000000e+00    0,000000000e+00    0,000000000e+00    0,000000000e+00
      506000000    7,032278925e-03   -2,026353963e-02    5,082378983e-01    4,883819818e-01    0,000000000e+00    0,000000000e+00    0,000000000e+00    0,000000000e+00
      520000000    7,181728724e-04   -3,891425952e-02    6,890999675e-01    1,209087744e-01    0,000000000e+00    0,000000000e+00    0,000000000e+00    0,000000000e+00
      534000000   -2,851896454e-03   -4,585391283e-02    6,328765154e-01   -2,816683948e-01    0,000000000e+00    0,000000000e+00    0,000000000e+00    0,000000000e+00
      548000000    1,146940631e-03   -5,988560989e-02    3,597639203e-01   -5,785369873e-01    0,000000000e+00    0,000000000e+00    0,000000000e+00    0,000000000e+00
      562000000   -7,503542583e-03   -8,843837678e-02   -2,654858492e-02   -6,722255945e-01    0,000000000e+00    0,000000000e+00    0,000000000e+00    0,000000000e+00
      576000000   -4,563730955e-02   -1,098864749e-01   -4,020127356e-01   -5,381523371e-01    0,000000000e+00    0,000000000e+00    0,000000000e+00    0,000000000e+00
      590000000   -9,484314173e-02   -9,328741580e-02   -6,391897202e-01   -2,195195705e-01    0,000000000e+00    0,000000000e+00    0,000000000e+00    0,000000000e+00
      604000000   -1,118755117e-01   -4,111570492e-02   -6,475107670e-01    1,984542310e-01    0,000000000e+00    0,000000000e+00    0,000000000e+00    0,000000000e+00
      618000000   -7,546899468e-02   -1,882534125e-03   -4,019536674e-01    5,346630216e-01    0,000000000e+00    0,000000000e+00    0,000000000e+00    0,000000000e+00
      632000000   -3,017450683e-02   -2,078316361e-02   -1,198777650e-02    6,551900506e-01    0,000000000e+00    0,000000000e+00    0,000000000e+00    0,000000000e+00
      646000000   -3,697669134e-02   -7,646167278e-02    3,659286797e-01    5,277097821e-01    0,000000000e+00    0,000000000e+00    0,000000000e+00    0,000000000e+00
      660000000   -1,111380458e-01   -9,966339171e-02    6,009684205e-01    1,929613501e-01    0,000000000e+00    0,000000000e+00    0,000000000e+00    0,000000000e+00
      674000000   -2,002608627e-01   -2,448623627e-02    5,650729537e-01   -2,399969250e-01    0,000000000e+00    0,000000000e+00    0,000000000e+00    0,000000000e+00
      688000000   -1,787082106e-01    1,443013400e-01    2,092695534e-01   -5,220401287e-01    0,000000000e+00    0,000000000e+00    0,000000000e+00    0,000000000e+00
      702000000    2,497361787e-02    2,457142174e-01   -1,917643100e-01   -4,062910974e-01    0,000000000e+00    0,000000000e+00    0,000000000e+00    0,000000000e+00
      716000000    2,643128932e-01    1,107235178e-01   -2,720394433e-01   -8,317947388e-02    0,000000000e+00    0,000000000e+00    0,000000000e+00    0,000000000e+00
      730000000    3,030496836e-01   -1,872040033e-01   -1,060624570e-01    3,159410506e-02    0,000000000e+00    0,000000000e+00    0,000000000e+00    0,000000000e+00
      744000000    9,447754920e-02   -4,278582931e-01   -4,241728038e-02   -6,633953005e-02    0,000000000e+00    0,000000000e+00    0,000000000e+00    0,000000000e+00
      758000000   -2,579717636e-01   -4,281927645e-01   -1,764036417e-01   -1,261829734e-01    0,000000000e+00    0,000000000e+00    0,000000000e+00    0,000000000e+00
      772000000   -4,851636589e-01   -1,199388802e-01   -3,367596865e-01    3,836916387e-02    0,000000000e+00    0,000000000e+00    0,000000000e+00    0,000000000e+00
      786000000   -3,410013020e-01    2,221260071e-01   -2,625382543e-01    3,169819415e-01    0,000000000e+00    0,000000000e+00    0,000000000e+00    0,000000000e+00
      800000000   -3,998087347e-02    2,763701975e-01    3,432929050e-03    4,368289709e-01    0,000000000e+00    0,000000000e+00    0,000000000e+00    0,000000000e+00
      814000000    1,443577260e-01    1,252926290e-01    2,640044689e-01    3,599646688e-01    0,000000000e+00    0,000000000e+00    0,000000000e+00    0,000000000e+00
      828000000    1,676455140e-01   -7,057870179e-02    4,329605103e-01    1,564196497e-01    0,000000000e+00    0,000000000e+00    0,000000000e+00    0,000000000e+00
      842000000    6,705617905e-02   -2,179543525e-01    4,667435586e-01   -1,203965619e-01    0,000000000e+00    0,000000000e+00    0,000000000e+00    0,000000000e+00
      856000000   -1,063226983e-01   -2,633998096e-01    3,196586072e-01   -3,946690261e-01    0,000000000e+00    0,000000000e+00    0,000000000e+00    0,000000000e+00
      870000000   -2,756375074e-01   -1,681408137e-01   -2,455536509e-03   -5,271955729e-01    0,000000000e+00    0,000000000e+00    0,000000000e+00    0,000000000e+00
      884000000   -3,196711838e-01    3,469638526e-02   -3,475391865e-01   -3,932360113e-01    0,000000000e+00    0,000000000e+00    0,000000000e+00    0,000000000e+00
      898000000   -1,926875114e-01    2,069340944e-01   -4,893297553e-01   -6,274189055e-02    0,000000000e+00    0,000000000e+00    0,000000000e+00    0,000000000e+00
      912000000    5,761211272e-03    2,188283205e-01   -4,114656746e-01    2,710812092e-01    0,000000000e+00    0,000000000e+00    0,000000000e+00    0,000000000e+00
      926000000    1,485098749e-01    1,114319935e-01   -1,699303687e-01    4,149804115e-01    0,000000000e+00    0,000000000e+00    0,000000000e+00    0,000000000e+00
      940000000    1,989224553e-01   -4,438735172e-02    6,430525333e-02    4,248227179e-01    0,000000000e+00    0,000000000e+00    0,000000000e+00    0,000000000e+00
      954000000    1,534077227e-01   -1,994179934e-01    2,623128295e-01    3,434827626e-01    0,000000000e+00    0,000000000e+00    0,000000000e+00    0,000000000e+00
      968000000    2,678513899e-02   -3,160147667e-01    4,112048745e-01    1,801810861e-01    0,000000000e+00    0,000000000e+00    0,000000000e+00    0,000000000e+00
      982000000   -1,627346277e-01   -3,313850164e-01    4,767198861e-01   -6,483540684e-02    0,000000000e+00    0,000000000e+00    0,000000000e+00    0,000000000e+00
      996000000   -3,211404383e-01   -2,106627673e-01    3,668695092e-01   -3,576059043e-01    0,000000000e+00    0,000000000e+00    0,000000000e+00    0,000000000e+00
     1010000000   -3,418824971e-01   -9,024480358e-03    4,082018510e-02   -5,247890949e-01    0,000000000e+00    0,000000000e+00    0,000000000e+00    0,000000000e+00
     1024000000   -2,049491405e-01    9,730105847e-02   -3,447494507e-01   -3,804149628e-01    0,000000000e+00    0,000000000e+00    0,000000000e+00    0,000000000e+00
     1038000000   -1,335322708e-01    7,857684046e-03   -4,844024479e-01    6,326959282e-02    0,000000000e+00    0,000000000e+00    0,000000000e+00    0,000000000e+00
     1052000000   -2,911804020e-01    5,222538859e-02   -9,570621699e-02    3,726083040e-01    0,000000000e+00    0,000000000e+00    0,000000000e+00    0,000000000e+00
     1066000000   -1,483664513e-01    2,994847000e-01    1,425955594e-01    1,351666749e-01    0,000000000e+00    0,000000000e+00    0,000000000e+00    0,000000000e+00
     1080000000    9,728343785e-02    2,522367239e-01    9,256511182e-02    2,008203231e-02    0,000000000e+00    0,000000000e+00    0,000000000e+00    0,000000000e+00
     1094000000    2,244943231e-01    8,851252496e-02    6,839300692e-02    1,039056946e-02    0,000000000e+00    0,000000000e+00    0,000000000e+00    0,000000000e+00
     1108000000    2,404655665e-01   -8,972834796e-02    8,169638366e-02   -5,530412636e-06    0,000000000e+00    0,000000000e+00    0,000000000e+00    0,000000000e+00
     1122000000    1,857179105e-01   -2,520925105e-01    1,023893282e-01   -2,594562247e-02    0,000000000e+00    0,000000000e+00    0,000000000e+00    0,000000000e+00
     1136000000    5,341264978e-02   -3,767558336e-01    1,275636107e-01   -7,414676249e-02    0,000000000e+00    0,000000000e+00    0,000000000e+00    0,000000000e+00
     1150000000   -1,566402763e-01   -4,223914146e-01    1,369308382e-01   -1,517910659e-01    0,000000000e+00    0,000000000e+00    0,000000000e+00    0,000000000e+00
     1164000000   -3,787142336e-01   -3,223896027e-01    9,722970426e-02   -2,743658423e-01    0,000000000e+00    0,000000000e+00    0,000000000e+00    0,000000000e+00
     1178000000   -4,668315053e-01   -8,435799927e-02   -1,042086631e-01   -4,044082165e-01    0,000000000e+00    0,000000000e+00    0,000000000e+00    0,000000000e+00
     1192000000   -3,711478114e-01    3,901738673e-02   -4,599179626e-01   -1,942138672e-01    0,000000000e+00    0,000000000e+00    0,000000000e+00    0,000000000e+00
     1206000000   -4,121857584e-01    1,345848292e-01   -2,748512626e-01    2,351228297e-01    0,000000000e+00    0,000000000e+00    0,000000000e+00    0,000000000e+00
     1220000000   -2,742626369e-01    3,287987411e-01   -3,720893990e-03    1,648202240e-01    0,000000000e+00    0,000000000e+00    0,000000000e+00    0,000000000e+00
     1234000000   -4,320456088e-02    3,533406258e-01    2,223202027e-02    5,526804551e-02    0,000000000e+00    0,000000000e+00    0,000000000e+00    0,000000000e+00
     1248000000    1,250556856e-01    2,457102835e-01    4,120771773e-03    2,214537002e-02    0,000000000e+00    0,000000000e+00    0,000000000e+00    0,000000000e+00
     1262000000    2,060600817e-01    1,037196442e-01    1,424596761e-03    3,204041719e-02    0,000000000e+00    0,000000000e+00    0,000000000e+00    0,000000000e+00
     1276000000    2,357270867e-01   -6,314924359e-02    2,595404163e-02    3,205293790e-02    0,000000000e+00    0,000000000e+00    0,000000000e+00    0,000000000e+00
     1290000000    1,904388368e-01   -2,122554779e-01    5,559953302e-02    2,504285239e-02    0,000000000e+00    0,000000000e+00    0,000000000e+00    0,000000000e+00
     1304000000    8,092593402e-02   -3,521536291e-01    7,028179616e-02    5,372652784e-03    0,000000000e+00    0,000000000e+00    0,000000000e+00    0,000000000e+00
     1318000000   -1,011041626e-01   -4,482116699e-01    8,935395628e-02   -1,049142983e-02    0,000000000e+00    0,000000000e+00    0,000000000e+00    0,000000000e+00
     1332000000   -3,590609431e-01   -4,308098555e-01    8,196633309e-02   -9,746573865e-03    0,000000000e+00    0,000000000e+00    0,000000000e+00    0,000000000e+00
     1346000000   -5,942035317e-01   -2,442412972e-01    9,878212214e-02   -8,684439585e-03    0,000000000e+00    0,000000000e+00    0,000000000e+00    0,000000000e+00
     1360000000   -6,477786899e-01    7,645726204e-02    1,494381428e-01   -1,385902986e-02    0,000000000e+00    0,000000000e+00    0,000000000e+00    0,000000000e+00
     1374000000   -4,938772619e-01    3,405897319e-01    1,719672382e-01   -4,426394776e-02    0,000000000e+00    0,000000000e+00    0,000000000e+00    0,000000000e+00
     1388000000   -2,521049678e-01    4,313965738e-01    1,598384231e-01   -8,156826347e-02    0,000000000e+00    0,000000000e+00    0,000000000e+00    0,000000000e+00
     1402000000   -3,976999968e-02    3,934505582e-01    1,425444037e-01   -8,659713715e-02    0,000000000e+00    0,000000000e+00    0,000000000e+00    0,000000000e+00
     1416000000    9,966856986e-02    2,884327769e-01    1,220655441e-01   -8,070270717e-02    0,000000000e+00    0,000000000e+00    0,000000000e+00    0,000000000e+00
     1430000000    1,863823533e-01    1,518072784e-01    1,087462455e-01   -3,998921067e-02    0,000000000e+00    0,000000000e+00    0,000000000e+00    0,000000000e+00
     1444000000    2,195951790e-01   -1,041144505e-02    1,300641000e-01   -2,044602111e-02    0,000000000e+00    0,000000000e+00    0,000000000e+00    0,000000000e+00
     1458000000    1,834747344e-01   -1,824968308e-01    1,436530203e-01    1,372791361e-02    0,000000000e+00    0,000000000e+00    0,000000000e+00    0,000000000e+00
     1472000000    6,765458733e-02   -3,519102633e-01    2,100685984e-01    6,405028701e-02    0,000000000e+00    0,000000000e+00    0,000000000e+00    0,000000000e+00
     1486000000   -1,456115395e-01   -4,783454835e-01    2,876383662e-01    9,472200274e-02    0,000000000e+00    0,000000000e+00    0,000000000e+00    0,000000000e+00
     1500000000   -4,411920607e-01   -4,659725726e-01    4,007599354e-01    6,186654046e-02    0,000000000e+00    0,000000000e+00    0,000000000e+00    0,000000000e+00
