! NanoVNA-App
! Date: 2025-09-25 15:58:42
! Start: 100MHz Stop: 1,5GHz Points: 101
! S-Parameter data: F S11 S21 S12 S22
# Hz S RI R 50
!     Frequency           S11_Real           S11_Imag           S21_Real           S21_Imag           S12_Real           S12_Imag           S22_Real           S22_Imag
      100000000   -2,823542058e-02   -2,857548418e-03    3,722349405e-01   -7,224398851e-01    0,000000000e+00    0,000000000e+00    0,000000000e+00    0,000000000e+00
      114000000   -1,566248760e-02    1,288711186e-02   -9,130915999e-02   -8,045769930e-01    0,000000000e+00    0,000000000e+00    0,000000000e+00    0,000000000e+00
      128000000    4,388044123e-03    1,191057265e-02   -5,159988403e-01   -6,187117100e-01    0,000000000e+00    0,000000000e+00    0,000000000e+00    0,000000000e+00
      142000000    1,547920424e-02   -1,783528016e-03   -7,672153711e-01   -2,340965271e-01    0,000000000e+00    0,000000000e+00    0,000000000e+00    0,000000000e+00
      156000000    1,703358814e-02   -1,340566389e-02   -7,657825351e-01    2,262268811e-01    0,000000000e+00    0,000000000e+00    0,000000000e+00    0,000000000e+00
      170000000    1,768700033e-02   -2,095533162e-02   -5,154752135e-01    6,060619354e-01    0,000000000e+00    0,000000000e+00    0,000000000e+00    0,000000000e+00
      184000000    2,200182714e-02   -3,561241552e-02   -9,811167419e-02    7,856217027e-01    0,000000000e+00    0,000000000e+00    0,000000000e+00    0,000000000e+00
      198000000    1,403501630e-02   -6,062839553e-02    3,459473252e-01    7,110160589e-01    0,000000000e+00    0,000000000e+00    0,000000000e+00    0,000000000e+00
      212000000   -1,766515337e-02   -7,912363112e-02    6,805310845e-01    4,061458707e-01    0,000000000e+00    0,000000000e+00    0,000000000e+00    0,000000000e+00
      226000000   -6,031566486e-02   -6,664335728e-02    7,958378196e-01   -3,558281064e-02    0,000000000e+00    0,000000000e+00    0,000000000e+00    0,000000000e+00
      240000000   -8,054585010e-02   -2,276660502e-02    6,414371729e-01   -4,713811874e-01    0,000000000e+00    0,000000000e+00    0,000000000e+00    0,000000000e+00
      254000000   -6,081547588e-02    1,972836815e-02    2,707524598e-01   -7,419099808e-01    0,000000000e+00    0,000000000e+00    0,000000000e+00    0,000000000e+00
      268000000   -2,095986530e-02    3,089396097e-02   -1,812441051e-01   -7,608355284e-01    0,000000000e+00    0,000000000e+00    0,000000000e+00    0,000000000e+00
      282000000    6,876601372e-03    1,371992379e-02   -5,630837083e-01   -5,324391127e-01    0,000000000e+00    0,000000000e+00    0,000000000e+00    0,000000000e+00
      296000000    1,247433573e-02   -6,220748648e-03   -7,604817748e-01   -1,342505515e-01    0,000000000e+00    0,000000000e+00    0,000000000e+00    0,000000000e+00
      310000000    1,353135891e-02   -1,470982656e-02   -7,081704140e-01    3,042312860e-01    0,000000000e+00    0,000000000e+00    0,000000000e+00    0,000000000e+00
      324000000    2,251026593e-02   -2,460722066e-02   -4,210090935e-01    6,393889189e-01    0,000000000e+00    0,000000000e+00    0,000000000e+00    0,000000000e+00
      338000000    2,816306613e-02   -5,057780072e-02   -2,872525249e-03    7,580916882e-01    0,000000000e+00    0,000000000e+00    0,000000000e+00    0,000000000e+00
      352000000    1,018370129e-02   -8,311866224e-02    4,114846885e-01    6,348997355e-01    0,000000000e+00    0,000000000e+00    0,000000000e+00    0,000000000e+00
      366000000   -3,197151050e-02   -9,373530746e-02    6,930022836e-01    3,035494089e-01    0,000000000e+00    0,000000000e+00    0,000000000e+00    0,000000000e+00
      380000000   -6,742051244e-02   -6,892218441e-02    7,462471128e-01   -1,344875544e-01    0,000000000e+00    0,000000000e+00    0,000000000e+00    0,000000000e+00
      394000000   -6,856456399e-02   -3,031694144e-02    5,401080847e-01   -5,277441144e-01    0,000000000e+00    0,000000000e+00    0,000000000e+00    0,000000000e+00
      408000000   -4,273182526e-02   -1,540467236e-02    1,495691240e-01   -7,338122129e-01    0,000000000e+00    0,000000000e+00    0,000000000e+00    0,000000000e+00
      422000000   -2,605527453e-02   -3,112795204e-02   -2,793991566e-01   -6,892195940e-01    0,000000000e+00    0,000000000e+00    0,000000000e+00    0,000000000e+00
      436000000   -3,935903311e-02   -4,921283945e-02   -6,098278761e-01   -4,195190668e-01    0,000000000e+00    0,000000000e+00    0,000000000e+00    0,000000000e+00
      450000000   -6,477058679e-02   -3,929476440e-02   -7,371096611e-01   -7,778631523e-03    0,000000000e+00    0,000000000e+00    0,000000000e+00    0,000000000e+00
      464000000   -6,735689193e-02   -6,447372492e-03   -6,076845527e-01    4,062735140e-01    0,000000000e+00    0,000000000e+00    0,000000000e+00    0,000000000e+00
      478000000   -3,869049996e-02    1,611134224e-02   -2,677566707e-01    6,705245972e-01    0,000000000e+00    0,000000000e+00    0,000000000e+00    0,000000000e+00
      492000000   -5,201851483e-03    6,133596878e-03    1,522702575e-01    6,946512461e-01    0,000000000e+00    0,000000000e+00    0,000000000e+00    0,000000000e+00
      506000000    6,918081548e-03   -2,019667439e-02    5,077780485e-01    4,882378280e-01    0,000000000e+00    0,000000000e+00    0,000000000e+00    0,000000000e+00
      520000000    1,121698824e-05   -3,839256614e-02    6,890151501e-01    1,208706647e-01    0,000000000e+00    0,000000000e+00    0,000000000e+00    0,000000000e+00
      534000000   -3,428908065e-03   -4,567078501e-02    6,324871182e-01   -2,821701467e-01    0,000000000e+00    0,000000000e+00    0,000000000e+00    0,000000000e+00
      548000000    5,840490921e-04   -6,004904583e-02    3,603813052e-01   -5,794010758e-01    0,000000000e+00    0,000000000e+00    0,000000000e+00    0,000000000e+00
      562000000   -7,864098996e-03   -8,871880919e-02   -2,598742768e-02   -6,726874709e-01    0,000000000e+00    0,000000000e+00    0,000000000e+00    0,000000000e+00
      576000000   -4,510808736e-02   -1,098218411e-01   -4,011916220e-01   -5,382029414e-01    0,000000000e+00    0,000000000e+00    0,000000000e+00    0,000000000e+00
      590000000   -9,493678063e-02   -9,372035414e-02   -6,396059990e-01   -2,175197005e-01    0,000000000e+00    0,000000000e+00    0,000000000e+00    0,000000000e+00
      604000000   -1,114966646e-01   -4,127356410e-02   -6,473411918e-01    1,982441694e-01    0,000000000e+00    0,000000000e+00    0,000000000e+00    0,000000000e+00
      618000000   -7,600478083e-02   -2,172051463e-03   -4,015730321e-01    5,356431007e-01    0,000000000e+00    0,000000000e+00    0,000000000e+00    0,000000000e+00
      632000000   -2,959355526e-02   -2,088875510e-02   -1,129359845e-02    6,557439566e-01    0,000000000e+00    0,000000000e+00    0,000000000e+00    0,000000000e+00
      646000000   -3,627683967e-02   -7,727199793e-02    3,658033907e-01    5,267865062e-01    0,000000000e+00    0,000000000e+00    0,000000000e+00    0,000000000e+00
      660000000   -1,121460050e-01   -9,940224886e-02    6,014248729e-01    1,930171549e-01    0,000000000e+00    0,000000000e+00    0,000000000e+00    0,000000000e+00
      674000000   -2,004294395e-01   -2,375969663e-02    5,651552081e-01   -2,400771677e-01    0,000000000e+00    0,000000000e+00    0,000000000e+00    0,000000000e+00
      688000000   -1,784024537e-01    1,453306973e-01    2,081230730e-01   -5,225169063e-01    0,000000000e+00    0,000000000e+00    0,000000000e+00    0,000000000e+00
      702000000    2,699894458e-02    2,453991026e-01   -1,989136338e-01   -4,012167752e-01    0,000000000e+00    0,000000000e+00    0,000000000e+00    0,000000000e+00
      716000000    2,638266683e-01    1,110229939e-01   -2,723003924e-01   -8,303523809e-02    0,000000000e+00    0,000000000e+00    0,000000000e+00    0,000000000e+00
      730000000    3,036263883e-01   -1,865905970e-01   -1,065447405e-01    3,184539825e-02    0,000000000e+00    0,000000000e+00    0,000000000e+00    0,000000000e+00
      744000000    9,354467690e-02   -4,267950654e-01   -4,247819632e-02   -6,587971002e-02    0,000000000e+00    0,000000000e+00    0,000000000e+00    0,000000000e+00
      758000000   -2,590383887e-01   -4,279813468e-01   -1,762394458e-01   -1,258577704e-01    0,000000000e+00    0,000000000e+00    0,000000000e+00    0,000000000e+00
      772000000   -4,854847193e-01   -1,182097718e-01   -3,368044794e-01    3,831266984e-02    0,000000000e+00    0,000000000e+00    0,000000000e+00    0,000000000e+00
      786000000   -3,406142592e-01    2,209613472e-01   -2,628810108e-01    3,172068894e-01    0,000000000e+00    0,000000000e+00    0,000000000e+00    0,000000000e+00
      800000000   -4,097139463e-02    2,761321068e-01    3,169307951e-03    4,362929761e-01    0,000000000e+00    0,000000000e+00    0,000000000e+00    0,000000000e+00
      814000000    1,440931857e-01    1,253132373e-01    2,646887004e-01    3,593332767e-01    0,000000000e+00    0,000000000e+00    0,000000000e+00    0,000000000e+00
      828000000    1,672873795e-01   -7,043226063e-02    4,325727224e-01    1,565723419e-01    0,000000000e+00    0,000000000e+00    0,000000000e+00    0,000000000e+00
      842000000    6,737041473e-02   -2,181561738e-01    4,662617743e-01   -1,202345267e-01    0,000000000e+00    0,000000000e+00    0,000000000e+00    0,000000000e+00
      856000000   -1,070386395e-01   -2,637397349e-01    3,193683028e-01   -3,950227797e-01    0,000000000e+00    0,000000000e+00    0,000000000e+00    0,000000000e+00
      870000000   -2,745996416e-01   -1,680468321e-01   -3,757812316e-03   -5,270633101e-01    0,000000000e+00    0,000000000e+00    0,000000000e+00    0,000000000e+00
      884000000   -3,204910159e-01    3,493012860e-02   -3,487090766e-01   -3,927800059e-01    0,000000000e+00    0,000000000e+00    0,000000000e+00    0,000000000e+00
      898000000   -1,922024041e-01    2,074884176e-01   -4,894182682e-01   -6,203201413e-02    0,000000000e+00    0,000000000e+00    0,000000000e+00    0,000000000e+00
      912000000    6,698250771e-03    2,186264992e-01   -3,975527287e-01    2,645396590e-01    0,000000000e+00    0,000000000e+00    0,000000000e+00    0,000000000e+00
      926000000    1,490492374e-01    1,118062511e-01   -1,713279337e-01    4,145566523e-01    0,000000000e+00    0,000000000e+00    0,000000000e+00    0,000000000e+00
      940000000    2,001295686e-01   -4,458580539e-02    6,510057300e-02    4,254860282e-01    0,000000000e+00    0,000000000e+00    0,000000000e+00    0,000000000e+00
      954000000    1,525700986e-01   -2,003176808e-01    2,622691989e-01    3,409061134e-01    0,000000000e+00    0,000000000e+00    0,000000000e+00    0,000000000e+00
      968000000    2,539108880e-02   -3,143494129e-01    4,103120267e-01    1,790062338e-01    0,000000000e+00    0,000000000e+00    0,000000000e+00    0,000000000e+00
      982000000   -1,633923203e-01   -3,313845098e-01    4,753394127e-01   -6,588955224e-02    0,000000000e+00    0,000000000e+00    0,000000000e+00    0,000000000e+00
      996000000   -3,203404546e-01   -2,089632601e-01    3,660003543e-01   -3,538583219e-01    0,000000000e+00    0,000000000e+00    0,000000000e+00    0,000000000e+00
     1010000000   -3,420882821e-01   -1,054722629e-02    4,238015041e-02   -5,248723030e-01    0,000000000e+00    0,000000000e+00    0,000000000e+00    0,000000000e+00
     1024000000   -2,052759230e-01    8,987268060e-02   -3,469863832e-01   -3,801651895e-01    0,000000000e+00    0,000000000e+00    0,000000000e+00    0,000000000e+00
     1038000000   -1,393405497e-01    9,379555471e-03   -4,822700918e-01    6,379364431e-02    0,000000000e+00    0,000000000e+00    0,000000000e+00    0,000000000e+00
     1052000000   -2,916833758e-01    5,375337601e-02   -9,250945598e-02    3,741208017e-01    0,000000000e+00    0,000000000e+00    0,000000000e+00    0,000000000e+00
     1066000000   -1,475747079e-01    2,971651852e-01    1,425174475e-01    1,304845065e-01    0,000000000e+00    0,000000000e+00    0,000000000e+00    0,000000000e+00
     1080000000    1,025401503e-01    2,481128871e-01    9,146077186e-02    2,302020416e-02    0,000000000e+00    0,000000000e+00    0,000000000e+00    0,000000000e+00
     1094000000    2,240247130e-01    9,117344767e-02    6,831872463e-02    1,035847329e-02    0,000000000e+00    0,000000000e+00    0,000000000e+00    0,000000000e+00
     1108000000    2,400849909e-01   -8,584435284e-02    8,091497421e-02    1,750190393e-03    0,000000000e+00    0,000000000e+00    0,000000000e+00    0,000000000e+00
     1122000000    1,819234043e-01   -2,508996129e-01    1,028375328e-01   -2,553652786e-02    0,000000000e+00    0,000000000e+00    0,000000000e+00    0,000000000e+00
     1136000000    4,969565198e-02   -3,791623116e-01    1,273229271e-01   -7,359375805e-02    0,000000000e+00    0,000000000e+00    0,000000000e+00    0,000000000e+00
     1150000000   -1,540964693e-01   -4,258226454e-01    1,398623437e-01   -1,517544836e-01    0,000000000e+00    0,000000000e+00    0,000000000e+00    0,000000000e+00
     1164000000   -3,788893819e-01   -3,205840588e-01    9,700988978e-02   -2,779497504e-01    0,000000000e+00    0,000000000e+00    0,000000000e+00    0,000000000e+00
     1178000000   -4,687857330e-01   -8,716899157e-02   -1,074925289e-01   -4,072014093e-01    0,000000000e+00    0,000000000e+00    0,000000000e+00    0,000000000e+00
     1192000000   -3,754081726e-01    3,709942102e-02   -4,624366164e-01   -1,975575686e-01    0,000000000e+00    0,000000000e+00    0,000000000e+00    0,000000000e+00
     1206000000   -4,195261002e-01    1,343231648e-01   -2,732679546e-01    2,368196696e-01    0,000000000e+00    0,000000000e+00    0,000000000e+00    0,000000000e+00
     1220000000   -2,786859870e-01    3,279767632e-01   -3,040850861e-03    1,667357236e-01    0,000000000e+00    0,000000000e+00    0,000000000e+00    0,000000000e+00
     1234000000   -4,568723217e-02    3,447812498e-01    2,957521938e-02    5,303400755e-02    0,000000000e+00    0,000000000e+00    0,000000000e+00    0,000000000e+00
     1248000000    1,249567047e-01    2,473483384e-01    2,964464948e-03    2,785981447e-02    0,000000000e+00    0,000000000e+00    0,000000000e+00    0,000000000e+00
     1262000000    2,097093314e-01    9,876459837e-02   -8,372050797e-05    2,929493599e-02    0,000000000e+00    0,000000000e+00    0,000000000e+00    0,000000000e+00
     1276000000    2,314153761e-01   -5,386318639e-02    2,520517819e-02    4,059978202e-02    0,000000000e+00    0,000000000e+00    0,000000000e+00    0,000000000e+00
     1290000000    1,895546317e-01   -2,141433954e-01    5,421410874e-02    2,389837801e-02    0,000000000e+00    0,000000000e+00    0,000000000e+00    0,000000000e+00
     1304000000    8,592708409e-02   -3,532279134e-01    7,992235571e-02    9,874874726e-03    0,000000000e+00    0,000000000e+00    0,000000000e+00    0,000000000e+00
     1318000000   -1,046628579e-01   -4,444426596e-01    8,611616492e-02   -6,761679426e-03    0,000000000e+00    0,000000000e+00    0,000000000e+00    0,000000000e+00
     1332000000   -3,590294719e-01   -4,340482354e-01    8,407220989e-02   -1,243120991e-02    0,000000000e+00    0,000000000e+00    0,000000000e+00    0,000000000e+00
     1346000000   -5,900723934e-01   -2,476990968e-01    1,070108116e-01   -8,613026701e-03    0,000000000e+00    0,000000000e+00    0,000000000e+00    0,000000000e+00
     1360000000   -6,468469501e-01    7,291875035e-02    1,429865509e-01   -8,640234359e-03    0,000000000e+00    0,000000000e+00    0,000000000e+00    0,000000000e+00
     1374000000   -4,949509799e-01    3,365568519e-01    1,659013629e-01   -3,971650824e-02    0,000000000e+00    0,000000000e+00    0,000000000e+00    0,000000000e+00
     1388000000   -2,580805421e-01    4,274299443e-01    1,564967632e-01   -8,721416444e-02    0,000000000e+00    0,000000000e+00    0,000000000e+00    0,000000000e+00
     1402000000   -4,103297368e-02    3,871660531e-01    1,492629647e-01   -9,951690584e-02    0,000000000e+00    0,000000000e+00    0,000000000e+00    0,000000000e+00
     1416000000    1,018492803e-01    2,874795198e-01    1,305622011e-01   -8,856108785e-02    0,000000000e+00    0,000000000e+00    0,000000000e+00    0,000000000e+00
     1430000000    1,878532767e-01    1,463302523e-01    1,229779199e-01   -8,769353479e-02    0,000000000e+00    0,000000000e+00    0,000000000e+00    0,000000000e+00
     1444000000    2,191156149e-01   -1,591177285e-02    1,261752099e-01   -3,055324964e-02    0,000000000e+00    0,000000000e+00    0,000000000e+00    0,000000000e+00
     1458000000    1,852424294e-01   -1,835592389e-01    1,401328892e-01    1,435233839e-02    0,000000000e+00    0,000000000e+00    0,000000000e+00    0,000000000e+00
     1472000000    7,339581847e-02   -3,493672311e-01    2,067128569e-01    5,719614774e-02    0,000000000e+00    0,000000000e+00    0,000000000e+00    0,000000000e+00
     1486000000   -1,397176981e-01   -4,711508751e-01    2,889451683e-01    9,136446565e-02    0,000000000e+00    0,000000000e+00    0,000000000e+00    0,000000000e+00
     1500000000   -4,390859306e-01   -4,831392467e-01    4,087782502e-01    4,590599611e-02    0,000000000e+00    0,000000000e+00    0,000000000e+00    0,000000000e+00
