! NanoVNA-App
! Date: 2025-09-25 15:57:10
! Start: 100MHz Stop: 1,5GHz Points: 101
! S-Parameter data: F S11 S21 S12 S22
# Hz S RI R 50
!     Frequency           S11_Real           S11_Imag           S21_Real           S21_Imag           S12_Real           S12_Imag           S22_Real           S22_Imag
      100000000   -2,821334265e-02   -2,835842781e-03    3,722701669e-01   -7,224619389e-01    0,000000000e+00    0,000000000e+00    0,000000000e+00    0,000000000e+00
      114000000   -1,561838482e-02    1,286797412e-02   -9,120815992e-02   -8,046124578e-01    0,000000000e+00    0,000000000e+00    0,000000000e+00    0,000000000e+00
      128000000    4,400541540e-03    1,187088899e-02   -5,159536600e-01   -6,187455058e-01    0,000000000e+00    0,000000000e+00    0,000000000e+00    0,000000000e+00
      142000000    1,547829993e-02   -1,803767635e-03   -7,674375176e-01   -2,339743078e-01    0,000000000e+00    0,000000000e+00    0,000000000e+00    0,000000000e+00
      156000000    1,523185149e-02   -1,346267760e-02   -7,683348656e-01    2,213974148e-01    0,000000000e+00    0,000000000e+00    0,000000000e+00    0,000000000e+00
      170000000    1,760561019e-02   -2,106291242e-02   -5,153191686e-01    6,064327955e-01    0,000000000e+00    0,000000000e+00    0,000000000e+00    0,000000000e+00
      184000000    2,199540846e-02   -3,558280692e-02   -9,811213613e-02    7,859644294e-01    0,000000000e+00    0,000000000e+00    0,000000000e+00    0,000000000e+00
      198000000    1,404148713e-02   -6,068601459e-02    3,458320498e-01    7,107121348e-01    0,000000000e+00    0,000000000e+00    0,000000000e+00    0,000000000e+00
      212000000   -1,768784225e-02   -7,916063070e-02    6,809964180e-01    4,061957300e-01    0,000000000e+00    0,000000000e+00    0,000000000e+00    0,000000000e+00
      226000000   -6,034018844e-02   -6,660029292e-02    7,957249284e-01   -3,561310843e-02    0,000000000e+00    0,000000000e+00    0,000000000e+00    0,000000000e+00
      240000000   -8,050806820e-02   -2,276428603e-02    6,414590478e-01   -4,716499448e-01    0,000000000e+00    0,000000000e+00    0,000000000e+00    0,000000000e+00
      254000000   -6,075126678e-02    1,976898313e-02    2,709528506e-01   -7,418015599e-01    0,000000000e+00    0,000000000e+00    0,000000000e+00    0,000000000e+00
      268000000   -2,088593133e-02    3,085105680e-02   -1,811421961e-01   -7,604860067e-01    0,000000000e+00    0,000000000e+00    0,000000000e+00    0,000000000e+00
      282000000    6,908742245e-03    1,376315020e-02   -5,634461641e-01   -5,327348113e-01    0,000000000e+00    0,000000000e+00    0,000000000e+00    0,000000000e+00
      296000000    1,239848789e-02   -6,250122096e-03   -7,602893114e-01   -1,343880892e-01    0,000000000e+00    0,000000000e+00    0,000000000e+00    0,000000000e+00
      310000000    1,358601730e-02   -1,437580399e-02   -7,093352079e-01    3,043763936e-01    0,000000000e+00    0,000000000e+00    0,000000000e+00    0,000000000e+00
      324000000    2,246701159e-02   -2,475450560e-02   -4,214365780e-01    6,401329637e-01    0,000000000e+00    0,000000000e+00    0,000000000e+00    0,000000000e+00
      338000000    2,838648856e-02   -5,108140409e-02   -7,380378665e-04    7,619003057e-01    0,000000000e+00    0,000000000e+00    0,000000000e+00    0,000000000e+00
      352000000    1,012967713e-02   -8,304028213e-02    4,113242626e-01    6,346902847e-01    0,000000000e+00    0,000000000e+00    0,000000000e+00    0,000000000e+00
      366000000   -3,163348138e-02   -9,394554049e-02    6,930750608e-01    3,037969470e-01    0,000000000e+00    0,000000000e+00    0,000000000e+00    0,000000000e+00
      380000000   -6,779704988e-02   -6,877048314e-02    7,458612919e-01   -1,346544176e-01    0,000000000e+00    0,000000000e+00    0,000000000e+00    0,000000000e+00
      394000000   -6,862550229e-02   -3,040618449e-02    5,391510725e-01   -5,276806355e-01    0,000000000e+00    0,000000000e+00    0,000000000e+00    0,000000000e+00
      408000000   -4,251455516e-02   -1,568818279e-02    1,513067484e-01   -7,344043851e-01    0,000000000e+00    0,000000000e+00    0,000000000e+00    0,000000000e+00
      422000000   -2,604509145e-02   -3,113846295e-02   -2,792113423e-01   -6,888717413e-01    0,000000000e+00    0,000000000e+00    0,000000000e+00    0,000000000e+00
      436000000   -3,921894729e-02   -4,881966487e-02   -6,104376912e-01   -4,190084040e-01    0,000000000e+00    0,000000000e+00    0,000000000e+00    0,000000000e+00
      450000000   -6,500246376e-02   -3,869725764e-02   -7,373067737e-01   -7,583183236e-03    0,000000000e+00    0,000000000e+00    0,000000000e+00    0,000000000e+00
      464000000   -6,765028834e-02   -6,057070103e-03   -6,081768870e-01    4,065382779e-01    0,000000000e+00    0,000000000e+00    0,000000000e+00    0,000000000e+00
      478000000   -3,838558123e-02    1,599638909e-02   -2,677249610e-01    6,705331802e-01    0,000000000e+00    0,000000000e+00    0,000000000e+00    0,000000000e+00
      492000000   -5,001646467e-03    6,155172829e-03    1,517615467e-01    6,946102977e-01    0,000000000e+00    0,000000000e+00    0,000000000e+00    0,000000000e+00
      506000000    7,138059940e-03   -2,030872926e-02    5,075731874e-01    4,882983267e-01    0,000000000e+00    0,000000000e+00    0,000000000e+00    0,000000000e+00
      520000000    3,511648683e-04   -3,838448599e-02    6,878336668e-01    1,224065945e-01    0,000000000e+00    0,000000000e+00    0,000000000e+00    0,000000000e+00
      534000000   -3,481703345e-03   -4,560763761e-02    6,323104501e-01   -2,818907499e-01    0,000000000e+00    0,000000000e+00    0,000000000e+00    0,000000000e+00
      548000000    9,623521473e-04   -5,947111920e-02    3,597896993e-01   -5,785738230e-01    0,000000000e+00    0,000000000e+00    0,000000000e+00    0,000000000e+00
      562000000   -7,669022772e-03   -8,855815232e-02   -2,741986886e-02   -6,728469133e-01    0,000000000e+00    0,000000000e+00    0,000000000e+00    0,000000000e+00
      576000000   -4,554548860e-02   -1,095698923e-01   -4,015410244e-01   -5,381124616e-01    0,000000000e+00    0,000000000e+00    0,000000000e+00    0,000000000e+00
      590000000   -9,469529241e-02   -9,340213239e-02   -6,391296387e-01   -2,194797546e-01    0,000000000e+00    0,000000000e+00    0,000000000e+00    0,000000000e+00
      604000000   -1,113234013e-01   -4,104853794e-02   -6,471539140e-01    1,989788860e-01    0,000000000e+00    0,000000000e+00    0,000000000e+00    0,000000000e+00
      618000000   -7,592746615e-02   -2,626110800e-03   -4,017329514e-01    5,363243818e-01    0,000000000e+00    0,000000000e+00    0,000000000e+00    0,000000000e+00
      632000000   -2,989412285e-02   -2,090713382e-02   -1,305636857e-02    6,547653079e-01    0,000000000e+00    0,000000000e+00    0,000000000e+00    0,000000000e+00
      646000000   -3,593196347e-02   -7,724761218e-02    3,649963439e-01    5,268092752e-01    0,000000000e+00    0,000000000e+00    0,000000000e+00    0,000000000e+00
      660000000   -1,125462279e-01   -9,997087717e-02    6,014810205e-01    1,933534890e-01    0,000000000e+00    0,000000000e+00    0,000000000e+00    0,000000000e+00
      674000000   -2,004065961e-01   -2,420562133e-02    5,646340847e-01   -2,397802472e-01    0,000000000e+00    0,000000000e+00    0,000000000e+00    0,000000000e+00
      688000000   -1,792157590e-01    1,456170231e-01    2,083965391e-01   -5,210664868e-01    0,000000000e+00    0,000000000e+00    0,000000000e+00    0,000000000e+00
      702000000    2,639225498e-02    2,469297498e-01   -2,008990645e-01   -3,995734155e-01    0,000000000e+00    0,000000000e+00    0,000000000e+00    0,000000000e+00
      716000000    2,643400431e-01    1,104221344e-01   -2,719605565e-01   -8,286964893e-02    0,000000000e+00    0,000000000e+00    0,000000000e+00    0,000000000e+00
      730000000    3,036078215e-01   -1,858400702e-01   -1,059217602e-01    3,150273114e-02    0,000000000e+00    0,000000000e+00    0,000000000e+00    0,000000000e+00
      744000000    9,288959950e-02   -4,272376597e-01   -4,230573773e-02   -6,621363759e-02    0,000000000e+00    0,000000000e+00    0,000000000e+00    0,000000000e+00
      758000000   -2,598959804e-01   -4,293390512e-01   -1,760327220e-01   -1,261055470e-01    0,000000000e+00    0,000000000e+00    0,000000000e+00    0,000000000e+00
      772000000   -4,859574139e-01   -1,192971542e-01   -3,365807831e-01    3,829653561e-02    0,000000000e+00    0,000000000e+00    0,000000000e+00    0,000000000e+00
      786000000   -3,420434594e-01    2,214930058e-01   -2,629571855e-01    3,171908855e-01    0,000000000e+00    0,000000000e+00    0,000000000e+00    0,000000000e+00
      800000000   -4,072724283e-02    2,769914865e-01    2,603406087e-03    4,364707172e-01    0,000000000e+00    0,000000000e+00    0,000000000e+00    0,000000000e+00
      814000000    1,441306770e-01    1,251302361e-01    2,644808888e-01    3,593745232e-01    0,000000000e+00    0,000000000e+00    0,000000000e+00    0,000000000e+00
      828000000    1,677328050e-01   -7,042305171e-02    4,332867563e-01    1,565247178e-01    0,000000000e+00    0,000000000e+00    0,000000000e+00    0,000000000e+00
      842000000    6,722959876e-02   -2,184186280e-01    4,671503305e-01   -1,203955933e-01    0,000000000e+00    0,000000000e+00    0,000000000e+00    0,000000000e+00
      856000000   -1,075539142e-01   -2,636080086e-01    3,196717501e-01   -3,944929242e-01    0,000000000e+00    0,000000000e+00    0,000000000e+00    0,000000000e+00
      870000000   -2,747272253e-01   -1,684240252e-01   -3,586002626e-03   -5,275602937e-01    0,000000000e+00    0,000000000e+00    0,000000000e+00    0,000000000e+00
      884000000   -3,204418719e-01    3,487561643e-02   -3,482578993e-01   -3,924307525e-01    0,000000000e+00    0,000000000e+00    0,000000000e+00    0,000000000e+00
      898000000   -1,922808886e-01    2,058301717e-01   -4,896622896e-01   -6,261617690e-02    0,000000000e+00    0,000000000e+00    0,000000000e+00    0,000000000e+00
      912000000    5,918205250e-03    2,186163515e-01   -3,983798921e-01    2,802350223e-01    0,000000000e+00    0,000000000e+00    0,000000000e+00    0,000000000e+00
      926000000    1,489745528e-01    1,143521667e-01   -1,690652370e-01    4,171925187e-01    0,000000000e+00    0,000000000e+00    0,000000000e+00    0,000000000e+00
      940000000    2,007986605e-01   -4,475393146e-02    6,469332427e-02    4,235901535e-01    0,000000000e+00    0,000000000e+00    0,000000000e+00    0,000000000e+00
      954000000    1,513433903e-01   -2,041787803e-01    2,616058290e-01    3,414087594e-01    0,000000000e+00    0,000000000e+00    0,000000000e+00    0,000000000e+00
      968000000    2,591790818e-02   -3,113061488e-01    4,096508324e-01    1,790815294e-01    0,000000000e+00    0,000000000e+00    0,000000000e+00    0,000000000e+00
      982000000   -1,598792374e-01   -3,314979970e-01    4,736529291e-01   -6,709934026e-02    0,000000000e+00    0,000000000e+00    0,000000000e+00    0,000000000e+00
      996000000   -3,273285031e-01   -2,093676776e-01    3,689041734e-01   -3,552576303e-01    0,000000000e+00    0,000000000e+00    0,000000000e+00    0,000000000e+00
     1010000000   -3,384389877e-01   -4,793806002e-03    4,317678139e-02   -5,245574713e-01    0,000000000e+00    0,000000000e+00    0,000000000e+00    0,000000000e+00
     1024000000   -2,057453096e-01    8,994515985e-02   -3,480228484e-01   -3,790721595e-01    0,000000000e+00    0,000000000e+00    0,000000000e+00    0,000000000e+00
     1038000000   -1,327064633e-01    9,038390592e-03   -4,833911955e-01    6,441419572e-02    0,000000000e+00    0,000000000e+00    0,000000000e+00    0,000000000e+00
     1052000000   -2,847969532e-01    5,467580259e-02   -9,495927393e-02    3,725914657e-01    0,000000000e+00    0,000000000e+00    0,000000000e+00    0,000000000e+00
     1066000000   -1,480381936e-01    2,927352786e-01    1,391381621e-01    1,337172687e-01    0,000000000e+00    0,000000000e+00    0,000000000e+00    0,000000000e+00
     1080000000    1,025947854e-01    2,465873063e-01    9,110544622e-02    2,202117443e-02    0,000000000e+00    0,000000000e+00    0,000000000e+00    0,000000000e+00
     1094000000    2,230410576e-01    8,638901263e-02    7,019803673e-02    7,331006695e-03    0,000000000e+00    0,000000000e+00    0,000000000e+00    0,000000000e+00
     1108000000    2,440442592e-01   -8,643613756e-02    8,087648451e-02   -1,603134442e-04    0,000000000e+00    0,000000000e+00    0,000000000e+00    0,000000000e+00
     1122000000    1,844815165e-01   -2,535219789e-01    1,044831872e-01   -2,574502490e-02    0,000000000e+00    0,000000000e+00    0,000000000e+00    0,000000000e+00
     1136000000    5,017537624e-02   -3,791883588e-01    1,260379255e-01   -7,580611855e-02    0,000000000e+00    0,000000000e+00    0,000000000e+00    0,000000000e+00
     1150000000   -1,586391032e-01   -4,213985801e-01    1,379399002e-01   -1,533428729e-01    0,000000000e+00    0,000000000e+00    0,000000000e+00    0,000000000e+00
     1164000000   -3,823325336e-01   -3,238155842e-01    9,432608634e-02   -2,760542035e-01    0,000000000e+00    0,000000000e+00    0,000000000e+00    0,000000000e+00
     1178000000   -4,617677331e-01   -8,472414315e-02   -1,050325185e-01   -4,042613506e-01    0,000000000e+00    0,000000000e+00    0,000000000e+00    0,000000000e+00
     1192000000   -3,757033646e-01    4,397986829e-02   -4,660977125e-01   -1,969120353e-01    0,000000000e+00    0,000000000e+00    0,000000000e+00    0,000000000e+00
     1206000000   -4,158504605e-01    1,359665245e-01   -2,757387161e-01    2,388119847e-01    0,000000000e+00    0,000000000e+00    0,000000000e+00    0,000000000e+00
     1220000000   -2,725639641e-01    3,300697207e-01   -2,774784574e-03    1,646639407e-01    0,000000000e+00    0,000000000e+00    0,000000000e+00    0,000000000e+00
     1234000000   -4,269274697e-02    3,501559496e-01    2,498361282e-02    5,296827108e-02    0,000000000e+00    0,000000000e+00    0,000000000e+00    0,000000000e+00
     1248000000    1,229770407e-01    2,443718016e-01    7,293421309e-03    2,459054627e-02    0,000000000e+00    0,000000000e+00    0,000000000e+00    0,000000000e+00
     1262000000    2,162899971e-01    1,028624326e-01    4,617628176e-03    3,408566490e-02    0,000000000e+00    0,000000000e+00    0,000000000e+00    0,000000000e+00
     1276000000    2,329938859e-01   -6,188534573e-02    2,347636595e-02    3,293600678e-02    0,000000000e+00    0,000000000e+00    0,000000000e+00    0,000000000e+00
     1290000000    1,964802444e-01   -2,180684656e-01    5,825896189e-02    2,386289276e-02    0,000000000e+00    0,000000000e+00    0,000000000e+00    0,000000000e+00
     1304000000    7,880067080e-02   -3,564773500e-01    7,365385443e-02    2,077653538e-03    0,000000000e+00    0,000000000e+00    0,000000000e+00    0,000000000e+00
     1318000000   -9,978844225e-02   -4,483383894e-01    8,512999117e-02   -1,221643947e-02    0,000000000e+00    0,000000000e+00    0,000000000e+00    0,000000000e+00
     1332000000   -3,552911580e-01   -4,354711473e-01    9,316790104e-02   -1,408162899e-02    0,000000000e+00    0,000000000e+00    0,000000000e+00    0,000000000e+00
     1346000000   -5,947775841e-01   -2,464177310e-01    9,811297059e-02   -9,919312783e-03    0,000000000e+00    0,000000000e+00    0,000000000e+00    0,000000000e+00
     1360000000   -6,495036483e-01    7,177803665e-02    1,309499443e-01   -2,506900206e-02    0,000000000e+00    0,000000000e+00    0,000000000e+00    0,000000000e+00
     1374000000   -4,889958501e-01    3,340652287e-01    1,687943786e-01   -5,274468660e-02    0,000000000e+00    0,000000000e+00    0,000000000e+00    0,000000000e+00
     1388000000   -2,540390491e-01    4,218014181e-01    1,534305960e-01   -8,648359776e-02    0,000000000e+00    0,000000000e+00    0,000000000e+00    0,000000000e+00
     1402000000   -3,774091229e-02    3,931804299e-01    1,435782760e-01   -9,391989559e-02    0,000000000e+00    0,000000000e+00    0,000000000e+00    0,000000000e+00
     1416000000    1,000922397e-01    2,885955274e-01    1,229475364e-01   -7,413320243e-02    0,000000000e+00    0,000000000e+00    0,000000000e+00    0,000000000e+00
     1430000000    1,829938143e-01    1,514631957e-01    1,282639802e-01   -4,103088006e-02    0,000000000e+00    0,000000000e+00    0,000000000e+00    0,000000000e+00
     1444000000    2,115232795e-01   -1,190924831e-02    1,135407016e-01   -2,780313045e-02    0,000000000e+00    0,000000000e+00    0,000000000e+00    0,000000000e+00
     1458000000    1,846637279e-01   -1,827382147e-01    1,459291428e-01    2,515349910e-02    0,000000000e+00    0,000000000e+00    0,000000000e+00    0,000000000e+00
     1472000000    6,402526051e-02   -3,435101509e-01    1,891343445e-01    7,076191157e-02    0,000000000e+00    0,000000000e+00    0,000000000e+00    0,000000000e+00
     1486000000   -1,428707838e-01   -4,715825021e-01    2,860071063e-01    8,582022786e-02    0,000000000e+00    0,000000000e+00    0,000000000e+00    0,000000000e+00
     1500000000   -4,411249161e-01   -4,610743225e-01    4,153271019e-01    5,671894923e-02    0,000000000e+00    0,000000000e+00    0,000000000e+00    0,000000000e+00
