! NanoVNA-App
! Date: 2025-09-25 16:03:33
! Start: 100MHz Stop: 1,5GHz Points: 101
! S-Parameter data: F S11 S21 S12 S22
# Hz S RI R 50
!     Frequency           S11_Real           S11_Imag           S21_Real           S21_Imag           S12_Real           S12_Imag           S22_Real           S22_Imag
      100000000   -2,829719894e-02   -2,878212370e-03    3,723102212e-01   -7,224268913e-01    0,000000000e+00    0,000000000e+00    0,000000000e+00    0,000000000e+00
      114000000   -1,574070193e-02    1,289507933e-02   -9,136866778e-02   -8,046218753e-01    0,000000000e+00    0,000000000e+00    0,000000000e+00    0,000000000e+00
      128000000    4,294884391e-03    1,200609654e-02   -5,159763098e-01   -6,187500954e-01    0,000000000e+00    0,000000000e+00    0,000000000e+00    0,000000000e+00
      142000000    1,546745002e-02   -1,718517276e-03   -7,672606111e-01   -2,340601832e-01    0,000000000e+00    0,000000000e+00    0,000000000e+00    0,000000000e+00
      156000000    1,614653133e-02   -1,375575084e-02   -7,706931233e-01    2,251083106e-01    0,000000000e+00    0,000000000e+00    0,000000000e+00    0,000000000e+00
      170000000    1,772076078e-02   -2,097956650e-02   -5,153636932e-01    6,061107516e-01    0,000000000e+00    0,000000000e+00    0,000000000e+00    0,000000000e+00
      184000000    2,198891342e-02   -3,557893634e-02   -9,824173152e-02    7,859648466e-01    0,000000000e+00    0,000000000e+00    0,000000000e+00    0,000000000e+00
      198000000    1,406806614e-02   -6,064974144e-02    3,461169302e-01    7,108370066e-01    0,000000000e+00    0,000000000e+00    0,000000000e+00    0,000000000e+00
      212000000   -1,767385192e-02   -7,910975814e-02    6,808269024e-01    4,063404202e-01    0,000000000e+00    0,000000000e+00    0,000000000e+00    0,000000000e+00
      226000000   -6,031413749e-02   -6,663185358e-02    7,958307266e-01   -3,558259457e-02    0,000000000e+00    0,000000000e+00    0,000000000e+00    0,000000000e+00
      240000000   -8,055460453e-02   -2,268197574e-02    6,417936683e-01   -4,718694389e-01    0,000000000e+00    0,000000000e+00    0,000000000e+00    0,000000000e+00
      254000000   -6,080989540e-02    1,978320815e-02    2,710056305e-01   -7,420138121e-01    0,000000000e+00    0,000000000e+00    0,000000000e+00    0,000000000e+00
      268000000   -2,096820436e-02    3,092238307e-02   -1,811590493e-01   -7,607374787e-01    0,000000000e+00    0,000000000e+00    0,000000000e+00    0,000000000e+00
      282000000    7,016559597e-03    1,374324318e-02   -5,632950664e-01   -5,324538946e-01    0,000000000e+00    0,000000000e+00    0,000000000e+00    0,000000000e+00
      296000000    1,233753283e-02   -6,238670554e-03   -7,603676319e-01   -1,343563497e-01    0,000000000e+00    0,000000000e+00    0,000000000e+00    0,000000000e+00
      310000000    1,364154089e-02   -1,445342693e-02   -7,095946074e-01    3,038732409e-01    0,000000000e+00    0,000000000e+00    0,000000000e+00    0,000000000e+00
      324000000    2,233904228e-02   -2,478951029e-02   -4,212348461e-01    6,409720778e-01    0,000000000e+00    0,000000000e+00    0,000000000e+00    0,000000000e+00
      338000000    2,818036824e-02   -5,030453205e-02   -5,870821769e-04    7,600184679e-01    0,000000000e+00    0,000000000e+00    0,000000000e+00    0,000000000e+00
      352000000    1,011773944e-02   -8,311291784e-02    4,118089676e-01    6,353232861e-01    0,000000000e+00    0,000000000e+00    0,000000000e+00    0,000000000e+00
      366000000   -3,156047314e-02   -9,382509440e-02    6,937503219e-01    3,037440777e-01    0,000000000e+00    0,000000000e+00    0,000000000e+00    0,000000000e+00
      380000000   -6,739697605e-02   -6,883308291e-02    7,464046478e-01   -1,341782361e-01    0,000000000e+00    0,000000000e+00    0,000000000e+00    0,000000000e+00
      394000000   -6,839196384e-02   -3,071402945e-02    5,398749709e-01   -5,286337733e-01    0,000000000e+00    0,000000000e+00    0,000000000e+00    0,000000000e+00
      408000000   -4,275244102e-02   -1,556362119e-02    1,491519958e-01   -7,347238660e-01    0,000000000e+00    0,000000000e+00    0,000000000e+00    0,000000000e+00
      422000000   -2,603191510e-02   -3,122924827e-02   -2,785767019e-01   -6,895812154e-01    0,000000000e+00    0,000000000e+00    0,000000000e+00    0,000000000e+00
      436000000   -3,917721659e-02   -4,909015819e-02   -6,101346016e-01   -4,197570384e-01    0,000000000e+00    0,000000000e+00    0,000000000e+00    0,000000000e+00
      450000000   -6,480283290e-02   -3,931247443e-02   -7,378691435e-01   -7,961071096e-03    0,000000000e+00    0,000000000e+00    0,000000000e+00    0,000000000e+00
      464000000   -6,790512800e-02   -6,373220589e-03   -6,078411937e-01    4,061426520e-01    0,000000000e+00    0,000000000e+00    0,000000000e+00    0,000000000e+00
      478000000   -3,865923733e-02    1,588470861e-02   -2,675456405e-01    6,699434519e-01    0,000000000e+00    0,000000000e+00    0,000000000e+00    0,000000000e+00
      492000000   -5,236235447e-03    6,332383025e-03    1,522227526e-01    6,951883435e-01    0,000000000e+00    0,000000000e+00    0,000000000e+00    0,000000000e+00
      506000000    6,716597825e-03   -2,006324567e-02    5,073271394e-01    4,883840680e-01    0,000000000e+00    0,000000000e+00    0,000000000e+00    0,000000000e+00
      520000000    6,675737095e-04   -3,827550635e-02    6,889490485e-01    1,206001043e-01    0,000000000e+00    0,000000000e+00    0,000000000e+00    0,000000000e+00
      534000000   -2,855430357e-03   -4,555781558e-02    6,330332160e-01   -2,824445069e-01    0,000000000e+00    0,000000000e+00    0,000000000e+00    0,000000000e+00
      548000000    1,207146095e-03   -5,991378799e-02    3,601614833e-01   -5,801506639e-01    0,000000000e+00    0,000000000e+00    0,000000000e+00    0,000000000e+00
      562000000   -7,674312685e-03   -8,858024329e-02   -2,649670281e-02   -6,731183529e-01    0,000000000e+00    0,000000000e+00    0,000000000e+00    0,000000000e+00
      576000000   -4,550746456e-02   -1,095801890e-01   -4,006287158e-01   -5,382769108e-01    0,000000000e+00    0,000000000e+00    0,000000000e+00    0,000000000e+00
      590000000   -9,484814852e-02   -9,383169562e-02   -6,419907212e-01   -2,180284113e-01    0,000000000e+00    0,000000000e+00    0,000000000e+00    0,000000000e+00
      604000000   -1,114392132e-01   -4,111068696e-02   -6,474685073e-01    1,984771788e-01    0,000000000e+00    0,000000000e+00    0,000000000e+00    0,000000000e+00
      618000000   -7,577446103e-02   -2,746110084e-03   -4,021462202e-01    5,357189775e-01    0,000000000e+00    0,000000000e+00    0,000000000e+00    0,000000000e+00
      632000000   -2,961452119e-02   -2,147669345e-02   -1,313503552e-02    6,551424265e-01    0,000000000e+00    0,000000000e+00    0,000000000e+00    0,000000000e+00
      646000000   -3,574667126e-02   -7,639005035e-02    3,662495911e-01    5,281540751e-01    0,000000000e+00    0,000000000e+00    0,000000000e+00    0,000000000e+00
      660000000   -1,108839214e-01   -9,932735562e-02    6,009999514e-01    1,936869323e-01    0,000000000e+00    0,000000000e+00    0,000000000e+00    0,000000000e+00
      674000000   -1,991607249e-01   -2,444659173e-02    5,660641789e-01   -2,396274507e-01    0,000000000e+00    0,000000000e+00    0,000000000e+00    0,000000000e+00
      688000000   -1,795624346e-01    1,447914541e-01    2,105478197e-01   -5,219895244e-01    0,000000000e+00    0,000000000e+00    0,000000000e+00    0,000000000e+00
      702000000    2,362759598e-02    2,470238656e-01   -2,010281235e-01   -4,093340337e-01    0,000000000e+00    0,000000000e+00    0,000000000e+00    0,000000000e+00
      716000000    2,629253566e-01    1,109618619e-01   -2,740592062e-01   -8,389399201e-02    0,000000000e+00    0,000000000e+00    0,000000000e+00    0,000000000e+00
      730000000    3,036247194e-01   -1,863175184e-01   -1,080642045e-01    3,294090927e-02    0,000000000e+00    0,000000000e+00    0,000000000e+00    0,000000000e+00
      744000000    9,427287430e-02   -4,277342558e-01   -4,206189141e-02   -6,404175609e-02    0,000000000e+00    0,000000000e+00    0,000000000e+00    0,000000000e+00
      758000000   -2,588979006e-01   -4,307269752e-01   -1,750058979e-01   -1,251125634e-01    0,000000000e+00    0,000000000e+00    0,000000000e+00    0,000000000e+00
      772000000   -4,862142205e-01   -1,209774241e-01   -3,359212875e-01    3,792230785e-02    0,000000000e+00    0,000000000e+00    0,000000000e+00    0,000000000e+00
      786000000   -3,412551880e-01    2,215345055e-01   -2,631116211e-01    3,159792125e-01    0,000000000e+00    0,000000000e+00    0,000000000e+00    0,000000000e+00
      800000000   -4,077912867e-02    2,771530747e-01    2,332352335e-03    4,368463159e-01    0,000000000e+00    0,000000000e+00    0,000000000e+00    0,000000000e+00
      814000000    1,448325813e-01    1,257907599e-01    2,641895711e-01    3,592371345e-01    0,000000000e+00    0,000000000e+00    0,000000000e+00    0,000000000e+00
      828000000    1,685239971e-01   -7,012306154e-02    4,329989552e-01    1,563977748e-01    0,000000000e+00    0,000000000e+00    0,000000000e+00    0,000000000e+00
      842000000    6,730771810e-02   -2,179851383e-01    4,663277566e-01   -1,197065115e-01    0,000000000e+00    0,000000000e+00    0,000000000e+00    0,000000000e+00
      856000000   -1,060901135e-01   -2,639216483e-01    3,201667368e-01   -3,938733041e-01    0,000000000e+00    0,000000000e+00    0,000000000e+00    0,000000000e+00
      870000000   -2,752931118e-01   -1,683394313e-01   -2,852019388e-03   -5,272618532e-01    0,000000000e+00    0,000000000e+00    0,000000000e+00    0,000000000e+00
      884000000   -3,208425343e-01    3,671802953e-02   -3,488433361e-01   -3,919203281e-01    0,000000000e+00    0,000000000e+00    0,000000000e+00    0,000000000e+00
      898000000   -1,915903986e-01    2,069522738e-01   -4,886826277e-01   -6,297747791e-02    0,000000000e+00    0,000000000e+00    0,000000000e+00    0,000000000e+00
      912000000    8,051735349e-03    2,207087278e-01   -3,960483372e-01    2,652309537e-01    0,000000000e+00    0,000000000e+00    0,000000000e+00    0,000000000e+00
      926000000    1,493023634e-01    1,119236872e-01   -1,703389287e-01    4,155200124e-01    0,000000000e+00    0,000000000e+00    0,000000000e+00    0,000000000e+00
      940000000    2,006062418e-01   -4,448823631e-02    6,329300255e-02    4,260549545e-01    0,000000000e+00    0,000000000e+00    0,000000000e+00    0,000000000e+00
      954000000    1,535888016e-01   -2,006547600e-01    2,604074180e-01    3,425643742e-01    0,000000000e+00    0,000000000e+00    0,000000000e+00    0,000000000e+00
      968000000    2,687644400e-02   -3,151003420e-01    4,110515416e-01    1,793092340e-01    0,000000000e+00    0,000000000e+00    0,000000000e+00    0,000000000e+00
      982000000   -1,632910520e-01   -3,341978788e-01    4,753681123e-01   -6,692127883e-02    0,000000000e+00    0,000000000e+00    0,000000000e+00    0,000000000e+00
      996000000   -3,273433745e-01   -2,071845233e-01    3,679330945e-01   -3,561392128e-01    0,000000000e+00    0,000000000e+00    0,000000000e+00    0,000000000e+00
     1010000000   -3,383724689e-01   -6,101140287e-03    4,129315540e-02   -5,245297551e-01    0,000000000e+00    0,000000000e+00    0,000000000e+00    0,000000000e+00
     1024000000   -2,071652561e-01    8,997433633e-02   -3,456588387e-01   -3,799073100e-01    0,000000000e+00    0,000000000e+00    0,000000000e+00    0,000000000e+00
     1038000000   -1,346820295e-01    1,246123854e-02   -4,814110100e-01    6,265278161e-02    0,000000000e+00    0,000000000e+00    0,000000000e+00    0,000000000e+00
     1052000000   -2,892367542e-01    5,574542284e-02   -9,218864143e-02    3,720480800e-01    0,000000000e+00    0,000000000e+00    0,000000000e+00    0,000000000e+00
     1066000000   -1,512195170e-01    2,952783704e-01    1,438415796e-01    1,337012351e-01    0,000000000e+00    0,000000000e+00    0,000000000e+00    0,000000000e+00
     1080000000    9,806800634e-02    2,469009012e-01    9,144420177e-02    2,202208154e-02    0,000000000e+00    0,000000000e+00    0,000000000e+00    0,000000000e+00
     1094000000    2,242705375e-01    8,528956026e-02    6,715898961e-02    1,320903935e-02    0,000000000e+00    0,000000000e+00    0,000000000e+00    0,000000000e+00
     1108000000    2,389283031e-01   -8,744125068e-02    7,990639657e-02    1,172217424e-03    0,000000000e+00    0,000000000e+00    0,000000000e+00    0,000000000e+00
     1122000000    1,848636419e-01   -2,488927841e-01    1,029100195e-01   -2,741412446e-02    0,000000000e+00    0,000000000e+00    0,000000000e+00    0,000000000e+00
     1136000000    5,020272359e-02   -3,810196221e-01    1,269047409e-01   -7,005394250e-02    0,000000000e+00    0,000000000e+00    0,000000000e+00    0,000000000e+00
     1150000000   -1,515396386e-01   -4,246307909e-01    1,389658451e-01   -1,523385495e-01    0,000000000e+00    0,000000000e+00    0,000000000e+00    0,000000000e+00
     1164000000   -3,812771440e-01   -3,259811103e-01    1,027594879e-01   -2,782996893e-01    0,000000000e+00    0,000000000e+00    0,000000000e+00    0,000000000e+00
     1178000000   -4,684472084e-01   -8,282338083e-02   -1,073996648e-01   -4,047767520e-01    0,000000000e+00    0,000000000e+00    0,000000000e+00    0,000000000e+00
     1192000000   -3,727837503e-01    3,499052674e-02   -4,608316422e-01   -1,968669593e-01    0,000000000e+00    0,000000000e+00    0,000000000e+00    0,000000000e+00
     1206000000   -4,194188714e-01    1,333855838e-01   -2,749183774e-01    2,400134653e-01    0,000000000e+00    0,000000000e+00    0,000000000e+00    0,000000000e+00
     1220000000   -2,803323567e-01    3,294491470e-01   -5,257205106e-03    1,618081331e-01    0,000000000e+00    0,000000000e+00    0,000000000e+00    0,000000000e+00
     1234000000   -4,504605383e-02    3,449947834e-01    2,328629047e-02    5,352326110e-02    0,000000000e+00    0,000000000e+00    0,000000000e+00    0,000000000e+00
     1248000000    1,218259186e-01    2,528931797e-01    3,794775577e-03    2,765988000e-02    0,000000000e+00    0,000000000e+00    0,000000000e+00    0,000000000e+00
     1262000000    2,156214267e-01    1,029640585e-01    4,242989235e-03    2,548774704e-02    0,000000000e+00    0,000000000e+00    0,000000000e+00    0,000000000e+00
     1276000000    2,366551906e-01   -5,460299551e-02    2,323160507e-02    3,548595682e-02    0,000000000e+00    0,000000000e+00    0,000000000e+00    0,000000000e+00
     1290000000    1,968652606e-01   -2,155134231e-01    5,864077434e-02    2,390272357e-02    0,000000000e+00    0,000000000e+00    0,000000000e+00    0,000000000e+00
     1304000000    8,202856779e-02   -3,585722148e-01    7,250126451e-02    3,181306878e-03    0,000000000e+00    0,000000000e+00    0,000000000e+00    0,000000000e+00
     1318000000   -1,020370424e-01   -4,434389472e-01    8,368476480e-02   -8,467872627e-03    0,000000000e+00    0,000000000e+00    0,000000000e+00    0,000000000e+00
     1332000000   -3,556944728e-01   -4,363768995e-01    8,962867409e-02   -1,000693813e-02    0,000000000e+00    0,000000000e+00    0,000000000e+00    0,000000000e+00
     1346000000   -5,897951126e-01   -2,457571179e-01    1,060922295e-01   -9,350205772e-03    0,000000000e+00    0,000000000e+00    0,000000000e+00    0,000000000e+00
     1360000000   -6,434405446e-01    7,667927444e-02    1,403721720e-01   -1,131823286e-02    0,000000000e+00    0,000000000e+00    0,000000000e+00    0,000000000e+00
     1374000000   -4,924009442e-01    3,378270864e-01    1,617018878e-01   -4,406207427e-02    0,000000000e+00    0,000000000e+00    0,000000000e+00    0,000000000e+00
     1388000000   -2,535458207e-01    4,277185500e-01    1,613295376e-01   -8,287552744e-02    0,000000000e+00    0,000000000e+00    0,000000000e+00    0,000000000e+00
     1402000000   -3,797670826e-02    3,818575740e-01    1,453938037e-01   -1,022773981e-01    0,000000000e+00    0,000000000e+00    0,000000000e+00    0,000000000e+00
     1416000000    1,010720283e-01    2,853914797e-01    1,250660717e-01   -8,806323260e-02    0,000000000e+00    0,000000000e+00    0,000000000e+00    0,000000000e+00
     1430000000    1,944462955e-01    1,470099986e-01    1,358140260e-01   -6,139205769e-02    0,000000000e+00    0,000000000e+00    0,000000000e+00    0,000000000e+00
     1444000000    2,147187740e-01   -7,711754646e-03    1,180861965e-01   -2,010929957e-02    0,000000000e+00    0,000000000e+00    0,000000000e+00    0,000000000e+00
     1458000000    1,794819534e-01   -1,816595048e-01    1,303384602e-01    1,331395563e-02    0,000000000e+00    0,000000000e+00    0,000000000e+00    0,000000000e+00
     1472000000    6,988278031e-02   -3,537338972e-01    1,901137531e-01    4,849933088e-02    0,000000000e+00    0,000000000e+00    0,000000000e+00    0,000000000e+00
     1486000000   -1,456451118e-01   -4,629552662e-01    2,910703421e-01    1,018082127e-01    0,000000000e+00    0,000000000e+00    0,000000000e+00    0,000000000e+00
     1500000000   -4,418725967e-01   -4,686484635e-01    4,197899401e-01    5,721089616e-02    0,000000000e+00    0,000000000e+00    0,000000000e+00    0,000000000e+00
