! NanoVNA-App
! Date: 2025-09-25 16:02:41
! Start: 100MHz Stop: 1,5GHz Points: 101
! S-Parameter data: F S11 S21 S12 S22
# Hz S RI R 50
!     Frequency           S11_Real           S11_Imag           S21_Real           S21_Imag           S12_Real           S12_Imag           S22_Real           S22_Imag
      100000000   -2,829546295e-02   -2,890380332e-03    3,722724319e-01   -7,224483490e-01    0,000000000e+00    0,000000000e+00    0,000000000e+00    0,000000000e+00
      114000000   -1,576725766e-02    1,292301342e-02   -9,126018733e-02   -8,048821092e-01    0,000000000e+00    0,000000000e+00    0,000000000e+00    0,000000000e+00
      128000000    4,350712989e-03    1,197930519e-02   -5,158913732e-01   -6,188921332e-01    0,000000000e+00    0,000000000e+00    0,000000000e+00    0,000000000e+00
      142000000    1,548357029e-02   -1,712674159e-03   -7,674405575e-01   -2,343398035e-01    0,000000000e+00    0,000000000e+00    0,000000000e+00    0,000000000e+00
      156000000    1,622223109e-02   -1,382150408e-02   -7,705516815e-01    2,250798941e-01    0,000000000e+00    0,000000000e+00    0,000000000e+00    0,000000000e+00
      170000000    1,769335009e-02   -2,098617703e-02   -5,156050920e-01    6,063969731e-01    0,000000000e+00    0,000000000e+00    0,000000000e+00    0,000000000e+00
      184000000    2,203946002e-02   -3,553701937e-02   -9,837829322e-02    7,863585949e-01    0,000000000e+00    0,000000000e+00    0,000000000e+00    0,000000000e+00
      198000000    1,404001284e-02   -6,063222885e-02    3,458983302e-01    7,110370994e-01    0,000000000e+00    0,000000000e+00    0,000000000e+00    0,000000000e+00
      212000000   -1,769344509e-02   -7,910191268e-02    6,807945967e-01    4,064032733e-01    0,000000000e+00    0,000000000e+00    0,000000000e+00    0,000000000e+00
      226000000   -6,028281525e-02   -6,666161120e-02    7,956957817e-01   -3,559507430e-02    0,000000000e+00    0,000000000e+00    0,000000000e+00    0,000000000e+00
      240000000   -8,053752780e-02   -2,277662046e-02    6,415525675e-01   -4,715717733e-01    0,000000000e+00    0,000000000e+00    0,000000000e+00    0,000000000e+00
      254000000   -6,077649444e-02    1,987442374e-02    2,710833848e-01   -7,422729731e-01    0,000000000e+00    0,000000000e+00    0,000000000e+00    0,000000000e+00
      268000000   -2,097320929e-02    3,082108498e-02   -1,813336313e-01   -7,610193491e-01    0,000000000e+00    0,000000000e+00    0,000000000e+00    0,000000000e+00
      282000000    6,914976053e-03    1,377865765e-02   -5,631125569e-01   -5,324046612e-01    0,000000000e+00    0,000000000e+00    0,000000000e+00    0,000000000e+00
      296000000    1,246407162e-02   -6,315479055e-03   -7,606062293e-01   -1,344050169e-01    0,000000000e+00    0,000000000e+00    0,000000000e+00    0,000000000e+00
      310000000    1,359853521e-02   -1,467177272e-02   -7,100489140e-01    3,042666614e-01    0,000000000e+00    0,000000000e+00    0,000000000e+00    0,000000000e+00
      324000000    2,246553637e-02   -2,462669462e-02   -4,212329090e-01    6,392967701e-01    0,000000000e+00    0,000000000e+00    0,000000000e+00    0,000000000e+00
      338000000    2,808084153e-02   -5,061256886e-02   -1,184373861e-03    7,597645521e-01    0,000000000e+00    0,000000000e+00    0,000000000e+00    0,000000000e+00
      352000000    1,024827082e-02   -8,285150677e-02    4,114652574e-01    6,355369091e-01    0,000000000e+00    0,000000000e+00    0,000000000e+00    0,000000000e+00
      366000000   -3,173001111e-02   -9,398090839e-02    6,936795712e-01    3,037030101e-01    0,000000000e+00    0,000000000e+00    0,000000000e+00    0,000000000e+00
      380000000   -6,779500842e-02   -6,868269295e-02    7,455425262e-01   -1,345472634e-01    0,000000000e+00    0,000000000e+00    0,000000000e+00    0,000000000e+00
      394000000   -6,871835142e-02   -3,057187051e-02    5,388501883e-01   -5,294250250e-01    0,000000000e+00    0,000000000e+00    0,000000000e+00    0,000000000e+00
      408000000   -4,258975387e-02   -1,536533330e-02    1,495174468e-01   -7,338467240e-01    0,000000000e+00    0,000000000e+00    0,000000000e+00    0,000000000e+00
      422000000   -2,587161958e-02   -3,101226129e-02   -2,794501781e-01   -6,891944408e-01    0,000000000e+00    0,000000000e+00    0,000000000e+00    0,000000000e+00
      436000000   -3,930338845e-02   -4,886610806e-02   -6,104556322e-01   -4,194485545e-01    0,000000000e+00    0,000000000e+00    0,000000000e+00    0,000000000e+00
      450000000   -6,500677764e-02   -3,925235197e-02   -7,372776866e-01   -7,360280957e-03    0,000000000e+00    0,000000000e+00    0,000000000e+00    0,000000000e+00
      464000000   -6,742372364e-02   -6,407928187e-03   -6,080150604e-01    4,064208269e-01    0,000000000e+00    0,000000000e+00    0,000000000e+00    0,000000000e+00
      478000000   -3,869522735e-02    1,636612602e-02   -2,672966123e-01    6,700813770e-01    0,000000000e+00    0,000000000e+00    0,000000000e+00    0,000000000e+00
      492000000   -5,344975274e-03    6,283328403e-03    1,518171579e-01    6,947336197e-01    0,000000000e+00    0,000000000e+00    0,000000000e+00    0,000000000e+00
      506000000    7,031690329e-03   -2,048334479e-02    5,078774095e-01    4,884680510e-01    0,000000000e+00    0,000000000e+00    0,000000000e+00    0,000000000e+00
      520000000    5,658714799e-04   -3,819362819e-02    6,885228753e-01    1,219515577e-01    0,000000000e+00    0,000000000e+00    0,000000000e+00    0,000000000e+00
      534000000   -3,212844022e-03   -4,556292668e-02    6,329443455e-01   -2,820694149e-01    0,000000000e+00    0,000000000e+00    0,000000000e+00    0,000000000e+00
      548000000    1,082779258e-03   -6,014805660e-02    3,604248464e-01   -5,796202421e-01    0,000000000e+00    0,000000000e+00    0,000000000e+00    0,000000000e+00
      562000000   -8,097829297e-03   -8,849611133e-02   -2,693680301e-02   -6,729432940e-01    0,000000000e+00    0,000000000e+00    0,000000000e+00    0,000000000e+00
      576000000   -4,575428367e-02   -1,097876653e-01   -4,016279578e-01   -5,387956500e-01    0,000000000e+00    0,000000000e+00    0,000000000e+00    0,000000000e+00
      590000000   -9,485827386e-02   -9,401640296e-02   -6,391398907e-01   -2,193527669e-01    0,000000000e+00    0,000000000e+00    0,000000000e+00    0,000000000e+00
      604000000   -1,119875163e-01   -4,117684439e-02   -6,481409669e-01    1,986005455e-01    0,000000000e+00    0,000000000e+00    0,000000000e+00    0,000000000e+00
      618000000   -7,534909993e-02   -2,247292781e-03   -4,013805091e-01    5,351560116e-01    0,000000000e+00    0,000000000e+00    0,000000000e+00    0,000000000e+00
      632000000   -3,016603552e-02   -2,154606767e-02   -1,307651866e-02    6,562641263e-01    0,000000000e+00    0,000000000e+00    0,000000000e+00    0,000000000e+00
      646000000   -3,586620465e-02   -7,712373137e-02    3,656283021e-01    5,281127691e-01    0,000000000e+00    0,000000000e+00    0,000000000e+00    0,000000000e+00
      660000000   -1,111829728e-01   -1,001143754e-01    6,008368134e-01    1,940712184e-01    0,000000000e+00    0,000000000e+00    0,000000000e+00    0,000000000e+00
      674000000   -2,000436038e-01   -2,369843423e-02    5,660714507e-01   -2,393310368e-01    0,000000000e+00    0,000000000e+00    0,000000000e+00    0,000000000e+00
      688000000   -1,778704077e-01    1,438879073e-01    2,100208700e-01   -5,214213133e-01    0,000000000e+00    0,000000000e+00    0,000000000e+00    0,000000000e+00
      702000000    2,515533008e-02    2,432794124e-01   -1,945254505e-01   -4,009272158e-01    0,000000000e+00    0,000000000e+00    0,000000000e+00    0,000000000e+00
      716000000    2,633025050e-01    1,108652726e-01   -2,741630375e-01   -8,458745480e-02    0,000000000e+00    0,000000000e+00    0,000000000e+00    0,000000000e+00
      730000000    3,039308488e-01   -1,853249073e-01   -1,081195027e-01    3,340902925e-02    0,000000000e+00    0,000000000e+00    0,000000000e+00    0,000000000e+00
      744000000    9,502843022e-02   -4,272647500e-01   -4,174554721e-02   -6,386896223e-02    0,000000000e+00    0,000000000e+00    0,000000000e+00    0,000000000e+00
      758000000   -2,588548064e-01   -4,293860197e-01   -1,745286882e-01   -1,252592504e-01    0,000000000e+00    0,000000000e+00    0,000000000e+00    0,000000000e+00
      772000000   -4,873511493e-01   -1,200329736e-01   -3,356288373e-01    3,722761571e-02    0,000000000e+00    0,000000000e+00    0,000000000e+00    0,000000000e+00
      786000000   -3,430650830e-01    2,214741558e-01   -2,623903155e-01    3,160299957e-01    0,000000000e+00    0,000000000e+00    0,000000000e+00    0,000000000e+00
      800000000   -4,101128131e-02    2,771798968e-01    2,371453680e-03    4,359260499e-01    0,000000000e+00    0,000000000e+00    0,000000000e+00    0,000000000e+00
      814000000    1,446301192e-01    1,259799004e-01    2,644800544e-01    3,589805067e-01    0,000000000e+00    0,000000000e+00    0,000000000e+00    0,000000000e+00
      828000000    1,679355055e-01   -6,996387243e-02    4,325655699e-01    1,568637937e-01    0,000000000e+00    0,000000000e+00    0,000000000e+00    0,000000000e+00
      842000000    6,817089766e-02   -2,179658413e-01    4,667428434e-01   -1,201675534e-01    0,000000000e+00    0,000000000e+00    0,000000000e+00    0,000000000e+00
      856000000   -1,067224592e-01   -2,639792860e-01    3,196044862e-01   -3,943447769e-01    0,000000000e+00    0,000000000e+00    0,000000000e+00    0,000000000e+00
      870000000   -2,747729123e-01   -1,681158245e-01   -3,133681137e-03   -5,269289613e-01    0,000000000e+00    0,000000000e+00    0,000000000e+00    0,000000000e+00
      884000000   -3,205117285e-01    3,513368219e-02   -3,478290439e-01   -3,926539719e-01    0,000000000e+00    0,000000000e+00    0,000000000e+00    0,000000000e+00
      898000000   -1,929458380e-01    2,071577162e-01   -4,892623127e-01   -6,244688109e-02    0,000000000e+00    0,000000000e+00    0,000000000e+00    0,000000000e+00
      912000000    6,861468311e-03    2,187546492e-01   -4,049842656e-01    2,805274725e-01    0,000000000e+00    0,000000000e+00    0,000000000e+00    0,000000000e+00
      926000000    1,487510055e-01    1,141514033e-01   -1,696227491e-01    4,186482430e-01    0,000000000e+00    0,000000000e+00    0,000000000e+00    0,000000000e+00
      940000000    2,001989782e-01   -4,724310711e-02    6,309341639e-02    4,234947562e-01    0,000000000e+00    0,000000000e+00    0,000000000e+00    0,000000000e+00
      954000000    1,523515880e-01   -2,008510232e-01    2,600094974e-01    3,408155441e-01    0,000000000e+00    0,000000000e+00    0,000000000e+00    0,000000000e+00
      968000000    2,753940783e-02   -3,135121465e-01    4,104028642e-01    1,780835241e-01    0,000000000e+00    0,000000000e+00    0,000000000e+00    0,000000000e+00
      982000000   -1,597447246e-01   -3,299556077e-01    4,746720493e-01   -6,610956043e-02    0,000000000e+00    0,000000000e+00    0,000000000e+00    0,000000000e+00
      996000000   -3,266011178e-01   -2,126611918e-01    3,674699068e-01   -3,562778831e-01    0,000000000e+00    0,000000000e+00    0,000000000e+00    0,000000000e+00
     1010000000   -3,407878876e-01   -3,102697898e-03    4,408629239e-02   -5,253404379e-01    0,000000000e+00    0,000000000e+00    0,000000000e+00    0,000000000e+00
     1024000000   -2,080713958e-01    9,324865043e-02   -3,449121714e-01   -3,789505959e-01    0,000000000e+00    0,000000000e+00    0,000000000e+00    0,000000000e+00
     1038000000   -1,371875703e-01    8,173953742e-03   -4,822341502e-01    6,489714235e-02    0,000000000e+00    0,000000000e+00    0,000000000e+00    0,000000000e+00
     1052000000   -2,878096402e-01    5,770907924e-02   -9,356388450e-02    3,726031482e-01    0,000000000e+00    0,000000000e+00    0,000000000e+00    0,000000000e+00
     1066000000   -1,479602307e-01    2,940208912e-01    1,437654048e-01    1,321320385e-01    0,000000000e+00    0,000000000e+00    0,000000000e+00    0,000000000e+00
     1080000000    1,022087857e-01    2,485532165e-01    9,049320221e-02    2,258699946e-02    0,000000000e+00    0,000000000e+00    0,000000000e+00    0,000000000e+00
     1094000000    2,243242711e-01    8,876412362e-02    6,924983859e-02    9,581832215e-03    0,000000000e+00    0,000000000e+00    0,000000000e+00    0,000000000e+00
     1108000000    2,435382307e-01   -9,082937986e-02    8,072362840e-02    6,335831131e-05    0,000000000e+00    0,000000000e+00    0,000000000e+00    0,000000000e+00
     1122000000    1,825796068e-01   -2,503517866e-01    1,039216220e-01   -2,558608726e-02    0,000000000e+00    0,000000000e+00    0,000000000e+00    0,000000000e+00
     1136000000    4,744125903e-02   -3,782833219e-01    1,251599491e-01   -7,428786904e-02    0,000000000e+00    0,000000000e+00    0,000000000e+00    0,000000000e+00
     1150000000   -1,549884826e-01   -4,281816483e-01    1,375567019e-01   -1,526273936e-01    0,000000000e+00    0,000000000e+00    0,000000000e+00    0,000000000e+00
     1164000000   -3,777378798e-01   -3,296695650e-01    9,597192705e-02   -2,768121064e-01    0,000000000e+00    0,000000000e+00    0,000000000e+00    0,000000000e+00
     1178000000   -4,645824432e-01   -8,819354326e-02   -1,032211855e-01   -4,069043696e-01    0,000000000e+00    0,000000000e+00    0,000000000e+00    0,000000000e+00
     1192000000   -3,713488877e-01    3,736054525e-02   -4,605656862e-01   -1,961559653e-01    0,000000000e+00    0,000000000e+00    0,000000000e+00    0,000000000e+00
     1206000000   -4,165099859e-01    1,314521879e-01   -2,745675445e-01    2,378064394e-01    0,000000000e+00    0,000000000e+00    0,000000000e+00    0,000000000e+00
     1220000000   -2,751616538e-01    3,265488744e-01   -2,446837258e-03    1,613846868e-01    0,000000000e+00    0,000000000e+00    0,000000000e+00    0,000000000e+00
     1234000000   -4,883325845e-02    3,541505039e-01    2,143983170e-02    5,677814409e-02    0,000000000e+00    0,000000000e+00    0,000000000e+00    0,000000000e+00
     1248000000    1,260755658e-01    2,504526377e-01    5,730860401e-03    2,686225250e-02    0,000000000e+00    0,000000000e+00    0,000000000e+00    0,000000000e+00
     1262000000    2,082832307e-01    1,019349396e-01    8,824855322e-04    3,041316196e-02    0,000000000e+00    0,000000000e+00    0,000000000e+00    0,000000000e+00
     1276000000    2,368221134e-01   -6,214006618e-02    2,540302090e-02    3,285283968e-02    0,000000000e+00    0,000000000e+00    0,000000000e+00    0,000000000e+00
     1290000000    1,933332086e-01   -2,201722264e-01    5,941509455e-02    2,181016281e-02    0,000000000e+00    0,000000000e+00    0,000000000e+00    0,000000000e+00
     1304000000    8,688145131e-02   -3,580707610e-01    7,835973054e-02    1,179228304e-03    0,000000000e+00    0,000000000e+00    0,000000000e+00    0,000000000e+00
     1318000000   -1,046029255e-01   -4,471850693e-01    8,054941893e-02   -1,033358648e-02    0,000000000e+00    0,000000000e+00    0,000000000e+00    0,000000000e+00
     1332000000   -3,592498600e-01   -4,360113442e-01    8,329029381e-02   -1,477451809e-02    0,000000000e+00    0,000000000e+00    0,000000000e+00    0,000000000e+00
     1346000000   -5,898649693e-01   -2,447668612e-01    1,089799404e-01    1,117179170e-03    0,000000000e+00    0,000000000e+00    0,000000000e+00    0,000000000e+00
     1360000000   -6,509378552e-01    6,851665676e-02    1,429783553e-01   -1,534657460e-02    0,000000000e+00    0,000000000e+00    0,000000000e+00    0,000000000e+00
     1374000000   -4,920252264e-01    3,334316909e-01    1,648552716e-01   -4,469493404e-02    0,000000000e+00    0,000000000e+00    0,000000000e+00    0,000000000e+00
     1388000000   -2,494245172e-01    4,305533767e-01    1,655368954e-01   -7,187678665e-02    0,000000000e+00    0,000000000e+00    0,000000000e+00    0,000000000e+00
     1402000000   -4,513456300e-02    3,921043277e-01    1,414259374e-01   -9,214185923e-02    0,000000000e+00    0,000000000e+00    0,000000000e+00    0,000000000e+00
     1416000000    1,031770855e-01    2,875189483e-01    1,300701201e-01   -8,905062079e-02    0,000000000e+00    0,000000000e+00    0,000000000e+00    0,000000000e+00
     1430000000    1,882901043e-01    1,478648186e-01    1,322935373e-01   -6,987207383e-02    0,000000000e+00    0,000000000e+00    0,000000000e+00    0,000000000e+00
     1444000000    2,162767649e-01   -1,433910243e-02    1,235437468e-01   -3,342860565e-02    0,000000000e+00    0,000000000e+00    0,000000000e+00    0,000000000e+00
     1458000000    1,778708547e-01   -1,799769253e-01    1,361162215e-01    1,599990949e-02    0,000000000e+00    0,000000000e+00    0,000000000e+00    0,000000000e+00
     1472000000    6,928678602e-02   -3,558556437e-01    1,892262250e-01    5,688550696e-02    0,000000000e+00    0,000000000e+00    0,000000000e+00    0,000000000e+00
     1486000000   -1,381976306e-01   -4,753854573e-01    2,894359231e-01    7,717964053e-02    0,000000000e+00    0,000000000e+00    0,000000000e+00    0,000000000e+00
     1500000000   -4,356619120e-01   -4,815187454e-01    4,121775627e-01    4,708456993e-02    0,000000000e+00    0,000000000e+00    0,000000000e+00    0,000000000e+00
