! NanoVNA-App
! Date: 2025-09-25 16:01:48
! Start: 100MHz Stop: 1,5GHz Points: 101
! S-Parameter data: F S11 S21 S12 S22
# Hz S RI R 50
!     Frequency           S11_Real           S11_Imag           S21_Real           S21_Imag           S12_Real           S12_Imag           S22_Real           S22_Imag
      100000000   -2,828548849e-02   -2,875601873e-03    3,723152280e-01   -7,223914862e-01    0,000000000e+00    0,000000000e+00    0,000000000e+00    0,000000000e+00
      114000000   -1,573105343e-02    1,291140262e-02   -9,119284153e-02   -8,047182560e-01    0,000000000e+00    0,000000000e+00    0,000000000e+00    0,000000000e+00
      128000000    4,348068032e-03    1,196015906e-02   -5,157591105e-01   -6,186497808e-01    0,000000000e+00    0,000000000e+00    0,000000000e+00    0,000000000e+00
      142000000    1,548062731e-02   -1,715714228e-03   -7,673293352e-01   -2,341887951e-01    0,000000000e+00    0,000000000e+00    0,000000000e+00    0,000000000e+00
      156000000    1,666213386e-02   -1,309405454e-02   -7,646189332e-01    2,250229865e-01    0,000000000e+00    0,000000000e+00    0,000000000e+00    0,000000000e+00
      170000000    1,767516881e-02   -2,098779008e-02   -5,154222250e-01    6,062012315e-01    0,000000000e+00    0,000000000e+00    0,000000000e+00    0,000000000e+00
      184000000    2,203078568e-02   -3,557505459e-02   -9,823098779e-02    7,860294580e-01    0,000000000e+00    0,000000000e+00    0,000000000e+00    0,000000000e+00
      198000000    1,406926848e-02   -6,066080183e-02    3,463582993e-01    7,112603188e-01    0,000000000e+00    0,000000000e+00    0,000000000e+00    0,000000000e+00
      212000000   -1,767510548e-02   -7,915379107e-02    6,808776259e-01    4,063165188e-01    0,000000000e+00    0,000000000e+00    0,000000000e+00    0,000000000e+00
      226000000   -6,033429131e-02   -6,670973450e-02    7,958056927e-01   -3,556330130e-02    0,000000000e+00    0,000000000e+00    0,000000000e+00    0,000000000e+00
      240000000   -8,055695891e-02   -2,268812060e-02    6,416913271e-01   -4,717668593e-01    0,000000000e+00    0,000000000e+00    0,000000000e+00    0,000000000e+00
      254000000   -6,074693054e-02    1,981678233e-02    2,711090744e-01   -7,419850826e-01    0,000000000e+00    0,000000000e+00    0,000000000e+00    0,000000000e+00
      268000000   -2,098458074e-02    3,086175956e-02   -1,813961267e-01   -7,611355782e-01    0,000000000e+00    0,000000000e+00    0,000000000e+00    0,000000000e+00
      282000000    6,976296194e-03    1,380827185e-02   -5,633870363e-01   -5,324746966e-01    0,000000000e+00    0,000000000e+00    0,000000000e+00    0,000000000e+00
      296000000    1,231068838e-02   -6,352732889e-03   -7,605048418e-01   -1,343444139e-01    0,000000000e+00    0,000000000e+00    0,000000000e+00    0,000000000e+00
      310000000    1,358476467e-02   -1,442198176e-02   -7,090131044e-01    3,033033609e-01    0,000000000e+00    0,000000000e+00    0,000000000e+00    0,000000000e+00
      324000000    2,249603905e-02   -2,483785711e-02   -4,204063416e-01    6,393896341e-01    0,000000000e+00    0,000000000e+00    0,000000000e+00    0,000000000e+00
      338000000    2,839418873e-02   -5,075258762e-02   -1,797202713e-04    7,614808679e-01    0,000000000e+00    0,000000000e+00    0,000000000e+00    0,000000000e+00
      352000000    9,912670590e-03   -8,303755522e-02    4,108897448e-01    6,360724568e-01    0,000000000e+00    0,000000000e+00    0,000000000e+00    0,000000000e+00
      366000000   -3,191379458e-02   -9,373814613e-02    6,932721138e-01    3,039849102e-01    0,000000000e+00    0,000000000e+00    0,000000000e+00    0,000000000e+00
      380000000   -6,748035550e-02   -6,873252988e-02    7,461029291e-01   -1,345839053e-01    0,000000000e+00    0,000000000e+00    0,000000000e+00    0,000000000e+00
      394000000   -6,845376641e-02   -3,054207563e-02    5,393273234e-01   -5,283430219e-01    0,000000000e+00    0,000000000e+00    0,000000000e+00    0,000000000e+00
      408000000   -4,284793884e-02   -1,568857394e-02    1,502794474e-01   -7,347044945e-01    0,000000000e+00    0,000000000e+00    0,000000000e+00    0,000000000e+00
      422000000   -2,603765018e-02   -3,101426363e-02   -2,790059745e-01   -6,903284788e-01    0,000000000e+00    0,000000000e+00    0,000000000e+00    0,000000000e+00
      436000000   -3,905273229e-02   -4,901425540e-02   -6,111086607e-01   -4,197999835e-01    0,000000000e+00    0,000000000e+00    0,000000000e+00    0,000000000e+00
      450000000   -6,490097940e-02   -3,893407062e-02   -7,375036478e-01   -7,532822900e-03    0,000000000e+00    0,000000000e+00    0,000000000e+00    0,000000000e+00
      464000000   -6,718164682e-02   -6,189682987e-03   -6,079125404e-01    4,064394534e-01    0,000000000e+00    0,000000000e+00    0,000000000e+00    0,000000000e+00
      478000000   -3,876818344e-02    1,616819575e-02   -2,675699592e-01    6,699070930e-01    0,000000000e+00    0,000000000e+00    0,000000000e+00    0,000000000e+00
      492000000   -5,228248890e-03    6,615386810e-03    1,525613964e-01    6,945004463e-01    0,000000000e+00    0,000000000e+00    0,000000000e+00    0,000000000e+00
      506000000    6,721565034e-03   -2,029268444e-02    5,078304410e-01    4,887467921e-01    0,000000000e+00    0,000000000e+00    0,000000000e+00    0,000000000e+00
      520000000    4,078811908e-04   -3,820549697e-02    6,879732609e-01    1,220253333e-01    0,000000000e+00    0,000000000e+00    0,000000000e+00    0,000000000e+00
      534000000   -2,960755024e-03   -4,531185701e-02    6,327485442e-01   -2,814512253e-01    0,000000000e+00    0,000000000e+00    0,000000000e+00    0,000000000e+00
      548000000    9,685563855e-04   -5,965011194e-02    3,609984219e-01   -5,800440907e-01    0,000000000e+00    0,000000000e+00    0,000000000e+00    0,000000000e+00
      562000000   -8,129321970e-03   -8,842699975e-02   -2,614579909e-02   -6,724959016e-01    0,000000000e+00    0,000000000e+00    0,000000000e+00    0,000000000e+00
      576000000   -4,508979991e-02   -1,096084118e-01   -4,011461139e-01   -5,387428999e-01    0,000000000e+00    0,000000000e+00    0,000000000e+00    0,000000000e+00
      590000000   -9,480851889e-02   -9,356169403e-02   -6,402049065e-01   -2,196778208e-01    0,000000000e+00    0,000000000e+00    0,000000000e+00    0,000000000e+00
      604000000   -1,119492352e-01   -4,112518206e-02   -6,481014490e-01    1,985713392e-01    0,000000000e+00    0,000000000e+00    0,000000000e+00    0,000000000e+00
      618000000   -7,555094361e-02   -2,021749737e-03   -4,023742080e-01    5,360068083e-01    0,000000000e+00    0,000000000e+00    0,000000000e+00    0,000000000e+00
      632000000   -3,002026677e-02   -2,075250447e-02   -1,224205829e-02    6,549708247e-01    0,000000000e+00    0,000000000e+00    0,000000000e+00    0,000000000e+00
      646000000   -3,671829402e-02   -7,641780376e-02    3,660821915e-01    5,261231661e-01    0,000000000e+00    0,000000000e+00    0,000000000e+00    0,000000000e+00
      660000000   -1,113495603e-01   -9,959882498e-02    6,014475226e-01    1,932425648e-01    0,000000000e+00    0,000000000e+00    0,000000000e+00    0,000000000e+00
      674000000   -1,996185780e-01   -2,475154586e-02    5,650205016e-01   -2,395005226e-01    0,000000000e+00    0,000000000e+00    0,000000000e+00    0,000000000e+00
      688000000   -1,792567968e-01    1,448213458e-01    2,100307047e-01   -5,222616196e-01    0,000000000e+00    0,000000000e+00    0,000000000e+00    0,000000000e+00
      702000000    2,609593794e-02    2,469490916e-01   -2,047384381e-01   -4,006473124e-01    0,000000000e+00    0,000000000e+00    0,000000000e+00    0,000000000e+00
      716000000    2,638168633e-01    1,107524261e-01   -2,733333111e-01   -8,363170177e-02    0,000000000e+00    0,000000000e+00    0,000000000e+00    0,000000000e+00
      730000000    3,041940629e-01   -1,854587793e-01   -1,076051146e-01    3,261568397e-02    0,000000000e+00    0,000000000e+00    0,000000000e+00    0,000000000e+00
      744000000    9,425988048e-02   -4,277565777e-01   -4,223945364e-02   -6,408717483e-02    0,000000000e+00    0,000000000e+00    0,000000000e+00    0,000000000e+00
      758000000   -2,592674494e-01   -4,295058250e-01   -1,750928462e-01   -1,257380843e-01    0,000000000e+00    0,000000000e+00    0,000000000e+00    0,000000000e+00
      772000000   -4,846338034e-01   -1,196819618e-01   -3,362437487e-01    3,799676523e-02    0,000000000e+00    0,000000000e+00    0,000000000e+00    0,000000000e+00
      786000000   -3,416274786e-01    2,222724259e-01   -2,629950047e-01    3,166983724e-01    0,000000000e+00    0,000000000e+00    0,000000000e+00    0,000000000e+00
      800000000   -4,089217260e-02    2,765717804e-01    2,925425535e-03    4,363193512e-01    0,000000000e+00    0,000000000e+00    0,000000000e+00    0,000000000e+00
      814000000    1,444830596e-01    1,258430481e-01    2,640931308e-01    3,580477536e-01    0,000000000e+00    0,000000000e+00    0,000000000e+00    0,000000000e+00
      828000000    1,681915671e-01   -7,029484212e-02    4,331305325e-01    1,564491838e-01    0,000000000e+00    0,000000000e+00    0,000000000e+00    0,000000000e+00
      842000000    6,774073094e-02   -2,184389681e-01    4,663508832e-01   -1,200920865e-01    0,000000000e+00    0,000000000e+00    0,000000000e+00    0,000000000e+00
      856000000   -1,069265157e-01   -2,633249760e-01    3,202650845e-01   -3,943020105e-01    0,000000000e+00    0,000000000e+00    0,000000000e+00    0,000000000e+00
      870000000   -2,749971449e-01   -1,680969149e-01   -2,462260891e-03   -5,269280672e-01    0,000000000e+00    0,000000000e+00    0,000000000e+00    0,000000000e+00
      884000000   -3,215320706e-01    3,571490943e-02   -3,489317298e-01   -3,917715847e-01    0,000000000e+00    0,000000000e+00    0,000000000e+00    0,000000000e+00
      898000000   -1,913878024e-01    2,069075108e-01   -4,885676205e-01   -6,210843846e-02    0,000000000e+00    0,000000000e+00    0,000000000e+00    0,000000000e+00
      912000000    6,948094349e-03    2,177714258e-01   -4,049721360e-01    2,799086571e-01    0,000000000e+00    0,000000000e+00    0,000000000e+00    0,000000000e+00
      926000000    1,496280283e-01    1,138785556e-01   -1,706615239e-01    4,160082042e-01    0,000000000e+00    0,000000000e+00    0,000000000e+00    0,000000000e+00
      940000000    1,971287876e-01   -4,528566450e-02    6,143010408e-02    4,238317013e-01    0,000000000e+00    0,000000000e+00    0,000000000e+00    0,000000000e+00
      954000000    1,553729922e-01   -2,039026618e-01    2,612435520e-01    3,426972330e-01    0,000000000e+00    0,000000000e+00    0,000000000e+00    0,000000000e+00
      968000000    2,698991820e-02   -3,129444420e-01    4,113391638e-01    1,795437783e-01    0,000000000e+00    0,000000000e+00    0,000000000e+00    0,000000000e+00
      982000000   -1,606664509e-01   -3,288180828e-01    4,742200673e-01   -6,741187721e-02    0,000000000e+00    0,000000000e+00    0,000000000e+00    0,000000000e+00
      996000000   -3,265532851e-01   -2,076443881e-01    3,681055307e-01   -3,578087389e-01    0,000000000e+00    0,000000000e+00    0,000000000e+00    0,000000000e+00
     1010000000   -3,375614285e-01   -7,677874994e-03    4,067320377e-02   -5,231549740e-01    0,000000000e+00    0,000000000e+00    0,000000000e+00    0,000000000e+00
     1024000000   -2,044560611e-01    9,518401325e-02   -3,451446295e-01   -3,803544641e-01    0,000000000e+00    0,000000000e+00    0,000000000e+00    0,000000000e+00
     1038000000   -1,350956261e-01    5,946369842e-03   -4,815922678e-01    6,332906336e-02    0,000000000e+00    0,000000000e+00    0,000000000e+00    0,000000000e+00
     1052000000   -2,854660451e-01    5,202025548e-02   -9,353797138e-02    3,715084195e-01    0,000000000e+00    0,000000000e+00    0,000000000e+00    0,000000000e+00
     1066000000   -1,509281397e-01    2,957367003e-01    1,427658051e-01    1,337183863e-01    0,000000000e+00    0,000000000e+00    0,000000000e+00    0,000000000e+00
     1080000000    1,008625776e-01    2,543661594e-01    9,017023444e-02    2,102027461e-02    0,000000000e+00    0,000000000e+00    0,000000000e+00    0,000000000e+00
     1094000000    2,196304947e-01    9,193393588e-02    6,897858530e-02    1,044408605e-02    0,000000000e+00    0,000000000e+00    0,000000000e+00    0,000000000e+00
     1108000000    2,390943617e-01   -8,578117192e-02    8,314364403e-02    1,621580217e-03    0,000000000e+00    0,000000000e+00    0,000000000e+00    0,000000000e+00
     1122000000    1,831886321e-01   -2,536294758e-01    1,051838174e-01   -2,764812484e-02    0,000000000e+00    0,000000000e+00    0,000000000e+00    0,000000000e+00
     1136000000    5,108589679e-02   -3,750013709e-01    1,285923570e-01   -7,200907171e-02    0,000000000e+00    0,000000000e+00    0,000000000e+00    0,000000000e+00
     1150000000   -1,552212536e-01   -4,285297096e-01    1,366505921e-01   -1,515566558e-01    0,000000000e+00    0,000000000e+00    0,000000000e+00    0,000000000e+00
     1164000000   -3,810091019e-01   -3,241832256e-01    9,914725274e-02   -2,778586447e-01    0,000000000e+00    0,000000000e+00    0,000000000e+00    0,000000000e+00
     1178000000   -4,609566331e-01   -8,608019352e-02   -9,978314489e-02   -4,039224088e-01    0,000000000e+00    0,000000000e+00    0,000000000e+00    0,000000000e+00
     1192000000   -3,760166764e-01    3,905066475e-02   -4,650776386e-01   -1,966992617e-01    0,000000000e+00    0,000000000e+00    0,000000000e+00    0,000000000e+00
     1206000000   -4,123640656e-01    1,344481260e-01   -2,728706598e-01    2,395796478e-01    0,000000000e+00    0,000000000e+00    0,000000000e+00    0,000000000e+00
     1220000000   -2,773591578e-01    3,337130249e-01   -5,745407660e-03    1,664231718e-01    0,000000000e+00    0,000000000e+00    0,000000000e+00    0,000000000e+00
     1234000000   -4,335120320e-02    3,457216620e-01    2,381479368e-02    5,240485072e-02    0,000000000e+00    0,000000000e+00    0,000000000e+00    0,000000000e+00
     1248000000    1,241557971e-01    2,471056879e-01    6,689848378e-03    2,457899600e-02    0,000000000e+00    0,000000000e+00    0,000000000e+00    0,000000000e+00
     1262000000    2,125961483e-01    1,001770496e-01    5,262390245e-03    2,883325145e-02    0,000000000e+00    0,000000000e+00    0,000000000e+00    0,000000000e+00
     1276000000    2,318886369e-01   -5,646449700e-02    2,504899725e-02    3,202258795e-02    0,000000000e+00    0,000000000e+00    0,000000000e+00    0,000000000e+00
     1290000000    1,995815337e-01   -2,154491097e-01    6,078902632e-02    2,751674131e-02    0,000000000e+00    0,000000000e+00    0,000000000e+00    0,000000000e+00
     1304000000    8,353725076e-02   -3,589008749e-01    7,796254009e-02    2,469298197e-03    0,000000000e+00    0,000000000e+00    0,000000000e+00    0,000000000e+00
     1318000000   -1,061111987e-01   -4,466280341e-01    8,141440898e-02   -7,405122742e-03    0,000000000e+00    0,000000000e+00    0,000000000e+00    0,000000000e+00
     1332000000   -3,558533490e-01   -4,335040748e-01    8,236413449e-02   -1,315486897e-02    0,000000000e+00    0,000000000e+00    0,000000000e+00    0,000000000e+00
     1346000000   -5,900983214e-01   -2,462786585e-01    1,076901779e-01   -3,334627254e-03    0,000000000e+00    0,000000000e+00    0,000000000e+00    0,000000000e+00
     1360000000   -6,494170427e-01    7,196024060e-02    1,441626102e-01   -1,773942448e-02    0,000000000e+00    0,000000000e+00    0,000000000e+00    0,000000000e+00
     1374000000   -4,886283278e-01    3,352194428e-01    1,668801308e-01   -4,384126887e-02    0,000000000e+00    0,000000000e+00    0,000000000e+00    0,000000000e+00
     1388000000   -2,483113408e-01    4,311099052e-01    1,676771343e-01   -7,601522654e-02    0,000000000e+00    0,000000000e+00    0,000000000e+00    0,000000000e+00
     1402000000   -5,015118793e-02    3,928945065e-01    1,389784068e-01   -9,144441783e-02    0,000000000e+00    0,000000000e+00    0,000000000e+00    0,000000000e+00
     1416000000    9,911243618e-02    2,880952656e-01    1,150084287e-01   -8,210945129e-02    0,000000000e+00    0,000000000e+00    0,000000000e+00    0,000000000e+00
     1430000000    1,896931082e-01    1,440184712e-01    1,023692340e-01   -6,060783938e-02    0,000000000e+00    0,000000000e+00    0,000000000e+00    0,000000000e+00
     1444000000    2,170463204e-01   -9,623634629e-03    1,245837584e-01   -2,498565242e-02    0,000000000e+00    0,000000000e+00    0,000000000e+00    0,000000000e+00
     1458000000    1,839112639e-01   -1,827894598e-01    1,574476212e-01    2,953649871e-02    0,000000000e+00    0,000000000e+00    0,000000000e+00    0,000000000e+00
     1472000000    6,436081976e-02   -3,520627022e-01    1,894841939e-01    5,654416233e-02    0,000000000e+00    0,000000000e+00    0,000000000e+00    0,000000000e+00
     1486000000   -1,428675801e-01   -4,795899689e-01    2,885792255e-01    7,964610308e-02    0,000000000e+00    0,000000000e+00    0,000000000e+00    0,000000000e+00
     1500000000   -4,365648627e-01   -4,709073603e-01    4,135304987e-01    5,527996272e-02    0,000000000e+00    0,000000000e+00    0,000000000e+00    0,000000000e+00
