! NanoVNA-App
! Date: 2025-09-25 16:02:34
! Start: 100MHz Stop: 1,5GHz Points: 101
! S-Parameter data: F S11 S21 S12 S22
# Hz S RI R 50
!     Frequency           S11_Real           S11_Imag           S21_Real           S21_Imag           S12_Real           S12_Imag           S22_Real           S22_Imag
      100000000   -2,829425223e-02   -2,888249233e-03    3,723228276e-01   -7,224248052e-01    0,000000000e+00    0,000000000e+00    0,000000000e+00    0,000000000e+00
      114000000   -1,575318910e-02    1,291011181e-02   -9,128952771e-02   -8,047437668e-01    0,000000000e+00    0,000000000e+00    0,000000000e+00    0,000000000e+00
      128000000    4,287509248e-03    1,203654241e-02   -5,158213973e-01   -6,188270450e-01    0,000000000e+00    0,000000000e+00    0,000000000e+00    0,000000000e+00
      142000000    1,548553444e-02   -1,707879244e-03   -7,675579190e-01   -2,342466712e-01    0,000000000e+00    0,000000000e+00    0,000000000e+00    0,000000000e+00
      156000000    1,626249589e-02   -1,375972014e-02   -7,707182169e-01    2,251014858e-01    0,000000000e+00    0,000000000e+00    0,000000000e+00    0,000000000e+00
      170000000    1,762628928e-02   -2,095815167e-02   -5,153962970e-01    6,063406467e-01    0,000000000e+00    0,000000000e+00    0,000000000e+00    0,000000000e+00
      184000000    2,201639302e-02   -3,552880883e-02   -9,821645170e-02    7,863079309e-01    0,000000000e+00    0,000000000e+00    0,000000000e+00    0,000000000e+00
      198000000    1,405819412e-02   -6,061680987e-02    3,460061252e-01    7,107056379e-01    0,000000000e+00    0,000000000e+00    0,000000000e+00    0,000000000e+00
      212000000   -1,761986315e-02   -7,913360745e-02    6,808764338e-01    4,062447250e-01    0,000000000e+00    0,000000000e+00    0,000000000e+00    0,000000000e+00
      226000000   -6,026663631e-02   -6,662131846e-02    7,957767844e-01   -3,575744480e-02    0,000000000e+00    0,000000000e+00    0,000000000e+00    0,000000000e+00
      240000000   -8,050044626e-02   -2,272697538e-02    6,414735317e-01   -4,719270468e-01    0,000000000e+00    0,000000000e+00    0,000000000e+00    0,000000000e+00
      254000000   -6,084131449e-02    1,983456686e-02    2,708663344e-01   -7,422078848e-01    0,000000000e+00    0,000000000e+00    0,000000000e+00    0,000000000e+00
      268000000   -2,100542933e-02    3,088100627e-02   -1,811322272e-01   -7,611130476e-01    0,000000000e+00    0,000000000e+00    0,000000000e+00    0,000000000e+00
      282000000    6,911967881e-03    1,373156998e-02   -5,631570220e-01   -5,323907733e-01    0,000000000e+00    0,000000000e+00    0,000000000e+00    0,000000000e+00
      296000000    1,243856736e-02   -6,347999442e-03   -7,606522441e-01   -1,343653202e-01    0,000000000e+00    0,000000000e+00    0,000000000e+00    0,000000000e+00
      310000000    1,368580572e-02   -1,444538962e-02   -7,081705928e-01    3,033750951e-01    0,000000000e+00    0,000000000e+00    0,000000000e+00    0,000000000e+00
      324000000    2,239896916e-02   -2,472125553e-02   -4,199992716e-01    6,390486956e-01    0,000000000e+00    0,000000000e+00    0,000000000e+00    0,000000000e+00
      338000000    2,829049341e-02   -5,063522235e-02   -3,278724616e-03    7,582517862e-01    0,000000000e+00    0,000000000e+00    0,000000000e+00    0,000000000e+00
      352000000    1,015384495e-02   -8,308683336e-02    4,118579030e-01    6,344265938e-01    0,000000000e+00    0,000000000e+00    0,000000000e+00    0,000000000e+00
      366000000   -3,167815506e-02   -9,382315725e-02    6,929207444e-01    3,037483096e-01    0,000000000e+00    0,000000000e+00    0,000000000e+00    0,000000000e+00
      380000000   -6,775378436e-02   -6,896050274e-02    7,455452085e-01   -1,345148385e-01    0,000000000e+00    0,000000000e+00    0,000000000e+00    0,000000000e+00
      394000000   -6,849583983e-02   -3,051831014e-02    5,383873582e-01   -5,280803442e-01    0,000000000e+00    0,000000000e+00    0,000000000e+00    0,000000000e+00
      408000000   -4,265080765e-02   -1,569409668e-02    1,500641853e-01   -7,349396944e-01    0,000000000e+00    0,000000000e+00    0,000000000e+00    0,000000000e+00
      422000000   -2,613404207e-02   -3,121013194e-02   -2,793509364e-01   -6,893066168e-01    0,000000000e+00    0,000000000e+00    0,000000000e+00    0,000000000e+00
      436000000   -3,960528225e-02   -4,918415844e-02   -6,100914478e-01   -4,203675389e-01    0,000000000e+00    0,000000000e+00    0,000000000e+00    0,000000000e+00
      450000000   -6,499960274e-02   -3,931082785e-02   -7,373277545e-01   -7,888433523e-03    0,000000000e+00    0,000000000e+00    0,000000000e+00    0,000000000e+00
      464000000   -6,758784503e-02   -6,637278479e-03   -6,075838208e-01    4,060696661e-01    0,000000000e+00    0,000000000e+00    0,000000000e+00    0,000000000e+00
      478000000   -3,864995763e-02    1,604865678e-02   -2,677605748e-01    6,700908542e-01    0,000000000e+00    0,000000000e+00    0,000000000e+00    0,000000000e+00
      492000000   -5,287388340e-03    6,146019325e-03    1,525116265e-01    6,943559647e-01    0,000000000e+00    0,000000000e+00    0,000000000e+00    0,000000000e+00
      506000000    6,669558119e-03   -2,033263259e-02    5,079124570e-01    4,876954854e-01    0,000000000e+00    0,000000000e+00    0,000000000e+00    0,000000000e+00
      520000000    7,474581944e-04   -3,867856786e-02    6,897528768e-01    1,210702509e-01    0,000000000e+00    0,000000000e+00    0,000000000e+00    0,000000000e+00
      534000000   -3,153237980e-03   -4,535124823e-02    6,327242255e-01   -2,819349170e-01    0,000000000e+00    0,000000000e+00    0,000000000e+00    0,000000000e+00
      548000000    8,787838160e-04   -5,945512652e-02    3,603143096e-01   -5,792764425e-01    0,000000000e+00    0,000000000e+00    0,000000000e+00    0,000000000e+00
      562000000   -7,759302855e-03   -8,838786185e-02   -2,617136575e-02   -6,718840599e-01    0,000000000e+00    0,000000000e+00    0,000000000e+00    0,000000000e+00
      576000000   -4,531104118e-02   -1,099716946e-01   -4,007609487e-01   -5,386265516e-01    0,000000000e+00    0,000000000e+00    0,000000000e+00    0,000000000e+00
      590000000   -9,504617751e-02   -9,362982213e-02   -6,413292885e-01   -2,194169909e-01    0,000000000e+00    0,000000000e+00    0,000000000e+00    0,000000000e+00
      604000000   -1,116436422e-01   -4,143539444e-02   -6,473123431e-01    1,980137974e-01    0,000000000e+00    0,000000000e+00    0,000000000e+00    0,000000000e+00
      618000000   -7,625461370e-02   -1,904867473e-03   -4,016825259e-01    5,349930525e-01    0,000000000e+00    0,000000000e+00    0,000000000e+00    0,000000000e+00
      632000000   -2,953586914e-02   -2,133896574e-02   -1,145342272e-02    6,551941037e-01    0,000000000e+00    0,000000000e+00    0,000000000e+00    0,000000000e+00
      646000000   -3,587938100e-02   -7,678399235e-02    3,665252030e-01    5,274211764e-01    0,000000000e+00    0,000000000e+00    0,000000000e+00    0,000000000e+00
      660000000   -1,105789095e-01   -9,908927232e-02    6,010020971e-01    1,931930333e-01    0,000000000e+00    0,000000000e+00    0,000000000e+00    0,000000000e+00
      674000000   -1,987719983e-01   -2,355190180e-02    5,658671260e-01   -2,394468039e-01    0,000000000e+00    0,000000000e+00    0,000000000e+00    0,000000000e+00
      688000000   -1,780083179e-01    1,445381045e-01    2,107544094e-01   -5,225847960e-01    0,000000000e+00    0,000000000e+00    0,000000000e+00    0,000000000e+00
      702000000    2,533357963e-02    2,443955392e-01   -1,933472753e-01   -4,054391086e-01    0,000000000e+00    0,000000000e+00    0,000000000e+00    0,000000000e+00
      716000000    2,631006539e-01    1,106520295e-01   -2,742275298e-01   -8,390802145e-02    0,000000000e+00    0,000000000e+00    0,000000000e+00    0,000000000e+00
      730000000    3,037183881e-01   -1,853269637e-01   -1,077863201e-01    3,282630071e-02    0,000000000e+00    0,000000000e+00    0,000000000e+00    0,000000000e+00
      744000000    9,475757182e-02   -4,283092320e-01   -4,213293642e-02   -6,395190209e-02    0,000000000e+00    0,000000000e+00    0,000000000e+00    0,000000000e+00
      758000000   -2,592600882e-01   -4,292473495e-01   -1,746318340e-01   -1,254798174e-01    0,000000000e+00    0,000000000e+00    0,000000000e+00    0,000000000e+00
      772000000   -4,860795140e-01   -1,195217371e-01   -3,357265592e-01    3,772001714e-02    0,000000000e+00    0,000000000e+00    0,000000000e+00    0,000000000e+00
      786000000   -3,424460888e-01    2,222272456e-01   -2,625524700e-01    3,160790503e-01    0,000000000e+00    0,000000000e+00    0,000000000e+00    0,000000000e+00
      800000000   -4,117201641e-02    2,778216898e-01    2,799972659e-03    4,373194277e-01    0,000000000e+00    0,000000000e+00    0,000000000e+00    0,000000000e+00
      814000000    1,448803246e-01    1,255097687e-01    2,638317943e-01    3,590891957e-01    0,000000000e+00    0,000000000e+00    0,000000000e+00    0,000000000e+00
      828000000    1,683779657e-01   -6,984667480e-02    4,329618812e-01    1,569871455e-01    0,000000000e+00    0,000000000e+00    0,000000000e+00    0,000000000e+00
      842000000    6,763908267e-02   -2,183695138e-01    4,663185179e-01   -1,205548644e-01    0,000000000e+00    0,000000000e+00    0,000000000e+00    0,000000000e+00
      856000000   -1,062538922e-01   -2,643639445e-01    3,188847303e-01   -3,939095438e-01    0,000000000e+00    0,000000000e+00    0,000000000e+00    0,000000000e+00
      870000000   -2,740462720e-01   -1,681722999e-01   -1,924633747e-03   -5,268414021e-01    0,000000000e+00    0,000000000e+00    0,000000000e+00    0,000000000e+00
      884000000   -3,209893405e-01    3,544069827e-02   -3,481787741e-01   -3,929084241e-01    0,000000000e+00    0,000000000e+00    0,000000000e+00    0,000000000e+00
      898000000   -1,923909336e-01    2,056392133e-01   -4,885653257e-01   -6,333996356e-02    0,000000000e+00    0,000000000e+00    0,000000000e+00    0,000000000e+00
      912000000    8,043603040e-03    2,198458314e-01   -3,992138207e-01    2,807520330e-01    0,000000000e+00    0,000000000e+00    0,000000000e+00    0,000000000e+00
      926000000    1,500295550e-01    1,144957915e-01   -1,704059392e-01    4,174335599e-01    0,000000000e+00    0,000000000e+00    0,000000000e+00    0,000000000e+00
      940000000    1,999765784e-01   -4,593726248e-02    6,299559772e-02    4,249452949e-01    0,000000000e+00    0,000000000e+00    0,000000000e+00    0,000000000e+00
      954000000    1,555209309e-01   -2,008467913e-01    2,604470551e-01    3,416725993e-01    0,000000000e+00    0,000000000e+00    0,000000000e+00    0,000000000e+00
      968000000    2,522887662e-02   -3,132770956e-01    4,109295607e-01    1,783737391e-01    0,000000000e+00    0,000000000e+00    0,000000000e+00    0,000000000e+00
      982000000   -1,657852530e-01   -3,326137066e-01    4,749761522e-01   -6,703004986e-02    0,000000000e+00    0,000000000e+00    0,000000000e+00    0,000000000e+00
      996000000   -3,265890479e-01   -2,124408185e-01    3,680730760e-01   -3,551853001e-01    0,000000000e+00    0,000000000e+00    0,000000000e+00    0,000000000e+00
     1010000000   -3,396166861e-01   -5,710259546e-03    4,140503705e-02   -5,242143273e-01    0,000000000e+00    0,000000000e+00    0,000000000e+00    0,000000000e+00
     1024000000   -2,065468729e-01    8,981569856e-02   -3,460685313e-01   -3,796916306e-01    0,000000000e+00    0,000000000e+00    0,000000000e+00    0,000000000e+00
     1038000000   -1,361591071e-01    1,109421439e-02   -4,815886915e-01    6,339113414e-02    0,000000000e+00    0,000000000e+00    0,000000000e+00    0,000000000e+00
     1052000000   -2,876939476e-01    4,980457202e-02   -9,403764457e-02    3,717691898e-01    0,000000000e+00    0,000000000e+00    0,000000000e+00    0,000000000e+00
     1066000000   -1,443319619e-01    2,925084829e-01    1,412704736e-01    1,347592920e-01    0,000000000e+00    0,000000000e+00    0,000000000e+00    0,000000000e+00
     1080000000    9,905970842e-02    2,478114218e-01    9,190586954e-02    2,234419435e-02    0,000000000e+00    0,000000000e+00    0,000000000e+00    0,000000000e+00
     1094000000    2,198363096e-01    9,034150094e-02    7,117173076e-02    8,320929483e-03    0,000000000e+00    0,000000000e+00    0,000000000e+00    0,000000000e+00
     1108000000    2,448129952e-01   -8,863811940e-02    8,222991973e-02    2,766282414e-04    0,000000000e+00    0,000000000e+00    0,000000000e+00    0,000000000e+00
     1122000000    1,816377789e-01   -2,527931929e-01    1,016146913e-01   -2,592751756e-02    0,000000000e+00    0,000000000e+00    0,000000000e+00    0,000000000e+00
     1136000000    5,017116666e-02   -3,813877404e-01    1,255358309e-01   -7,444921136e-02    0,000000000e+00    0,000000000e+00    0,000000000e+00    0,000000000e+00
     1150000000   -1,562606394e-01   -4,286559522e-01    1,355862021e-01   -1,520846337e-01    0,000000000e+00    0,000000000e+00    0,000000000e+00    0,000000000e+00
     1164000000   -3,753274083e-01   -3,277128041e-01    9,947273135e-02   -2,751981914e-01    0,000000000e+00    0,000000000e+00    0,000000000e+00    0,000000000e+00
     1178000000   -4,679063261e-01   -8,185648918e-02   -1,073674858e-01   -4,059914052e-01    0,000000000e+00    0,000000000e+00    0,000000000e+00    0,000000000e+00
     1192000000   -3,767172098e-01    3,806237876e-02   -4,650741220e-01   -1,979232281e-01    0,000000000e+00    0,000000000e+00    0,000000000e+00    0,000000000e+00
     1206000000   -4,172655940e-01    1,293758005e-01   -2,770642042e-01    2,376020700e-01    0,000000000e+00    0,000000000e+00    0,000000000e+00    0,000000000e+00
     1220000000   -2,767046988e-01    3,313299716e-01   -9,718252113e-04    1,662788838e-01    0,000000000e+00    0,000000000e+00    0,000000000e+00    0,000000000e+00
     1234000000   -5,007427186e-02    3,510155082e-01    2,390385233e-02    5,827361345e-02    0,000000000e+00    0,000000000e+00    0,000000000e+00    0,000000000e+00
     1248000000    1,170216873e-01    2,535157204e-01    1,544319559e-03    2,489970624e-02    0,000000000e+00    0,000000000e+00    0,000000000e+00    0,000000000e+00
     1262000000    2,151880413e-01    1,030429378e-01    8,062476292e-03    2,984253503e-02    0,000000000e+00    0,000000000e+00    0,000000000e+00    0,000000000e+00
     1276000000    2,407168001e-01   -5,317104608e-02    2,941321768e-02    3,557706252e-02    0,000000000e+00    0,000000000e+00    0,000000000e+00    0,000000000e+00
     1290000000    1,926149577e-01   -2,134482265e-01    5,461882055e-02    2,718138695e-02    0,000000000e+00    0,000000000e+00    0,000000000e+00    0,000000000e+00
     1304000000    8,306624740e-02   -3,512816429e-01    7,223612815e-02    1,104295626e-02    0,000000000e+00    0,000000000e+00    0,000000000e+00    0,000000000e+00
     1318000000   -1,043719724e-01   -4,467742741e-01    8,143916726e-02   -1,132952794e-02    0,000000000e+00    0,000000000e+00    0,000000000e+00    0,000000000e+00
     1332000000   -3,543580472e-01   -4,369517863e-01    9,018787742e-02   -7,517839316e-03    0,000000000e+00    0,000000000e+00    0,000000000e+00    0,000000000e+00
     1346000000   -5,891633630e-01   -2,454077452e-01    1,070837975e-01   -5,521413870e-03    0,000000000e+00    0,000000000e+00    0,000000000e+00    0,000000000e+00
     1360000000   -6,503167748e-01    7,486714423e-02    1,395797431e-01   -1,564777084e-02    0,000000000e+00    0,000000000e+00    0,000000000e+00    0,000000000e+00
     1374000000   -4,950586855e-01    3,317498267e-01    1,605003029e-01   -5,141016096e-02    0,000000000e+00    0,000000000e+00    0,000000000e+00    0,000000000e+00
     1388000000   -2,527389526e-01    4,276834130e-01    1,643004119e-01   -7,909888774e-02    0,000000000e+00    0,000000000e+00    0,000000000e+00    0,000000000e+00
     1402000000   -4,053821415e-02    3,921302855e-01    1,497780085e-01   -9,914594144e-02    0,000000000e+00    0,000000000e+00    0,000000000e+00    0,000000000e+00
     1416000000    9,755261242e-02    2,854923010e-01    1,159697250e-01   -8,722798526e-02    0,000000000e+00    0,000000000e+00    0,000000000e+00    0,000000000e+00
     1430000000    1,814988106e-01    1,418181509e-01    1,257032454e-01   -5,417625979e-02    0,000000000e+00    0,000000000e+00    0,000000000e+00    0,000000000e+00
     1444000000    2,138565928e-01   -1,074532419e-02    1,184268072e-01   -1,770014688e-02    0,000000000e+00    0,000000000e+00    0,000000000e+00    0,000000000e+00
     1458000000    1,786373109e-01   -1,874666512e-01    1,276263297e-01    1,463850867e-02    0,000000000e+00    0,000000000e+00    0,000000000e+00    0,000000000e+00
     1472000000    6,733473390e-02   -3,563902080e-01    1,889889985e-01    5,053640902e-02    0,000000000e+00    0,000000000e+00    0,000000000e+00    0,000000000e+00
     1486000000   -1,391390711e-01   -4,809503257e-01    2,946507037e-01    7,778722793e-02    0,000000000e+00    0,000000000e+00    0,000000000e+00    0,000000000e+00
     1500000000   -4,395401776e-01   -4,643893540e-01    3,944768012e-01    6,445342302e-02    0,000000000e+00    0,000000000e+00    0,000000000e+00    0,000000000e+00
