! NanoVNA-App
! Date: 2025-09-25 15:59:27
! Start: 100MHz Stop: 1,5GHz Points: 101
! S-Parameter data: F S11 S21 S12 S22
# Hz S RI R 50
!     Frequency           S11_Real           S11_Imag           S21_Real           S21_Imag           S12_Real           S12_Imag           S22_Real           S22_Imag
      100000000   -2,827442624e-02   -2,861832734e-03    3,722649515e-01   -7,223984599e-01    0,000000000e+00    0,000000000e+00    0,000000000e+00    0,000000000e+00
      114000000   -1,567870937e-02    1,286003366e-02   -9,132397920e-02   -8,047813773e-01    0,000000000e+00    0,000000000e+00    0,000000000e+00    0,000000000e+00
      128000000    4,378712270e-03    1,194981765e-02   -5,160302520e-01   -6,188876033e-01    0,000000000e+00    0,000000000e+00    0,000000000e+00    0,000000000e+00
      142000000    1,548476238e-02   -1,747692470e-03   -7,672815919e-01   -2,340827286e-01    0,000000000e+00    0,000000000e+00    0,000000000e+00    0,000000000e+00
      156000000    1,558765396e-02   -1,362129208e-02   -7,700219154e-01    2,231394798e-01    0,000000000e+00    0,000000000e+00    0,000000000e+00    0,000000000e+00
      170000000    1,765378751e-02   -2,104114182e-02   -5,155607462e-01    6,061321497e-01    0,000000000e+00    0,000000000e+00    0,000000000e+00    0,000000000e+00
      184000000    2,199925110e-02   -3,559242561e-02   -9,853791445e-02    7,858866453e-01    0,000000000e+00    0,000000000e+00    0,000000000e+00    0,000000000e+00
      198000000    1,400531176e-02   -6,068614870e-02    3,460546136e-01    7,108285427e-01    0,000000000e+00    0,000000000e+00    0,000000000e+00    0,000000000e+00
      212000000   -1,768088900e-02   -7,914950699e-02    6,808791757e-01    4,063827395e-01    0,000000000e+00    0,000000000e+00    0,000000000e+00    0,000000000e+00
      226000000   -6,035828590e-02   -6,664627045e-02    7,957760096e-01   -3,568163142e-02    0,000000000e+00    0,000000000e+00    0,000000000e+00    0,000000000e+00
      240000000   -8,054740727e-02   -2,272687294e-02    6,416522861e-01   -4,718333483e-01    0,000000000e+00    0,000000000e+00    0,000000000e+00    0,000000000e+00
      254000000   -6,080301479e-02    1,981371641e-02    2,709860504e-01   -7,420833111e-01    0,000000000e+00    0,000000000e+00    0,000000000e+00    0,000000000e+00
      268000000   -2,095155232e-02    3,086835891e-02   -1,810160428e-01   -7,608600259e-01    0,000000000e+00    0,000000000e+00    0,000000000e+00    0,000000000e+00
      282000000    6,963921245e-03    1,376165543e-02   -5,629714131e-01   -5,327782631e-01    0,000000000e+00    0,000000000e+00    0,000000000e+00    0,000000000e+00
      296000000    1,247737277e-02   -6,274823099e-03   -7,602570057e-01   -1,343754977e-01    0,000000000e+00    0,000000000e+00    0,000000000e+00    0,000000000e+00
      310000000    1,350051910e-02   -1,451337617e-02   -7,075918317e-01    3,049183488e-01    0,000000000e+00    0,000000000e+00    0,000000000e+00    0,000000000e+00
      324000000    2,261779644e-02   -2,468419820e-02   -4,203641117e-01    6,401335597e-01    0,000000000e+00    0,000000000e+00    0,000000000e+00    0,000000000e+00
      338000000    2,825393900e-02   -5,078288540e-02   -6,897291751e-04    7,627829909e-01    0,000000000e+00    0,000000000e+00    0,000000000e+00    0,000000000e+00
      352000000    1,026231796e-02   -8,301734179e-02    4,112543762e-01    6,353685856e-01    0,000000000e+00    0,000000000e+00    0,000000000e+00    0,000000000e+00
      366000000   -3,179643676e-02   -9,374847263e-02    6,931529045e-01    3,041276336e-01    0,000000000e+00    0,000000000e+00    0,000000000e+00    0,000000000e+00
      380000000   -6,760910153e-02   -6,879134476e-02    7,460049987e-01   -1,346511692e-01    0,000000000e+00    0,000000000e+00    0,000000000e+00    0,000000000e+00
      394000000   -6,850135326e-02   -3,049216978e-02    5,395930409e-01   -5,278103352e-01    0,000000000e+00    0,000000000e+00    0,000000000e+00    0,000000000e+00
      408000000   -4,284032434e-02   -1,544697490e-02    1,504951268e-01   -7,334514856e-01    0,000000000e+00    0,000000000e+00    0,000000000e+00    0,000000000e+00
      422000000   -2,597903460e-02   -3,101381287e-02   -2,786945999e-01   -6,897286177e-01    0,000000000e+00    0,000000000e+00    0,000000000e+00    0,000000000e+00
      436000000   -3,920160979e-02   -4,877943173e-02   -6,100372672e-01   -4,190737009e-01    0,000000000e+00    0,000000000e+00    0,000000000e+00    0,000000000e+00
      450000000   -6,477564573e-02   -3,934149072e-02   -7,369727492e-01   -7,593824528e-03    0,000000000e+00    0,000000000e+00    0,000000000e+00    0,000000000e+00
      464000000   -6,733383983e-02   -6,213386077e-03   -6,074436903e-01    4,059107900e-01    0,000000000e+00    0,000000000e+00    0,000000000e+00    0,000000000e+00
      478000000   -3,875645250e-02    1,614921726e-02   -2,683419287e-01    6,702006459e-01    0,000000000e+00    0,000000000e+00    0,000000000e+00    0,000000000e+00
      492000000   -5,244419444e-03    6,278720219e-03    1,517840326e-01    6,948894858e-01    0,000000000e+00    0,000000000e+00    0,000000000e+00    0,000000000e+00
      506000000    7,047493942e-03   -2,020864002e-02    5,081520677e-01    4,887617528e-01    0,000000000e+00    0,000000000e+00    0,000000000e+00    0,000000000e+00
      520000000    4,757803108e-04   -3,902303055e-02    6,898954511e-01    1,203337237e-01    0,000000000e+00    0,000000000e+00    0,000000000e+00    0,000000000e+00
      534000000   -3,523251275e-03   -4,535041377e-02    6,320569515e-01   -2,816637456e-01    0,000000000e+00    0,000000000e+00    0,000000000e+00    0,000000000e+00
      548000000    1,267662854e-03   -5,968619511e-02    3,612117171e-01   -5,786556005e-01    0,000000000e+00    0,000000000e+00    0,000000000e+00    0,000000000e+00
      562000000   -7,538300008e-03   -8,836221695e-02   -2,645037510e-02   -6,730534434e-01    0,000000000e+00    0,000000000e+00    0,000000000e+00    0,000000000e+00
      576000000   -4,553059489e-02   -1,091851816e-01   -4,014893770e-01   -5,379928350e-01    0,000000000e+00    0,000000000e+00    0,000000000e+00    0,000000000e+00
      590000000   -9,486629814e-02   -9,354413301e-02   -6,397586465e-01   -2,173055559e-01    0,000000000e+00    0,000000000e+00    0,000000000e+00    0,000000000e+00
      604000000   -1,114241406e-01   -4,106824845e-02   -6,473498344e-01    1,986867785e-01    0,000000000e+00    0,000000000e+00    0,000000000e+00    0,000000000e+00
      618000000   -7,580457628e-02   -2,670575632e-03   -4,026819170e-01    5,355811715e-01    0,000000000e+00    0,000000000e+00    0,000000000e+00    0,000000000e+00
      632000000   -3,012207150e-02   -2,169097215e-02   -1,245229691e-02    6,545796394e-01    0,000000000e+00    0,000000000e+00    0,000000000e+00    0,000000000e+00
      646000000   -3,690014407e-02   -7,681253552e-02    3,659269512e-01    5,268621445e-01    0,000000000e+00    0,000000000e+00    0,000000000e+00    0,000000000e+00
      660000000   -1,114716083e-01   -9,958954901e-02    6,017532349e-01    1,936780959e-01    0,000000000e+00    0,000000000e+00    0,000000000e+00    0,000000000e+00
      674000000   -1,994970292e-01   -2,446477301e-02    5,653178096e-01   -2,400375903e-01    0,000000000e+00    0,000000000e+00    0,000000000e+00    0,000000000e+00
      688000000   -1,789085865e-01    1,453515291e-01    2,095099241e-01   -5,226172805e-01    0,000000000e+00    0,000000000e+00    0,000000000e+00    0,000000000e+00
      702000000    2,646589838e-02    2,454680502e-01   -2,027565241e-01   -3,998765647e-01    0,000000000e+00    0,000000000e+00    0,000000000e+00    0,000000000e+00
      716000000    2,634146512e-01    1,112136468e-01   -2,728554010e-01   -8,326625824e-02    0,000000000e+00    0,000000000e+00    0,000000000e+00    0,000000000e+00
      730000000    3,030565679e-01   -1,855887175e-01   -1,069676727e-01    3,212269768e-02    0,000000000e+00    0,000000000e+00    0,000000000e+00    0,000000000e+00
      744000000    9,434476495e-02   -4,269870222e-01   -4,256959260e-02   -6,519147009e-02    0,000000000e+00    0,000000000e+00    0,000000000e+00    0,000000000e+00
      758000000   -2,589547038e-01   -4,291138947e-01   -1,749586314e-01   -1,257704943e-01    0,000000000e+00    0,000000000e+00    0,000000000e+00    0,000000000e+00
      772000000   -4,847419560e-01   -1,200913861e-01   -3,363680840e-01    3,811120614e-02    0,000000000e+00    0,000000000e+00    0,000000000e+00    0,000000000e+00
      786000000   -3,412164152e-01    2,206225693e-01   -2,625926137e-01    3,162952960e-01    0,000000000e+00    0,000000000e+00    0,000000000e+00    0,000000000e+00
      800000000   -4,064259306e-02    2,765209973e-01    2,897740575e-03    4,362585843e-01    0,000000000e+00    0,000000000e+00    0,000000000e+00    0,000000000e+00
      814000000    1,446579397e-01    1,254519373e-01    2,637360096e-01    3,603210151e-01    0,000000000e+00    0,000000000e+00    0,000000000e+00    0,000000000e+00
      828000000    1,682467759e-01   -6,995631009e-02    4,326917529e-01    1,566043198e-01    0,000000000e+00    0,000000000e+00    0,000000000e+00    0,000000000e+00
      842000000    6,717322022e-02   -2,183894068e-01    4,674321413e-01   -1,196321025e-01    0,000000000e+00    0,000000000e+00    0,000000000e+00    0,000000000e+00
      856000000   -1,067946181e-01   -2,635666728e-01    3,199337721e-01   -3,942252398e-01    0,000000000e+00    0,000000000e+00    0,000000000e+00    0,000000000e+00
      870000000   -2,740886509e-01   -1,678472161e-01   -2,046289621e-03   -5,262381434e-01    0,000000000e+00    0,000000000e+00    0,000000000e+00    0,000000000e+00
      884000000   -3,201935291e-01    3,509674221e-02   -3,481289744e-01   -3,938724995e-01    0,000000000e+00    0,000000000e+00    0,000000000e+00    0,000000000e+00
      898000000   -1,920832992e-01    2,069968879e-01   -4,900887907e-01   -6,232009828e-02    0,000000000e+00    0,000000000e+00    0,000000000e+00    0,000000000e+00
      912000000    6,872602273e-03    2,196011394e-01   -3,948948681e-01    2,667683661e-01    0,000000000e+00    0,000000000e+00    0,000000000e+00    0,000000000e+00
      926000000    1,490099281e-01    1,122549698e-01   -1,700907946e-01    4,157184064e-01    0,000000000e+00    0,000000000e+00    0,000000000e+00    0,000000000e+00
      940000000    2,000995874e-01   -4,461110756e-02    6,343135238e-02    4,248617887e-01    0,000000000e+00    0,000000000e+00    0,000000000e+00    0,000000000e+00
      954000000    1,522374600e-01   -2,015011311e-01    2,611332238e-01    3,419890702e-01    0,000000000e+00    0,000000000e+00    0,000000000e+00    0,000000000e+00
      968000000    2,733147144e-02   -3,141200244e-01    4,118580222e-01    1,780922264e-01    0,000000000e+00    0,000000000e+00    0,000000000e+00    0,000000000e+00
      982000000   -1,648425162e-01   -3,333962262e-01    4,754050076e-01   -6,603877246e-02    0,000000000e+00    0,000000000e+00    0,000000000e+00    0,000000000e+00
      996000000   -3,228260577e-01   -2,085576504e-01    3,673679829e-01   -3,549046218e-01    0,000000000e+00    0,000000000e+00    0,000000000e+00    0,000000000e+00
     1010000000   -3,431135714e-01   -8,673566394e-03    4,330550134e-02   -5,219861269e-01    0,000000000e+00    0,000000000e+00    0,000000000e+00    0,000000000e+00
     1024000000   -2,056401521e-01    9,027861804e-02   -3,474635482e-01   -3,809718490e-01    0,000000000e+00    0,000000000e+00    0,000000000e+00    0,000000000e+00
     1038000000   -1,376461089e-01    1,071607135e-02   -4,818864465e-01    6,573197991e-02    0,000000000e+00    0,000000000e+00    0,000000000e+00    0,000000000e+00
     1052000000   -2,910074592e-01    5,399370566e-02   -9,201496840e-02    3,738324940e-01    0,000000000e+00    0,000000000e+00    0,000000000e+00    0,000000000e+00
     1066000000   -1,507120728e-01    2,921860814e-01    1,435091048e-01    1,304520965e-01    0,000000000e+00    0,000000000e+00    0,000000000e+00    0,000000000e+00
     1080000000    1,002891287e-01    2,528535724e-01    9,072595835e-02    2,082058787e-02    0,000000000e+00    0,000000000e+00    0,000000000e+00    0,000000000e+00
     1094000000    2,206229120e-01    9,146813303e-02    7,014632225e-02    1,062646601e-02    0,000000000e+00    0,000000000e+00    0,000000000e+00    0,000000000e+00
     1108000000    2,441413701e-01   -8,967351168e-02    8,119136095e-02   -1,343773212e-03    0,000000000e+00    0,000000000e+00    0,000000000e+00    0,000000000e+00
     1122000000    1,808350682e-01   -2,512477338e-01    1,043202803e-01   -2,499688976e-02    0,000000000e+00    0,000000000e+00    0,000000000e+00    0,000000000e+00
     1136000000    5,185511708e-02   -3,768207729e-01    1,245770454e-01   -7,395970076e-02    0,000000000e+00    0,000000000e+00    0,000000000e+00    0,000000000e+00
     1150000000   -1,580422223e-01   -4,262824655e-01    1,382894963e-01   -1,514492929e-01    0,000000000e+00    0,000000000e+00    0,000000000e+00    0,000000000e+00
     1164000000   -3,799264431e-01   -3,275305033e-01    1,004000530e-01   -2,799997628e-01    0,000000000e+00    0,000000000e+00    0,000000000e+00    0,000000000e+00
     1178000000   -4,652991593e-01   -8,460071683e-02   -1,058533862e-01   -4,044183493e-01    0,000000000e+00    0,000000000e+00    0,000000000e+00    0,000000000e+00
     1192000000   -3,720627725e-01    3,335436061e-02   -4,644626081e-01   -1,958869845e-01    0,000000000e+00    0,000000000e+00    0,000000000e+00    0,000000000e+00
     1206000000   -4,135867953e-01    1,322319955e-01   -2,730433345e-01    2,360644341e-01    0,000000000e+00    0,000000000e+00    0,000000000e+00    0,000000000e+00
     1220000000   -2,729703784e-01    3,296498060e-01   -1,190575538e-03    1,634376794e-01    0,000000000e+00    0,000000000e+00    0,000000000e+00    0,000000000e+00
     1234000000   -4,767317325e-02    3,528452218e-01    2,312606014e-02    5,851889774e-02    0,000000000e+00    0,000000000e+00    0,000000000e+00    0,000000000e+00
     1248000000    1,229499355e-01    2,442605644e-01    2,408134053e-03    2,426547743e-02    0,000000000e+00    0,000000000e+00    0,000000000e+00    0,000000000e+00
     1262000000    2,091906965e-01    1,050880551e-01    1,268025837e-03    2,884996869e-02    0,000000000e+00    0,000000000e+00    0,000000000e+00    0,000000000e+00
     1276000000    2,392322868e-01   -5,849837884e-02    2,995461784e-02    3,672569245e-02    0,000000000e+00    0,000000000e+00    0,000000000e+00    0,000000000e+00
     1290000000    1,892678887e-01   -2,204955965e-01    4,863350466e-02    2,280663513e-02    0,000000000e+00    0,000000000e+00    0,000000000e+00    0,000000000e+00
     1304000000    8,412114531e-02   -3,594098687e-01    7,747410238e-02    4,430718254e-04    0,000000000e+00    0,000000000e+00    0,000000000e+00    0,000000000e+00
     1318000000   -1,031282023e-01   -4,500862062e-01    8,190810680e-02   -8,620562032e-03    0,000000000e+00    0,000000000e+00    0,000000000e+00    0,000000000e+00
     1332000000   -3,539722860e-01   -4,362506568e-01    9,118457139e-02   -1,403939165e-02    0,000000000e+00    0,000000000e+00    0,000000000e+00    0,000000000e+00
     1346000000   -5,923956633e-01   -2,475740761e-01    9,697193652e-02   -9,212035686e-03    0,000000000e+00    0,000000000e+00    0,000000000e+00    0,000000000e+00
     1360000000   -6,463397145e-01    6,862387061e-02    1,443907171e-01   -1,435709465e-02    0,000000000e+00    0,000000000e+00    0,000000000e+00    0,000000000e+00
     1374000000   -4,920217097e-01    3,293919861e-01    1,557184011e-01   -5,502293259e-02    0,000000000e+00    0,000000000e+00    0,000000000e+00    0,000000000e+00
     1388000000   -2,536922097e-01    4,259945750e-01    1,595195830e-01   -8,595345169e-02    0,000000000e+00    0,000000000e+00    0,000000000e+00    0,000000000e+00
     1402000000   -4,080608860e-02    3,868417144e-01    1,351229697e-01   -1,047356576e-01    0,000000000e+00    0,000000000e+00    0,000000000e+00    0,000000000e+00
     1416000000    1,021983847e-01    2,838607728e-01    1,265163273e-01   -9,269451350e-02    0,000000000e+00    0,000000000e+00    0,000000000e+00    0,000000000e+00
     1430000000    1,877274811e-01    1,538041383e-01    1,034902334e-01   -5,884344131e-02    0,000000000e+00    0,000000000e+00    0,000000000e+00    0,000000000e+00
     1444000000    2,135531008e-01   -1,276658662e-02    1,138652191e-01   -3,401957452e-02    0,000000000e+00    0,000000000e+00    0,000000000e+00    0,000000000e+00
     1458000000    1,793338805e-01   -1,820788980e-01    1,460019350e-01    1,304229815e-02    0,000000000e+00    0,000000000e+00    0,000000000e+00    0,000000000e+00
     1472000000    6,337214261e-02   -3,447166681e-01    1,820638925e-01    6,234645098e-02    0,000000000e+00    0,000000000e+00    0,000000000e+00    0,000000000e+00
     1486000000   -1,410543621e-01   -4,733972549e-01    2,965328693e-01    9,350477159e-02    0,000000000e+00    0,000000000e+00    0,000000000e+00    0,000000000e+00
     1500000000   -4,299027324e-01   -4,675771296e-01    4,131399691e-01    6,603278965e-02    0,000000000e+00    0,000000000e+00    0,000000000e+00    0,000000000e+00
