! NanoVNA-App
! Date: 2025-09-25 16:00:02
! Start: 100MHz Stop: 1,5GHz Points: 101
! S-Parameter data: F S11 S21 S12 S22
# Hz S RI R 50
!     Frequency           S11_Real           S11_Imag           S21_Real           S21_Imag           S12_Real           S12_Imag           S22_Real           S22_Imag
      100000000   -2,826568857e-02   -2,864539623e-03    3,722538948e-01   -7,224037647e-01    0,000000000e+00    0,000000000e+00    0,000000000e+00    0,000000000e+00
      114000000   -1,569947228e-02    1,290309709e-02   -9,140738845e-02   -8,046850562e-01    0,000000000e+00    0,000000000e+00    0,000000000e+00    0,000000000e+00
      128000000    4,387035035e-03    1,192292571e-02   -5,157236457e-01   -6,187811494e-01    0,000000000e+00    0,000000000e+00    0,000000000e+00    0,000000000e+00
      142000000    1,547880005e-02   -1,753644668e-03   -7,674848437e-01   -2,341271639e-01    0,000000000e+00    0,000000000e+00    0,000000000e+00    0,000000000e+00
      156000000    1,694370434e-02   -1,342603378e-02   -7,656796575e-01    2,261410952e-01    0,000000000e+00    0,000000000e+00    0,000000000e+00    0,000000000e+00
      170000000    1,770903915e-02   -2,101036347e-02   -5,154494047e-01    6,063420773e-01    0,000000000e+00    0,000000000e+00    0,000000000e+00    0,000000000e+00
      184000000    2,198608406e-02   -3,555998951e-02   -9,840507805e-02    7,861412168e-01    0,000000000e+00    0,000000000e+00    0,000000000e+00    0,000000000e+00
      198000000    1,400601398e-02   -6,065653637e-02    3,458603621e-01    7,108351588e-01    0,000000000e+00    0,000000000e+00    0,000000000e+00    0,000000000e+00
      212000000   -1,767354831e-02   -7,916185260e-02    6,805919409e-01    4,062056243e-01    0,000000000e+00    0,000000000e+00    0,000000000e+00    0,000000000e+00
      226000000   -6,028504670e-02   -6,661872566e-02    7,957489491e-01   -3,562584519e-02    0,000000000e+00    0,000000000e+00    0,000000000e+00    0,000000000e+00
      240000000   -8,052648604e-02   -2,272728086e-02    6,414575577e-01   -4,719770551e-01    0,000000000e+00    0,000000000e+00    0,000000000e+00    0,000000000e+00
      254000000   -6,080748886e-02    1,984877884e-02    2,709157765e-01   -7,418071628e-01    0,000000000e+00    0,000000000e+00    0,000000000e+00    0,000000000e+00
      268000000   -2,098337188e-02    3,084604628e-02   -1,812059432e-01   -7,606756687e-01    0,000000000e+00    0,000000000e+00    0,000000000e+00    0,000000000e+00
      282000000    6,943068001e-03    1,379600354e-02   -5,626235008e-01   -5,324971676e-01    0,000000000e+00    0,000000000e+00    0,000000000e+00    0,000000000e+00
      296000000    1,232099067e-02   -6,230669562e-03   -7,605378032e-01   -1,342359036e-01    0,000000000e+00    0,000000000e+00    0,000000000e+00    0,000000000e+00
      310000000    1,367469411e-02   -1,473978255e-02   -7,073612809e-01    3,038663864e-01    0,000000000e+00    0,000000000e+00    0,000000000e+00    0,000000000e+00
      324000000    2,259060368e-02   -2,470140159e-02   -4,218290746e-01    6,391949058e-01    0,000000000e+00    0,000000000e+00    0,000000000e+00    0,000000000e+00
      338000000    2,810024656e-02   -5,068937317e-02   -1,828976325e-03    7,572327852e-01    0,000000000e+00    0,000000000e+00    0,000000000e+00    0,000000000e+00
      352000000    9,969124570e-03   -8,288549632e-02    4,108632803e-01    6,341822147e-01    0,000000000e+00    0,000000000e+00    0,000000000e+00    0,000000000e+00
      366000000   -3,191727772e-02   -9,374553710e-02    6,933998466e-01    3,044154346e-01    0,000000000e+00    0,000000000e+00    0,000000000e+00    0,000000000e+00
      380000000   -6,755685061e-02   -6,867080182e-02    7,457699776e-01   -1,340426058e-01    0,000000000e+00    0,000000000e+00    0,000000000e+00    0,000000000e+00
      394000000   -6,835430115e-02   -3,067433089e-02    5,392317176e-01   -5,286177397e-01    0,000000000e+00    0,000000000e+00    0,000000000e+00    0,000000000e+00
      408000000   -4,276919737e-02   -1,554973982e-02    1,492568105e-01   -7,344157696e-01    0,000000000e+00    0,000000000e+00    0,000000000e+00    0,000000000e+00
      422000000   -2,616536990e-02   -3,123012744e-02   -2,797769904e-01   -6,891994476e-01    0,000000000e+00    0,000000000e+00    0,000000000e+00    0,000000000e+00
      436000000   -3,920485452e-02   -4,886088520e-02   -6,105743647e-01   -4,193417430e-01    0,000000000e+00    0,000000000e+00    0,000000000e+00    0,000000000e+00
      450000000   -6,477905065e-02   -3,886000440e-02   -7,373024225e-01   -7,267015055e-03    0,000000000e+00    0,000000000e+00    0,000000000e+00    0,000000000e+00
      464000000   -6,757581979e-02   -6,114746444e-03   -6,081665754e-01    4,060519934e-01    0,000000000e+00    0,000000000e+00    0,000000000e+00    0,000000000e+00
      478000000   -3,870580345e-02    1,591738686e-02   -2,678587139e-01    6,695830822e-01    0,000000000e+00    0,000000000e+00    0,000000000e+00    0,000000000e+00
      492000000   -4,946567584e-03    6,412356626e-03    1,525135785e-01    6,959663033e-01    0,000000000e+00    0,000000000e+00    0,000000000e+00    0,000000000e+00
      506000000    7,117270026e-03   -2,009460703e-02    5,079371333e-01    4,885616302e-01    0,000000000e+00    0,000000000e+00    0,000000000e+00    0,000000000e+00
      520000000    5,836064229e-04   -3,853104636e-02    6,897858381e-01    1,203110889e-01    0,000000000e+00    0,000000000e+00    0,000000000e+00    0,000000000e+00
      534000000   -3,057347611e-03   -4,575862363e-02    6,325432062e-01   -2,818755507e-01    0,000000000e+00    0,000000000e+00    0,000000000e+00    0,000000000e+00
      548000000    7,367893704e-04   -5,953586474e-02    3,598306477e-01   -5,798239112e-01    0,000000000e+00    0,000000000e+00    0,000000000e+00    0,000000000e+00
      562000000   -8,169352077e-03   -8,856459707e-02   -2,699695900e-02   -6,719665527e-01    0,000000000e+00    0,000000000e+00    0,000000000e+00    0,000000000e+00
      576000000   -4,548085853e-02   -1,100283787e-01   -4,013904035e-01   -5,389761329e-01    0,000000000e+00    0,000000000e+00    0,000000000e+00    0,000000000e+00
      590000000   -9,504821897e-02   -9,343528748e-02   -6,409575939e-01   -2,200360149e-01    0,000000000e+00    0,000000000e+00    0,000000000e+00    0,000000000e+00
      604000000   -1,117065996e-01   -4,115698859e-02   -6,471698284e-01    1,982671469e-01    0,000000000e+00    0,000000000e+00    0,000000000e+00    0,000000000e+00
      618000000   -7,613114268e-02   -2,233692911e-03   -4,014406800e-01    5,355519056e-01    0,000000000e+00    0,000000000e+00    0,000000000e+00    0,000000000e+00
      632000000   -3,030654788e-02   -2,156254835e-02   -1,174618490e-02    6,561745405e-01    0,000000000e+00    0,000000000e+00    0,000000000e+00    0,000000000e+00
      646000000   -3,660657629e-02   -7,642484456e-02    3,660342395e-01    5,277013183e-01    0,000000000e+00    0,000000000e+00    0,000000000e+00    0,000000000e+00
      660000000   -1,123420149e-01   -9,964169562e-02    6,012544632e-01    1,933050454e-01    0,000000000e+00    0,000000000e+00    0,000000000e+00    0,000000000e+00
      674000000   -2,006524950e-01   -2,377938107e-02    5,648141503e-01   -2,400402278e-01    0,000000000e+00    0,000000000e+00    0,000000000e+00    0,000000000e+00
      688000000   -1,793561131e-01    1,446292698e-01    2,087495476e-01   -5,216590166e-01    0,000000000e+00    0,000000000e+00    0,000000000e+00    0,000000000e+00
      702000000    2,641244046e-02    2,452549189e-01   -1,978381574e-01   -3,998271525e-01    0,000000000e+00    0,000000000e+00    0,000000000e+00    0,000000000e+00
      716000000    2,638383806e-01    1,109620035e-01   -2,729816437e-01   -8,311011642e-02    0,000000000e+00    0,000000000e+00    0,000000000e+00    0,000000000e+00
      730000000    3,030872643e-01   -1,860063523e-01   -1,063821390e-01    3,182873130e-02    0,000000000e+00    0,000000000e+00    0,000000000e+00    0,000000000e+00
      744000000    9,414990246e-02   -4,270716906e-01   -4,228096455e-02   -6,555808336e-02    0,000000000e+00    0,000000000e+00    0,000000000e+00    0,000000000e+00
      758000000   -2,594000697e-01   -4,304118454e-01   -1,759313643e-01   -1,256175786e-01    0,000000000e+00    0,000000000e+00    0,000000000e+00    0,000000000e+00
      772000000   -4,859599769e-01   -1,183061525e-01   -3,368285596e-01    3,818273172e-02    0,000000000e+00    0,000000000e+00    0,000000000e+00    0,000000000e+00
      786000000   -3,420556486e-01    2,220428735e-01   -2,625018060e-01    3,171962202e-01    0,000000000e+00    0,000000000e+00    0,000000000e+00    0,000000000e+00
      800000000   -4,132490978e-02    2,764271498e-01    3,470493248e-03    4,374435842e-01    0,000000000e+00    0,000000000e+00    0,000000000e+00    0,000000000e+00
      814000000    1,444035321e-01    1,248128191e-01    2,648471594e-01    3,598614931e-01    0,000000000e+00    0,000000000e+00    0,000000000e+00    0,000000000e+00
      828000000    1,682765037e-01   -7,053285092e-02    4,327405691e-01    1,564828753e-01    0,000000000e+00    0,000000000e+00    0,000000000e+00    0,000000000e+00
      842000000    6,798783690e-02   -2,184275836e-01    4,667074382e-01   -1,203697473e-01    0,000000000e+00    0,000000000e+00    0,000000000e+00    0,000000000e+00
      856000000   -1,067182347e-01   -2,642650902e-01    3,198838532e-01   -3,949998021e-01    0,000000000e+00    0,000000000e+00    0,000000000e+00    0,000000000e+00
      870000000   -2,757151127e-01   -1,683167964e-01   -2,664863598e-03   -5,268844366e-01    0,000000000e+00    0,000000000e+00    0,000000000e+00    0,000000000e+00
      884000000   -3,206366301e-01    3,511128575e-02   -3,472562134e-01   -3,921279907e-01    0,000000000e+00    0,000000000e+00    0,000000000e+00    0,000000000e+00
      898000000   -1,920756400e-01    2,061545551e-01   -4,888129830e-01   -6,307890266e-02    0,000000000e+00    0,000000000e+00    0,000000000e+00    0,000000000e+00
      912000000    6,635444704e-03    2,193317711e-01   -3,938781023e-01    2,672472000e-01    0,000000000e+00    0,000000000e+00    0,000000000e+00    0,000000000e+00
      926000000    1,485937089e-01    1,136639118e-01   -1,703297347e-01    4,170516431e-01    0,000000000e+00    0,000000000e+00    0,000000000e+00    0,000000000e+00
      940000000    2,005251646e-01   -4,518204927e-02    6,428940594e-02    4,267291725e-01    0,000000000e+00    0,000000000e+00    0,000000000e+00    0,000000000e+00
      954000000    1,556057930e-01   -2,014669180e-01    2,616214454e-01    3,405975997e-01    0,000000000e+00    0,000000000e+00    0,000000000e+00    0,000000000e+00
      968000000    2,641745470e-02   -3,146959841e-01    4,097495377e-01    1,765705496e-01    0,000000000e+00    0,000000000e+00    0,000000000e+00    0,000000000e+00
      982000000   -1,640176326e-01   -3,315467536e-01    4,734944999e-01   -6,661951542e-02    0,000000000e+00    0,000000000e+00    0,000000000e+00    0,000000000e+00
      996000000   -3,227470815e-01   -2,072962224e-01    3,685884178e-01   -3,560623229e-01    0,000000000e+00    0,000000000e+00    0,000000000e+00    0,000000000e+00
     1010000000   -3,407840431e-01   -9,717406705e-03    3,895471245e-02   -5,231626630e-01    0,000000000e+00    0,000000000e+00    0,000000000e+00    0,000000000e+00
     1024000000   -2,074197233e-01    9,486439824e-02   -3,456358910e-01   -3,806158602e-01    0,000000000e+00    0,000000000e+00    0,000000000e+00    0,000000000e+00
     1038000000   -1,333579868e-01    8,712632582e-03   -4,821285605e-01    6,528080255e-02    0,000000000e+00    0,000000000e+00    0,000000000e+00    0,000000000e+00
     1052000000   -2,929882407e-01    5,294706300e-02   -9,050620347e-02    3,726569712e-01    0,000000000e+00    0,000000000e+00    0,000000000e+00    0,000000000e+00
     1066000000   -1,432156861e-01    2,990741730e-01    1,423172802e-01    1,316733658e-01    0,000000000e+00    0,000000000e+00    0,000000000e+00    0,000000000e+00
     1080000000    9,826186299e-02    2,452243865e-01    9,071563184e-02    1,886886917e-02    0,000000000e+00    0,000000000e+00    0,000000000e+00    0,000000000e+00
     1094000000    2,224846035e-01    8,615002781e-02    6,900753081e-02    9,133547544e-03    0,000000000e+00    0,000000000e+00    0,000000000e+00    0,000000000e+00
     1108000000    2,461531460e-01   -8,740957826e-02    8,140696585e-02   -1,152744633e-03    0,000000000e+00    0,000000000e+00    0,000000000e+00    0,000000000e+00
     1122000000    1,826848239e-01   -2,534150779e-01    1,046249643e-01   -2,542488277e-02    0,000000000e+00    0,000000000e+00    0,000000000e+00    0,000000000e+00
     1136000000    4,681384563e-02   -3,757137358e-01    1,274212450e-01   -7,523380220e-02    0,000000000e+00    0,000000000e+00    0,000000000e+00    0,000000000e+00
     1150000000   -1,544447392e-01   -4,252981842e-01    1,386066079e-01   -1,521170586e-01    0,000000000e+00    0,000000000e+00    0,000000000e+00    0,000000000e+00
     1164000000   -3,829469979e-01   -3,253247142e-01    9,804949164e-02   -2,764406800e-01    0,000000000e+00    0,000000000e+00    0,000000000e+00    0,000000000e+00
     1178000000   -4,646886885e-01   -8,186519891e-02   -1,042918935e-01   -4,057847559e-01    0,000000000e+00    0,000000000e+00    0,000000000e+00    0,000000000e+00
     1192000000   -3,706224561e-01    3,460325673e-02   -4,631461203e-01   -1,972331405e-01    0,000000000e+00    0,000000000e+00    0,000000000e+00    0,000000000e+00
     1206000000   -4,123375118e-01    1,315342188e-01   -2,760279179e-01    2,326103598e-01    0,000000000e+00    0,000000000e+00    0,000000000e+00    0,000000000e+00
     1220000000   -2,788623273e-01    3,278957307e-01   -6,687577348e-03    1,641926318e-01    0,000000000e+00    0,000000000e+00    0,000000000e+00    0,000000000e+00
     1234000000   -4,527233914e-02    3,520803154e-01    2,579708211e-02    5,776966736e-02    0,000000000e+00    0,000000000e+00    0,000000000e+00    0,000000000e+00
     1248000000    1,206800565e-01    2,533856332e-01    1,914660563e-03    3,129046783e-02    0,000000000e+00    0,000000000e+00    0,000000000e+00    0,000000000e+00
     1262000000    2,170441300e-01    1,017803103e-01    5,456904415e-03    3,167217970e-02    0,000000000e+00    0,000000000e+00    0,000000000e+00    0,000000000e+00
     1276000000    2,375488132e-01   -5,554017425e-02    2,804103121e-02    3,942338750e-02    0,000000000e+00    0,000000000e+00    0,000000000e+00    0,000000000e+00
     1290000000    1,959833801e-01   -2,130543739e-01    5,679323897e-02    2,919625118e-02    0,000000000e+00    0,000000000e+00    0,000000000e+00    0,000000000e+00
     1304000000    8,401728421e-02   -3,573555052e-01    7,925806195e-02    6,234055385e-03    0,000000000e+00    0,000000000e+00    0,000000000e+00    0,000000000e+00
     1318000000   -1,047010422e-01   -4,474693835e-01    8,699983358e-02   -1,126885787e-02    0,000000000e+00    0,000000000e+00    0,000000000e+00    0,000000000e+00
     1332000000   -3,547777832e-01   -4,339451194e-01    9,070248902e-02   -1,531878766e-02    0,000000000e+00    0,000000000e+00    0,000000000e+00    0,000000000e+00
     1346000000   -5,945025086e-01   -2,457583398e-01    1,002308279e-01   -1,418873668e-02    0,000000000e+00    0,000000000e+00    0,000000000e+00    0,000000000e+00
     1360000000   -6,495274305e-01    7,163152099e-02    1,321593821e-01   -2,118942700e-02    0,000000000e+00    0,000000000e+00    0,000000000e+00    0,000000000e+00
     1374000000   -4,890242517e-01    3,290570676e-01    1,686976105e-01   -5,369718373e-02    0,000000000e+00    0,000000000e+00    0,000000000e+00    0,000000000e+00
     1388000000   -2,535413802e-01    4,310451150e-01    1,583739519e-01   -8,087985963e-02    0,000000000e+00    0,000000000e+00    0,000000000e+00    0,000000000e+00
     1402000000   -3,922666237e-02    3,931030631e-01    1,418726742e-01   -9,212443978e-02    0,000000000e+00    0,000000000e+00    0,000000000e+00    0,000000000e+00
     1416000000    1,023029983e-01    2,877086401e-01    1,226715371e-01   -7,720448077e-02    0,000000000e+00    0,000000000e+00    0,000000000e+00    0,000000000e+00
     1430000000    1,836489439e-01    1,499892622e-01    9,017685056e-02   -5,412431806e-02    0,000000000e+00    0,000000000e+00    0,000000000e+00    0,000000000e+00
     1444000000    2,121777534e-01   -1,461781561e-02    1,174273193e-01   -2,661432326e-02    0,000000000e+00    0,000000000e+00    0,000000000e+00    0,000000000e+00
     1458000000    1,827857941e-01   -1,844757348e-01    1,432444304e-01    1,370510738e-02    0,000000000e+00    0,000000000e+00    0,000000000e+00    0,000000000e+00
     1472000000    7,426089048e-02   -3,510203660e-01    2,033827156e-01    5,828370154e-02    0,000000000e+00    0,000000000e+00    0,000000000e+00    0,000000000e+00
     1486000000   -1,356547624e-01   -4,714690149e-01    3,067892790e-01    9,475217015e-02    0,000000000e+00    0,000000000e+00    0,000000000e+00    0,000000000e+00
     1500000000   -4,377107918e-01   -4,826503098e-01    3,991149068e-01    4,274236038e-02    0,000000000e+00    0,000000000e+00    0,000000000e+00    0,000000000e+00
