! NanoVNA-App
! Date: 2025-09-25 15:56:25
! Start: 100MHz Stop: 1,5GHz Points: 101
! S-Parameter data: F S11 S21 S12 S22
# Hz S RI R 50
!     Frequency           S11_Real           S11_Imag           S21_Real           S21_Imag           S12_Real           S12_Imag           S22_Real           S22_Imag
      100000000   -2,819334902e-02   -2,829758683e-03    3,722012043e-01   -7,224084139e-01    0,000000000e+00    0,000000000e+00    0,000000000e+00    0,000000000e+00
      114000000   -1,562446542e-02    1,288653724e-02   -9,142493457e-02   -8,047071695e-01    0,000000000e+00    0,000000000e+00    0,000000000e+00    0,000000000e+00
      128000000    4,460497759e-03    1,184540149e-02   -5,158373117e-01   -6,188012958e-01    0,000000000e+00    0,000000000e+00    0,000000000e+00    0,000000000e+00
      142000000    1,548925228e-02   -1,866341685e-03   -7,673151493e-01   -2,341045141e-01    0,000000000e+00    0,000000000e+00    0,000000000e+00    0,000000000e+00
      156000000    1,691066287e-02   -1,346096396e-02   -7,657421231e-01    2,262168676e-01    0,000000000e+00    0,000000000e+00    0,000000000e+00    0,000000000e+00
      170000000    1,766254753e-02   -2,101963200e-02   -5,155404210e-01    6,060893536e-01    0,000000000e+00    0,000000000e+00    0,000000000e+00    0,000000000e+00
      184000000    2,203174680e-02   -3,557576984e-02   -9,829527885e-02    7,859126329e-01    0,000000000e+00    0,000000000e+00    0,000000000e+00    0,000000000e+00
      198000000    1,401983947e-02   -6,066634133e-02    3,459326923e-01    7,106165290e-01    0,000000000e+00    0,000000000e+00    0,000000000e+00    0,000000000e+00
      212000000   -1,768000610e-02   -7,914429158e-02    6,805402040e-01    4,061957300e-01    0,000000000e+00    0,000000000e+00    0,000000000e+00    0,000000000e+00
      226000000   -6,031139940e-02   -6,669847667e-02    7,957444191e-01   -3,551790491e-02    0,000000000e+00    0,000000000e+00    0,000000000e+00    0,000000000e+00
      240000000   -8,057004958e-02   -2,288116515e-02    6,415426135e-01   -4,715989828e-01    0,000000000e+00    0,000000000e+00    0,000000000e+00    0,000000000e+00
      254000000   -6,080956385e-02    1,981190592e-02    2,710227966e-01   -7,417910099e-01    0,000000000e+00    0,000000000e+00    0,000000000e+00    0,000000000e+00
      268000000   -2,100665309e-02    3,084346652e-02   -1,808882803e-01   -7,606384158e-01    0,000000000e+00    0,000000000e+00    0,000000000e+00    0,000000000e+00
      282000000    6,858191453e-03    1,377336588e-02   -5,631941557e-01   -5,326371193e-01    0,000000000e+00    0,000000000e+00    0,000000000e+00    0,000000000e+00
      296000000    1,224587113e-02   -6,279928610e-03   -7,603070736e-01   -1,343972832e-01    0,000000000e+00    0,000000000e+00    0,000000000e+00    0,000000000e+00
      310000000    1,373665407e-02   -1,453207806e-02   -7,075513601e-01    3,031858802e-01    0,000000000e+00    0,000000000e+00    0,000000000e+00    0,000000000e+00
      324000000    2,239644714e-02   -2,465651184e-02   -4,210302532e-01    6,394646168e-01    0,000000000e+00    0,000000000e+00    0,000000000e+00    0,000000000e+00
      338000000    2,817941643e-02   -5,077041313e-02   -1,854332164e-03    7,606709003e-01    0,000000000e+00    0,000000000e+00    0,000000000e+00    0,000000000e+00
      352000000    1,026779972e-02   -8,298687637e-02    4,120381773e-01    6,352187395e-01    0,000000000e+00    0,000000000e+00    0,000000000e+00    0,000000000e+00
      366000000   -3,169786558e-02   -9,383475780e-02    6,934307218e-01    3,043746650e-01    0,000000000e+00    0,000000000e+00    0,000000000e+00    0,000000000e+00
      380000000   -6,763190776e-02   -6,886257231e-02    7,456132174e-01   -1,344221383e-01    0,000000000e+00    0,000000000e+00    0,000000000e+00    0,000000000e+00
      394000000   -6,850247830e-02   -3,065717965e-02    5,397533774e-01   -5,280951262e-01    0,000000000e+00    0,000000000e+00    0,000000000e+00    0,000000000e+00
      408000000   -4,292328656e-02   -1,558436360e-02    1,511210054e-01   -7,341321707e-01    0,000000000e+00    0,000000000e+00    0,000000000e+00    0,000000000e+00
      422000000   -2,624194883e-02   -3,118622862e-02   -2,792493105e-01   -6,900071502e-01    0,000000000e+00    0,000000000e+00    0,000000000e+00    0,000000000e+00
      436000000   -3,911690414e-02   -4,878535122e-02   -6,105703115e-01   -4,201063216e-01    0,000000000e+00    0,000000000e+00    0,000000000e+00    0,000000000e+00
      450000000   -6,449604034e-02   -3,928579763e-02   -7,367895246e-01   -7,597811986e-03    0,000000000e+00    0,000000000e+00    0,000000000e+00    0,000000000e+00
      464000000   -6,742726266e-02   -6,360324100e-03   -6,074321270e-01    4,061292708e-01    0,000000000e+00    0,000000000e+00    0,000000000e+00    0,000000000e+00
      478000000   -3,864271194e-02    1,618935727e-02   -2,678571641e-01    6,698420644e-01    0,000000000e+00    0,000000000e+00    0,000000000e+00    0,000000000e+00
      492000000   -5,288653541e-03    6,535893306e-03    1,511499584e-01    6,954409480e-01    0,000000000e+00    0,000000000e+00    0,000000000e+00    0,000000000e+00
      506000000    6,734722760e-03   -2,024023607e-02    5,079813600e-01    4,885200858e-01    0,000000000e+00    0,000000000e+00    0,000000000e+00    0,000000000e+00
      520000000    1,216875738e-03   -3,870702162e-02    6,903589964e-01    1,221333817e-01    0,000000000e+00    0,000000000e+00    0,000000000e+00    0,000000000e+00
      534000000   -3,370361635e-03   -4,552057385e-02    6,328291297e-01   -2,821911871e-01    0,000000000e+00    0,000000000e+00    0,000000000e+00    0,000000000e+00
      548000000    9,452367667e-04   -5,992788076e-02    3,596892059e-01   -5,794545412e-01    0,000000000e+00    0,000000000e+00    0,000000000e+00    0,000000000e+00
      562000000   -7,745791227e-03   -8,895355463e-02   -2,612468041e-02   -6,721346974e-01    0,000000000e+00    0,000000000e+00    0,000000000e+00    0,000000000e+00
      576000000   -4,548998177e-02   -1,093566045e-01   -4,008501470e-01   -5,390179753e-01    0,000000000e+00    0,000000000e+00    0,000000000e+00    0,000000000e+00
      590000000   -9,494499117e-02   -9,355700761e-02   -6,415805817e-01   -2,168710232e-01    0,000000000e+00    0,000000000e+00    0,000000000e+00    0,000000000e+00
      604000000   -1,118010506e-01   -4,148060828e-02   -6,477269530e-01    1,980981976e-01    0,000000000e+00    0,000000000e+00    0,000000000e+00    0,000000000e+00
      618000000   -7,574626058e-02   -1,979576889e-03   -4,020703435e-01    5,360386372e-01    0,000000000e+00    0,000000000e+00    0,000000000e+00    0,000000000e+00
      632000000   -2,980142273e-02   -2,141582780e-02   -1,170876157e-02    6,557117105e-01    0,000000000e+00    0,000000000e+00    0,000000000e+00    0,000000000e+00
      646000000   -3,696831316e-02   -7,665432245e-02    3,658182621e-01    5,273229480e-01    0,000000000e+00    0,000000000e+00    0,000000000e+00    0,000000000e+00
      660000000   -1,111088693e-01   -9,945534915e-02    6,007903218e-01    1,931932271e-01    0,000000000e+00    0,000000000e+00    0,000000000e+00    0,000000000e+00
      674000000   -1,993103474e-01   -2,427841537e-02    5,651886463e-01   -2,401657850e-01    0,000000000e+00    0,000000000e+00    0,000000000e+00    0,000000000e+00
      688000000   -1,793426573e-01    1,446405649e-01    2,092070878e-01   -5,219330192e-01    0,000000000e+00    0,000000000e+00    0,000000000e+00    0,000000000e+00
      702000000    2,646144666e-02    2,490174770e-01   -2,026107311e-01   -4,032554328e-01    0,000000000e+00    0,000000000e+00    0,000000000e+00    0,000000000e+00
      716000000    2,638018131e-01    1,106644124e-01   -2,723486423e-01   -8,329503983e-02    0,000000000e+00    0,000000000e+00    0,000000000e+00    0,000000000e+00
      730000000    3,035755754e-01   -1,866017729e-01   -1,064879745e-01    3,185092285e-02    0,000000000e+00    0,000000000e+00    0,000000000e+00    0,000000000e+00
      744000000    9,446242452e-02   -4,273013175e-01   -4,239575565e-02   -6,588696688e-02    0,000000000e+00    0,000000000e+00    0,000000000e+00    0,000000000e+00
      758000000   -2,595781684e-01   -4,298984110e-01   -1,759164184e-01   -1,257469505e-01    0,000000000e+00    0,000000000e+00    0,000000000e+00    0,000000000e+00
      772000000   -4,849986434e-01   -1,184533462e-01   -3,366801739e-01    3,850785270e-02    0,000000000e+00    0,000000000e+00    0,000000000e+00    0,000000000e+00
      786000000   -3,402209580e-01    2,211205959e-01   -2,626447082e-01    3,176525235e-01    0,000000000e+00    0,000000000e+00    0,000000000e+00    0,000000000e+00
      800000000   -4,066839442e-02    2,768523097e-01    2,832180355e-03    4,366631210e-01    0,000000000e+00    0,000000000e+00    0,000000000e+00    0,000000000e+00
      814000000    1,439135969e-01    1,255452931e-01    2,646075785e-01    3,594809473e-01    0,000000000e+00    0,000000000e+00    0,000000000e+00    0,000000000e+00
      828000000    1,679852754e-01   -6,989221275e-02    4,330990016e-01    1,573126018e-01    0,000000000e+00    0,000000000e+00    0,000000000e+00    0,000000000e+00
      842000000    6,751773506e-02   -2,176025510e-01    4,668355882e-01   -1,200294569e-01    0,000000000e+00    0,000000000e+00    0,000000000e+00    0,000000000e+00
      856000000   -1,067888513e-01   -2,633806765e-01    3,199107349e-01   -3,945864439e-01    0,000000000e+00    0,000000000e+00    0,000000000e+00    0,000000000e+00
      870000000   -2,755827010e-01   -1,684732139e-01   -2,867488656e-03   -5,264384747e-01    0,000000000e+00    0,000000000e+00    0,000000000e+00    0,000000000e+00
      884000000   -3,196806014e-01    3,622885793e-02   -3,480106890e-01   -3,922118247e-01    0,000000000e+00    0,000000000e+00    0,000000000e+00    0,000000000e+00
      898000000   -1,924914867e-01    2,065154165e-01   -4,891537726e-01   -6,233728677e-02    0,000000000e+00    0,000000000e+00    0,000000000e+00    0,000000000e+00
      912000000    7,064063568e-03    2,192453891e-01   -3,986408114e-01    2,651274204e-01    0,000000000e+00    0,000000000e+00    0,000000000e+00    0,000000000e+00
      926000000    1,513498276e-01    1,126972213e-01   -1,669962257e-01    4,149741828e-01    0,000000000e+00    0,000000000e+00    0,000000000e+00    0,000000000e+00
      940000000    1,971603483e-01   -4,697911441e-02    6,210353971e-02    4,251065552e-01    0,000000000e+00    0,000000000e+00    0,000000000e+00    0,000000000e+00
      954000000    1,525046676e-01   -2,006814480e-01    2,608725131e-01    3,436567485e-01    0,000000000e+00    0,000000000e+00    0,000000000e+00    0,000000000e+00
      968000000    2,298614383e-02   -3,139439821e-01    4,107952714e-01    1,791041493e-01    0,000000000e+00    0,000000000e+00    0,000000000e+00    0,000000000e+00
      982000000   -1,625014991e-01   -3,341558278e-01    4,736630917e-01   -6,820394844e-02    0,000000000e+00    0,000000000e+00    0,000000000e+00    0,000000000e+00
      996000000   -3,250142038e-01   -2,127482891e-01    3,674331605e-01   -3,559628427e-01    0,000000000e+00    0,000000000e+00    0,000000000e+00    0,000000000e+00
     1010000000   -3,430588543e-01   -5,490501877e-03    4,424920678e-02   -5,239784122e-01    0,000000000e+00    0,000000000e+00    0,000000000e+00    0,000000000e+00
     1024000000   -2,089176029e-01    9,235277027e-02   -3,446477652e-01   -3,822391629e-01    0,000000000e+00    0,000000000e+00    0,000000000e+00    0,000000000e+00
     1038000000   -1,336437613e-01    1,206469536e-02   -4,822721779e-01    6,175254658e-02    0,000000000e+00    0,000000000e+00    0,000000000e+00    0,000000000e+00
     1052000000   -2,850544453e-01    4,972296208e-02   -9,775686264e-02    3,737478256e-01    0,000000000e+00    0,000000000e+00    0,000000000e+00    0,000000000e+00
     1066000000   -1,525530815e-01    2,960091531e-01    1,428261697e-01    1,309635341e-01    0,000000000e+00    0,000000000e+00    0,000000000e+00    0,000000000e+00
     1080000000    9,651764482e-02    2,471785098e-01    9,308399260e-02    2,145270258e-02    0,000000000e+00    0,000000000e+00    0,000000000e+00    0,000000000e+00
     1094000000    2,214391679e-01    9,321017563e-02    7,081069797e-02    8,661894128e-03    0,000000000e+00    0,000000000e+00    0,000000000e+00    0,000000000e+00
     1108000000    2,396568656e-01   -8,445673436e-02    7,995420694e-02   -1,379117486e-03    0,000000000e+00    0,000000000e+00    0,000000000e+00    0,000000000e+00
     1122000000    1,869384348e-01   -2,490085959e-01    1,048245355e-01   -2,842895873e-02    0,000000000e+00    0,000000000e+00    0,000000000e+00    0,000000000e+00
     1136000000    4,575594515e-02   -3,747479916e-01    1,268168241e-01   -7,627677917e-02    0,000000000e+00    0,000000000e+00    0,000000000e+00    0,000000000e+00
     1150000000   -1,577374190e-01   -4,243092239e-01    1,375705302e-01   -1,519822925e-01    0,000000000e+00    0,000000000e+00    0,000000000e+00    0,000000000e+00
     1164000000   -3,765700161e-01   -3,297255337e-01    9,608515352e-02   -2,762553692e-01    0,000000000e+00    0,000000000e+00    0,000000000e+00    0,000000000e+00
     1178000000   -4,631674588e-01   -8,654945344e-02   -1,050178781e-01   -4,019680619e-01    0,000000000e+00    0,000000000e+00    0,000000000e+00    0,000000000e+00
     1192000000   -3,764476776e-01    3,710348904e-02   -4,627845883e-01   -1,974980235e-01    0,000000000e+00    0,000000000e+00    0,000000000e+00    0,000000000e+00
     1206000000   -4,179244637e-01    1,305653751e-01   -2,770842612e-01    2,346251607e-01    0,000000000e+00    0,000000000e+00    0,000000000e+00    0,000000000e+00
     1220000000   -2,755320668e-01    3,247932792e-01   -2,688669367e-03    1,596824527e-01    0,000000000e+00    0,000000000e+00    0,000000000e+00    0,000000000e+00
     1234000000   -4,585834965e-02    3,537066877e-01    2,112318203e-02    5,483187735e-02    0,000000000e+00    0,000000000e+00    0,000000000e+00    0,000000000e+00
     1248000000    1,168350428e-01    2,484992594e-01   -2,919846680e-03    2,558154613e-02    0,000000000e+00    0,000000000e+00    0,000000000e+00    0,000000000e+00
     1262000000    2,100543678e-01    9,976243228e-02    5,018342286e-03    3,042070381e-02    0,000000000e+00    0,000000000e+00    0,000000000e+00    0,000000000e+00
     1276000000    2,330082655e-01   -5,597372726e-02    2,703731693e-02    3,700254858e-02    0,000000000e+00    0,000000000e+00    0,000000000e+00    0,000000000e+00
     1290000000    1,945927441e-01   -2,134738266e-01    6,048008800e-02    2,388147824e-02    0,000000000e+00    0,000000000e+00    0,000000000e+00    0,000000000e+00
     1304000000    8,353354037e-02   -3,538735211e-01    7,505025715e-02    9,728892706e-03    0,000000000e+00    0,000000000e+00    0,000000000e+00    0,000000000e+00
     1318000000   -1,051438153e-01   -4,494140744e-01    8,107392490e-02   -1,405818015e-02    0,000000000e+00    0,000000000e+00    0,000000000e+00    0,000000000e+00
     1332000000   -3,536495864e-01   -4,292022586e-01    8,803638816e-02   -1,091595553e-02    0,000000000e+00    0,000000000e+00    0,000000000e+00    0,000000000e+00
     1346000000   -5,901777744e-01   -2,442253828e-01    1,153294221e-01   -9,485603310e-03    0,000000000e+00    0,000000000e+00    0,000000000e+00    0,000000000e+00
     1360000000   -6,525898576e-01    6,785304099e-02    1,254576892e-01   -1,919704676e-02    0,000000000e+00    0,000000000e+00    0,000000000e+00    0,000000000e+00
     1374000000   -4,962247014e-01    3,283178210e-01    1,583115011e-01   -5,096928403e-02    0,000000000e+00    0,000000000e+00    0,000000000e+00    0,000000000e+00
     1388000000   -2,502525747e-01    4,238361418e-01    1,566470563e-01   -9,048300236e-02    0,000000000e+00    0,000000000e+00    0,000000000e+00    0,000000000e+00
     1402000000   -4,424055293e-02    3,924962580e-01    1,355524063e-01   -9,002706409e-02    0,000000000e+00    0,000000000e+00    0,000000000e+00    0,000000000e+00
     1416000000    1,030734926e-01    2,811349332e-01    1,167364791e-01   -9,196700156e-02    0,000000000e+00    0,000000000e+00    0,000000000e+00    0,000000000e+00
     1430000000    1,899639815e-01    1,541232318e-01    1,232635975e-01   -4,169759154e-02    0,000000000e+00    0,000000000e+00    0,000000000e+00    0,000000000e+00
     1444000000    2,191239446e-01   -1,244647056e-02    1,306416243e-01   -1,722198166e-02    0,000000000e+00    0,000000000e+00    0,000000000e+00    0,000000000e+00
     1458000000    1,832175404e-01   -1,810808778e-01    1,530557722e-01    2,398887463e-02    0,000000000e+00    0,000000000e+00    0,000000000e+00    0,000000000e+00
     1472000000    6,987921894e-02   -3,509542942e-01    2,039485574e-01    5,285785720e-02    0,000000000e+00    0,000000000e+00    0,000000000e+00    0,000000000e+00
     1486000000   -1,349355727e-01   -4,725739062e-01    2,964901030e-01    9,884303063e-02    0,000000000e+00    0,000000000e+00    0,000000000e+00    0,000000000e+00
     1500000000   -4,434348047e-01   -4,943030179e-01    4,213190079e-01    4,067834839e-02    0,000000000e+00    0,000000000e+00    0,000000000e+00    0,000000000e+00
