! NanoVNA-App
! Date: 2025-09-25 15:57:27
! Start: 100MHz Stop: 1,5GHz Points: 101
! S-Parameter data: F S11 S21 S12 S22
# Hz S RI R 50
!     Frequency           S11_Real           S11_Imag           S21_Real           S21_Imag           S12_Real           S12_Imag           S22_Real           S22_Imag
      100000000   -2,822257206e-02   -2,850893652e-03    3,722416162e-01   -7,224388719e-01    0,000000000e+00    0,000000000e+00    0,000000000e+00    0,000000000e+00
      114000000   -1,563458145e-02    1,287805755e-02   -9,121615440e-02   -8,046131134e-01    0,000000000e+00    0,000000000e+00    0,000000000e+00    0,000000000e+00
      128000000    4,404299427e-03    1,189309917e-02   -5,158593059e-01   -6,187949181e-01    0,000000000e+00    0,000000000e+00    0,000000000e+00    0,000000000e+00
      142000000    1,549239177e-02   -1,824134262e-03   -7,674293518e-01   -2,342160344e-01    0,000000000e+00    0,000000000e+00    0,000000000e+00    0,000000000e+00
      156000000    1,575140841e-02   -1,288828999e-02   -7,634318471e-01    2,219274193e-01    0,000000000e+00    0,000000000e+00    0,000000000e+00    0,000000000e+00
      170000000    1,762675866e-02   -2,102773637e-02   -5,154261589e-01    6,060805321e-01    0,000000000e+00    0,000000000e+00    0,000000000e+00    0,000000000e+00
      184000000    2,201669291e-02   -3,557847440e-02   -9,813946486e-02    7,860269547e-01    0,000000000e+00    0,000000000e+00    0,000000000e+00    0,000000000e+00
      198000000    1,396112237e-02   -6,060222909e-02    3,459594846e-01    7,107551694e-01    0,000000000e+00    0,000000000e+00    0,000000000e+00    0,000000000e+00
      212000000   -1,766692847e-02   -7,916229963e-02    6,805278063e-01    4,063216746e-01    0,000000000e+00    0,000000000e+00    0,000000000e+00    0,000000000e+00
      226000000   -6,035945192e-02   -6,668420136e-02    7,958100438e-01   -3,562213480e-02    0,000000000e+00    0,000000000e+00    0,000000000e+00    0,000000000e+00
      240000000   -8,050309122e-02   -2,265533805e-02    6,415364146e-01   -4,718730748e-01    0,000000000e+00    0,000000000e+00    0,000000000e+00    0,000000000e+00
      254000000   -6,076715887e-02    1,985592581e-02    2,709654570e-01   -7,422243357e-01    0,000000000e+00    0,000000000e+00    0,000000000e+00    0,000000000e+00
      268000000   -2,095296234e-02    3,088673018e-02   -1,812685430e-01   -7,606929541e-01    0,000000000e+00    0,000000000e+00    0,000000000e+00    0,000000000e+00
      282000000    6,889388431e-03    1,377101056e-02   -5,635183454e-01   -5,325841904e-01    0,000000000e+00    0,000000000e+00    0,000000000e+00    0,000000000e+00
      296000000    1,230306923e-02   -6,223619450e-03   -7,603754997e-01   -1,343134642e-01    0,000000000e+00    0,000000000e+00    0,000000000e+00    0,000000000e+00
      310000000    1,360662282e-02   -1,476684958e-02   -7,082321048e-01    3,031886220e-01    0,000000000e+00    0,000000000e+00    0,000000000e+00    0,000000000e+00
      324000000    2,242683433e-02   -2,471008711e-02   -4,221749306e-01    6,391820312e-01    0,000000000e+00    0,000000000e+00    0,000000000e+00    0,000000000e+00
      338000000    2,796847373e-02   -5,044928566e-02   -2,149426611e-03    7,577068806e-01    0,000000000e+00    0,000000000e+00    0,000000000e+00    0,000000000e+00
      352000000    1,013456285e-02   -8,293088526e-02    4,112012684e-01    6,344438195e-01    0,000000000e+00    0,000000000e+00    0,000000000e+00    0,000000000e+00
      366000000   -3,195405006e-02   -9,408023953e-02    6,926621795e-01    3,038454056e-01    0,000000000e+00    0,000000000e+00    0,000000000e+00    0,000000000e+00
      380000000   -6,767603755e-02   -6,908293068e-02    7,459095716e-01   -1,344003379e-01    0,000000000e+00    0,000000000e+00    0,000000000e+00    0,000000000e+00
      394000000   -6,855859607e-02   -3,031138144e-02    5,395172238e-01   -5,291194916e-01    0,000000000e+00    0,000000000e+00    0,000000000e+00    0,000000000e+00
      408000000   -4,278622195e-02   -1,550870948e-02    1,492867023e-01   -7,343787551e-01    0,000000000e+00    0,000000000e+00    0,000000000e+00    0,000000000e+00
      422000000   -2,622287907e-02   -3,103492595e-02   -2,792489827e-01   -6,893367171e-01    0,000000000e+00    0,000000000e+00    0,000000000e+00    0,000000000e+00
      436000000   -3,929459676e-02   -4,898255318e-02   -6,106650233e-01   -4,188346565e-01    0,000000000e+00    0,000000000e+00    0,000000000e+00    0,000000000e+00
      450000000   -6,472271681e-02   -3,936945274e-02   -7,367632985e-01   -7,660534233e-03    0,000000000e+00    0,000000000e+00    0,000000000e+00    0,000000000e+00
      464000000   -6,791286916e-02   -6,119414698e-03   -6,082066894e-01    4,061230421e-01    0,000000000e+00    0,000000000e+00    0,000000000e+00    0,000000000e+00
      478000000   -3,879181668e-02    1,628697477e-02   -2,678221464e-01    6,703863144e-01    0,000000000e+00    0,000000000e+00    0,000000000e+00    0,000000000e+00
      492000000   -5,335731898e-03    6,713981740e-03    1,514567137e-01    6,953483820e-01    0,000000000e+00    0,000000000e+00    0,000000000e+00    0,000000000e+00
      506000000    6,830662955e-03   -2,023602091e-02    5,079391003e-01    4,879711568e-01    0,000000000e+00    0,000000000e+00    0,000000000e+00    0,000000000e+00
      520000000    6,327065639e-04   -3,870745003e-02    6,883777380e-01    1,219501346e-01    0,000000000e+00    0,000000000e+00    0,000000000e+00    0,000000000e+00
      534000000   -3,199619707e-03   -4,535339773e-02    6,321272850e-01   -2,822659612e-01    0,000000000e+00    0,000000000e+00    0,000000000e+00    0,000000000e+00
      548000000    1,098189037e-03   -5,955464765e-02    3,605508506e-01   -5,789074898e-01    0,000000000e+00    0,000000000e+00    0,000000000e+00    0,000000000e+00
      562000000   -7,973008789e-03   -8,866364509e-02   -2,707137913e-02   -6,728795171e-01    0,000000000e+00    0,000000000e+00    0,000000000e+00    0,000000000e+00
      576000000   -4,530896991e-02   -1,092738211e-01   -4,015062451e-01   -5,381216407e-01    0,000000000e+00    0,000000000e+00    0,000000000e+00    0,000000000e+00
      590000000   -9,483336657e-02   -9,338076413e-02   -6,392546892e-01   -2,165906578e-01    0,000000000e+00    0,000000000e+00    0,000000000e+00    0,000000000e+00
      604000000   -1,116001457e-01   -4,147063941e-02   -6,475340128e-01    1,985264271e-01    0,000000000e+00    0,000000000e+00    0,000000000e+00    0,000000000e+00
      618000000   -7,592682540e-02   -2,024710178e-03   -4,022870958e-01    5,355172753e-01    0,000000000e+00    0,000000000e+00    0,000000000e+00    0,000000000e+00
      632000000   -3,043715842e-02   -2,122986689e-02   -1,153880451e-02    6,550567746e-01    0,000000000e+00    0,000000000e+00    0,000000000e+00    0,000000000e+00
      646000000   -3,686298430e-02   -7,735075057e-02    3,662093282e-01    5,268137455e-01    0,000000000e+00    0,000000000e+00    0,000000000e+00    0,000000000e+00
      660000000   -1,119547188e-01   -9,920017421e-02    6,004545093e-01    1,929594874e-01    0,000000000e+00    0,000000000e+00    0,000000000e+00    0,000000000e+00
      674000000   -2,004458606e-01   -2,329517715e-02    5,648014545e-01   -2,400047928e-01    0,000000000e+00    0,000000000e+00    0,000000000e+00    0,000000000e+00
      688000000   -1,793400347e-01    1,447302699e-01    2,087241709e-01   -5,215628147e-01    0,000000000e+00    0,000000000e+00    0,000000000e+00    0,000000000e+00
      702000000    2,527659573e-02    2,475020438e-01   -2,017018646e-01   -4,056561887e-01    0,000000000e+00    0,000000000e+00    0,000000000e+00    0,000000000e+00
      716000000    2,639670968e-01    1,108690947e-01   -2,718715072e-01   -8,280290663e-02    0,000000000e+00    0,000000000e+00    0,000000000e+00    0,000000000e+00
      730000000    3,039108217e-01   -1,868981421e-01   -1,064288616e-01    3,117790073e-02    0,000000000e+00    0,000000000e+00    0,000000000e+00    0,000000000e+00
      744000000    9,324347973e-02   -4,273420274e-01   -4,238122329e-02   -6,614362448e-02    0,000000000e+00    0,000000000e+00    0,000000000e+00    0,000000000e+00
      758000000   -2,598812878e-01   -4,281472564e-01   -1,762770265e-01   -1,258745342e-01    0,000000000e+00    0,000000000e+00    0,000000000e+00    0,000000000e+00
      772000000   -4,840721786e-01   -1,195980832e-01   -3,372422159e-01    3,834956139e-02    0,000000000e+00    0,000000000e+00    0,000000000e+00    0,000000000e+00
      786000000   -3,407438993e-01    2,220532298e-01   -2,632094324e-01    3,169143200e-01    0,000000000e+00    0,000000000e+00    0,000000000e+00    0,000000000e+00
      800000000   -4,047458619e-02    2,767052650e-01    3,709818702e-03    4,363852143e-01    0,000000000e+00    0,000000000e+00    0,000000000e+00    0,000000000e+00
      814000000    1,439093053e-01    1,253217608e-01    2,642967701e-01    3,594563901e-01    0,000000000e+00    0,000000000e+00    0,000000000e+00    0,000000000e+00
      828000000    1,675593257e-01   -7,055950910e-02    4,334499240e-01    1,566736996e-01    0,000000000e+00    0,000000000e+00    0,000000000e+00    0,000000000e+00
      842000000    6,716325134e-02   -2,179032862e-01    4,666678011e-01   -1,203774586e-01    0,000000000e+00    0,000000000e+00    0,000000000e+00    0,000000000e+00
      856000000   -1,063978672e-01   -2,641867101e-01    3,202274740e-01   -3,949015141e-01    0,000000000e+00    0,000000000e+00    0,000000000e+00    0,000000000e+00
      870000000   -2,743385136e-01   -1,674505919e-01   -2,973543014e-03   -5,263957381e-01    0,000000000e+00    0,000000000e+00    0,000000000e+00    0,000000000e+00
      884000000   -3,200663328e-01    3,522950783e-02   -3,483433425e-01   -3,929871619e-01    0,000000000e+00    0,000000000e+00    0,000000000e+00    0,000000000e+00
      898000000   -1,917388141e-01    2,063270658e-01   -4,884805679e-01   -6,311087310e-02    0,000000000e+00    0,000000000e+00    0,000000000e+00    0,000000000e+00
      912000000    7,444985211e-03    2,190041989e-01   -3,933701813e-01    2,719945014e-01    0,000000000e+00    0,000000000e+00    0,000000000e+00    0,000000000e+00
      926000000    1,492666453e-01    1,117709279e-01   -1,705787033e-01    4,151287377e-01    0,000000000e+00    0,000000000e+00    0,000000000e+00    0,000000000e+00
      940000000    1,986924410e-01   -4,422238842e-02    6,440014392e-02    4,253147542e-01    0,000000000e+00    0,000000000e+00    0,000000000e+00    0,000000000e+00
      954000000    1,516555995e-01   -2,012806684e-01    2,629503906e-01    3,408047557e-01    0,000000000e+00    0,000000000e+00    0,000000000e+00    0,000000000e+00
      968000000    2,655611746e-02   -3,143084347e-01    4,121623337e-01    1,811205894e-01    0,000000000e+00    0,000000000e+00    0,000000000e+00    0,000000000e+00
      982000000   -1,610056907e-01   -3,297678828e-01    4,744806886e-01   -6,608825177e-02    0,000000000e+00    0,000000000e+00    0,000000000e+00    0,000000000e+00
      996000000   -3,259879947e-01   -2,130989432e-01    3,673862517e-01   -3,559710681e-01    0,000000000e+00    0,000000000e+00    0,000000000e+00    0,000000000e+00
     1010000000   -3,433058858e-01   -6,829680875e-03    4,206145555e-02   -5,238578320e-01    0,000000000e+00    0,000000000e+00    0,000000000e+00    0,000000000e+00
     1024000000   -2,091533244e-01    9,094955772e-02   -3,443949223e-01   -3,807756007e-01    0,000000000e+00    0,000000000e+00    0,000000000e+00    0,000000000e+00
     1038000000   -1,356781423e-01    7,169060409e-03   -4,837569594e-01    6,433998048e-02    0,000000000e+00    0,000000000e+00    0,000000000e+00    0,000000000e+00
     1052000000   -2,918293178e-01    5,351962149e-02   -9,282832593e-02    3,724552095e-01    0,000000000e+00    0,000000000e+00    0,000000000e+00    0,000000000e+00
     1066000000   -1,454856098e-01    2,967956364e-01    1,412853897e-01    1,317668706e-01    0,000000000e+00    0,000000000e+00    0,000000000e+00    0,000000000e+00
     1080000000    9,981806576e-02    2,536838353e-01    9,358474612e-02    2,203913033e-02    0,000000000e+00    0,000000000e+00    0,000000000e+00    0,000000000e+00
     1094000000    2,169042677e-01    9,059689939e-02    6,960497051e-02    1,263884176e-02    0,000000000e+00    0,000000000e+00    0,000000000e+00    0,000000000e+00
     1108000000    2,441989481e-01   -8,605194092e-02    7,944807410e-02   -9,652393055e-05    0,000000000e+00    0,000000000e+00    0,000000000e+00    0,000000000e+00
     1122000000    1,835406870e-01   -2,476072907e-01    1,050345078e-01   -2,590112761e-02    0,000000000e+00    0,000000000e+00    0,000000000e+00    0,000000000e+00
     1136000000    4,854870960e-02   -3,752020299e-01    1,260630041e-01   -7,514546812e-02    0,000000000e+00    0,000000000e+00    0,000000000e+00    0,000000000e+00
     1150000000   -1,508814991e-01   -4,224312305e-01    1,352984309e-01   -1,550736129e-01    0,000000000e+00    0,000000000e+00    0,000000000e+00    0,000000000e+00
     1164000000   -3,799420893e-01   -3,269044459e-01    9,769596159e-02   -2,765077949e-01    0,000000000e+00    0,000000000e+00    0,000000000e+00    0,000000000e+00
     1178000000   -4,641652107e-01   -9,076578915e-02   -1,075141877e-01   -4,077455997e-01    0,000000000e+00    0,000000000e+00    0,000000000e+00    0,000000000e+00
     1192000000   -3,719598353e-01    3,658000007e-02   -4,636257291e-01   -2,004984766e-01    0,000000000e+00    0,000000000e+00    0,000000000e+00    0,000000000e+00
     1206000000   -4,190184772e-01    1,297069788e-01   -2,741854191e-01    2,369268090e-01    0,000000000e+00    0,000000000e+00    0,000000000e+00    0,000000000e+00
     1220000000   -2,755749822e-01    3,246466815e-01   -4,377183970e-03    1,602338552e-01    0,000000000e+00    0,000000000e+00    0,000000000e+00    0,000000000e+00
     1234000000   -4,319030046e-02    3,448972106e-01    2,759973519e-02    5,442646891e-02    0,000000000e+00    0,000000000e+00    0,000000000e+00    0,000000000e+00
     1248000000    1,186393648e-01    2,441944182e-01    5,459421314e-03    2,267054096e-02    0,000000000e+00    0,000000000e+00    0,000000000e+00    0,000000000e+00
     1262000000    2,135647684e-01    1,059136763e-01    9,738975787e-04    3,558248281e-02    0,000000000e+00    0,000000000e+00    0,000000000e+00    0,000000000e+00
     1276000000    2,369625866e-01   -5,883022025e-02    2,974561602e-02    3,601099178e-02    0,000000000e+00    0,000000000e+00    0,000000000e+00    0,000000000e+00
     1290000000    1,937842965e-01   -2,110438645e-01    5,898146331e-02    2,728848159e-02    0,000000000e+00    0,000000000e+00    0,000000000e+00    0,000000000e+00
     1304000000    8,381980658e-02   -3,553031385e-01    7,533044368e-02    5,766975693e-03    0,000000000e+00    0,000000000e+00    0,000000000e+00    0,000000000e+00
     1318000000   -9,938201308e-02   -4,481546283e-01    8,852171153e-02   -1,127166208e-02    0,000000000e+00    0,000000000e+00    0,000000000e+00    0,000000000e+00
     1332000000   -3,516333103e-01   -4,315735996e-01    9,337786585e-02   -1,198006049e-02    0,000000000e+00    0,000000000e+00    0,000000000e+00    0,000000000e+00
     1346000000   -5,873773694e-01   -2,480149418e-01    1,004562303e-01   -9,506982751e-03    0,000000000e+00    0,000000000e+00    0,000000000e+00    0,000000000e+00
     1360000000   -6,509270072e-01    7,051775604e-02    1,374797672e-01   -2,071765624e-02    0,000000000e+00    0,000000000e+00    0,000000000e+00    0,000000000e+00
     1374000000   -4,890542924e-01    3,326111138e-01    1,672651023e-01   -4,638483748e-02    0,000000000e+00    0,000000000e+00    0,000000000e+00    0,000000000e+00
     1388000000   -2,562486529e-01    4,245200753e-01    1,534405947e-01   -8,478048444e-02    0,000000000e+00    0,000000000e+00    0,000000000e+00    0,000000000e+00
     1402000000   -4,677271470e-02    3,928699791e-01    1,345704794e-01   -8,896662295e-02    0,000000000e+00    0,000000000e+00    0,000000000e+00    0,000000000e+00
     1416000000    1,022691727e-01    2,838294506e-01    1,247512102e-01   -8,794502169e-02    0,000000000e+00    0,000000000e+00    0,000000000e+00    0,000000000e+00
     1430000000    1,809183359e-01    1,432517171e-01    9,270340949e-02   -7,617444545e-02    0,000000000e+00    0,000000000e+00    0,000000000e+00    0,000000000e+00
     1444000000    2,131833434e-01   -6,396544166e-03    1,228804216e-01   -1,305099949e-02    0,000000000e+00    0,000000000e+00    0,000000000e+00    0,000000000e+00
     1458000000    1,817376614e-01   -1,844124943e-01    1,450978518e-01    1,321248896e-02    0,000000000e+00    0,000000000e+00    0,000000000e+00    0,000000000e+00
     1472000000    7,175466418e-02   -3,515764773e-01    2,083320767e-01    7,067413628e-02    0,000000000e+00    0,000000000e+00    0,000000000e+00    0,000000000e+00
     1486000000   -1,365890652e-01   -4,798151553e-01    2,993509173e-01    8,585786074e-02    0,000000000e+00    0,000000000e+00    0,000000000e+00    0,000000000e+00
     1500000000   -4,395425916e-01   -4,641767144e-01    4,102983773e-01    5,613090470e-02    0,000000000e+00    0,000000000e+00    0,000000000e+00    0,000000000e+00
