! NanoVNA-App
! Date: 2025-09-25 16:02:23
! Start: 100MHz Stop: 1,5GHz Points: 101
! S-Parameter data: F S11 S21 S12 S22
# Hz S RI R 50
!     Frequency           S11_Real           S11_Imag           S21_Real           S21_Imag           S12_Real           S12_Imag           S22_Real           S22_Imag
      100000000   -2,830564603e-02   -2,874864731e-03    3,722782731e-01   -7,224174738e-01    0,000000000e+00    0,000000000e+00    0,000000000e+00    0,000000000e+00
      114000000   -1,577573642e-02    1,291564293e-02   -9,125817567e-02   -8,048043251e-01    0,000000000e+00    0,000000000e+00    0,000000000e+00    0,000000000e+00
      128000000    4,388128873e-03    1,195751596e-02   -5,159289837e-01   -6,189621091e-01    0,000000000e+00    0,000000000e+00    0,000000000e+00    0,000000000e+00
      142000000    1,546796784e-02   -1,726319781e-03   -7,672557831e-01   -2,341905236e-01    0,000000000e+00    0,000000000e+00    0,000000000e+00    0,000000000e+00
      156000000    1,736135408e-02   -1,372328680e-02   -7,668734193e-01    2,269732803e-01    0,000000000e+00    0,000000000e+00    0,000000000e+00    0,000000000e+00
      170000000    1,765065454e-02   -2,093069069e-02   -5,152227283e-01    6,061652303e-01    0,000000000e+00    0,000000000e+00    0,000000000e+00    0,000000000e+00
      184000000    2,203167975e-02   -3,551939130e-02   -9,843603522e-02    7,863593698e-01    0,000000000e+00    0,000000000e+00    0,000000000e+00    0,000000000e+00
      198000000    1,403062325e-02   -6,062563136e-02    3,459741771e-01    7,104675770e-01    0,000000000e+00    0,000000000e+00    0,000000000e+00    0,000000000e+00
      212000000   -1,768803969e-02   -7,917265594e-02    6,806345582e-01    4,063901603e-01    0,000000000e+00    0,000000000e+00    0,000000000e+00    0,000000000e+00
      226000000   -6,028644368e-02   -6,665057689e-02    7,957314849e-01   -3,557950631e-02    0,000000000e+00    0,000000000e+00    0,000000000e+00    0,000000000e+00
      240000000   -8,050302416e-02   -2,274766006e-02    6,416535974e-01   -4,718045294e-01    0,000000000e+00    0,000000000e+00    0,000000000e+00    0,000000000e+00
      254000000   -6,075556949e-02    1,986349002e-02    2,714623809e-01   -7,416731715e-01    0,000000000e+00    0,000000000e+00    0,000000000e+00    0,000000000e+00
      268000000   -2,095297165e-02    3,087211587e-02   -1,814247221e-01   -7,609778643e-01    0,000000000e+00    0,000000000e+00    0,000000000e+00    0,000000000e+00
      282000000    6,964660250e-03    1,378674898e-02   -5,634945035e-01   -5,325524807e-01    0,000000000e+00    0,000000000e+00    0,000000000e+00    0,000000000e+00
      296000000    1,232327614e-02   -6,320944056e-03   -7,606430650e-01   -1,345096529e-01    0,000000000e+00    0,000000000e+00    0,000000000e+00    0,000000000e+00
      310000000    1,353980415e-02   -1,465719193e-02   -7,092266679e-01    3,033120930e-01    0,000000000e+00    0,000000000e+00    0,000000000e+00    0,000000000e+00
      324000000    2,255853824e-02   -2,466839924e-02   -4,218376875e-01    6,397796869e-01    0,000000000e+00    0,000000000e+00    0,000000000e+00    0,000000000e+00
      338000000    2,830649354e-02   -5,049302056e-02   -2,948073205e-03    7,595291734e-01    0,000000000e+00    0,000000000e+00    0,000000000e+00    0,000000000e+00
      352000000    1,040172018e-02   -8,305269480e-02    4,118975401e-01    6,346836686e-01    0,000000000e+00    0,000000000e+00    0,000000000e+00    0,000000000e+00
      366000000   -3,165679798e-02   -9,365756810e-02    6,927559376e-01    3,041953743e-01    0,000000000e+00    0,000000000e+00    0,000000000e+00    0,000000000e+00
      380000000   -6,768392771e-02   -6,868978590e-02    7,458729744e-01   -1,341013461e-01    0,000000000e+00    0,000000000e+00    0,000000000e+00    0,000000000e+00
      394000000   -6,850454956e-02   -3,075065836e-02    5,391971469e-01   -5,289828181e-01    0,000000000e+00    0,000000000e+00    0,000000000e+00    0,000000000e+00
      408000000   -4,250127450e-02   -1,546256244e-02    1,497028321e-01   -7,343358397e-01    0,000000000e+00    0,000000000e+00    0,000000000e+00    0,000000000e+00
      422000000   -2,617825940e-02   -3,084098175e-02   -2,800051868e-01   -6,891108155e-01    0,000000000e+00    0,000000000e+00    0,000000000e+00    0,000000000e+00
      436000000   -3,929082677e-02   -4,924551398e-02   -6,106531024e-01   -4,195420146e-01    0,000000000e+00    0,000000000e+00    0,000000000e+00    0,000000000e+00
      450000000   -6,461273879e-02   -3,930611163e-02   -7,371949553e-01   -7,725724950e-03    0,000000000e+00    0,000000000e+00    0,000000000e+00    0,000000000e+00
      464000000   -6,740498543e-02   -6,214078981e-03   -6,078451872e-01    4,069173634e-01    0,000000000e+00    0,000000000e+00    0,000000000e+00    0,000000000e+00
      478000000   -3,856463358e-02    1,640349627e-02   -2,675067782e-01    6,701324582e-01    0,000000000e+00    0,000000000e+00    0,000000000e+00    0,000000000e+00
      492000000   -5,186283495e-03    6,552363280e-03    1,514302939e-01    6,957924366e-01    0,000000000e+00    0,000000000e+00    0,000000000e+00    0,000000000e+00
      506000000    6,958965678e-03   -2,022719011e-02    5,082464218e-01    4,882889986e-01    0,000000000e+00    0,000000000e+00    0,000000000e+00    0,000000000e+00
      520000000    3,816427197e-04   -3,846583143e-02    6,881425381e-01    1,226225048e-01    0,000000000e+00    0,000000000e+00    0,000000000e+00    0,000000000e+00
      534000000   -3,252899507e-03   -4,550278187e-02    6,326471567e-01   -2,821937799e-01    0,000000000e+00    0,000000000e+00    0,000000000e+00    0,000000000e+00
      548000000    9,745648131e-04   -5,931164697e-02    3,600940406e-01   -5,790865421e-01    0,000000000e+00    0,000000000e+00    0,000000000e+00    0,000000000e+00
      562000000   -7,574312389e-03   -8,882024884e-02   -2,666043676e-02   -6,727673411e-01    0,000000000e+00    0,000000000e+00    0,000000000e+00    0,000000000e+00
      576000000   -4,548103362e-02   -1,097072512e-01   -4,012777209e-01   -5,389306545e-01    0,000000000e+00    0,000000000e+00    0,000000000e+00    0,000000000e+00
      590000000   -9,492005408e-02   -9,376803786e-02   -6,394585967e-01   -2,193474919e-01    0,000000000e+00    0,000000000e+00    0,000000000e+00    0,000000000e+00
      604000000   -1,118523106e-01   -4,117240012e-02   -6,482281685e-01    1,980660558e-01    0,000000000e+00    0,000000000e+00    0,000000000e+00    0,000000000e+00
      618000000   -7,611899078e-02   -2,020569053e-03   -4,019572139e-01    5,353087783e-01    0,000000000e+00    0,000000000e+00    0,000000000e+00    0,000000000e+00
      632000000   -2,964282781e-02   -2,100801840e-02   -1,092299446e-02    6,562099457e-01    0,000000000e+00    0,000000000e+00    0,000000000e+00    0,000000000e+00
      646000000   -3,649507836e-02   -7,727564871e-02    3,662896156e-01    5,277245641e-01    0,000000000e+00    0,000000000e+00    0,000000000e+00    0,000000000e+00
      660000000   -1,116503924e-01   -9,884383529e-02    6,008740067e-01    1,939221472e-01    0,000000000e+00    0,000000000e+00    0,000000000e+00    0,000000000e+00
      674000000   -1,998842806e-01   -2,332828194e-02    5,653998256e-01   -2,394927442e-01    0,000000000e+00    0,000000000e+00    0,000000000e+00    0,000000000e+00
      688000000   -1,781951487e-01    1,440454423e-01    2,092928290e-01   -5,224522352e-01    0,000000000e+00    0,000000000e+00    0,000000000e+00    0,000000000e+00
      702000000    2,504770085e-02    2,467488945e-01   -2,019528002e-01   -4,053783715e-01    0,000000000e+00    0,000000000e+00    0,000000000e+00    0,000000000e+00
      716000000    2,637111545e-01    1,111542732e-01   -2,738294899e-01   -8,382962644e-02    0,000000000e+00    0,000000000e+00    0,000000000e+00    0,000000000e+00
      730000000    3,040072024e-01   -1,852637678e-01   -1,079079062e-01    3,273939714e-02    0,000000000e+00    0,000000000e+00    0,000000000e+00    0,000000000e+00
      744000000    9,387052059e-02   -4,270584881e-01   -4,221747071e-02   -6,411579996e-02    0,000000000e+00    0,000000000e+00    0,000000000e+00    0,000000000e+00
      758000000   -2,583793700e-01   -4,311380386e-01   -1,747795641e-01   -1,254874766e-01    0,000000000e+00    0,000000000e+00    0,000000000e+00    0,000000000e+00
      772000000   -4,852586091e-01   -1,204865053e-01   -3,359568715e-01    3,845559806e-02    0,000000000e+00    0,000000000e+00    0,000000000e+00    0,000000000e+00
      786000000   -3,430151641e-01    2,213339955e-01   -2,630682588e-01    3,157340586e-01    0,000000000e+00    0,000000000e+00    0,000000000e+00    0,000000000e+00
      800000000   -3,979187459e-02    2,775964737e-01    2,595738741e-03    4,365651608e-01    0,000000000e+00    0,000000000e+00    0,000000000e+00    0,000000000e+00
      814000000    1,447898149e-01    1,254589260e-01    2,641761005e-01    3,600083590e-01    0,000000000e+00    0,000000000e+00    0,000000000e+00    0,000000000e+00
      828000000    1,681568623e-01   -7,019443810e-02    4,325049818e-01    1,565848142e-01    0,000000000e+00    0,000000000e+00    0,000000000e+00    0,000000000e+00
      842000000    6,726983935e-02   -2,186073363e-01    4,666066766e-01   -1,201769114e-01    0,000000000e+00    0,000000000e+00    0,000000000e+00    0,000000000e+00
      856000000   -1,072480604e-01   -2,637627125e-01    3,193797171e-01   -3,947098255e-01    0,000000000e+00    0,000000000e+00    0,000000000e+00    0,000000000e+00
      870000000   -2,744975984e-01   -1,676507741e-01   -2,683537081e-03   -5,270276666e-01    0,000000000e+00    0,000000000e+00    0,000000000e+00    0,000000000e+00
      884000000   -3,211031854e-01    3,643468767e-02   -3,488534689e-01   -3,914377093e-01    0,000000000e+00    0,000000000e+00    0,000000000e+00    0,000000000e+00
      898000000   -1,930176467e-01    2,070060223e-01   -4,896094203e-01   -6,245198846e-02    0,000000000e+00    0,000000000e+00    0,000000000e+00    0,000000000e+00
      912000000    6,945914589e-03    2,194822580e-01   -3,997953534e-01    2,795736492e-01    0,000000000e+00    0,000000000e+00    0,000000000e+00    0,000000000e+00
      926000000    1,500368118e-01    1,138259843e-01   -1,696969122e-01    4,166494906e-01    0,000000000e+00    0,000000000e+00    0,000000000e+00    0,000000000e+00
      940000000    1,965872943e-01   -4,474730045e-02    6,246433035e-02    4,243016839e-01    0,000000000e+00    0,000000000e+00    0,000000000e+00    0,000000000e+00
      954000000    1,546633244e-01   -1,997093111e-01    2,605308890e-01    3,419678211e-01    0,000000000e+00    0,000000000e+00    0,000000000e+00    0,000000000e+00
      968000000    2,396936715e-02   -3,172415793e-01    4,116266072e-01    1,794211566e-01    0,000000000e+00    0,000000000e+00    0,000000000e+00    0,000000000e+00
      982000000   -1,625877172e-01   -3,336336315e-01    4,738572240e-01   -6,811245531e-02    0,000000000e+00    0,000000000e+00    0,000000000e+00    0,000000000e+00
      996000000   -3,271187544e-01   -2,081362009e-01    3,647668362e-01   -3,569997549e-01    0,000000000e+00    0,000000000e+00    0,000000000e+00    0,000000000e+00
     1010000000   -3,381874561e-01   -7,270003669e-03    4,237764701e-02   -5,221104622e-01    0,000000000e+00    0,000000000e+00    0,000000000e+00    0,000000000e+00
     1024000000   -2,080155760e-01    9,129545838e-02   -3,465233147e-01   -3,811520636e-01    0,000000000e+00    0,000000000e+00    0,000000000e+00    0,000000000e+00
     1038000000   -1,349000186e-01    7,771535777e-03   -4,828826487e-01    6,494241953e-02    0,000000000e+00    0,000000000e+00    0,000000000e+00    0,000000000e+00
     1052000000   -2,863802910e-01    5,168394372e-02   -9,364612401e-02    3,721577525e-01    0,000000000e+00    0,000000000e+00    0,000000000e+00    0,000000000e+00
     1066000000   -1,500621736e-01    2,965708673e-01    1,438772082e-01    1,336544454e-01    0,000000000e+00    0,000000000e+00    0,000000000e+00    0,000000000e+00
     1080000000    1,037577391e-01    2,472709417e-01    9,038227051e-02    2,180021815e-02    0,000000000e+00    0,000000000e+00    0,000000000e+00    0,000000000e+00
     1094000000    2,243589759e-01    9,011420608e-02    6,804693490e-02    9,798353538e-03    0,000000000e+00    0,000000000e+00    0,000000000e+00    0,000000000e+00
     1108000000    2,409969270e-01   -8,975040913e-02    8,022996038e-02    7,919172640e-04    0,000000000e+00    0,000000000e+00    0,000000000e+00    0,000000000e+00
     1122000000    1,819584519e-01   -2,491922081e-01    1,051147357e-01   -2,283799462e-02    0,000000000e+00    0,000000000e+00    0,000000000e+00    0,000000000e+00
     1136000000    4,713353887e-02   -3,801784515e-01    1,274887174e-01   -7,142264396e-02    0,000000000e+00    0,000000000e+00    0,000000000e+00    0,000000000e+00
     1150000000   -1,533916146e-01   -4,198859334e-01    1,383167803e-01   -1,515705585e-01    0,000000000e+00    0,000000000e+00    0,000000000e+00    0,000000000e+00
     1164000000   -3,791408837e-01   -3,200900555e-01    9,962020069e-02   -2,769041061e-01    0,000000000e+00    0,000000000e+00    0,000000000e+00    0,000000000e+00
     1178000000   -4,611978829e-01   -9,181898832e-02   -1,025263369e-01   -4,076631069e-01    0,000000000e+00    0,000000000e+00    0,000000000e+00    0,000000000e+00
     1192000000   -3,750843406e-01    3,685336187e-02   -4,627400935e-01   -1,927163601e-01    0,000000000e+00    0,000000000e+00    0,000000000e+00    0,000000000e+00
     1206000000   -4,160366952e-01    1,312322468e-01   -2,750920653e-01    2,357918471e-01    0,000000000e+00    0,000000000e+00    0,000000000e+00    0,000000000e+00
     1220000000   -2,752340734e-01    3,258475661e-01   -5,335698836e-03    1,654245704e-01    0,000000000e+00    0,000000000e+00    0,000000000e+00    0,000000000e+00
     1234000000   -5,061678588e-02    3,520052433e-01    2,593536116e-02    5,315823853e-02    0,000000000e+00    0,000000000e+00    0,000000000e+00    0,000000000e+00
     1248000000    1,159930825e-01    2,464827895e-01    2,220656490e-03    2,333398163e-02    0,000000000e+00    0,000000000e+00    0,000000000e+00    0,000000000e+00
     1262000000    2,131517082e-01    1,068588197e-01    2,956973854e-03    3,308038041e-02    0,000000000e+00    0,000000000e+00    0,000000000e+00    0,000000000e+00
     1276000000    2,397690862e-01   -5,876592919e-02    2,936020494e-02    3,205451369e-02    0,000000000e+00    0,000000000e+00    0,000000000e+00    0,000000000e+00
     1290000000    1,909480691e-01   -2,168891579e-01    5,065709725e-02    2,706493624e-02    0,000000000e+00    0,000000000e+00    0,000000000e+00    0,000000000e+00
     1304000000    8,039288968e-02   -3,574093282e-01    7,414648682e-02    2,123304177e-03    0,000000000e+00    0,000000000e+00    0,000000000e+00    0,000000000e+00
     1318000000   -1,051325426e-01   -4,443679750e-01    8,075346798e-02   -1,038160641e-02    0,000000000e+00    0,000000000e+00    0,000000000e+00    0,000000000e+00
     1332000000   -3,491428792e-01   -4,345766008e-01    9,048662335e-02   -1,591079682e-02    0,000000000e+00    0,000000000e+00    0,000000000e+00    0,000000000e+00
     1346000000   -5,890063643e-01   -2,480838001e-01    1,050244421e-01   -2,967328299e-03    0,000000000e+00    0,000000000e+00    0,000000000e+00    0,000000000e+00
     1360000000   -6,510941982e-01    7,661569118e-02    1,431447715e-01   -8,324463852e-03    0,000000000e+00    0,000000000e+00    0,000000000e+00    0,000000000e+00
     1374000000   -4,891678989e-01    3,322169781e-01    1,699194014e-01   -4,814730585e-02    0,000000000e+00    0,000000000e+00    0,000000000e+00    0,000000000e+00
     1388000000   -2,569034994e-01    4,230142832e-01    1,571395397e-01   -8,992830664e-02    0,000000000e+00    0,000000000e+00    0,000000000e+00    0,000000000e+00
     1402000000   -4,345193505e-02    3,866666555e-01    1,472751796e-01   -1,019581109e-01    0,000000000e+00    0,000000000e+00    0,000000000e+00    0,000000000e+00
     1416000000    9,913273901e-02    2,935332060e-01    1,182593480e-01   -8,721309155e-02    0,000000000e+00    0,000000000e+00    0,000000000e+00    0,000000000e+00
     1430000000    1,852724999e-01    1,408087313e-01    9,214352071e-02   -7,923517376e-02    0,000000000e+00    0,000000000e+00    0,000000000e+00    0,000000000e+00
     1444000000    2,148536593e-01   -3,162695328e-03    1,230083257e-01   -1,363418158e-02    0,000000000e+00    0,000000000e+00    0,000000000e+00    0,000000000e+00
     1458000000    1,816874743e-01   -1,880281568e-01    1,470703483e-01    9,719690308e-03    0,000000000e+00    0,000000000e+00    0,000000000e+00    0,000000000e+00
     1472000000    6,311313063e-02   -3,527005613e-01    1,868585497e-01    6,027613208e-02    0,000000000e+00    0,000000000e+00    0,000000000e+00    0,000000000e+00
     1486000000   -1,418849379e-01   -4,709311426e-01    2,914558053e-01    1,093472317e-01    0,000000000e+00    0,000000000e+00    0,000000000e+00    0,000000000e+00
     1500000000   -4,361037612e-01   -4,747887254e-01    4,218880236e-01    5,193797126e-02    0,000000000e+00    0,000000000e+00    0,000000000e+00    0,000000000e+00
