! NanoVNA-App
! Date: 2025-09-25 16:01:47
! Start: 100MHz Stop: 1,5GHz Points: 101
! S-Parameter data: F S11 S21 S12 S22
# Hz S RI R 50
!     Frequency           S11_Real           S11_Imag           S21_Real           S21_Imag           S12_Real           S12_Imag           S22_Real           S22_Imag
      100000000   -2,829415724e-02   -2,872065641e-03    3,723128140e-01   -7,224621773e-01    0,000000000e+00    0,000000000e+00    0,000000000e+00    0,000000000e+00
      114000000   -1,574328542e-02    1,288965531e-02   -9,127330035e-02   -8,046622276e-01    0,000000000e+00    0,000000000e+00    0,000000000e+00    0,000000000e+00
      128000000    4,351077136e-03    1,201026049e-02   -5,159136653e-01   -6,188586950e-01    0,000000000e+00    0,000000000e+00    0,000000000e+00    0,000000000e+00
      142000000    1,547965687e-02   -1,727676718e-03   -7,673695683e-01   -2,342021018e-01    0,000000000e+00    0,000000000e+00    0,000000000e+00    0,000000000e+00
      156000000    1,744110323e-02   -1,384757366e-02   -7,674923539e-01    2,273313701e-01    0,000000000e+00    0,000000000e+00    0,000000000e+00    0,000000000e+00
      170000000    1,769608259e-02   -2,095463499e-02   -5,154719949e-01    6,060905457e-01    0,000000000e+00    0,000000000e+00    0,000000000e+00    0,000000000e+00
      184000000    2,200244553e-02   -3,555353358e-02   -9,856818616e-02    7,859113812e-01    0,000000000e+00    0,000000000e+00    0,000000000e+00    0,000000000e+00
      198000000    1,403604168e-02   -6,061509252e-02    3,459213674e-01    7,105581760e-01    0,000000000e+00    0,000000000e+00    0,000000000e+00    0,000000000e+00
      212000000   -1,768205129e-02   -7,911716402e-02    6,807857752e-01    4,062312543e-01    0,000000000e+00    0,000000000e+00    0,000000000e+00    0,000000000e+00
      226000000   -6,031075120e-02   -6,667185575e-02    7,957761884e-01   -3,549018875e-02    0,000000000e+00    0,000000000e+00    0,000000000e+00    0,000000000e+00
      240000000   -8,054163307e-02   -2,264444157e-02    6,415193081e-01   -4,718206525e-01    0,000000000e+00    0,000000000e+00    0,000000000e+00    0,000000000e+00
      254000000   -6,082613766e-02    1,977421343e-02    2,709870338e-01   -7,419438362e-01    0,000000000e+00    0,000000000e+00    0,000000000e+00    0,000000000e+00
      268000000   -2,091983519e-02    3,087729588e-02   -1,813302040e-01   -7,608452439e-01    0,000000000e+00    0,000000000e+00    0,000000000e+00    0,000000000e+00
      282000000    6,911021657e-03    1,376789808e-02   -5,633845925e-01   -5,329850912e-01    0,000000000e+00    0,000000000e+00    0,000000000e+00    0,000000000e+00
      296000000    1,246213727e-02   -6,217118818e-03   -7,607273459e-01   -1,344264001e-01    0,000000000e+00    0,000000000e+00    0,000000000e+00    0,000000000e+00
      310000000    1,352645829e-02   -1,455271244e-02   -7,090138793e-01    3,051091433e-01    0,000000000e+00    0,000000000e+00    0,000000000e+00    0,000000000e+00
      324000000    2,244322933e-02   -2,462481521e-02   -4,211996198e-01    6,400849819e-01    0,000000000e+00    0,000000000e+00    0,000000000e+00    0,000000000e+00
      338000000    2,830558084e-02   -5,038979650e-02   -9,392887005e-04    7,599865794e-01    0,000000000e+00    0,000000000e+00    0,000000000e+00    0,000000000e+00
      352000000    1,010970119e-02   -8,302934468e-02    4,107148349e-01    6,355359554e-01    0,000000000e+00    0,000000000e+00    0,000000000e+00    0,000000000e+00
      366000000   -3,168448806e-02   -9,367289394e-02    6,941089034e-01    3,042187095e-01    0,000000000e+00    0,000000000e+00    0,000000000e+00    0,000000000e+00
      380000000   -6,781540066e-02   -6,891312450e-02    7,457510829e-01   -1,341746747e-01    0,000000000e+00    0,000000000e+00    0,000000000e+00    0,000000000e+00
      394000000   -6,861753762e-02   -3,050932661e-02    5,397332907e-01   -5,285200477e-01    0,000000000e+00    0,000000000e+00    0,000000000e+00    0,000000000e+00
      408000000   -4,260642454e-02   -1,576482132e-02    1,509686708e-01   -7,342218161e-01    0,000000000e+00    0,000000000e+00    0,000000000e+00    0,000000000e+00
      422000000   -2,621793933e-02   -3,114830330e-02   -2,799124420e-01   -6,898691058e-01    0,000000000e+00    0,000000000e+00    0,000000000e+00    0,000000000e+00
      436000000   -3,913949057e-02   -4,924643785e-02   -6,098852158e-01   -4,196311533e-01    0,000000000e+00    0,000000000e+00    0,000000000e+00    0,000000000e+00
      450000000   -6,482947618e-02   -3,895084187e-02   -7,375441194e-01   -7,724274416e-03    0,000000000e+00    0,000000000e+00    0,000000000e+00    0,000000000e+00
      464000000   -6,782853603e-02   -6,318083033e-03   -6,078711748e-01    4,063199759e-01    0,000000000e+00    0,000000000e+00    0,000000000e+00    0,000000000e+00
      478000000   -3,863876313e-02    1,594382338e-02   -2,670848966e-01    6,703716516e-01    0,000000000e+00    0,000000000e+00    0,000000000e+00    0,000000000e+00
      492000000   -4,989975598e-03    6,553338375e-03    1,525025517e-01    6,957270503e-01    0,000000000e+00    0,000000000e+00    0,000000000e+00    0,000000000e+00
      506000000    6,939960644e-03   -2,029200457e-02    5,075702667e-01    4,884739816e-01    0,000000000e+00    0,000000000e+00    0,000000000e+00    0,000000000e+00
      520000000    4,776674614e-04   -3,836735338e-02    6,902325153e-01    1,211810783e-01    0,000000000e+00    0,000000000e+00    0,000000000e+00    0,000000000e+00
      534000000   -2,931674011e-03   -4,509595782e-02    6,331703067e-01   -2,819713950e-01    0,000000000e+00    0,000000000e+00    0,000000000e+00    0,000000000e+00
      548000000    1,030996442e-03   -5,946316198e-02    3,603220582e-01   -5,794895291e-01    0,000000000e+00    0,000000000e+00    0,000000000e+00    0,000000000e+00
      562000000   -7,524144836e-03   -8,865851164e-02   -2,590660565e-02   -6,728830934e-01    0,000000000e+00    0,000000000e+00    0,000000000e+00    0,000000000e+00
      576000000   -4,578962922e-02   -1,097254232e-01   -4,012228847e-01   -5,385267735e-01    0,000000000e+00    0,000000000e+00    0,000000000e+00    0,000000000e+00
      590000000   -9,490549564e-02   -9,342850000e-02   -6,392446756e-01   -2,183492333e-01    0,000000000e+00    0,000000000e+00    0,000000000e+00    0,000000000e+00
      604000000   -1,119599268e-01   -4,150996730e-02   -6,476739645e-01    1,981142908e-01    0,000000000e+00    0,000000000e+00    0,000000000e+00    0,000000000e+00
      618000000   -7,557874918e-02   -2,059408696e-03   -4,018463492e-01    5,372875333e-01    0,000000000e+00    0,000000000e+00    0,000000000e+00    0,000000000e+00
      632000000   -3,009233996e-02   -2,169599943e-02   -1,195933577e-02    6,556615829e-01    0,000000000e+00    0,000000000e+00    0,000000000e+00    0,000000000e+00
      646000000   -3,615256399e-02   -7,737430185e-02    3,662225604e-01    5,269553065e-01    0,000000000e+00    0,000000000e+00    0,000000000e+00    0,000000000e+00
      660000000   -1,122549325e-01   -9,939308465e-02    6,013962626e-01    1,936105788e-01    0,000000000e+00    0,000000000e+00    0,000000000e+00    0,000000000e+00
      674000000   -2,000541389e-01   -2,431443706e-02    5,652318001e-01   -2,396866828e-01    0,000000000e+00    0,000000000e+00    0,000000000e+00    0,000000000e+00
      688000000   -1,790165603e-01    1,441254169e-01    2,098789960e-01   -5,222569108e-01    0,000000000e+00    0,000000000e+00    0,000000000e+00    0,000000000e+00
      702000000    2,522252686e-02    2,475021780e-01   -2,018527240e-01   -4,080678225e-01    0,000000000e+00    0,000000000e+00    0,000000000e+00    0,000000000e+00
      716000000    2,634090185e-01    1,101799905e-01   -2,738007307e-01   -8,384580165e-02    0,000000000e+00    0,000000000e+00    0,000000000e+00    0,000000000e+00
      730000000    3,034035861e-01   -1,853985488e-01   -1,074059904e-01    3,235106543e-02    0,000000000e+00    0,000000000e+00    0,000000000e+00    0,000000000e+00
      744000000    9,493177384e-02   -4,287400544e-01   -4,255424440e-02   -6,473527849e-02    0,000000000e+00    0,000000000e+00    0,000000000e+00    0,000000000e+00
      758000000   -2,579579055e-01   -4,308021665e-01   -1,753384620e-01   -1,253611892e-01    0,000000000e+00    0,000000000e+00    0,000000000e+00    0,000000000e+00
      772000000   -4,864891768e-01   -1,197983548e-01   -3,363206685e-01    3,804505244e-02    0,000000000e+00    0,000000000e+00    0,000000000e+00    0,000000000e+00
      786000000   -3,410028517e-01    2,208138555e-01   -2,634980679e-01    3,163761497e-01    0,000000000e+00    0,000000000e+00    0,000000000e+00    0,000000000e+00
      800000000   -4,124293476e-02    2,771648467e-01    3,053706139e-03    4,368324578e-01    0,000000000e+00    0,000000000e+00    0,000000000e+00    0,000000000e+00
      814000000    1,441120356e-01    1,255263835e-01    2,641848624e-01    3,593557179e-01    0,000000000e+00    0,000000000e+00    0,000000000e+00    0,000000000e+00
      828000000    1,678271294e-01   -7,010275126e-02    4,325474799e-01    1,563897580e-01    0,000000000e+00    0,000000000e+00    0,000000000e+00    0,000000000e+00
      842000000    6,733324379e-02   -2,186532468e-01    4,662551880e-01   -1,199777573e-01    0,000000000e+00    0,000000000e+00    0,000000000e+00    0,000000000e+00
      856000000   -1,067117304e-01   -2,640756369e-01    3,199641109e-01   -3,948101103e-01    0,000000000e+00    0,000000000e+00    0,000000000e+00    0,000000000e+00
      870000000   -2,743566334e-01   -1,687511653e-01   -2,212385880e-03   -5,268685222e-01    0,000000000e+00    0,000000000e+00    0,000000000e+00    0,000000000e+00
      884000000   -3,213194013e-01    3,546819836e-02   -3,494021893e-01   -3,925689459e-01    0,000000000e+00    0,000000000e+00    0,000000000e+00    0,000000000e+00
      898000000   -1,920630932e-01    2,072842419e-01   -4,890170097e-01   -6,182050332e-02    0,000000000e+00    0,000000000e+00    0,000000000e+00    0,000000000e+00
      912000000    8,018398657e-03    2,192813158e-01   -4,110208750e-01    2,743623853e-01    0,000000000e+00    0,000000000e+00    0,000000000e+00    0,000000000e+00
      926000000    1,494822353e-01    1,116175354e-01   -1,710161418e-01    4,149542749e-01    0,000000000e+00    0,000000000e+00    0,000000000e+00    0,000000000e+00
      940000000    2,005918175e-01   -4,737552628e-02    6,235244498e-02    4,247928858e-01    0,000000000e+00    0,000000000e+00    0,000000000e+00    0,000000000e+00
      954000000    1,509476900e-01   -2,015973032e-01    2,610141039e-01    3,417138159e-01    0,000000000e+00    0,000000000e+00    0,000000000e+00    0,000000000e+00
      968000000    2,589288354e-02   -3,146195412e-01    4,089986384e-01    1,785014570e-01    0,000000000e+00    0,000000000e+00    0,000000000e+00    0,000000000e+00
      982000000   -1,615900397e-01   -3,298164904e-01    4,738455713e-01   -6,678168476e-02    0,000000000e+00    0,000000000e+00    0,000000000e+00    0,000000000e+00
      996000000   -3,249508142e-01   -2,075399905e-01    3,674555123e-01   -3,549958467e-01    0,000000000e+00    0,000000000e+00    0,000000000e+00    0,000000000e+00
     1010000000   -3,410489559e-01   -3,943415359e-03    4,308481514e-02   -5,243473053e-01    0,000000000e+00    0,000000000e+00    0,000000000e+00    0,000000000e+00
     1024000000   -2,039302588e-01    9,081743658e-02   -3,442461789e-01   -3,805969954e-01    0,000000000e+00    0,000000000e+00    0,000000000e+00    0,000000000e+00
     1038000000   -1,321372539e-01    9,256798774e-03   -4,836305380e-01    6,398352981e-02    0,000000000e+00    0,000000000e+00    0,000000000e+00    0,000000000e+00
     1052000000   -2,898132801e-01    5,179050192e-02   -9,575062245e-02    3,735946119e-01    0,000000000e+00    0,000000000e+00    0,000000000e+00    0,000000000e+00
     1066000000   -1,501265913e-01    2,902029157e-01    1,434256583e-01    1,342211664e-01    0,000000000e+00    0,000000000e+00    0,000000000e+00    0,000000000e+00
     1080000000    1,014004573e-01    2,538777590e-01    9,031756222e-02    2,040639520e-02    0,000000000e+00    0,000000000e+00    0,000000000e+00    0,000000000e+00
     1094000000    2,223148644e-01    8,496573567e-02    6,937358528e-02    9,869016707e-03    0,000000000e+00    0,000000000e+00    0,000000000e+00    0,000000000e+00
     1108000000    2,443948537e-01   -8,876170218e-02    7,987389714e-02   -7,268641493e-04    0,000000000e+00    0,000000000e+00    0,000000000e+00    0,000000000e+00
     1122000000    1,863273233e-01   -2,494664341e-01    1,026554331e-01   -2,683608793e-02    0,000000000e+00    0,000000000e+00    0,000000000e+00    0,000000000e+00
     1136000000    4,531056061e-02   -3,783881366e-01    1,279342473e-01   -7,448241115e-02    0,000000000e+00    0,000000000e+00    0,000000000e+00    0,000000000e+00
     1150000000   -1,574029922e-01   -4,251434207e-01    1,370847523e-01   -1,482183635e-01    0,000000000e+00    0,000000000e+00    0,000000000e+00    0,000000000e+00
     1164000000   -3,761627376e-01   -3,214376569e-01    9,923209250e-02   -2,781940401e-01    0,000000000e+00    0,000000000e+00    0,000000000e+00    0,000000000e+00
     1178000000   -4,638042152e-01   -9,125410020e-02   -1,039001271e-01   -4,082170725e-01    0,000000000e+00    0,000000000e+00    0,000000000e+00    0,000000000e+00
     1192000000   -3,734888136e-01    3,447916359e-02   -4,573597312e-01   -1,985320449e-01    0,000000000e+00    0,000000000e+00    0,000000000e+00    0,000000000e+00
     1206000000   -4,124298394e-01    1,330548376e-01   -2,732609212e-01    2,346276492e-01    0,000000000e+00    0,000000000e+00    0,000000000e+00    0,000000000e+00
     1220000000   -2,796267569e-01    3,307276070e-01   -5,586016458e-03    1,642878056e-01    0,000000000e+00    0,000000000e+00    0,000000000e+00    0,000000000e+00
     1234000000   -5,077909306e-02    3,461306393e-01    2,309833281e-02    5,252604187e-02    0,000000000e+00    0,000000000e+00    0,000000000e+00    0,000000000e+00
     1248000000    1,243947446e-01    2,476959974e-01    3,587653628e-03    2,452261187e-02    0,000000000e+00    0,000000000e+00    0,000000000e+00    0,000000000e+00
     1262000000    2,138023525e-01    9,941989928e-02    6,205916870e-03    3,194304556e-02    0,000000000e+00    0,000000000e+00    0,000000000e+00    0,000000000e+00
     1276000000    2,382264137e-01   -5,981255695e-02    3,006999753e-02    3,427420557e-02    0,000000000e+00    0,000000000e+00    0,000000000e+00    0,000000000e+00
     1290000000    1,959858686e-01   -2,157880068e-01    6,007505208e-02    2,499875054e-02    0,000000000e+00    0,000000000e+00    0,000000000e+00    0,000000000e+00
     1304000000    7,991494983e-02   -3,547979295e-01    7,417108119e-02    5,154266953e-03    0,000000000e+00    0,000000000e+00    0,000000000e+00    0,000000000e+00
     1318000000   -1,053349674e-01   -4,505338669e-01    7,458422333e-02   -1,257818658e-02    0,000000000e+00    0,000000000e+00    0,000000000e+00    0,000000000e+00
     1332000000   -3,518998921e-01   -4,346345365e-01    9,247563034e-02   -1,243213192e-02    0,000000000e+00    0,000000000e+00    0,000000000e+00    0,000000000e+00
     1346000000   -5,944874287e-01   -2,443004847e-01    9,726007283e-02   -2,733931644e-03    0,000000000e+00    0,000000000e+00    0,000000000e+00    0,000000000e+00
     1360000000   -6,537766457e-01    6,977849454e-02    1,359110624e-01   -2,048188448e-02    0,000000000e+00    0,000000000e+00    0,000000000e+00    0,000000000e+00
     1374000000   -4,917985201e-01    3,285436928e-01    1,737595648e-01   -5,094417185e-02    0,000000000e+00    0,000000000e+00    0,000000000e+00    0,000000000e+00
     1388000000   -2,479082197e-01    4,225473404e-01    1,660760045e-01   -9,216197580e-02    0,000000000e+00    0,000000000e+00    0,000000000e+00    0,000000000e+00
     1402000000   -4,553303495e-02    3,848672509e-01    1,345617324e-01   -9,829436988e-02    0,000000000e+00    0,000000000e+00    0,000000000e+00    0,000000000e+00
     1416000000    1,012198180e-01    2,840843797e-01    1,265935898e-01   -8,387610316e-02    0,000000000e+00    0,000000000e+00    0,000000000e+00    0,000000000e+00
     1430000000    1,901521534e-01    1,426542252e-01    1,166206002e-01   -8,316396922e-02    0,000000000e+00    0,000000000e+00    0,000000000e+00    0,000000000e+00
     1444000000    2,156887203e-01   -1,362032536e-02    1,252119988e-01   -2,949481457e-02    0,000000000e+00    0,000000000e+00    0,000000000e+00    0,000000000e+00
     1458000000    1,867255419e-01   -1,822316945e-01    1,495050043e-01    1,386712771e-02    0,000000000e+00    0,000000000e+00    0,000000000e+00    0,000000000e+00
     1472000000    6,857304275e-02   -3,456648290e-01    2,042934150e-01    7,387406379e-02    0,000000000e+00    0,000000000e+00    0,000000000e+00    0,000000000e+00
     1486000000   -1,482321024e-01   -4,660586417e-01    2,846763432e-01    9,269348532e-02    0,000000000e+00    0,000000000e+00    0,000000000e+00    0,000000000e+00
     1500000000   -4,396941364e-01   -4,717943072e-01    4,156321287e-01    4,152103141e-02    0,000000000e+00    0,000000000e+00    0,000000000e+00    0,000000000e+00
