! NanoVNA-App
! Date: 2025-09-25 15:55:33
! Start: 100MHz Stop: 1,5GHz Points: 101
! S-Parameter data: F S11 S21 S12 S22
# Hz S RI R 50
!     Frequency           S11_Real           S11_Imag           S21_Real           S21_Imag           S12_Real           S12_Imag           S22_Real           S22_Imag
      100000000   -2,816957794e-02   -2,809521975e-03    3,722090423e-01   -7,224163413e-01    0,000000000e+00    0,000000000e+00    0,000000000e+00    0,000000000e+00
      114000000   -1,557854936e-02    1,286614686e-02   -9,133663028e-02   -8,045070767e-01    0,000000000e+00    0,000000000e+00    0,000000000e+00    0,000000000e+00
      128000000    4,445007537e-03    1,185236499e-02   -5,157954693e-01   -6,185002327e-01    0,000000000e+00    0,000000000e+00    0,000000000e+00    0,000000000e+00
      142000000    1,550803706e-02   -1,864374848e-03   -7,674525380e-01   -2,343066633e-01    0,000000000e+00    0,000000000e+00    0,000000000e+00    0,000000000e+00
      156000000    1,560382172e-02   -1,372309588e-02   -7,701935172e-01    2,232180834e-01    0,000000000e+00    0,000000000e+00    0,000000000e+00    0,000000000e+00
      170000000    1,762851886e-02   -2,107770927e-02   -5,154139996e-01    6,062303185e-01    0,000000000e+00    0,000000000e+00    0,000000000e+00    0,000000000e+00
      184000000    2,198539302e-02   -3,558321670e-02   -9,823860973e-02    7,862856984e-01    0,000000000e+00    0,000000000e+00    0,000000000e+00    0,000000000e+00
      198000000    1,399174053e-02   -6,066243723e-02    3,458782732e-01    7,107512355e-01    0,000000000e+00    0,000000000e+00    0,000000000e+00    0,000000000e+00
      212000000   -1,771217957e-02   -7,914058864e-02    6,805744767e-01    4,063619971e-01    0,000000000e+00    0,000000000e+00    0,000000000e+00    0,000000000e+00
      226000000   -6,035750359e-02   -6,658350676e-02    7,957399487e-01   -3,562802076e-02    0,000000000e+00    0,000000000e+00    0,000000000e+00    0,000000000e+00
      240000000   -8,040550351e-02   -2,283670381e-02    6,418539286e-01   -4,715506732e-01    0,000000000e+00    0,000000000e+00    0,000000000e+00    0,000000000e+00
      254000000   -6,082870066e-02    1,971182786e-02    2,707923353e-01   -7,417925000e-01    0,000000000e+00    0,000000000e+00    0,000000000e+00    0,000000000e+00
      268000000   -2,104205638e-02    3,086184524e-02   -1,809997410e-01   -7,608182430e-01    0,000000000e+00    0,000000000e+00    0,000000000e+00    0,000000000e+00
      282000000    6,844544318e-03    1,377539895e-02   -5,628659725e-01   -5,324670672e-01    0,000000000e+00    0,000000000e+00    0,000000000e+00    0,000000000e+00
      296000000    1,226291060e-02   -6,240541115e-03   -7,604330182e-01   -1,342428923e-01    0,000000000e+00    0,000000000e+00    0,000000000e+00    0,000000000e+00
      310000000    1,375252474e-02   -1,454983000e-02   -7,079744935e-01    3,053180873e-01    0,000000000e+00    0,000000000e+00    0,000000000e+00    0,000000000e+00
      324000000    2,227680571e-02   -2,460323274e-02   -4,213674366e-01    6,385378838e-01    0,000000000e+00    0,000000000e+00    0,000000000e+00    0,000000000e+00
      338000000    2,862716094e-02   -5,085615069e-02   -2,067259047e-03    7,605080009e-01    0,000000000e+00    0,000000000e+00    0,000000000e+00    0,000000000e+00
      352000000    1,007647160e-02   -8,284316212e-02    4,103567302e-01    6,351404786e-01    0,000000000e+00    0,000000000e+00    0,000000000e+00    0,000000000e+00
      366000000   -3,169097751e-02   -9,369572252e-02    6,926568747e-01    3,040350676e-01    0,000000000e+00    0,000000000e+00    0,000000000e+00    0,000000000e+00
      380000000   -6,743147224e-02   -6,862113625e-02    7,456756234e-01   -1,343767494e-01    0,000000000e+00    0,000000000e+00    0,000000000e+00    0,000000000e+00
      394000000   -6,853332371e-02   -3,068618663e-02    5,386300087e-01   -5,274915099e-01    0,000000000e+00    0,000000000e+00    0,000000000e+00    0,000000000e+00
      408000000   -4,289367422e-02   -1,547470503e-02    1,501310021e-01   -7,334990501e-01    0,000000000e+00    0,000000000e+00    0,000000000e+00    0,000000000e+00
      422000000   -2,597939409e-02   -3,117829561e-02   -2,792301178e-01   -6,892533302e-01    0,000000000e+00    0,000000000e+00    0,000000000e+00    0,000000000e+00
      436000000   -3,926894814e-02   -4,905091971e-02   -6,100801229e-01   -4,197780490e-01    0,000000000e+00    0,000000000e+00    0,000000000e+00    0,000000000e+00
      450000000   -6,464666873e-02   -3,920301422e-02   -7,368866801e-01   -7,911642082e-03    0,000000000e+00    0,000000000e+00    0,000000000e+00    0,000000000e+00
      464000000   -6,755903363e-02   -6,565595511e-03   -6,073472500e-01    4,054831564e-01    0,000000000e+00    0,000000000e+00    0,000000000e+00    0,000000000e+00
      478000000   -3,860060126e-02    1,580812037e-02   -2,672223747e-01    6,703435183e-01    0,000000000e+00    0,000000000e+00    0,000000000e+00    0,000000000e+00
      492000000   -5,225733854e-03    6,141592748e-03    1,517179906e-01    6,939240694e-01    0,000000000e+00    0,000000000e+00    0,000000000e+00    0,000000000e+00
      506000000    7,056633942e-03   -2,010715194e-02    5,076730847e-01    4,885416627e-01    0,000000000e+00    0,000000000e+00    0,000000000e+00    0,000000000e+00
      520000000    4,594313505e-04   -3,855622560e-02    6,879695654e-01    1,229718477e-01    0,000000000e+00    0,000000000e+00    0,000000000e+00    0,000000000e+00
      534000000   -3,073415020e-03   -4,519029334e-02    6,323490739e-01   -2,816388607e-01    0,000000000e+00    0,000000000e+00    0,000000000e+00    0,000000000e+00
      548000000    9,366062586e-04   -5,938053131e-02    3,597871363e-01   -5,787525177e-01    0,000000000e+00    0,000000000e+00    0,000000000e+00    0,000000000e+00
      562000000   -7,943847217e-03   -8,854269236e-02   -2,629244886e-02   -6,725988984e-01    0,000000000e+00    0,000000000e+00    0,000000000e+00    0,000000000e+00
      576000000   -4,544780776e-02   -1,097295582e-01   -4,008869827e-01   -5,383905768e-01    0,000000000e+00    0,000000000e+00    0,000000000e+00    0,000000000e+00
      590000000   -9,456121176e-02   -9,345546365e-02   -6,396331191e-01   -2,195498496e-01    0,000000000e+00    0,000000000e+00    0,000000000e+00    0,000000000e+00
      604000000   -1,114183664e-01   -4,136852920e-02   -6,470774412e-01    1,981086284e-01    0,000000000e+00    0,000000000e+00    0,000000000e+00    0,000000000e+00
      618000000   -7,539153844e-02   -2,077533165e-03   -4,024800956e-01    5,359213948e-01    0,000000000e+00    0,000000000e+00    0,000000000e+00    0,000000000e+00
      632000000   -3,013843298e-02   -2,069848031e-02   -1,163573284e-02    6,553958654e-01    0,000000000e+00    0,000000000e+00    0,000000000e+00    0,000000000e+00
      646000000   -3,691209108e-02   -7,688957453e-02    3,665292561e-01    5,272296667e-01    0,000000000e+00    0,000000000e+00    0,000000000e+00    0,000000000e+00
      660000000   -1,117655933e-01   -9,910714626e-02    6,010115147e-01    1,939582676e-01    0,000000000e+00    0,000000000e+00    0,000000000e+00    0,000000000e+00
      674000000   -2,003393918e-01   -2,329335362e-02    5,653631687e-01   -2,396659106e-01    0,000000000e+00    0,000000000e+00    0,000000000e+00    0,000000000e+00
      688000000   -1,796817183e-01    1,447263658e-01    2,092025578e-01   -5,218762159e-01    0,000000000e+00    0,000000000e+00    0,000000000e+00    0,000000000e+00
      702000000    2,671345510e-02    2,466002703e-01   -1,990558207e-01   -4,010043740e-01    0,000000000e+00    0,000000000e+00    0,000000000e+00    0,000000000e+00
      716000000    2,631890178e-01    1,106066033e-01   -2,718978822e-01   -8,337394893e-02    0,000000000e+00    0,000000000e+00    0,000000000e+00    0,000000000e+00
      730000000    3,036313951e-01   -1,858412027e-01   -1,063500270e-01    3,130038455e-02    0,000000000e+00    0,000000000e+00    0,000000000e+00    0,000000000e+00
      744000000    9,343390912e-02   -4,279666245e-01   -4,257234186e-02   -6,601327658e-02    0,000000000e+00    0,000000000e+00    0,000000000e+00    0,000000000e+00
      758000000   -2,593725920e-01   -4,301463962e-01   -1,767067164e-01   -1,256006062e-01    0,000000000e+00    0,000000000e+00    0,000000000e+00    0,000000000e+00
      772000000   -4,852127433e-01   -1,183048114e-01   -3,370972276e-01    3,846771643e-02    0,000000000e+00    0,000000000e+00    0,000000000e+00    0,000000000e+00
      786000000   -3,406149447e-01    2,207164317e-01   -2,627402544e-01    3,173292875e-01    0,000000000e+00    0,000000000e+00    0,000000000e+00    0,000000000e+00
      800000000   -4,016498849e-02    2,761912942e-01    2,332186326e-03    4,371228218e-01    0,000000000e+00    0,000000000e+00    0,000000000e+00    0,000000000e+00
      814000000    1,443519890e-01    1,251768470e-01    2,638301253e-01    3,603118062e-01    0,000000000e+00    0,000000000e+00    0,000000000e+00    0,000000000e+00
      828000000    1,677697450e-01   -6,979404390e-02    4,329895675e-01    1,563299298e-01    0,000000000e+00    0,000000000e+00    0,000000000e+00    0,000000000e+00
      842000000    6,739214808e-02   -2,182732373e-01    4,666255414e-01   -1,200638860e-01    0,000000000e+00    0,000000000e+00    0,000000000e+00    0,000000000e+00
      856000000   -1,056979597e-01   -2,634373903e-01    3,203285038e-01   -3,950715363e-01    0,000000000e+00    0,000000000e+00    0,000000000e+00    0,000000000e+00
      870000000   -2,734766006e-01   -1,677307338e-01   -2,054156736e-03   -5,270764232e-01    0,000000000e+00    0,000000000e+00    0,000000000e+00    0,000000000e+00
      884000000   -3,200759888e-01    3,578174859e-02   -3,469984531e-01   -3,918636739e-01    0,000000000e+00    0,000000000e+00    0,000000000e+00    0,000000000e+00
      898000000   -1,922645569e-01    2,057754844e-01   -4,884977341e-01   -6,358637661e-02    0,000000000e+00    0,000000000e+00    0,000000000e+00    0,000000000e+00
      912000000    6,888812874e-03    2,192283124e-01   -4,044882953e-01    2,649899721e-01    0,000000000e+00    0,000000000e+00    0,000000000e+00    0,000000000e+00
      926000000    1,500691622e-01    1,118295416e-01   -1,688558012e-01    4,148042500e-01    0,000000000e+00    0,000000000e+00    0,000000000e+00    0,000000000e+00
      940000000    1,972692013e-01   -4,407230020e-02    6,225780025e-02    4,266264737e-01    0,000000000e+00    0,000000000e+00    0,000000000e+00    0,000000000e+00
      954000000    1,526354998e-01   -2,041276246e-01    2,605236173e-01    3,418917656e-01    0,000000000e+00    0,000000000e+00    0,000000000e+00    0,000000000e+00
      968000000    2,322537638e-02   -3,124769330e-01    4,103724658e-01    1,802949756e-01    0,000000000e+00    0,000000000e+00    0,000000000e+00    0,000000000e+00
      982000000   -1,630822271e-01   -3,292888999e-01    4,744347036e-01   -6,604779512e-02    0,000000000e+00    0,000000000e+00    0,000000000e+00    0,000000000e+00
      996000000   -3,277390003e-01   -2,078991383e-01    3,687816560e-01   -3,562790155e-01    0,000000000e+00    0,000000000e+00    0,000000000e+00    0,000000000e+00
     1010000000   -3,434169888e-01   -9,492559358e-03    4,269056395e-02   -5,270161629e-01    0,000000000e+00    0,000000000e+00    0,000000000e+00    0,000000000e+00
     1024000000   -2,079552859e-01    9,062819928e-02   -3,434355557e-01   -3,813864291e-01    0,000000000e+00    0,000000000e+00    0,000000000e+00    0,000000000e+00
     1038000000   -1,356288493e-01    1,309137885e-02   -4,835267365e-01    6,095240265e-02    0,000000000e+00    0,000000000e+00    0,000000000e+00    0,000000000e+00
     1052000000   -2,819348574e-01    5,014321953e-02   -9,738756716e-02    3,745049536e-01    0,000000000e+00    0,000000000e+00    0,000000000e+00    0,000000000e+00
     1066000000   -1,445840150e-01    2,959465683e-01    1,440512836e-01    1,351849884e-01    0,000000000e+00    0,000000000e+00    0,000000000e+00    0,000000000e+00
     1080000000    9,694390744e-02    2,467506230e-01    9,315326810e-02    2,168605663e-02    0,000000000e+00    0,000000000e+00    0,000000000e+00    0,000000000e+00
     1094000000    2,234343439e-01    8,754985780e-02    6,980677694e-02    1,020354684e-02    0,000000000e+00    0,000000000e+00    0,000000000e+00    0,000000000e+00
     1108000000    2,389847636e-01   -8,690192550e-02    8,256464452e-02   -1,608605613e-03    0,000000000e+00    0,000000000e+00    0,000000000e+00    0,000000000e+00
     1122000000    1,825746149e-01   -2,524926364e-01    1,033968627e-01   -2,580237575e-02    0,000000000e+00    0,000000000e+00    0,000000000e+00    0,000000000e+00
     1136000000    5,085600540e-02   -3,758375347e-01    1,276603341e-01   -7,589892298e-02    0,000000000e+00    0,000000000e+00    0,000000000e+00    0,000000000e+00
     1150000000   -1,517046094e-01   -4,238758385e-01    1,380880028e-01   -1,520486921e-01    0,000000000e+00    0,000000000e+00    0,000000000e+00    0,000000000e+00
     1164000000   -3,756613433e-01   -3,267434239e-01    9,591262043e-02   -2,772323489e-01    0,000000000e+00    0,000000000e+00    0,000000000e+00    0,000000000e+00
     1178000000   -4,616419673e-01   -8,369669318e-02   -1,024582237e-01   -4,045837522e-01    0,000000000e+00    0,000000000e+00    0,000000000e+00    0,000000000e+00
     1192000000   -3,726329505e-01    4,230779409e-02   -4,618387222e-01   -1,973835677e-01    0,000000000e+00    0,000000000e+00    0,000000000e+00    0,000000000e+00
     1206000000   -4,138003290e-01    1,353679597e-01   -2,779706419e-01    2,401376367e-01    0,000000000e+00    0,000000000e+00    0,000000000e+00    0,000000000e+00
     1220000000   -2,720400691e-01    3,269102275e-01    2,934651857e-04    1,661520004e-01    0,000000000e+00    0,000000000e+00    0,000000000e+00    0,000000000e+00
     1234000000   -5,011549592e-02    3,464702666e-01    2,206689119e-02    5,367067084e-02    0,000000000e+00    0,000000000e+00    0,000000000e+00    0,000000000e+00
     1248000000    1,185706034e-01    2,457797378e-01    1,873805653e-03    2,554361150e-02    0,000000000e+00    0,000000000e+00    0,000000000e+00    0,000000000e+00
     1262000000    2,126626223e-01    1,059532240e-01    2,068327507e-03    3,167216107e-02    0,000000000e+00    0,000000000e+00    0,000000000e+00    0,000000000e+00
     1276000000    2,313330621e-01   -5,628523603e-02    2,358768508e-02    3,693988919e-02    0,000000000e+00    0,000000000e+00    0,000000000e+00    0,000000000e+00
     1290000000    1,894063801e-01   -2,148120403e-01    5,647316575e-02    2,847579308e-02    0,000000000e+00    0,000000000e+00    0,000000000e+00    0,000000000e+00
     1304000000    8,457913250e-02   -3,587040603e-01    7,975406200e-02    4,086908419e-03    0,000000000e+00    0,000000000e+00    0,000000000e+00    0,000000000e+00
     1318000000   -1,002352610e-01   -4,467988908e-01    8,117525280e-02   -1,498172339e-02    0,000000000e+00    0,000000000e+00    0,000000000e+00    0,000000000e+00
     1332000000   -3,504515588e-01   -4,369749427e-01    9,061432630e-02   -1,783954725e-02    0,000000000e+00    0,000000000e+00    0,000000000e+00    0,000000000e+00
     1346000000   -5,830150843e-01   -2,498400360e-01    1,128844023e-01   -9,109082632e-03    0,000000000e+00    0,000000000e+00    0,000000000e+00    0,000000000e+00
     1360000000   -6,482100487e-01    7,627882063e-02    1,370551735e-01   -1,610849611e-02    0,000000000e+00    0,000000000e+00    0,000000000e+00    0,000000000e+00
     1374000000   -4,903082848e-01    3,345268369e-01    1,723718196e-01   -4,269571975e-02    0,000000000e+00    0,000000000e+00    0,000000000e+00    0,000000000e+00
     1388000000   -2,559131086e-01    4,281165302e-01    1,628576517e-01   -8,684986830e-02    0,000000000e+00    0,000000000e+00    0,000000000e+00    0,000000000e+00
     1402000000   -4,292998090e-02    3,944142163e-01    1,438778043e-01   -9,475269169e-02    0,000000000e+00    0,000000000e+00    0,000000000e+00    0,000000000e+00
     1416000000    9,883624315e-02    2,906151116e-01    1,240532398e-01   -7,730505615e-02    0,000000000e+00    0,000000000e+00    0,000000000e+00    0,000000000e+00
     1430000000    1,849131435e-01    1,407201588e-01    1,076487526e-01   -6,819915026e-02    0,000000000e+00    0,000000000e+00    0,000000000e+00    0,000000000e+00
     1444000000    2,125484943e-01   -9,016909637e-03    1,142711043e-01   -2,273433656e-02    0,000000000e+00    0,000000000e+00    0,000000000e+00    0,000000000e+00
     1458000000    1,827092916e-01   -1,829254031e-01    1,639318615e-01    1,987907104e-02    0,000000000e+00    0,000000000e+00    0,000000000e+00    0,000000000e+00
     1472000000    7,032597810e-02   -3,455221653e-01    1,996241510e-01    7,921189815e-02    0,000000000e+00    0,000000000e+00    0,000000000e+00    0,000000000e+00
     1486000000   -1,404271424e-01   -4,644622803e-01    2,896502614e-01    9,843054414e-02    0,000000000e+00    0,000000000e+00    0,000000000e+00    0,000000000e+00
     1500000000   -4,453572333e-01   -4,732629061e-01    3,979217708e-01    6,081632152e-02    0,000000000e+00    0,000000000e+00    0,000000000e+00    0,000000000e+00
