! NanoVNA-App
! Date: 2025-09-25 15:57:03
! Start: 100MHz Stop: 1,5GHz Points: 101
! S-Parameter data: F S11 S21 S12 S22
# Hz S RI R 50
!     Frequency           S11_Real           S11_Imag           S21_Real           S21_Imag           S12_Real           S12_Imag           S22_Real           S22_Imag
      100000000   -2,819597721e-02   -2,835119376e-03    3,722358346e-01   -7,224575877e-01    0,000000000e+00    0,000000000e+00    0,000000000e+00    0,000000000e+00
      114000000   -1,562672667e-02    1,287870761e-02   -9,143085033e-02   -8,047627211e-01    0,000000000e+00    0,000000000e+00    0,000000000e+00    0,000000000e+00
      128000000    4,406907130e-03    1,183542050e-02   -5,159584284e-01   -6,187517643e-01    0,000000000e+00    0,000000000e+00    0,000000000e+00    0,000000000e+00
      142000000    1,549316477e-02   -1,824222738e-03   -7,674014568e-01   -2,340580672e-01    0,000000000e+00    0,000000000e+00    0,000000000e+00    0,000000000e+00
      156000000    1,656551473e-02   -1,317698322e-02   -7,644709349e-01    2,249587476e-01    0,000000000e+00    0,000000000e+00    0,000000000e+00    0,000000000e+00
      170000000    1,767806523e-02   -2,099245414e-02   -5,154123306e-01    6,061493158e-01    0,000000000e+00    0,000000000e+00    0,000000000e+00    0,000000000e+00
      184000000    2,199500427e-02   -3,561539203e-02   -9,834256023e-02    7,860577703e-01    0,000000000e+00    0,000000000e+00    0,000000000e+00    0,000000000e+00
      198000000    1,401612628e-02   -6,069188192e-02    3,464243412e-01    7,109810710e-01    0,000000000e+00    0,000000000e+00    0,000000000e+00    0,000000000e+00
      212000000   -1,768139936e-02   -7,916463166e-02    6,805822253e-01    4,063353539e-01    0,000000000e+00    0,000000000e+00    0,000000000e+00    0,000000000e+00
      226000000   -6,035629287e-02   -6,656736881e-02    7,957033515e-01   -3,556209430e-02    0,000000000e+00    0,000000000e+00    0,000000000e+00    0,000000000e+00
      240000000   -8,055545390e-02   -2,278317697e-02    6,415056586e-01   -4,715919793e-01    0,000000000e+00    0,000000000e+00    0,000000000e+00    0,000000000e+00
      254000000   -6,079920009e-02    1,976578869e-02    2,707787156e-01   -7,419365644e-01    0,000000000e+00    0,000000000e+00    0,000000000e+00    0,000000000e+00
      268000000   -2,093363367e-02    3,085906431e-02   -1,811494976e-01   -7,608702183e-01    0,000000000e+00    0,000000000e+00    0,000000000e+00    0,000000000e+00
      282000000    6,815691013e-03    1,371226553e-02   -5,632948875e-01   -5,327794552e-01    0,000000000e+00    0,000000000e+00    0,000000000e+00    0,000000000e+00
      296000000    1,227921620e-02   -6,188678090e-03   -7,603440285e-01   -1,344192624e-01    0,000000000e+00    0,000000000e+00    0,000000000e+00    0,000000000e+00
      310000000    1,350838970e-02   -1,466337778e-02   -7,079519629e-01    3,034189343e-01    0,000000000e+00    0,000000000e+00    0,000000000e+00    0,000000000e+00
      324000000    2,260224894e-02   -2,475560829e-02   -4,209818542e-01    6,391398907e-01    0,000000000e+00    0,000000000e+00    0,000000000e+00    0,000000000e+00
      338000000    2,847106010e-02   -5,055137724e-02   -1,005388331e-03    7,586243749e-01    0,000000000e+00    0,000000000e+00    0,000000000e+00    0,000000000e+00
      352000000    9,915320203e-03   -8,314817399e-02    4,112579525e-01    6,353268623e-01    0,000000000e+00    0,000000000e+00    0,000000000e+00    0,000000000e+00
      366000000   -3,178757057e-02   -9,387550503e-02    6,933146715e-01    3,046956956e-01    0,000000000e+00    0,000000000e+00    0,000000000e+00    0,000000000e+00
      380000000   -6,771720201e-02   -6,899689138e-02    7,462171912e-01   -1,346445680e-01    0,000000000e+00    0,000000000e+00    0,000000000e+00    0,000000000e+00
      394000000   -6,834377348e-02   -3,059501573e-02    5,391771197e-01   -5,282953382e-01    0,000000000e+00    0,000000000e+00    0,000000000e+00    0,000000000e+00
      408000000   -4,281197116e-02   -1,576888002e-02    1,507336646e-01   -7,341704965e-01    0,000000000e+00    0,000000000e+00    0,000000000e+00    0,000000000e+00
      422000000   -2,612465434e-02   -3,133239597e-02   -2,795335054e-01   -6,893956065e-01    0,000000000e+00    0,000000000e+00    0,000000000e+00    0,000000000e+00
      436000000   -3,928031400e-02   -4,900673404e-02   -6,101139188e-01   -4,199801087e-01    0,000000000e+00    0,000000000e+00    0,000000000e+00    0,000000000e+00
      450000000   -6,490245461e-02   -3,898427263e-02   -7,372018099e-01   -7,579622790e-03    0,000000000e+00    0,000000000e+00    0,000000000e+00    0,000000000e+00
      464000000   -6,725665927e-02   -6,160439923e-03   -6,077969670e-01    4,063225091e-01    0,000000000e+00    0,000000000e+00    0,000000000e+00    0,000000000e+00
      478000000   -3,853876516e-02    1,643365435e-02   -2,681193352e-01    6,700505018e-01    0,000000000e+00    0,000000000e+00    0,000000000e+00    0,000000000e+00
      492000000   -5,122414790e-03    6,178967189e-03    1,521027535e-01    6,953521371e-01    0,000000000e+00    0,000000000e+00    0,000000000e+00    0,000000000e+00
      506000000    7,100252900e-03   -2,043969743e-02    5,083007812e-01    4,886471927e-01    0,000000000e+00    0,000000000e+00    0,000000000e+00    0,000000000e+00
      520000000    4,717755655e-04   -3,921110183e-02    6,892191768e-01    1,203652024e-01    0,000000000e+00    0,000000000e+00    0,000000000e+00    0,000000000e+00
      534000000   -3,190766554e-03   -4,527891055e-02    6,327810287e-01   -2,817670107e-01    0,000000000e+00    0,000000000e+00    0,000000000e+00    0,000000000e+00
      548000000    1,051147236e-03   -5,983222649e-02    3,606975377e-01   -5,789034963e-01    0,000000000e+00    0,000000000e+00    0,000000000e+00    0,000000000e+00
      562000000   -7,626300678e-03   -8,840151876e-02   -2,632726170e-02   -6,718847156e-01    0,000000000e+00    0,000000000e+00    0,000000000e+00    0,000000000e+00
      576000000   -4,500397667e-02   -1,094270572e-01   -4,004844427e-01   -5,383833051e-01    0,000000000e+00    0,000000000e+00    0,000000000e+00    0,000000000e+00
      590000000   -9,475056082e-02   -9,346736968e-02   -6,389349103e-01   -2,174942642e-01    0,000000000e+00    0,000000000e+00    0,000000000e+00    0,000000000e+00
      604000000   -1,113287359e-01   -4,090568423e-02   -6,471618414e-01    1,987841278e-01    0,000000000e+00    0,000000000e+00    0,000000000e+00    0,000000000e+00
      618000000   -7,628943771e-02   -2,180384472e-03   -4,018889666e-01    5,350846052e-01    0,000000000e+00    0,000000000e+00    0,000000000e+00    0,000000000e+00
      632000000   -3,018287197e-02   -2,125683054e-02   -1,209812798e-02    6,546109319e-01    0,000000000e+00    0,000000000e+00    0,000000000e+00    0,000000000e+00
      646000000   -3,650077432e-02   -7,734670490e-02    3,656190634e-01    5,273798108e-01    0,000000000e+00    0,000000000e+00    0,000000000e+00    0,000000000e+00
      660000000   -1,115536690e-01   -1,004639119e-01    6,004649401e-01    1,929326653e-01    0,000000000e+00    0,000000000e+00    0,000000000e+00    0,000000000e+00
      674000000   -1,992540210e-01   -2,350828052e-02    5,649940372e-01   -2,399664819e-01    0,000000000e+00    0,000000000e+00    0,000000000e+00    0,000000000e+00
      688000000   -1,781680435e-01    1,452697664e-01    2,076241076e-01   -5,218389630e-01    0,000000000e+00    0,000000000e+00    0,000000000e+00    0,000000000e+00
      702000000    2,664570883e-02    2,463673502e-01   -1,997249275e-01   -4,012310505e-01    0,000000000e+00    0,000000000e+00    0,000000000e+00    0,000000000e+00
      716000000    2,646178007e-01    1,099729538e-01   -2,721312344e-01   -8,285101503e-02    0,000000000e+00    0,000000000e+00    0,000000000e+00    0,000000000e+00
      730000000    3,038048446e-01   -1,859813929e-01   -1,060434878e-01    3,140578046e-02    0,000000000e+00    0,000000000e+00    0,000000000e+00    0,000000000e+00
      744000000    9,379446507e-02   -4,269003272e-01   -4,228517413e-02   -6,625708193e-02    0,000000000e+00    0,000000000e+00    0,000000000e+00    0,000000000e+00
      758000000   -2,583701015e-01   -4,295460880e-01   -1,767666638e-01   -1,258899122e-01    0,000000000e+00    0,000000000e+00    0,000000000e+00    0,000000000e+00
      772000000   -4,855876863e-01   -1,188556701e-01   -3,371703327e-01    3,873934224e-02    0,000000000e+00    0,000000000e+00    0,000000000e+00    0,000000000e+00
      786000000   -3,403660059e-01    2,217746228e-01   -2,634656429e-01    3,173512816e-01    0,000000000e+00    0,000000000e+00    0,000000000e+00    0,000000000e+00
      800000000   -4,066313058e-02    2,763865292e-01    2,595632803e-03    4,371007383e-01    0,000000000e+00    0,000000000e+00    0,000000000e+00    0,000000000e+00
      814000000    1,438398361e-01    1,250640005e-01    2,653776407e-01    3,589746356e-01    0,000000000e+00    0,000000000e+00    0,000000000e+00    0,000000000e+00
      828000000    1,673449427e-01   -7,044769824e-02    4,335023761e-01    1,562883854e-01    0,000000000e+00    0,000000000e+00    0,000000000e+00    0,000000000e+00
      842000000    6,733987480e-02   -2,186184078e-01    4,668441117e-01   -1,203726754e-01    0,000000000e+00    0,000000000e+00    0,000000000e+00    0,000000000e+00
      856000000   -1,067669615e-01   -2,639384568e-01    3,199571371e-01   -3,955565393e-01    0,000000000e+00    0,000000000e+00    0,000000000e+00    0,000000000e+00
      870000000   -2,752599120e-01   -1,681513041e-01   -3,189401235e-03   -5,272035003e-01    0,000000000e+00    0,000000000e+00    0,000000000e+00    0,000000000e+00
      884000000   -3,199508190e-01    3,622253612e-02   -3,472190797e-01   -3,912038505e-01    0,000000000e+00    0,000000000e+00    0,000000000e+00    0,000000000e+00
      898000000   -1,922003776e-01    2,075427324e-01   -4,895707071e-01   -6,224925816e-02    0,000000000e+00    0,000000000e+00    0,000000000e+00    0,000000000e+00
      912000000    6,725004874e-03    2,195626646e-01   -4,076787233e-01    2,747872770e-01    0,000000000e+00    0,000000000e+00    0,000000000e+00    0,000000000e+00
      926000000    1,512247622e-01    1,119476557e-01   -1,672232002e-01    4,155420661e-01    0,000000000e+00    0,000000000e+00    0,000000000e+00    0,000000000e+00
      940000000    1,969330460e-01   -4,607115313e-02    6,247268990e-02    4,247063100e-01    0,000000000e+00    0,000000000e+00    0,000000000e+00    0,000000000e+00
      954000000    1,521547884e-01   -2,031607032e-01    2,614877224e-01    3,416398764e-01    0,000000000e+00    0,000000000e+00    0,000000000e+00    0,000000000e+00
      968000000    2,456118353e-02   -3,117280602e-01    4,107957184e-01    1,775201410e-01    0,000000000e+00    0,000000000e+00    0,000000000e+00    0,000000000e+00
      982000000   -1,621704996e-01   -3,298869133e-01    4,739618301e-01   -6,738225371e-02    0,000000000e+00    0,000000000e+00    0,000000000e+00    0,000000000e+00
      996000000   -3,234696686e-01   -2,097150385e-01    3,668177426e-01   -3,557819426e-01    0,000000000e+00    0,000000000e+00    0,000000000e+00    0,000000000e+00
     1010000000   -3,366131783e-01   -7,216694299e-03    4,535980895e-02   -5,246402621e-01    0,000000000e+00    0,000000000e+00    0,000000000e+00    0,000000000e+00
     1024000000   -2,039654553e-01    9,519186616e-02   -3,469806910e-01   -3,806497753e-01    0,000000000e+00    0,000000000e+00    0,000000000e+00    0,000000000e+00
     1038000000   -1,343178600e-01    7,691817358e-03   -4,829941392e-01    6,480573863e-02    0,000000000e+00    0,000000000e+00    0,000000000e+00    0,000000000e+00
     1052000000   -2,902759910e-01    5,403181165e-02   -9,329970181e-02    3,725594580e-01    0,000000000e+00    0,000000000e+00    0,000000000e+00    0,000000000e+00
     1066000000   -1,500401199e-01    2,936121821e-01    1,421053857e-01    1,347725093e-01    0,000000000e+00    0,000000000e+00    0,000000000e+00    0,000000000e+00
     1080000000    9,921210259e-02    2,461611331e-01    9,007447213e-02    2,235984430e-02    0,000000000e+00    0,000000000e+00    0,000000000e+00    0,000000000e+00
     1094000000    2,231905162e-01    8,589079231e-02    7,001051307e-02    1,081452053e-02    0,000000000e+00    0,000000000e+00    0,000000000e+00    0,000000000e+00
     1108000000    2,457662225e-01   -8,587791771e-02    8,154079318e-02    9,436858090e-05    0,000000000e+00    0,000000000e+00    0,000000000e+00    0,000000000e+00
     1122000000    1,850898415e-01   -2,486075163e-01    1,030133739e-01   -2,661172487e-02    0,000000000e+00    0,000000000e+00    0,000000000e+00    0,000000000e+00
     1136000000    5,133350566e-02   -3,798581064e-01    1,263656020e-01   -7,290761918e-02    0,000000000e+00    0,000000000e+00    0,000000000e+00    0,000000000e+00
     1150000000   -1,577262431e-01   -4,220686853e-01    1,357534230e-01   -1,516500115e-01    0,000000000e+00    0,000000000e+00    0,000000000e+00    0,000000000e+00
     1164000000   -3,727577329e-01   -3,257969618e-01    9,931995720e-02   -2,778966129e-01    0,000000000e+00    0,000000000e+00    0,000000000e+00    0,000000000e+00
     1178000000   -4,694481790e-01   -8,546879888e-02   -1,058700532e-01   -4,077939391e-01    0,000000000e+00    0,000000000e+00    0,000000000e+00    0,000000000e+00
     1192000000   -3,701445162e-01    4,372758418e-02   -4,626169801e-01   -1,989624202e-01    0,000000000e+00    0,000000000e+00    0,000000000e+00    0,000000000e+00
     1206000000   -4,172910154e-01    1,345168650e-01   -2,770060897e-01    2,387073487e-01    0,000000000e+00    0,000000000e+00    0,000000000e+00    0,000000000e+00
     1220000000   -2,772192061e-01    3,318472207e-01   -6,235331297e-03    1,637966633e-01    0,000000000e+00    0,000000000e+00    0,000000000e+00    0,000000000e+00
     1234000000   -4,959396273e-02    3,447400331e-01    2,099006251e-02    5,129193142e-02    0,000000000e+00    0,000000000e+00    0,000000000e+00    0,000000000e+00
     1248000000    1,234292537e-01    2,545015216e-01    7,509101648e-03    2,636023052e-02    0,000000000e+00    0,000000000e+00    0,000000000e+00    0,000000000e+00
     1262000000    2,152543366e-01    1,014337316e-01    6,174446549e-03    2,849236317e-02    0,000000000e+00    0,000000000e+00    0,000000000e+00    0,000000000e+00
     1276000000    2,303805202e-01   -5,810522661e-02    2,392352931e-02    3,661958128e-02    0,000000000e+00    0,000000000e+00    0,000000000e+00    0,000000000e+00
     1290000000    1,960950941e-01   -2,130831629e-01    5,648092553e-02    2,575116791e-02    0,000000000e+00    0,000000000e+00    0,000000000e+00    0,000000000e+00
     1304000000    8,379864693e-02   -3,538058400e-01    8,014163375e-02    9,537586942e-03    0,000000000e+00    0,000000000e+00    0,000000000e+00    0,000000000e+00
     1318000000   -1,065740734e-01   -4,435051382e-01    8,171255887e-02   -9,517521597e-03    0,000000000e+00    0,000000000e+00    0,000000000e+00    0,000000000e+00
     1332000000   -3,504787087e-01   -4,349787831e-01    9,387308359e-02   -1,953163370e-02    0,000000000e+00    0,000000000e+00    0,000000000e+00    0,000000000e+00
     1346000000   -5,885137320e-01   -2,479420453e-01    1,033640355e-01   -9,892403148e-03    0,000000000e+00    0,000000000e+00    0,000000000e+00    0,000000000e+00
     1360000000   -6,467608809e-01    7,357160002e-02    1,398206651e-01   -2,241083607e-02    0,000000000e+00    0,000000000e+00    0,000000000e+00    0,000000000e+00
     1374000000   -4,897294939e-01    3,311016560e-01    1,607490927e-01   -5,089286715e-02    0,000000000e+00    0,000000000e+00    0,000000000e+00    0,000000000e+00
     1388000000   -2,547644973e-01    4,220057428e-01    1,582689285e-01   -8,853926510e-02    0,000000000e+00    0,000000000e+00    0,000000000e+00    0,000000000e+00
     1402000000   -4,923506826e-02    3,926758766e-01    1,372118443e-01   -8,738994598e-02    0,000000000e+00    0,000000000e+00    0,000000000e+00    0,000000000e+00
     1416000000    1,036644205e-01    2,838592827e-01    1,303339303e-01   -8,943342417e-02    0,000000000e+00    0,000000000e+00    0,000000000e+00    0,000000000e+00
     1430000000    1,814221293e-01    1,468878388e-01    1,120422035e-01   -4,807219654e-02    0,000000000e+00    0,000000000e+00    0,000000000e+00    0,000000000e+00
     1444000000    2,159890682e-01   -9,020309895e-03    1,270206273e-01   -2,201179974e-02    0,000000000e+00    0,000000000e+00    0,000000000e+00    0,000000000e+00
     1458000000    1,818206459e-01   -1,873468906e-01    1,440241486e-01    9,101724252e-03    0,000000000e+00    0,000000000e+00    0,000000000e+00    0,000000000e+00
     1472000000    6,719791889e-02   -3,518730104e-01    2,059110552e-01    5,435139313e-02    0,000000000e+00    0,000000000e+00    0,000000000e+00    0,000000000e+00
     1486000000   -1,429068297e-01   -4,769962132e-01    2,854325771e-01    8,689693362e-02    0,000000000e+00    0,000000000e+00    0,000000000e+00    0,000000000e+00
     1500000000   -4,443340003e-01   -4,843533337e-01    4,001739025e-01    3,947332501e-02    0,000000000e+00    0,000000000e+00    0,000000000e+00    0,000000000e+00
