! NanoVNA-App
! Date: 2025-09-25 15:59:33
! Start: 100MHz Stop: 1,5GHz Points: 101
! S-Parameter data: F S11 S21 S12 S22
# Hz S RI R 50
!     Frequency           S11_Real           S11_Imag           S21_Real           S21_Imag           S12_Real           S12_Imag           S22_Real           S22_Imag
      100000000   -2,824683115e-02   -2,857335610e-03    3,722913563e-01   -7,224003077e-01    0,000000000e+00    0,000000000e+00    0,000000000e+00    0,000000000e+00
      114000000   -1,569273323e-02    1,287552062e-02   -9,135042876e-02   -8,048025966e-01    0,000000000e+00    0,000000000e+00    0,000000000e+00    0,000000000e+00
      128000000    4,358131438e-03    1,195590105e-02   -5,159710050e-01   -6,189263463e-01    0,000000000e+00    0,000000000e+00    0,000000000e+00    0,000000000e+00
      142000000    1,547848526e-02   -1,754701952e-03   -7,673988938e-01   -2,341741174e-01    0,000000000e+00    0,000000000e+00    0,000000000e+00    0,000000000e+00
      156000000    1,750595123e-02   -1,381351892e-02   -7,675522566e-01    2,271614969e-01    0,000000000e+00    0,000000000e+00    0,000000000e+00    0,000000000e+00
      170000000    1,763106510e-02   -2,102857642e-02   -5,154440999e-01    6,061806083e-01    0,000000000e+00    0,000000000e+00    0,000000000e+00    0,000000000e+00
      184000000    2,202957496e-02   -3,555554524e-02   -9,833415598e-02    7,859786153e-01    0,000000000e+00    0,000000000e+00    0,000000000e+00    0,000000000e+00
      198000000    1,400664635e-02   -6,068063527e-02    3,459549844e-01    7,107361555e-01    0,000000000e+00    0,000000000e+00    0,000000000e+00    0,000000000e+00
      212000000   -1,765960455e-02   -7,916036248e-02    6,807395816e-01    4,062630236e-01    0,000000000e+00    0,000000000e+00    0,000000000e+00    0,000000000e+00
      226000000   -6,027999148e-02   -6,669571996e-02    7,956798077e-01   -3,556402028e-02    0,000000000e+00    0,000000000e+00    0,000000000e+00    0,000000000e+00
      240000000   -8,049276471e-02   -2,275363915e-02    6,415204406e-01   -4,715260565e-01    0,000000000e+00    0,000000000e+00    0,000000000e+00    0,000000000e+00
      254000000   -6,076425314e-02    1,980457827e-02    2,711722255e-01   -7,420988083e-01    0,000000000e+00    0,000000000e+00    0,000000000e+00    0,000000000e+00
      268000000   -2,098474838e-02    3,085490689e-02   -1,813491881e-01   -7,608345747e-01    0,000000000e+00    0,000000000e+00    0,000000000e+00    0,000000000e+00
      282000000    6,884883624e-03    1,375044137e-02   -5,627472401e-01   -5,326189995e-01    0,000000000e+00    0,000000000e+00    0,000000000e+00    0,000000000e+00
      296000000    1,244935766e-02   -6,235864479e-03   -7,604668140e-01   -1,345160902e-01    0,000000000e+00    0,000000000e+00    0,000000000e+00    0,000000000e+00
      310000000    1,358163636e-02   -1,460025553e-02   -7,082479000e-01    3,050508499e-01    0,000000000e+00    0,000000000e+00    0,000000000e+00    0,000000000e+00
      324000000    2,261357941e-02   -2,445052378e-02   -4,214289188e-01    6,393011212e-01    0,000000000e+00    0,000000000e+00    0,000000000e+00    0,000000000e+00
      338000000    2,806514688e-02   -5,086293817e-02   -1,261586673e-03    7,610358596e-01    0,000000000e+00    0,000000000e+00    0,000000000e+00    0,000000000e+00
      352000000    1,014762372e-02   -8,278441429e-02    4,108514190e-01    6,352253556e-01    0,000000000e+00    0,000000000e+00    0,000000000e+00    0,000000000e+00
      366000000   -3,180312738e-02   -9,389790148e-02    6,932489276e-01    3,043410480e-01    0,000000000e+00    0,000000000e+00    0,000000000e+00    0,000000000e+00
      380000000   -6,772883981e-02   -6,892935932e-02    7,453974485e-01   -1,343594491e-01    0,000000000e+00    0,000000000e+00    0,000000000e+00    0,000000000e+00
      394000000   -6,866545975e-02   -3,079385124e-02    5,389636159e-01   -5,301489830e-01    0,000000000e+00    0,000000000e+00    0,000000000e+00    0,000000000e+00
      408000000   -4,288972542e-02   -1,531524211e-02    1,506894976e-01   -7,332008481e-01    0,000000000e+00    0,000000000e+00    0,000000000e+00    0,000000000e+00
      422000000   -2,611261047e-02   -3,135465831e-02   -2,797548771e-01   -6,896818876e-01    0,000000000e+00    0,000000000e+00    0,000000000e+00    0,000000000e+00
      436000000   -3,923290223e-02   -4,897774383e-02   -6,111248136e-01   -4,191776216e-01    0,000000000e+00    0,000000000e+00    0,000000000e+00    0,000000000e+00
      450000000   -6,486942619e-02   -3,920143470e-02   -7,373267412e-01   -7,367213722e-03    0,000000000e+00    0,000000000e+00    0,000000000e+00    0,000000000e+00
      464000000   -6,723389775e-02   -6,082287524e-03   -6,077505350e-01    4,063248038e-01    0,000000000e+00    0,000000000e+00    0,000000000e+00    0,000000000e+00
      478000000   -3,828845546e-02    1,610952243e-02   -2,679983079e-01    6,701594591e-01    0,000000000e+00    0,000000000e+00    0,000000000e+00    0,000000000e+00
      492000000   -5,109651014e-03    6,636465434e-03    1,504749060e-01    6,948111653e-01    0,000000000e+00    0,000000000e+00    0,000000000e+00    0,000000000e+00
      506000000    6,921988912e-03   -1,999694295e-02    5,078147650e-01    4,883829653e-01    0,000000000e+00    0,000000000e+00    0,000000000e+00    0,000000000e+00
      520000000    4,864166840e-04   -3,884766251e-02    6,882681847e-01    1,217461675e-01    0,000000000e+00    0,000000000e+00    0,000000000e+00    0,000000000e+00
      534000000   -2,820194233e-03   -4,558385909e-02    6,326710582e-01   -2,821814418e-01    0,000000000e+00    0,000000000e+00    0,000000000e+00    0,000000000e+00
      548000000    1,347055077e-03   -5,940724164e-02    3,604592979e-01   -5,799067020e-01    0,000000000e+00    0,000000000e+00    0,000000000e+00    0,000000000e+00
      562000000   -7,712547202e-03   -8,806321025e-02   -2,668374218e-02   -6,721364260e-01    0,000000000e+00    0,000000000e+00    0,000000000e+00    0,000000000e+00
      576000000   -4,539339989e-02   -1,096964851e-01   -4,011253119e-01   -5,377913713e-01    0,000000000e+00    0,000000000e+00    0,000000000e+00    0,000000000e+00
      590000000   -9,460087866e-02   -9,356586635e-02   -6,415700316e-01   -2,193859071e-01    0,000000000e+00    0,000000000e+00    0,000000000e+00    0,000000000e+00
      604000000   -1,115851402e-01   -4,137950018e-02   -6,475493312e-01    1,983774602e-01    0,000000000e+00    0,000000000e+00    0,000000000e+00    0,000000000e+00
      618000000   -7,544086874e-02   -2,452012384e-03   -4,017256498e-01    5,353572369e-01    0,000000000e+00    0,000000000e+00    0,000000000e+00    0,000000000e+00
      632000000   -3,042454273e-02   -2,140588686e-02   -1,177791879e-02    6,551897526e-01    0,000000000e+00    0,000000000e+00    0,000000000e+00    0,000000000e+00
      646000000   -3,631794453e-02   -7,596113533e-02    3,662778139e-01    5,281220078e-01    0,000000000e+00    0,000000000e+00    0,000000000e+00    0,000000000e+00
      660000000   -1,119368449e-01   -9,934567660e-02    6,007227898e-01    1,934402883e-01    0,000000000e+00    0,000000000e+00    0,000000000e+00    0,000000000e+00
      674000000   -1,990077198e-01   -2,416722663e-02    5,650289059e-01   -2,391903847e-01    0,000000000e+00    0,000000000e+00    0,000000000e+00    0,000000000e+00
      688000000   -1,794316769e-01    1,439939886e-01    2,090162337e-01   -5,220525265e-01    0,000000000e+00    0,000000000e+00    0,000000000e+00    0,000000000e+00
      702000000    2,646262757e-02    2,456706762e-01   -1,959076822e-01   -4,006515145e-01    0,000000000e+00    0,000000000e+00    0,000000000e+00    0,000000000e+00
      716000000    2,638254464e-01    1,104076281e-01   -2,735028267e-01   -8,375302702e-02    0,000000000e+00    0,000000000e+00    0,000000000e+00    0,000000000e+00
      730000000    3,038542569e-01   -1,858021170e-01   -1,075862050e-01    3,258343413e-02    0,000000000e+00    0,000000000e+00    0,000000000e+00    0,000000000e+00
      744000000    9,340596199e-02   -4,275351167e-01   -4,270299152e-02   -6,472048163e-02    0,000000000e+00    0,000000000e+00    0,000000000e+00    0,000000000e+00
      758000000   -2,582524121e-01   -4,289850593e-01   -1,758219898e-01   -1,253237128e-01    0,000000000e+00    0,000000000e+00    0,000000000e+00    0,000000000e+00
      772000000   -4,859987795e-01   -1,200722083e-01   -3,360354602e-01    3,815950453e-02    0,000000000e+00    0,000000000e+00    0,000000000e+00    0,000000000e+00
      786000000   -3,418113589e-01    2,202382386e-01   -2,632970214e-01    3,172747195e-01    0,000000000e+00    0,000000000e+00    0,000000000e+00    0,000000000e+00
      800000000   -4,142619669e-02    2,775006592e-01    3,504797816e-03    4,365375042e-01    0,000000000e+00    0,000000000e+00    0,000000000e+00    0,000000000e+00
      814000000    1,443603337e-01    1,256295145e-01    2,643092275e-01    3,587920070e-01    0,000000000e+00    0,000000000e+00    0,000000000e+00    0,000000000e+00
      828000000    1,684634984e-01   -7,032329589e-02    4,326093197e-01    1,565751135e-01    0,000000000e+00    0,000000000e+00    0,000000000e+00    0,000000000e+00
      842000000    6,722319126e-02   -2,185590416e-01    4,664354324e-01   -1,202263087e-01    0,000000000e+00    0,000000000e+00    0,000000000e+00    0,000000000e+00
      856000000   -1,069793180e-01   -2,634012699e-01    3,201076090e-01   -3,940574825e-01    0,000000000e+00    0,000000000e+00    0,000000000e+00    0,000000000e+00
      870000000   -2,742247880e-01   -1,687377989e-01   -2,105334075e-03   -5,268876553e-01    0,000000000e+00    0,000000000e+00    0,000000000e+00    0,000000000e+00
      884000000   -3,209079504e-01    3,550583124e-02   -3,481238484e-01   -3,930341005e-01    0,000000000e+00    0,000000000e+00    0,000000000e+00    0,000000000e+00
      898000000   -1,918992996e-01    2,055477053e-01   -4,890742898e-01   -6,361629814e-02    0,000000000e+00    0,000000000e+00    0,000000000e+00    0,000000000e+00
      912000000    6,774838548e-03    2,192109376e-01   -3,972054422e-01    2,778570056e-01    0,000000000e+00    0,000000000e+00    0,000000000e+00    0,000000000e+00
      926000000    1,489500850e-01    1,110574529e-01   -1,716732681e-01    4,129515290e-01    0,000000000e+00    0,000000000e+00    0,000000000e+00    0,000000000e+00
      940000000    1,979850382e-01   -4,478429258e-02    6,399343163e-02    4,253282249e-01    0,000000000e+00    0,000000000e+00    0,000000000e+00    0,000000000e+00
      954000000    1,559698880e-01   -2,027710527e-01    2,599272728e-01    3,414901793e-01    0,000000000e+00    0,000000000e+00    0,000000000e+00    0,000000000e+00
      968000000    2,665490285e-02   -3,138986826e-01    4,097339809e-01    1,781275719e-01    0,000000000e+00    0,000000000e+00    0,000000000e+00    0,000000000e+00
      982000000   -1,638127267e-01   -3,325879574e-01    4,734625220e-01   -6,692211330e-02    0,000000000e+00    0,000000000e+00    0,000000000e+00    0,000000000e+00
      996000000   -3,250632584e-01   -2,069949359e-01    3,670775890e-01   -3,561259210e-01    0,000000000e+00    0,000000000e+00    0,000000000e+00    0,000000000e+00
     1010000000   -3,383165896e-01   -8,984211832e-03    4,138401151e-02   -5,241444707e-01    0,000000000e+00    0,000000000e+00    0,000000000e+00    0,000000000e+00
     1024000000   -2,080735266e-01    9,553645551e-02   -3,449836373e-01   -3,811269999e-01    0,000000000e+00    0,000000000e+00    0,000000000e+00    0,000000000e+00
     1038000000   -1,380269676e-01    9,573451243e-03   -4,806680083e-01    6,322707236e-02    0,000000000e+00    0,000000000e+00    0,000000000e+00    0,000000000e+00
     1052000000   -2,899748981e-01    5,169560760e-02   -9,341903031e-02    3,710737824e-01    0,000000000e+00    0,000000000e+00    0,000000000e+00    0,000000000e+00
     1066000000   -1,476676315e-01    3,008059859e-01    1,416445524e-01    1,309461743e-01    0,000000000e+00    0,000000000e+00    0,000000000e+00    0,000000000e+00
     1080000000    9,769764543e-02    2,522466481e-01    9,042037278e-02    2,186846174e-02    0,000000000e+00    0,000000000e+00    0,000000000e+00    0,000000000e+00
     1094000000    2,244169116e-01    8,784233779e-02    6,851817667e-02    1,085242815e-02    0,000000000e+00    0,000000000e+00    0,000000000e+00    0,000000000e+00
     1108000000    2,410775572e-01   -8,992432803e-02    8,233680576e-02    2,568580909e-03    0,000000000e+00    0,000000000e+00    0,000000000e+00    0,000000000e+00
     1122000000    1,835988015e-01   -2,485258281e-01    1,070336699e-01   -2,704163454e-02    0,000000000e+00    0,000000000e+00    0,000000000e+00    0,000000000e+00
     1136000000    5,172310024e-02   -3,773839474e-01    1,243823320e-01   -7,301654667e-02    0,000000000e+00    0,000000000e+00    0,000000000e+00    0,000000000e+00
     1150000000   -1,586530656e-01   -4,238884151e-01    1,384452283e-01   -1,513369977e-01    0,000000000e+00    0,000000000e+00    0,000000000e+00    0,000000000e+00
     1164000000   -3,750712276e-01   -3,221966028e-01    9,840461612e-02   -2,761313617e-01    0,000000000e+00    0,000000000e+00    0,000000000e+00    0,000000000e+00
     1178000000   -4,678909481e-01   -8,764962852e-02   -1,069908664e-01   -4,049928784e-01    0,000000000e+00    0,000000000e+00    0,000000000e+00    0,000000000e+00
     1192000000   -3,698575795e-01    4,143295437e-02   -4,598908722e-01   -1,979883015e-01    0,000000000e+00    0,000000000e+00    0,000000000e+00    0,000000000e+00
     1206000000   -4,137288332e-01    1,358283907e-01   -2,734765112e-01    2,395326793e-01    0,000000000e+00    0,000000000e+00    0,000000000e+00    0,000000000e+00
     1220000000   -2,718318105e-01    3,271735907e-01    4,506371333e-04    1,620535254e-01    0,000000000e+00    0,000000000e+00    0,000000000e+00    0,000000000e+00
     1234000000   -4,532077163e-02    3,461687565e-01    2,452891693e-02    5,150149763e-02    0,000000000e+00    0,000000000e+00    0,000000000e+00    0,000000000e+00
     1248000000    1,204811558e-01    2,523966432e-01    7,809715346e-03    2,785571478e-02    0,000000000e+00    0,000000000e+00    0,000000000e+00    0,000000000e+00
     1262000000    2,140083909e-01    9,995482117e-02    5,701047834e-03    2,799524739e-02    0,000000000e+00    0,000000000e+00    0,000000000e+00    0,000000000e+00
     1276000000    2,372559905e-01   -6,027371809e-02    3,019969165e-02    3,761340305e-02    0,000000000e+00    0,000000000e+00    0,000000000e+00    0,000000000e+00
     1290000000    1,916019320e-01   -2,199648023e-01    5,592923984e-02    2,101279795e-02    0,000000000e+00    0,000000000e+00    0,000000000e+00    0,000000000e+00
     1304000000    8,229659498e-02   -3,585425615e-01    7,917357236e-02    4,692313727e-03    0,000000000e+00    0,000000000e+00    0,000000000e+00    0,000000000e+00
     1318000000   -1,051939204e-01   -4,474973083e-01    7,727137208e-02   -9,883906692e-03    0,000000000e+00    0,000000000e+00    0,000000000e+00    0,000000000e+00
     1332000000   -3,583807647e-01   -4,364624321e-01    8,272474259e-02   -1,696642675e-02    0,000000000e+00    0,000000000e+00    0,000000000e+00    0,000000000e+00
     1346000000   -5,863890648e-01   -2,508397102e-01    1,042741016e-01   -1,068368740e-02    0,000000000e+00    0,000000000e+00    0,000000000e+00    0,000000000e+00
     1360000000   -6,471251249e-01    6,470319629e-02    1,504945308e-01   -2,001883462e-02    0,000000000e+00    0,000000000e+00    0,000000000e+00    0,000000000e+00
     1374000000   -4,923307300e-01    3,299950957e-01    1,669500470e-01   -5,850100517e-02    0,000000000e+00    0,000000000e+00    0,000000000e+00    0,000000000e+00
     1388000000   -2,513811290e-01    4,268095791e-01    1,574948728e-01   -8,237423003e-02    0,000000000e+00    0,000000000e+00    0,000000000e+00    0,000000000e+00
     1402000000   -4,761563614e-02    3,913851082e-01    1,314601004e-01   -9,775113314e-02    0,000000000e+00    0,000000000e+00    0,000000000e+00    0,000000000e+00
     1416000000    1,034360230e-01    2,839753628e-01    1,261535883e-01   -8,149203658e-02    0,000000000e+00    0,000000000e+00    0,000000000e+00    0,000000000e+00
     1430000000    1,888611317e-01    1,478485763e-01    1,144814044e-01   -6,795652211e-02    0,000000000e+00    0,000000000e+00    0,000000000e+00    0,000000000e+00
     1444000000    2,189028561e-01   -9,385626763e-03    1,258060187e-01   -2,172647417e-02    0,000000000e+00    0,000000000e+00    0,000000000e+00    0,000000000e+00
     1458000000    1,837030202e-01   -1,822719872e-01    1,478642672e-01   -2,762980293e-03    0,000000000e+00    0,000000000e+00    0,000000000e+00    0,000000000e+00
     1472000000    6,838525832e-02   -3,489764631e-01    1,836411506e-01    7,259912789e-02    0,000000000e+00    0,000000000e+00    0,000000000e+00    0,000000000e+00
     1486000000   -1,445086151e-01   -4,681537747e-01    2,888904512e-01    9,910622984e-02    0,000000000e+00    0,000000000e+00    0,000000000e+00    0,000000000e+00
     1500000000   -4,412565827e-01   -4,716211557e-01    3,979806304e-01    6,270825863e-02    0,000000000e+00    0,000000000e+00    0,000000000e+00    0,000000000e+00
