! NanoVNA-App
! Date: 2025-09-25 15:58:31
! Start: 100MHz Stop: 1,5GHz Points: 101
! S-Parameter data: F S11 S21 S12 S22
# Hz S RI R 50
!     Frequency           S11_Real           S11_Imag           S21_Real           S21_Imag           S12_Real           S12_Imag           S22_Real           S22_Imag
      100000000   -2,823491208e-02   -2,858749358e-03    3,722460866e-01   -7,224563956e-01    0,000000000e+00    0,000000000e+00    0,000000000e+00    0,000000000e+00
      114000000   -1,564684324e-02    1,290063839e-02   -9,129910916e-02   -8,046501875e-01    0,000000000e+00    0,000000000e+00    0,000000000e+00    0,000000000e+00
      128000000    4,343201406e-03    1,189621445e-02   -5,158954263e-01   -6,186367273e-01    0,000000000e+00    0,000000000e+00    0,000000000e+00    0,000000000e+00
      142000000    1,548488624e-02   -1,799539081e-03   -7,674319744e-01   -2,342549711e-01    0,000000000e+00    0,000000000e+00    0,000000000e+00    0,000000000e+00
      156000000    1,556896698e-02   -1,374686509e-02   -7,700237632e-01    2,232622802e-01    0,000000000e+00    0,000000000e+00    0,000000000e+00    0,000000000e+00
      170000000    1,766491681e-02   -2,095152438e-02   -5,153099895e-01    6,060853004e-01    0,000000000e+00    0,000000000e+00    0,000000000e+00    0,000000000e+00
      184000000    2,204030193e-02   -3,556341305e-02   -9,820442647e-02    7,856382728e-01    0,000000000e+00    0,000000000e+00    0,000000000e+00    0,000000000e+00
      198000000    1,396041084e-02   -6,064701825e-02    3,461018503e-01    7,109768391e-01    0,000000000e+00    0,000000000e+00    0,000000000e+00    0,000000000e+00
      212000000   -1,770846918e-02   -7,914934307e-02    6,806280613e-01    4,063098133e-01    0,000000000e+00    0,000000000e+00    0,000000000e+00    0,000000000e+00
      226000000   -6,034906581e-02   -6,667210162e-02    7,957509756e-01   -3,559912741e-02    0,000000000e+00    0,000000000e+00    0,000000000e+00    0,000000000e+00
      240000000   -8,048692346e-02   -2,275745757e-02    6,414093971e-01   -4,716685116e-01    0,000000000e+00    0,000000000e+00    0,000000000e+00    0,000000000e+00
      254000000   -6,077491120e-02    1,984159462e-02    2,712185681e-01   -7,419041395e-01    0,000000000e+00    0,000000000e+00    0,000000000e+00    0,000000000e+00
      268000000   -2,097819559e-02    3,091116250e-02   -1,809820384e-01   -7,605230808e-01    0,000000000e+00    0,000000000e+00    0,000000000e+00    0,000000000e+00
      282000000    6,946813315e-03    1,368661225e-02   -5,631619692e-01   -5,328331590e-01    0,000000000e+00    0,000000000e+00    0,000000000e+00    0,000000000e+00
      296000000    1,245060377e-02   -6,322375033e-03   -7,604753375e-01   -1,343314648e-01    0,000000000e+00    0,000000000e+00    0,000000000e+00    0,000000000e+00
      310000000    1,365595032e-02   -1,463103294e-02   -7,086079121e-01    3,033374250e-01    0,000000000e+00    0,000000000e+00    0,000000000e+00    0,000000000e+00
      324000000    2,247970924e-02   -2,459865622e-02   -4,209689200e-01    6,398625374e-01    0,000000000e+00    0,000000000e+00    0,000000000e+00    0,000000000e+00
      338000000    2,841779590e-02   -5,050762743e-02   -4,032281286e-04    7,601851821e-01    0,000000000e+00    0,000000000e+00    0,000000000e+00    0,000000000e+00
      352000000    1,031805668e-02   -8,288036287e-02    4,117638171e-01    6,352455616e-01    0,000000000e+00    0,000000000e+00    0,000000000e+00    0,000000000e+00
      366000000   -3,190387413e-02   -9,366849065e-02    6,931112409e-01    3,043835461e-01    0,000000000e+00    0,000000000e+00    0,000000000e+00    0,000000000e+00
      380000000   -6,749306619e-02   -6,886960566e-02    7,453170419e-01   -1,340490580e-01    0,000000000e+00    0,000000000e+00    0,000000000e+00    0,000000000e+00
      394000000   -6,847013533e-02   -3,048995137e-02    5,393022895e-01   -5,273286104e-01    0,000000000e+00    0,000000000e+00    0,000000000e+00    0,000000000e+00
      408000000   -4,290322587e-02   -1,574537717e-02    1,506616324e-01   -7,342434525e-01    0,000000000e+00    0,000000000e+00    0,000000000e+00    0,000000000e+00
      422000000   -2,611460164e-02   -3,138283268e-02   -2,786080241e-01   -6,901082397e-01    0,000000000e+00    0,000000000e+00    0,000000000e+00    0,000000000e+00
      436000000   -3,924608603e-02   -4,913716763e-02   -6,102586985e-01   -4,196604788e-01    0,000000000e+00    0,000000000e+00    0,000000000e+00    0,000000000e+00
      450000000   -6,468863040e-02   -3,891927376e-02   -7,366068959e-01   -7,512889802e-03    0,000000000e+00    0,000000000e+00    0,000000000e+00    0,000000000e+00
      464000000   -6,753823161e-02   -5,926665850e-03   -6,074641943e-01    4,065304697e-01    0,000000000e+00    0,000000000e+00    0,000000000e+00    0,000000000e+00
      478000000   -3,865586966e-02    1,578751393e-02   -2,675372362e-01    6,701122522e-01    0,000000000e+00    0,000000000e+00    0,000000000e+00    0,000000000e+00
      492000000   -5,384357180e-03    6,419396028e-03    1,511489153e-01    6,950269341e-01    0,000000000e+00    0,000000000e+00    0,000000000e+00    0,000000000e+00
      506000000    6,793462206e-03   -2,021032386e-02    5,073900819e-01    4,884587228e-01    0,000000000e+00    0,000000000e+00    0,000000000e+00    0,000000000e+00
      520000000    8,135412354e-04   -3,855984285e-02    6,885224581e-01    1,216666251e-01    0,000000000e+00    0,000000000e+00    0,000000000e+00    0,000000000e+00
      534000000   -3,082857002e-03   -4,575013742e-02    6,322861910e-01   -2,823006213e-01    0,000000000e+00    0,000000000e+00    0,000000000e+00    0,000000000e+00
      548000000    1,174024073e-03   -5,977144465e-02    3,608445525e-01   -5,801550746e-01    0,000000000e+00    0,000000000e+00    0,000000000e+00    0,000000000e+00
      562000000   -8,108287118e-03   -8,878158778e-02   -2,613663673e-02   -6,725789905e-01    0,000000000e+00    0,000000000e+00    0,000000000e+00    0,000000000e+00
      576000000   -4,548300058e-02   -1,093425155e-01   -4,004991651e-01   -5,382518768e-01    0,000000000e+00    0,000000000e+00    0,000000000e+00    0,000000000e+00
      590000000   -9,457188100e-02   -9,346779436e-02   -6,383900046e-01   -2,174046040e-01    0,000000000e+00    0,000000000e+00    0,000000000e+00    0,000000000e+00
      604000000   -1,116690710e-01   -4,085826501e-02   -6,476897597e-01    1,991717517e-01    0,000000000e+00    0,000000000e+00    0,000000000e+00    0,000000000e+00
      618000000   -7,605423778e-02   -2,051574644e-03   -4,014505148e-01    5,362060070e-01    0,000000000e+00    0,000000000e+00    0,000000000e+00    0,000000000e+00
      632000000   -2,962959372e-02   -2,095863782e-02   -1,248534396e-02    6,555993557e-01    0,000000000e+00    0,000000000e+00    0,000000000e+00    0,000000000e+00
      646000000   -3,631315008e-02   -7,643553615e-02    3,655438125e-01    5,273126364e-01    0,000000000e+00    0,000000000e+00    0,000000000e+00    0,000000000e+00
      660000000   -1,119044572e-01   -9,934083372e-02    6,007467508e-01    1,935257912e-01    0,000000000e+00    0,000000000e+00    0,000000000e+00    0,000000000e+00
      674000000   -1,989689767e-01   -2,353881113e-02    5,656403303e-01   -2,395567000e-01    0,000000000e+00    0,000000000e+00    0,000000000e+00    0,000000000e+00
      688000000   -1,783237606e-01    1,451981217e-01    2,100491673e-01   -5,226239562e-01    0,000000000e+00    0,000000000e+00    0,000000000e+00    0,000000000e+00
      702000000    2,687827498e-02    2,456709296e-01   -1,981808543e-01   -4,022659361e-01    0,000000000e+00    0,000000000e+00    0,000000000e+00    0,000000000e+00
      716000000    2,640252113e-01    1,104717553e-01   -2,719986141e-01   -8,346556872e-02    0,000000000e+00    0,000000000e+00    0,000000000e+00    0,000000000e+00
      730000000    3,029106259e-01   -1,865874827e-01   -1,063704342e-01    3,163856640e-02    0,000000000e+00    0,000000000e+00    0,000000000e+00    0,000000000e+00
      744000000    9,307385236e-02   -4,282374680e-01   -4,279244691e-02   -6,535155326e-02    0,000000000e+00    0,000000000e+00    0,000000000e+00    0,000000000e+00
      758000000   -2,593353093e-01   -4,294970036e-01   -1,759909987e-01   -1,257860512e-01    0,000000000e+00    0,000000000e+00    0,000000000e+00    0,000000000e+00
      772000000   -4,856885970e-01   -1,198797002e-01   -3,365694880e-01    3,860431910e-02    0,000000000e+00    0,000000000e+00    0,000000000e+00    0,000000000e+00
      786000000   -3,406995833e-01    2,219880670e-01   -2,626677752e-01    3,171203434e-01    0,000000000e+00    0,000000000e+00    0,000000000e+00    0,000000000e+00
      800000000   -4,072169214e-02    2,763993740e-01    2,732704161e-03    4,369449615e-01    0,000000000e+00    0,000000000e+00    0,000000000e+00    0,000000000e+00
      814000000    1,439248025e-01    1,252617687e-01    2,638696134e-01    3,593180180e-01    0,000000000e+00    0,000000000e+00    0,000000000e+00    0,000000000e+00
      828000000    1,678143442e-01   -7,048564404e-02    4,331102669e-01    1,566136777e-01    0,000000000e+00    0,000000000e+00    0,000000000e+00    0,000000000e+00
      842000000    6,727582961e-02   -2,185108513e-01    4,664672017e-01   -1,199768335e-01    0,000000000e+00    0,000000000e+00    0,000000000e+00    0,000000000e+00
      856000000   -1,065821946e-01   -2,636258304e-01    3,201043606e-01   -3,943723142e-01    0,000000000e+00    0,000000000e+00    0,000000000e+00    0,000000000e+00
      870000000   -2,751367986e-01   -1,679479927e-01   -2,385538071e-03   -5,270525217e-01    0,000000000e+00    0,000000000e+00    0,000000000e+00    0,000000000e+00
      884000000   -3,204686642e-01    3,493674099e-02   -3,486099243e-01   -3,923595548e-01    0,000000000e+00    0,000000000e+00    0,000000000e+00    0,000000000e+00
      898000000   -1,927428246e-01    2,065386474e-01   -4,891784191e-01   -6,282070279e-02    0,000000000e+00    0,000000000e+00    0,000000000e+00    0,000000000e+00
      912000000    5,911550485e-03    2,189736068e-01   -3,964303732e-01    2,781321704e-01    0,000000000e+00    0,000000000e+00    0,000000000e+00    0,000000000e+00
      926000000    1,502129287e-01    1,131192744e-01   -1,708682030e-01    4,174914956e-01    0,000000000e+00    0,000000000e+00    0,000000000e+00    0,000000000e+00
      940000000    2,009552866e-01   -4,676870629e-02    6,423036754e-02    4,246137440e-01    0,000000000e+00    0,000000000e+00    0,000000000e+00    0,000000000e+00
      954000000    1,551421583e-01   -2,014903426e-01    2,591298223e-01    3,406987488e-01    0,000000000e+00    0,000000000e+00    0,000000000e+00    0,000000000e+00
      968000000    2,467901446e-02   -3,116283119e-01    4,109552801e-01    1,789529622e-01    0,000000000e+00    0,000000000e+00    0,000000000e+00    0,000000000e+00
      982000000   -1,579792947e-01   -3,327052295e-01    4,738970995e-01   -6,790465117e-02    0,000000000e+00    0,000000000e+00    0,000000000e+00    0,000000000e+00
      996000000   -3,232502043e-01   -2,083151639e-01    3,674215376e-01   -3,548976779e-01    0,000000000e+00    0,000000000e+00    0,000000000e+00    0,000000000e+00
     1010000000   -3,416175544e-01   -1,058493089e-02    4,100936279e-02   -5,229778886e-01    0,000000000e+00    0,000000000e+00    0,000000000e+00    0,000000000e+00
     1024000000   -2,085923254e-01    9,459787607e-02   -3,448083401e-01   -3,803383708e-01    0,000000000e+00    0,000000000e+00    0,000000000e+00    0,000000000e+00
     1038000000   -1,372036040e-01    9,865824133e-03   -4,816000760e-01    6,191486120e-02    0,000000000e+00    0,000000000e+00    0,000000000e+00    0,000000000e+00
     1052000000   -2,861399949e-01    5,677541345e-02   -9,459941089e-02    3,724629283e-01    0,000000000e+00    0,000000000e+00    0,000000000e+00    0,000000000e+00
     1066000000   -1,484048367e-01    2,981904745e-01    1,437037438e-01    1,333725601e-01    0,000000000e+00    0,000000000e+00    0,000000000e+00    0,000000000e+00
     1080000000    9,697710723e-02    2,497601658e-01    9,064856172e-02    1,979581825e-02    0,000000000e+00    0,000000000e+00    0,000000000e+00    0,000000000e+00
     1094000000    2,197479755e-01    8,568646759e-02    7,103566825e-02    1,029880531e-02    0,000000000e+00    0,000000000e+00    0,000000000e+00    0,000000000e+00
     1108000000    2,429013550e-01   -9,054350853e-02    8,248496056e-02   -2,251113066e-03    0,000000000e+00    0,000000000e+00    0,000000000e+00    0,000000000e+00
     1122000000    1,831952482e-01   -2,489996701e-01    1,030469164e-01   -2,695932798e-02    0,000000000e+00    0,000000000e+00    0,000000000e+00    0,000000000e+00
     1136000000    5,141310394e-02   -3,753385246e-01    1,263523847e-01   -7,138939947e-02    0,000000000e+00    0,000000000e+00    0,000000000e+00    0,000000000e+00
     1150000000   -1,559258103e-01   -4,201650321e-01    1,352355182e-01   -1,509165913e-01    0,000000000e+00    0,000000000e+00    0,000000000e+00    0,000000000e+00
     1164000000   -3,809175193e-01   -3,244324625e-01    9,718719125e-02   -2,783920765e-01    0,000000000e+00    0,000000000e+00    0,000000000e+00    0,000000000e+00
     1178000000   -4,628746510e-01   -8,299368620e-02   -1,044470519e-01   -4,046853185e-01    0,000000000e+00    0,000000000e+00    0,000000000e+00    0,000000000e+00
     1192000000   -3,776339889e-01    3,807052225e-02   -4,633008838e-01   -1,951254159e-01    0,000000000e+00    0,000000000e+00    0,000000000e+00    0,000000000e+00
     1206000000   -4,176627100e-01    1,314386576e-01   -2,784328759e-01    2,392921746e-01    0,000000000e+00    0,000000000e+00    0,000000000e+00    0,000000000e+00
     1220000000   -2,746098638e-01    3,266656697e-01   -4,041774198e-03    1,663372368e-01    0,000000000e+00    0,000000000e+00    0,000000000e+00    0,000000000e+00
     1234000000   -4,995488003e-02    3,505754471e-01    2,426149696e-02    5,560161173e-02    0,000000000e+00    0,000000000e+00    0,000000000e+00    0,000000000e+00
     1248000000    1,212314069e-01    2,472365201e-01    4,781845957e-03    1,952265762e-02    0,000000000e+00    0,000000000e+00    0,000000000e+00    0,000000000e+00
     1262000000    2,126714736e-01    1,061533615e-01    6,293383893e-03    3,395477310e-02    0,000000000e+00    0,000000000e+00    0,000000000e+00    0,000000000e+00
     1276000000    2,394349724e-01   -6,092374772e-02    2,560077235e-02    3,372258693e-02    0,000000000e+00    0,000000000e+00    0,000000000e+00    0,000000000e+00
     1290000000    1,969498843e-01   -2,140392959e-01    5,905400962e-02    2,125095762e-02    0,000000000e+00    0,000000000e+00    0,000000000e+00    0,000000000e+00
     1304000000    8,310575783e-02   -3,569108546e-01    7,388883829e-02   -1,319490722e-03    0,000000000e+00    0,000000000e+00    0,000000000e+00    0,000000000e+00
     1318000000   -1,048427150e-01   -4,445281625e-01    8,278235048e-02   -8,526556194e-03    0,000000000e+00    0,000000000e+00    0,000000000e+00    0,000000000e+00
     1332000000   -3,544066846e-01   -4,360524118e-01    9,503599256e-02   -1,733664051e-02    0,000000000e+00    0,000000000e+00    0,000000000e+00    0,000000000e+00
     1346000000   -5,852115750e-01   -2,415878028e-01    1,049774587e-01   -9,920546785e-03    0,000000000e+00    0,000000000e+00    0,000000000e+00    0,000000000e+00
     1360000000   -6,596107483e-01    7,601342350e-02    1,418004632e-01   -9,862594306e-03    0,000000000e+00    0,000000000e+00    0,000000000e+00    0,000000000e+00
     1374000000   -4,912435412e-01    3,372130692e-01    1,753768772e-01   -5,495738611e-02    0,000000000e+00    0,000000000e+00    0,000000000e+00    0,000000000e+00
     1388000000   -2,546377480e-01    4,291135967e-01    1,657414883e-01   -7,267849892e-02    0,000000000e+00    0,000000000e+00    0,000000000e+00    0,000000000e+00
     1402000000   -4,574272782e-02    3,917322159e-01    1,412206292e-01   -9,381099045e-02    0,000000000e+00    0,000000000e+00    0,000000000e+00    0,000000000e+00
     1416000000    1,037467048e-01    2,860630155e-01    1,258620322e-01   -9,337813407e-02    0,000000000e+00    0,000000000e+00    0,000000000e+00    0,000000000e+00
     1430000000    1,925930083e-01    1,472944915e-01    1,347708255e-01   -7,331631333e-02    0,000000000e+00    0,000000000e+00    0,000000000e+00    0,000000000e+00
     1444000000    2,144488543e-01   -1,173041575e-02    1,295382082e-01   -2,337696031e-02    0,000000000e+00    0,000000000e+00    0,000000000e+00    0,000000000e+00
     1458000000    1,808593571e-01   -1,862080693e-01    1,414037645e-01    9,026405402e-03    0,000000000e+00    0,000000000e+00    0,000000000e+00    0,000000000e+00
     1472000000    6,230851635e-02   -3,450405598e-01    1,838593334e-01    7,347651571e-02    0,000000000e+00    0,000000000e+00    0,000000000e+00    0,000000000e+00
     1486000000   -1,346115917e-01   -4,688108265e-01    2,989670932e-01    1,117515415e-01    0,000000000e+00    0,000000000e+00    0,000000000e+00    0,000000000e+00
     1500000000   -4,460306466e-01   -4,877561927e-01    4,137227833e-01    4,348030314e-02    0,000000000e+00    0,000000000e+00    0,000000000e+00    0,000000000e+00
