! NanoVNA-App
! Date: 2025-09-25 15:59:20
! Start: 100MHz Stop: 1,5GHz Points: 101
! S-Parameter data: F S11 S21 S12 S22
# Hz S RI R 50
!     Frequency           S11_Real           S11_Imag           S21_Real           S21_Imag           S12_Real           S12_Imag           S22_Real           S22_Imag
      100000000   -2,825418115e-02   -2,853501821e-03    3,722744882e-01   -7,224329114e-01    0,000000000e+00    0,000000000e+00    0,000000000e+00    0,000000000e+00
      114000000   -1,568065211e-02    1,287856046e-02   -9,138402343e-02   -8,046770096e-01    0,000000000e+00    0,000000000e+00    0,000000000e+00    0,000000000e+00
      128000000    4,324467387e-03    1,193740405e-02   -5,159101486e-01   -6,187229753e-01    0,000000000e+00    0,000000000e+00    0,000000000e+00    0,000000000e+00
      142000000    1,549049653e-02   -1,775484998e-03   -7,673557997e-01   -2,341396958e-01    0,000000000e+00    0,000000000e+00    0,000000000e+00    0,000000000e+00
      156000000    1,753370278e-02   -1,384745073e-02   -7,673314214e-01    2,272184789e-01    0,000000000e+00    0,000000000e+00    0,000000000e+00    0,000000000e+00
      170000000    1,763234288e-02   -2,097554505e-02   -5,153947473e-01    6,062198281e-01    0,000000000e+00    0,000000000e+00    0,000000000e+00    0,000000000e+00
      184000000    2,199828625e-02   -3,557233885e-02   -9,829276800e-02    7,861981392e-01    0,000000000e+00    0,000000000e+00    0,000000000e+00    0,000000000e+00
      198000000    1,408292819e-02   -6,067405269e-02    3,460426331e-01    7,109569907e-01    0,000000000e+00    0,000000000e+00    0,000000000e+00    0,000000000e+00
      212000000   -1,765169762e-02   -7,913953066e-02    6,804752350e-01    4,061498642e-01    0,000000000e+00    0,000000000e+00    0,000000000e+00    0,000000000e+00
      226000000   -6,031038985e-02   -6,660365313e-02    7,958109975e-01   -3,570361808e-02    0,000000000e+00    0,000000000e+00    0,000000000e+00    0,000000000e+00
      240000000   -8,055468649e-02   -2,275471762e-02    6,418630481e-01   -4,715241790e-01    0,000000000e+00    0,000000000e+00    0,000000000e+00    0,000000000e+00
      254000000   -6,079675630e-02    1,979085058e-02    2,709364593e-01   -7,421461940e-01    0,000000000e+00    0,000000000e+00    0,000000000e+00    0,000000000e+00
      268000000   -2,094868384e-02    3,092432208e-02   -1,812435538e-01   -7,607948780e-01    0,000000000e+00    0,000000000e+00    0,000000000e+00    0,000000000e+00
      282000000    6,891965400e-03    1,376545522e-02   -5,630335808e-01   -5,322254300e-01    0,000000000e+00    0,000000000e+00    0,000000000e+00    0,000000000e+00
      296000000    1,233968791e-02   -6,163700484e-03   -7,603991628e-01   -1,343857497e-01    0,000000000e+00    0,000000000e+00    0,000000000e+00    0,000000000e+00
      310000000    1,354075782e-02   -1,456256118e-02   -7,083850503e-01    3,036885858e-01    0,000000000e+00    0,000000000e+00    0,000000000e+00    0,000000000e+00
      324000000    2,256665751e-02   -2,474901080e-02   -4,209354818e-01    6,397354007e-01    0,000000000e+00    0,000000000e+00    0,000000000e+00    0,000000000e+00
      338000000    2,856410109e-02   -5,087827146e-02   -2,139729448e-03    7,609772682e-01    0,000000000e+00    0,000000000e+00    0,000000000e+00    0,000000000e+00
      352000000    1,031817496e-02   -8,309373260e-02    4,119997621e-01    6,351812482e-01    0,000000000e+00    0,000000000e+00    0,000000000e+00    0,000000000e+00
      366000000   -3,154497594e-02   -9,377199411e-02    6,934977770e-01    3,042595685e-01    0,000000000e+00    0,000000000e+00    0,000000000e+00    0,000000000e+00
      380000000   -6,737483293e-02   -6,896482408e-02    7,460365891e-01   -1,343720704e-01    0,000000000e+00    0,000000000e+00    0,000000000e+00    0,000000000e+00
      394000000   -6,871577352e-02   -3,067292087e-02    5,398601890e-01   -5,287393332e-01    0,000000000e+00    0,000000000e+00    0,000000000e+00    0,000000000e+00
      408000000   -4,279361293e-02   -1,561272983e-02    1,490442306e-01   -7,346531153e-01    0,000000000e+00    0,000000000e+00    0,000000000e+00    0,000000000e+00
      422000000   -2,619397454e-02   -3,118215129e-02   -2,789175808e-01   -6,892195344e-01    0,000000000e+00    0,000000000e+00    0,000000000e+00    0,000000000e+00
      436000000   -3,908931091e-02   -4,916291684e-02   -6,099377275e-01   -4,194883406e-01    0,000000000e+00    0,000000000e+00    0,000000000e+00    0,000000000e+00
      450000000   -6,463212520e-02   -3,924944252e-02   -7,367249131e-01   -7,692236453e-03    0,000000000e+00    0,000000000e+00    0,000000000e+00    0,000000000e+00
      464000000   -6,774572283e-02   -6,572254002e-03   -6,081198454e-01    4,065070450e-01    0,000000000e+00    0,000000000e+00    0,000000000e+00    0,000000000e+00
      478000000   -3,858618066e-02    1,587837003e-02   -2,679116428e-01    6,702045202e-01    0,000000000e+00    0,000000000e+00    0,000000000e+00    0,000000000e+00
      492000000   -4,933052231e-03    6,032116245e-03    1,520547420e-01    6,951432824e-01    0,000000000e+00    0,000000000e+00    0,000000000e+00    0,000000000e+00
      506000000    6,914246362e-03   -2,020021342e-02    5,089680552e-01    4,885054827e-01    0,000000000e+00    0,000000000e+00    0,000000000e+00    0,000000000e+00
      520000000    4,798382288e-04   -3,864521161e-02    6,900162101e-01    1,202957779e-01    0,000000000e+00    0,000000000e+00    0,000000000e+00    0,000000000e+00
      534000000   -2,980298596e-03   -4,575317726e-02    6,328488588e-01   -2,823645175e-01    0,000000000e+00    0,000000000e+00    0,000000000e+00    0,000000000e+00
      548000000    6,002667942e-04   -5,946027115e-02    3,597099483e-01   -5,789856911e-01    0,000000000e+00    0,000000000e+00    0,000000000e+00    0,000000000e+00
      562000000   -7,521481719e-03   -8,840089291e-02   -2,655494399e-02   -6,723891497e-01    0,000000000e+00    0,000000000e+00    0,000000000e+00    0,000000000e+00
      576000000   -4,517144337e-02   -1,095617935e-01   -4,012453556e-01   -5,376783609e-01    0,000000000e+00    0,000000000e+00    0,000000000e+00    0,000000000e+00
      590000000   -9,480903298e-02   -9,338148683e-02   -6,402584314e-01   -2,161250114e-01    0,000000000e+00    0,000000000e+00    0,000000000e+00    0,000000000e+00
      604000000   -1,118787155e-01   -4,085212946e-02   -6,478956342e-01    1,983713359e-01    0,000000000e+00    0,000000000e+00    0,000000000e+00    0,000000000e+00
      618000000   -7,607781142e-02   -2,116119955e-03   -4,014285207e-01    5,363131166e-01    0,000000000e+00    0,000000000e+00    0,000000000e+00    0,000000000e+00
      632000000   -3,014449030e-02   -2,139945701e-02   -1,197358314e-02    6,548637152e-01    0,000000000e+00    0,000000000e+00    0,000000000e+00    0,000000000e+00
      646000000   -3,592964634e-02   -7,703530788e-02    3,659595549e-01    5,275421739e-01    0,000000000e+00    0,000000000e+00    0,000000000e+00    0,000000000e+00
      660000000   -1,109017953e-01   -9,990188479e-02    6,006882787e-01    1,933437139e-01    0,000000000e+00    0,000000000e+00    0,000000000e+00    0,000000000e+00
      674000000   -1,993168443e-01   -2,325776033e-02    5,650976896e-01   -2,397224754e-01    0,000000000e+00    0,000000000e+00    0,000000000e+00    0,000000000e+00
      688000000   -1,785309017e-01    1,452831179e-01    2,090610266e-01   -5,219667554e-01    0,000000000e+00    0,000000000e+00    0,000000000e+00    0,000000000e+00
      702000000    2,757330239e-02    2,454776764e-01   -1,985808760e-01   -4,031434059e-01    0,000000000e+00    0,000000000e+00    0,000000000e+00    0,000000000e+00
      716000000    2,641995549e-01    1,107968837e-01   -2,732022405e-01   -8,356707543e-02    0,000000000e+00    0,000000000e+00    0,000000000e+00    0,000000000e+00
      730000000    3,037824929e-01   -1,852860451e-01   -1,072044447e-01    3,218307346e-02    0,000000000e+00    0,000000000e+00    0,000000000e+00    0,000000000e+00
      744000000    9,434839338e-02   -4,280074537e-01   -4,269431159e-02   -6,503520161e-02    0,000000000e+00    0,000000000e+00    0,000000000e+00    0,000000000e+00
      758000000   -2,595899403e-01   -4,303241968e-01   -1,756025702e-01   -1,256362945e-01    0,000000000e+00    0,000000000e+00    0,000000000e+00    0,000000000e+00
      772000000   -4,851532578e-01   -1,182469726e-01   -3,363910019e-01    3,806979954e-02    0,000000000e+00    0,000000000e+00    0,000000000e+00    0,000000000e+00
      786000000   -3,414945900e-01    2,212394923e-01   -2,630492747e-01    3,170483708e-01    0,000000000e+00    0,000000000e+00    0,000000000e+00    0,000000000e+00
      800000000   -4,038441554e-02    2,761353552e-01    3,750269767e-03    4,366547763e-01    0,000000000e+00    0,000000000e+00    0,000000000e+00    0,000000000e+00
      814000000    1,446677446e-01    1,256962717e-01    2,637207210e-01    3,589608073e-01    0,000000000e+00    0,000000000e+00    0,000000000e+00    0,000000000e+00
      828000000    1,679725945e-01   -7,004825771e-02    4,333986938e-01    1,565367132e-01    0,000000000e+00    0,000000000e+00    0,000000000e+00    0,000000000e+00
      842000000    6,700173765e-02   -2,181611806e-01    4,664837420e-01   -1,203067005e-01    0,000000000e+00    0,000000000e+00    0,000000000e+00    0,000000000e+00
      856000000   -1,064746380e-01   -2,636134624e-01    3,192345798e-01   -3,946745694e-01    0,000000000e+00    0,000000000e+00    0,000000000e+00    0,000000000e+00
      870000000   -2,744724452e-01   -1,674077362e-01   -1,899657655e-03   -5,271340013e-01    0,000000000e+00    0,000000000e+00    0,000000000e+00    0,000000000e+00
      884000000   -3,196598291e-01    3,519259021e-02   -3,470213711e-01   -3,927344978e-01    0,000000000e+00    0,000000000e+00    0,000000000e+00    0,000000000e+00
      898000000   -1,925537884e-01    2,061615437e-01   -4,897438288e-01   -6,282012165e-02    0,000000000e+00    0,000000000e+00    0,000000000e+00    0,000000000e+00
      912000000    5,905414000e-03    2,192931622e-01   -4,094154835e-01    2,771462798e-01    0,000000000e+00    0,000000000e+00    0,000000000e+00    0,000000000e+00
      926000000    1,509318799e-01    1,140980124e-01   -1,680417955e-01    4,165136814e-01    0,000000000e+00    0,000000000e+00    0,000000000e+00    0,000000000e+00
      940000000    1,977590173e-01   -4,755060375e-02    6,280820072e-02    4,246316552e-01    0,000000000e+00    0,000000000e+00    0,000000000e+00    0,000000000e+00
      954000000    1,557353735e-01   -2,034715414e-01    2,620650530e-01    3,414583206e-01    0,000000000e+00    0,000000000e+00    0,000000000e+00    0,000000000e+00
      968000000    2,281694859e-02   -3,159550130e-01    4,120622575e-01    1,792594641e-01    0,000000000e+00    0,000000000e+00    0,000000000e+00    0,000000000e+00
      982000000   -1,618883908e-01   -3,287023902e-01    4,748570919e-01   -6,705168635e-02    0,000000000e+00    0,000000000e+00    0,000000000e+00    0,000000000e+00
      996000000   -3,248451054e-01   -2,114279270e-01    3,675558865e-01   -3,566403389e-01    0,000000000e+00    0,000000000e+00    0,000000000e+00    0,000000000e+00
     1010000000   -3,364481628e-01   -7,475655992e-03    4,210016876e-02   -5,220330358e-01    0,000000000e+00    0,000000000e+00    0,000000000e+00    0,000000000e+00
     1024000000   -2,021358758e-01    9,529841691e-02   -3,467697799e-01   -3,808177710e-01    0,000000000e+00    0,000000000e+00    0,000000000e+00    0,000000000e+00
     1038000000   -1,380885094e-01    1,106876694e-02   -4,811110497e-01    6,212060899e-02    0,000000000e+00    0,000000000e+00    0,000000000e+00    0,000000000e+00
     1052000000   -2,916698754e-01    5,512238666e-02   -9,335050732e-02    3,705576062e-01    0,000000000e+00    0,000000000e+00    0,000000000e+00    0,000000000e+00
     1066000000   -1,498770118e-01    2,923003435e-01    1,440513134e-01    1,352405250e-01    0,000000000e+00    0,000000000e+00    0,000000000e+00    0,000000000e+00
     1080000000    9,899843484e-02    2,513065040e-01    9,052242339e-02    2,165601961e-02    0,000000000e+00    0,000000000e+00    0,000000000e+00    0,000000000e+00
     1094000000    2,177762389e-01    8,936547488e-02    6,983257085e-02    1,132985950e-02    0,000000000e+00    0,000000000e+00    0,000000000e+00    0,000000000e+00
     1108000000    2,413166463e-01   -9,049576521e-02    8,040224016e-02    4,753940448e-04    0,000000000e+00    0,000000000e+00    0,000000000e+00    0,000000000e+00
     1122000000    1,854467988e-01   -2,522066236e-01    1,052179635e-01   -2,459293604e-02    0,000000000e+00    0,000000000e+00    0,000000000e+00    0,000000000e+00
     1136000000    4,738463089e-02   -3,785503507e-01    1,254408509e-01   -7,435473055e-02    0,000000000e+00    0,000000000e+00    0,000000000e+00    0,000000000e+00
     1150000000   -1,542285830e-01   -4,212207496e-01    1,362666935e-01   -1,520475000e-01    0,000000000e+00    0,000000000e+00    0,000000000e+00    0,000000000e+00
     1164000000   -3,792598546e-01   -3,217318058e-01    1,000259593e-01   -2,785437405e-01    0,000000000e+00    0,000000000e+00    0,000000000e+00    0,000000000e+00
     1178000000   -4,635722637e-01   -9,105515480e-02   -1,040119007e-01   -4,096850455e-01    0,000000000e+00    0,000000000e+00    0,000000000e+00    0,000000000e+00
     1192000000   -3,752740026e-01    4,196961224e-02   -4,606803060e-01   -1,957529932e-01    0,000000000e+00    0,000000000e+00    0,000000000e+00    0,000000000e+00
     1206000000   -4,173532724e-01    1,340243518e-01   -2,793361545e-01    2,400050610e-01    0,000000000e+00    0,000000000e+00    0,000000000e+00    0,000000000e+00
     1220000000   -2,762499452e-01    3,283588290e-01   -5,272040609e-03    1,606332660e-01    0,000000000e+00    0,000000000e+00    0,000000000e+00    0,000000000e+00
     1234000000   -4,730101675e-02    3,444703817e-01    2,462262288e-02    5,137500539e-02    0,000000000e+00    0,000000000e+00    0,000000000e+00    0,000000000e+00
     1248000000    1,228913590e-01    2,470334917e-01    5,249635782e-03    2,332108468e-02    0,000000000e+00    0,000000000e+00    0,000000000e+00    0,000000000e+00
     1262000000    2,078475654e-01    1,032943949e-01   -6,530854153e-04    3,093887307e-02    0,000000000e+00    0,000000000e+00    0,000000000e+00    0,000000000e+00
     1276000000    2,325739712e-01   -6,232191622e-02    2,333697490e-02    3,057197668e-02    0,000000000e+00    0,000000000e+00    0,000000000e+00    0,000000000e+00
     1290000000    1,967506111e-01   -2,180693746e-01    5,408405885e-02    2,522362582e-02    0,000000000e+00    0,000000000e+00    0,000000000e+00    0,000000000e+00
     1304000000    8,136770129e-02   -3,537111282e-01    7,172383368e-02    4,210534040e-03    0,000000000e+00    0,000000000e+00    0,000000000e+00    0,000000000e+00
     1318000000   -9,823974222e-02   -4,444768727e-01    8,852739632e-02   -1,280201226e-02    0,000000000e+00    0,000000000e+00    0,000000000e+00    0,000000000e+00
     1332000000   -3,521539867e-01   -4,374763668e-01    9,332906455e-02   -2,038396709e-02    0,000000000e+00    0,000000000e+00    0,000000000e+00    0,000000000e+00
     1346000000   -5,905375481e-01   -2,478432357e-01    1,120198891e-01   -1,169864088e-02    0,000000000e+00    0,000000000e+00    0,000000000e+00    0,000000000e+00
     1360000000   -6,491544247e-01    7,416940480e-02    1,398509145e-01   -1,094490010e-02    0,000000000e+00    0,000000000e+00    0,000000000e+00    0,000000000e+00
     1374000000   -4,910300672e-01    3,378670812e-01    1,679532379e-01   -4,548798129e-02    0,000000000e+00    0,000000000e+00    0,000000000e+00    0,000000000e+00
     1388000000   -2,573615909e-01    4,273830652e-01    1,655402333e-01   -8,034729213e-02    0,000000000e+00    0,000000000e+00    0,000000000e+00    0,000000000e+00
     1402000000   -4,285484180e-02    3,868617117e-01    1,400700957e-01   -9,635055810e-02    0,000000000e+00    0,000000000e+00    0,000000000e+00    0,000000000e+00
     1416000000    1,020526588e-01    2,904124558e-01    1,164113879e-01   -7,859505713e-02    0,000000000e+00    0,000000000e+00    0,000000000e+00    0,000000000e+00
     1430000000    1,841874719e-01    1,437773407e-01    9,995982796e-02   -7,772582024e-02    0,000000000e+00    0,000000000e+00    0,000000000e+00    0,000000000e+00
     1444000000    2,199492604e-01   -1,102899481e-02    1,278536916e-01   -2,545164153e-02    0,000000000e+00    0,000000000e+00    0,000000000e+00    0,000000000e+00
     1458000000    1,816316992e-01   -1,882854104e-01    1,374310106e-01    8,628363721e-03    0,000000000e+00    0,000000000e+00    0,000000000e+00    0,000000000e+00
     1472000000    7,702960819e-02   -3,535319269e-01    2,063115835e-01    5,273448303e-02    0,000000000e+00    0,000000000e+00    0,000000000e+00    0,000000000e+00
     1486000000   -1,384639740e-01   -4,690703154e-01    2,962712049e-01    9,396839142e-02    0,000000000e+00    0,000000000e+00    0,000000000e+00    0,000000000e+00
     1500000000   -4,428422451e-01   -4,699287117e-01    3,949623108e-01    5,896066129e-02    0,000000000e+00    0,000000000e+00    0,000000000e+00    0,000000000e+00
