! NanoVNA-App
! Date: 2025-09-25 15:56:34
! Start: 100MHz Stop: 1,5GHz Points: 101
! S-Parameter data: F S11 S21 S12 S22
# Hz S RI R 50
!     Frequency           S11_Real           S11_Imag           S21_Real           S21_Imag           S12_Real           S12_Imag           S22_Real           S22_Imag
      100000000   -2,818583697e-02   -2,824722091e-03    3,722849190e-01   -7,225313187e-01    0,000000000e+00    0,000000000e+00    0,000000000e+00    0,000000000e+00
      114000000   -1,561955735e-02    1,288993284e-02   -9,116053581e-02   -8,046870828e-01    0,000000000e+00    0,000000000e+00    0,000000000e+00    0,000000000e+00
      128000000    4,436078947e-03    1,187793259e-02   -5,159652233e-01   -6,187065244e-01    0,000000000e+00    0,000000000e+00    0,000000000e+00    0,000000000e+00
      142000000    1,550598722e-02   -1,834596391e-03   -7,672680616e-01   -2,342260778e-01    0,000000000e+00    0,000000000e+00    0,000000000e+00    0,000000000e+00
      156000000    1,563436724e-02   -1,372177526e-02   -7,700921297e-01    2,231571227e-01    0,000000000e+00    0,000000000e+00    0,000000000e+00    0,000000000e+00
      170000000    1,759469509e-02   -2,100041509e-02   -5,152534246e-01    6,058632135e-01    0,000000000e+00    0,000000000e+00    0,000000000e+00    0,000000000e+00
      184000000    2,198896930e-02   -3,558204323e-02   -9,824981540e-02    7,863434553e-01    0,000000000e+00    0,000000000e+00    0,000000000e+00    0,000000000e+00
      198000000    1,400644425e-02   -6,070657447e-02    3,457815349e-01    7,105597854e-01    0,000000000e+00    0,000000000e+00    0,000000000e+00    0,000000000e+00
      212000000   -1,767929085e-02   -7,918433845e-02    6,804494858e-01    4,063234925e-01    0,000000000e+00    0,000000000e+00    0,000000000e+00    0,000000000e+00
      226000000   -6,034307182e-02   -6,663220376e-02    7,956958413e-01   -3,560457006e-02    0,000000000e+00    0,000000000e+00    0,000000000e+00    0,000000000e+00
      240000000   -8,059155196e-02   -2,278343774e-02    6,416100264e-01   -4,718472064e-01    0,000000000e+00    0,000000000e+00    0,000000000e+00    0,000000000e+00
      254000000   -6,084660813e-02    1,973263733e-02    2,711407840e-01   -7,420932651e-01    0,000000000e+00    0,000000000e+00    0,000000000e+00    0,000000000e+00
      268000000   -2,102676220e-02    3,082037717e-02   -1,811337173e-01   -7,608330250e-01    0,000000000e+00    0,000000000e+00    0,000000000e+00    0,000000000e+00
      282000000    6,883804686e-03    1,377446391e-02   -5,630737543e-01   -5,328667164e-01    0,000000000e+00    0,000000000e+00    0,000000000e+00    0,000000000e+00
      296000000    1,226102188e-02   -6,299683824e-03   -7,603153586e-01   -1,343837827e-01    0,000000000e+00    0,000000000e+00    0,000000000e+00    0,000000000e+00
      310000000    1,347534545e-02   -1,446424145e-02   -7,088231444e-01    3,052267134e-01    0,000000000e+00    0,000000000e+00    0,000000000e+00    0,000000000e+00
      324000000    2,257539146e-02   -2,488980629e-02   -4,210641384e-01    6,385598183e-01    0,000000000e+00    0,000000000e+00    0,000000000e+00    0,000000000e+00
      338000000    2,822826616e-02   -5,049900711e-02   -7,554652984e-04    7,596337199e-01    0,000000000e+00    0,000000000e+00    0,000000000e+00    0,000000000e+00
      352000000    1,036848500e-02   -8,303119987e-02    4,110156298e-01    6,340844035e-01    0,000000000e+00    0,000000000e+00    0,000000000e+00    0,000000000e+00
      366000000   -3,189180419e-02   -9,368649125e-02    6,927654147e-01    3,040749133e-01    0,000000000e+00    0,000000000e+00    0,000000000e+00    0,000000000e+00
      380000000   -6,750034541e-02   -6,881514192e-02    7,463449836e-01   -1,342417598e-01    0,000000000e+00    0,000000000e+00    0,000000000e+00    0,000000000e+00
      394000000   -6,857458502e-02   -3,054968640e-02    5,384292006e-01   -5,288984776e-01    0,000000000e+00    0,000000000e+00    0,000000000e+00    0,000000000e+00
      408000000   -4,296654835e-02   -1,576811634e-02    1,499180347e-01   -7,337988615e-01    0,000000000e+00    0,000000000e+00    0,000000000e+00    0,000000000e+00
      422000000   -2,611913718e-02   -3,127178922e-02   -2,797574401e-01   -6,911145449e-01    0,000000000e+00    0,000000000e+00    0,000000000e+00    0,000000000e+00
      436000000   -3,916218504e-02   -4,912522808e-02   -6,104474068e-01   -4,192082882e-01    0,000000000e+00    0,000000000e+00    0,000000000e+00    0,000000000e+00
      450000000   -6,441720575e-02   -3,933040798e-02   -7,368330359e-01   -7,759615313e-03    0,000000000e+00    0,000000000e+00    0,000000000e+00    0,000000000e+00
      464000000   -6,725946814e-02   -6,389555521e-03   -6,074975133e-01    4,060137868e-01    0,000000000e+00    0,000000000e+00    0,000000000e+00    0,000000000e+00
      478000000   -3,888948262e-02    1,605797186e-02   -2,677464485e-01    6,700147390e-01    0,000000000e+00    0,000000000e+00    0,000000000e+00    0,000000000e+00
      492000000   -5,227959249e-03    6,176802795e-03    1,513954103e-01    6,956536174e-01    0,000000000e+00    0,000000000e+00    0,000000000e+00    0,000000000e+00
      506000000    6,867762189e-03   -2,027716860e-02    5,077964664e-01    4,880865216e-01    0,000000000e+00    0,000000000e+00    0,000000000e+00    0,000000000e+00
      520000000    6,996613229e-04   -3,832342848e-02    6,891726851e-01    1,229075342e-01    0,000000000e+00    0,000000000e+00    0,000000000e+00    0,000000000e+00
      534000000   -3,165143309e-03   -4,514377937e-02    6,327839494e-01   -2,818524241e-01    0,000000000e+00    0,000000000e+00    0,000000000e+00    0,000000000e+00
      548000000    8,081795531e-04   -5,931256711e-02    3,595461249e-01   -5,782384872e-01    0,000000000e+00    0,000000000e+00    0,000000000e+00    0,000000000e+00
      562000000   -8,033276536e-03   -8,851644397e-02   -2,695136890e-02   -6,727473140e-01    0,000000000e+00    0,000000000e+00    0,000000000e+00    0,000000000e+00
      576000000   -4,583934695e-02   -1,096063554e-01   -4,010367095e-01   -5,383247137e-01    0,000000000e+00    0,000000000e+00    0,000000000e+00    0,000000000e+00
      590000000   -9,465363622e-02   -9,352868795e-02   -6,411985755e-01   -2,193526924e-01    0,000000000e+00    0,000000000e+00    0,000000000e+00    0,000000000e+00
      604000000   -1,114520133e-01   -4,091037065e-02   -6,471340656e-01    1,987062991e-01    0,000000000e+00    0,000000000e+00    0,000000000e+00    0,000000000e+00
      618000000   -7,561198622e-02   -2,703474602e-03   -4,024193585e-01    5,358520746e-01    0,000000000e+00    0,000000000e+00    0,000000000e+00    0,000000000e+00
      632000000   -2,953848243e-02   -2,111619897e-02   -1,151036192e-02    6,547764540e-01    0,000000000e+00    0,000000000e+00    0,000000000e+00    0,000000000e+00
      646000000   -3,652799502e-02   -7,650637627e-02    3,657753170e-01    5,271391869e-01    0,000000000e+00    0,000000000e+00    0,000000000e+00    0,000000000e+00
      660000000   -1,119221449e-01   -9,956469387e-02    6,010608673e-01    1,931197941e-01    0,000000000e+00    0,000000000e+00    0,000000000e+00    0,000000000e+00
      674000000   -1,990906447e-01   -2,371464483e-02    5,650226474e-01   -2,398437113e-01    0,000000000e+00    0,000000000e+00    0,000000000e+00    0,000000000e+00
      688000000   -1,794163734e-01    1,444755495e-01    2,084202617e-01   -5,211974978e-01    0,000000000e+00    0,000000000e+00    0,000000000e+00    0,000000000e+00
      702000000    2,693983540e-02    2,464652807e-01   -1,986485422e-01   -4,012874365e-01    0,000000000e+00    0,000000000e+00    0,000000000e+00    0,000000000e+00
      716000000    2,640265226e-01    1,101782471e-01   -2,723670304e-01   -8,320723474e-02    0,000000000e+00    0,000000000e+00    0,000000000e+00    0,000000000e+00
      730000000    3,032167852e-01   -1,860411167e-01   -1,068994775e-01    3,171081841e-02    0,000000000e+00    0,000000000e+00    0,000000000e+00    0,000000000e+00
      744000000    9,440906346e-02   -4,269222915e-01   -4,225956649e-02   -6,593695283e-02    0,000000000e+00    0,000000000e+00    0,000000000e+00    0,000000000e+00
      758000000   -2,588624358e-01   -4,284423590e-01   -1,762250960e-01   -1,255779564e-01    0,000000000e+00    0,000000000e+00    0,000000000e+00    0,000000000e+00
      772000000   -4,854672551e-01   -1,183546782e-01   -3,366728127e-01    3,862415999e-02    0,000000000e+00    0,000000000e+00    0,000000000e+00    0,000000000e+00
      786000000   -3,406563103e-01    2,211829126e-01   -2,626972497e-01    3,166794777e-01    0,000000000e+00    0,000000000e+00    0,000000000e+00    0,000000000e+00
      800000000   -4,022165760e-02    2,764464915e-01    2,800260438e-03    4,363924861e-01    0,000000000e+00    0,000000000e+00    0,000000000e+00    0,000000000e+00
      814000000    1,440986544e-01    1,251543909e-01    2,640712261e-01    3,594337702e-01    0,000000000e+00    0,000000000e+00    0,000000000e+00    0,000000000e+00
      828000000    1,678103060e-01   -7,017412782e-02    4,328194857e-01    1,569763422e-01    0,000000000e+00    0,000000000e+00    0,000000000e+00    0,000000000e+00
      842000000    6,759616733e-02   -2,177105844e-01    4,669579864e-01   -1,198356375e-01    0,000000000e+00    0,000000000e+00    0,000000000e+00    0,000000000e+00
      856000000   -1,062294841e-01   -2,638299763e-01    3,202863336e-01   -3,951594234e-01    0,000000000e+00    0,000000000e+00    0,000000000e+00    0,000000000e+00
      870000000   -2,736406624e-01   -1,684516817e-01   -1,431775512e-03   -5,262310505e-01    0,000000000e+00    0,000000000e+00    0,000000000e+00    0,000000000e+00
      884000000   -3,198662996e-01    3,554246947e-02   -3,467380404e-01   -3,923936784e-01    0,000000000e+00    0,000000000e+00    0,000000000e+00    0,000000000e+00
      898000000   -1,922351867e-01    2,067073882e-01   -4,890871942e-01   -6,401102245e-02    0,000000000e+00    0,000000000e+00    0,000000000e+00    0,000000000e+00
      912000000    6,306290627e-03    2,188665122e-01   -4,111528099e-01    2,733676136e-01    0,000000000e+00    0,000000000e+00    0,000000000e+00    0,000000000e+00
      926000000    1,486498266e-01    1,119756550e-01   -1,693489999e-01    4,138897061e-01    0,000000000e+00    0,000000000e+00    0,000000000e+00    0,000000000e+00
      940000000    1,995908022e-01   -4,644894972e-02    6,464226544e-02    4,240823388e-01    0,000000000e+00    0,000000000e+00    0,000000000e+00    0,000000000e+00
      954000000    1,562896222e-01   -2,024123669e-01    2,610667646e-01    3,408769369e-01    0,000000000e+00    0,000000000e+00    0,000000000e+00    0,000000000e+00
      968000000    2,328153141e-02   -3,147337139e-01    4,108232856e-01    1,779443473e-01    0,000000000e+00    0,000000000e+00    0,000000000e+00    0,000000000e+00
      982000000   -1,622644961e-01   -3,332842290e-01    4,758188426e-01   -6,666143984e-02    0,000000000e+00    0,000000000e+00    0,000000000e+00    0,000000000e+00
      996000000   -3,278278410e-01   -2,079615891e-01    3,692788184e-01   -3,564278185e-01    0,000000000e+00    0,000000000e+00    0,000000000e+00    0,000000000e+00
     1010000000   -3,429569006e-01   -9,601122700e-03    4,530241340e-02   -5,236951113e-01    0,000000000e+00    0,000000000e+00    0,000000000e+00    0,000000000e+00
     1024000000   -2,030289918e-01    9,504452348e-02   -3,435120583e-01   -3,812826872e-01    0,000000000e+00    0,000000000e+00    0,000000000e+00    0,000000000e+00
     1038000000   -1,361491829e-01    7,714731619e-03   -4,811752141e-01    6,178747490e-02    0,000000000e+00    0,000000000e+00    0,000000000e+00    0,000000000e+00
     1052000000   -2,842511535e-01    4,932328686e-02   -9,893558174e-02    3,726210892e-01    0,000000000e+00    0,000000000e+00    0,000000000e+00    0,000000000e+00
     1066000000   -1,449231654e-01    2,908793092e-01    1,437256783e-01    1,358484477e-01    0,000000000e+00    0,000000000e+00    0,000000000e+00    0,000000000e+00
     1080000000    1,029033437e-01    2,497931123e-01    9,085462987e-02    2,135667019e-02    0,000000000e+00    0,000000000e+00    0,000000000e+00    0,000000000e+00
     1094000000    2,180236131e-01    8,782423288e-02    7,126577199e-02    7,759456523e-03    0,000000000e+00    0,000000000e+00    0,000000000e+00    0,000000000e+00
     1108000000    2,426788807e-01   -8,963758498e-02    8,104313910e-02   -1,930202270e-04    0,000000000e+00    0,000000000e+00    0,000000000e+00    0,000000000e+00
     1122000000    1,875774711e-01   -2,495431453e-01    1,059774533e-01   -2,657868713e-02    0,000000000e+00    0,000000000e+00    0,000000000e+00    0,000000000e+00
     1136000000    4,670769721e-02   -3,787768483e-01    1,239939108e-01   -7,344684005e-02    0,000000000e+00    0,000000000e+00    0,000000000e+00    0,000000000e+00
     1150000000   -1,572139114e-01   -4,262009859e-01    1,376952976e-01   -1,543224454e-01    0,000000000e+00    0,000000000e+00    0,000000000e+00    0,000000000e+00
     1164000000   -3,769850135e-01   -3,292351067e-01    9,602490067e-02   -2,760632336e-01    0,000000000e+00    0,000000000e+00    0,000000000e+00    0,000000000e+00
     1178000000   -4,698832929e-01   -8,415734768e-02   -1,056147367e-01   -4,030020535e-01    0,000000000e+00    0,000000000e+00    0,000000000e+00    0,000000000e+00
     1192000000   -3,691517115e-01    3,699161485e-02   -4,602061510e-01   -1,980244815e-01    0,000000000e+00    0,000000000e+00    0,000000000e+00    0,000000000e+00
     1206000000   -4,117596149e-01    1,368256360e-01   -2,773872912e-01    2,393151820e-01    0,000000000e+00    0,000000000e+00    0,000000000e+00    0,000000000e+00
     1220000000   -2,756519616e-01    3,335195184e-01   -5,075202789e-03    1,663313210e-01    0,000000000e+00    0,000000000e+00    0,000000000e+00    0,000000000e+00
     1234000000   -5,117233843e-02    3,531774282e-01    2,093487047e-02    5,306008831e-02    0,000000000e+00    0,000000000e+00    0,000000000e+00    0,000000000e+00
     1248000000    1,242155656e-01    2,511718273e-01    8,459502831e-03    2,765862271e-02    0,000000000e+00    0,000000000e+00    0,000000000e+00    0,000000000e+00
     1262000000    2,105379701e-01    1,048240736e-01    2,422921825e-03    3,334319964e-02    0,000000000e+00    0,000000000e+00    0,000000000e+00    0,000000000e+00
     1276000000    2,378400415e-01   -6,146629527e-02    2,779068612e-02    3,430506587e-02    0,000000000e+00    0,000000000e+00    0,000000000e+00    0,000000000e+00
     1290000000    1,913148314e-01   -2,153546065e-01    5,551273003e-02    2,474188246e-02    0,000000000e+00    0,000000000e+00    0,000000000e+00    0,000000000e+00
     1304000000    8,599483967e-02   -3,600322008e-01    7,527887821e-02   -2,732670982e-04    0,000000000e+00    0,000000000e+00    0,000000000e+00    0,000000000e+00
     1318000000   -1,057257578e-01   -4,520879090e-01    8,787657320e-02   -1,350177079e-02    0,000000000e+00    0,000000000e+00    0,000000000e+00    0,000000000e+00
     1332000000   -3,485311568e-01   -4,355978966e-01    9,007516503e-02   -1,670768484e-02    0,000000000e+00    0,000000000e+00    0,000000000e+00    0,000000000e+00
     1346000000   -5,950389504e-01   -2,479329556e-01    1,016268060e-01   -9,701396339e-03    0,000000000e+00    0,000000000e+00    0,000000000e+00    0,000000000e+00
     1360000000   -6,511493921e-01    6,968863308e-02    1,530860364e-01   -1,200048160e-02    0,000000000e+00    0,000000000e+00    0,000000000e+00    0,000000000e+00
     1374000000   -4,967764318e-01    3,330100775e-01    1,618812233e-01   -4,792406783e-02    0,000000000e+00    0,000000000e+00    0,000000000e+00    0,000000000e+00
     1388000000   -2,509312630e-01    4,293324053e-01    1,580211967e-01   -8,201062679e-02    0,000000000e+00    0,000000000e+00    0,000000000e+00    0,000000000e+00
     1402000000   -4,340739176e-02    3,993217051e-01    1,442790776e-01   -9,235629439e-02    0,000000000e+00    0,000000000e+00    0,000000000e+00    0,000000000e+00
     1416000000    9,890565276e-02    2,814762294e-01    1,251350194e-01   -8,996116370e-02    0,000000000e+00    0,000000000e+00    0,000000000e+00    0,000000000e+00
     1430000000    1,941670924e-01    1,507683992e-01    1,202857569e-01   -6,659388542e-02    0,000000000e+00    0,000000000e+00    0,000000000e+00    0,000000000e+00
     1444000000    2,133295834e-01   -1,317175850e-02    1,240907088e-01   -3,148915246e-02    0,000000000e+00    0,000000000e+00    0,000000000e+00    0,000000000e+00
     1458000000    1,818548143e-01   -1,870123595e-01    1,475946903e-01    1,216149889e-02    0,000000000e+00    0,000000000e+00    0,000000000e+00    0,000000000e+00
     1472000000    6,246099994e-02   -3,475811779e-01    1,900267303e-01    6,983047724e-02    0,000000000e+00    0,000000000e+00    0,000000000e+00    0,000000000e+00
     1486000000   -1,387799084e-01   -4,763336480e-01    2,814480960e-01    8,167659491e-02    0,000000000e+00    0,000000000e+00    0,000000000e+00    0,000000000e+00
     1500000000   -4,447065294e-01   -4,858641326e-01    4,058962166e-01    4,591164738e-02    0,000000000e+00    0,000000000e+00    0,000000000e+00    0,000000000e+00
