! NanoVNA-App
! Date: 2025-09-25 16:02:04
! Start: 100MHz Stop: 1,5GHz Points: 101
! S-Parameter data: F S11 S21 S12 S22
# Hz S RI R 50
!     Frequency           S11_Real           S11_Imag           S21_Real           S21_Imag           S12_Real           S12_Imag           S22_Real           S22_Imag
      100000000   -2,829485573e-02   -2,872564131e-03    3,722795844e-01   -7,224333286e-01    0,000000000e+00    0,000000000e+00    0,000000000e+00    0,000000000e+00
      114000000   -1,573441736e-02    1,291354559e-02   -9,137967974e-02   -8,046416640e-01    0,000000000e+00    0,000000000e+00    0,000000000e+00    0,000000000e+00
      128000000    4,306237679e-03    1,198962517e-02   -5,158990622e-01   -6,187414527e-01    0,000000000e+00    0,000000000e+00    0,000000000e+00    0,000000000e+00
      142000000    1,547505427e-02   -1,719527761e-03   -7,674447894e-01   -2,341235131e-01    0,000000000e+00    0,000000000e+00    0,000000000e+00    0,000000000e+00
      156000000    1,741117053e-02   -1,379180793e-02   -7,675080299e-01    2,273001373e-01    0,000000000e+00    0,000000000e+00    0,000000000e+00    0,000000000e+00
      170000000    1,763645001e-02   -2,092675678e-02   -5,154606700e-01    6,061824560e-01    0,000000000e+00    0,000000000e+00    0,000000000e+00    0,000000000e+00
      184000000    2,200581320e-02   -3,553339466e-02   -9,812577069e-02    7,861496806e-01    0,000000000e+00    0,000000000e+00    0,000000000e+00    0,000000000e+00
      198000000    1,402762346e-02   -6,069293991e-02    3,458873630e-01    7,106862664e-01    0,000000000e+00    0,000000000e+00    0,000000000e+00    0,000000000e+00
      212000000   -1,766914129e-02   -7,913792133e-02    6,805117726e-01    4,063713253e-01    0,000000000e+00    0,000000000e+00    0,000000000e+00    0,000000000e+00
      226000000   -6,036122143e-02   -6,667938828e-02    7,958471179e-01   -3,561362624e-02    0,000000000e+00    0,000000000e+00    0,000000000e+00    0,000000000e+00
      240000000   -8,055122942e-02   -2,268616296e-02    6,417770386e-01   -4,719244838e-01    0,000000000e+00    0,000000000e+00    0,000000000e+00    0,000000000e+00
      254000000   -6,082651764e-02    1,981865056e-02    2,708635032e-01   -7,419990301e-01    0,000000000e+00    0,000000000e+00    0,000000000e+00    0,000000000e+00
      268000000   -2,094267309e-02    3,092533536e-02   -1,811770052e-01   -7,607758641e-01    0,000000000e+00    0,000000000e+00    0,000000000e+00    0,000000000e+00
      282000000    7,018671371e-03    1,374671236e-02   -5,632331371e-01   -5,327296257e-01    0,000000000e+00    0,000000000e+00    0,000000000e+00    0,000000000e+00
      296000000    1,238214131e-02   -6,267756689e-03   -7,604603171e-01   -1,341535449e-01    0,000000000e+00    0,000000000e+00    0,000000000e+00    0,000000000e+00
      310000000    1,370442193e-02   -1,449988224e-02   -7,089612484e-01    3,030726314e-01    0,000000000e+00    0,000000000e+00    0,000000000e+00    0,000000000e+00
      324000000    2,258997411e-02   -2,459667251e-02   -4,218934774e-01    6,390807629e-01    0,000000000e+00    0,000000000e+00    0,000000000e+00    0,000000000e+00
      338000000    2,803879045e-02   -5,080901459e-02   -5,907347659e-04    7,607142329e-01    0,000000000e+00    0,000000000e+00    0,000000000e+00    0,000000000e+00
      352000000    9,981408715e-03   -8,275884390e-02    4,121792912e-01    6,348635554e-01    0,000000000e+00    0,000000000e+00    0,000000000e+00    0,000000000e+00
      366000000   -3,167324886e-02   -9,358361363e-02    6,936523914e-01    3,046062589e-01    0,000000000e+00    0,000000000e+00    0,000000000e+00    0,000000000e+00
      380000000   -6,758705527e-02   -6,905415654e-02    7,459459901e-01   -1,343257576e-01    0,000000000e+00    0,000000000e+00    0,000000000e+00    0,000000000e+00
      394000000   -6,867972761e-02   -3,041844442e-02    5,393986702e-01   -5,276060104e-01    0,000000000e+00    0,000000000e+00    0,000000000e+00    0,000000000e+00
      408000000   -4,271849990e-02   -1,561230700e-02    1,501739919e-01   -7,340680957e-01    0,000000000e+00    0,000000000e+00    0,000000000e+00    0,000000000e+00
      422000000   -2,604512684e-02   -3,123218939e-02   -2,796863019e-01   -6,901679039e-01    0,000000000e+00    0,000000000e+00    0,000000000e+00    0,000000000e+00
      436000000   -3,932822496e-02   -4,905908927e-02   -6,102513075e-01   -4,193336368e-01    0,000000000e+00    0,000000000e+00    0,000000000e+00    0,000000000e+00
      450000000   -6,487433612e-02   -3,926412389e-02   -7,373295426e-01   -7,994502783e-03    0,000000000e+00    0,000000000e+00    0,000000000e+00    0,000000000e+00
      464000000   -6,752851605e-02   -6,130391732e-03   -6,075526476e-01    4,061027467e-01    0,000000000e+00    0,000000000e+00    0,000000000e+00    0,000000000e+00
      478000000   -3,892927989e-02    1,637731120e-02   -2,675579488e-01    6,709823012e-01    0,000000000e+00    0,000000000e+00    0,000000000e+00    0,000000000e+00
      492000000   -5,032197572e-03    6,272950210e-03    1,517085284e-01    6,953141093e-01    0,000000000e+00    0,000000000e+00    0,000000000e+00    0,000000000e+00
      506000000    6,824548822e-03   -1,993444189e-02    5,079542398e-01    4,887286723e-01    0,000000000e+00    0,000000000e+00    0,000000000e+00    0,000000000e+00
      520000000    6,959586754e-04   -3,852698579e-02    6,892567277e-01    1,228894666e-01    0,000000000e+00    0,000000000e+00    0,000000000e+00    0,000000000e+00
      534000000   -3,014468355e-03   -4,534698278e-02    6,328303814e-01   -2,818364203e-01    0,000000000e+00    0,000000000e+00    0,000000000e+00    0,000000000e+00
      548000000    9,953441331e-04   -5,941987783e-02    3,605079055e-01   -5,787363648e-01    0,000000000e+00    0,000000000e+00    0,000000000e+00    0,000000000e+00
      562000000   -8,006342687e-03   -8,834073693e-02   -2,638757229e-02   -6,727344990e-01    0,000000000e+00    0,000000000e+00    0,000000000e+00    0,000000000e+00
      576000000   -4,561309144e-02   -1,094926968e-01   -4,011221528e-01   -5,388716459e-01    0,000000000e+00    0,000000000e+00    0,000000000e+00    0,000000000e+00
      590000000   -9,510704130e-02   -9,325350821e-02   -6,414663196e-01   -2,172404677e-01    0,000000000e+00    0,000000000e+00    0,000000000e+00    0,000000000e+00
      604000000   -1,119684204e-01   -4,092476144e-02   -6,479088664e-01    1,987642944e-01    0,000000000e+00    0,000000000e+00    0,000000000e+00    0,000000000e+00
      618000000   -7,641001791e-02   -2,405144973e-03   -4,020390213e-01    5,357474089e-01    0,000000000e+00    0,000000000e+00    0,000000000e+00    0,000000000e+00
      632000000   -3,007524833e-02   -2,162538841e-02   -1,233442780e-02    6,557704806e-01    0,000000000e+00    0,000000000e+00    0,000000000e+00    0,000000000e+00
      646000000   -3,663320467e-02   -7,625935227e-02    3,653475940e-01    5,277889371e-01    0,000000000e+00    0,000000000e+00    0,000000000e+00    0,000000000e+00
      660000000   -1,122063249e-01   -9,994380921e-02    6,012502313e-01    1,936680079e-01    0,000000000e+00    0,000000000e+00    0,000000000e+00    0,000000000e+00
      674000000   -2,001004815e-01   -2,407561615e-02    5,650016665e-01   -2,400547564e-01    0,000000000e+00    0,000000000e+00    0,000000000e+00    0,000000000e+00
      688000000   -1,776268631e-01    1,446579546e-01    2,094952911e-01   -5,221072435e-01    0,000000000e+00    0,000000000e+00    0,000000000e+00    0,000000000e+00
      702000000    2,682600915e-02    2,456609011e-01   -1,971431971e-01   -4,046491086e-01    0,000000000e+00    0,000000000e+00    0,000000000e+00    0,000000000e+00
      716000000    2,631794214e-01    1,107796878e-01   -2,740256190e-01   -8,398130536e-02    0,000000000e+00    0,000000000e+00    0,000000000e+00    0,000000000e+00
      730000000    3,039004207e-01   -1,860693544e-01   -1,075089052e-01    3,283526376e-02    0,000000000e+00    0,000000000e+00    0,000000000e+00    0,000000000e+00
      744000000    9,451543540e-02   -4,278081357e-01   -4,247299954e-02   -6,433555484e-02    0,000000000e+00    0,000000000e+00    0,000000000e+00    0,000000000e+00
      758000000   -2,590974569e-01   -4,296393991e-01   -1,743952334e-01   -1,254974902e-01    0,000000000e+00    0,000000000e+00    0,000000000e+00    0,000000000e+00
      772000000   -4,865691662e-01   -1,199362203e-01   -3,358490467e-01    3,734387830e-02    0,000000000e+00    0,000000000e+00    0,000000000e+00    0,000000000e+00
      786000000   -3,410828412e-01    2,215166688e-01   -2,627563477e-01    3,160149455e-01    0,000000000e+00    0,000000000e+00    0,000000000e+00    0,000000000e+00
      800000000   -4,026320949e-02    2,777905166e-01    2,406715648e-03    4,366540909e-01    0,000000000e+00    0,000000000e+00    0,000000000e+00    0,000000000e+00
      814000000    1,444841325e-01    1,252341121e-01    2,639108896e-01    3,586136699e-01    0,000000000e+00    0,000000000e+00    0,000000000e+00    0,000000000e+00
      828000000    1,679619551e-01   -6,981039047e-02    4,322591126e-01    1,565249264e-01    0,000000000e+00    0,000000000e+00    0,000000000e+00    0,000000000e+00
      842000000    6,790312380e-02   -2,179740667e-01    4,664032757e-01   -1,203201264e-01    0,000000000e+00    0,000000000e+00    0,000000000e+00    0,000000000e+00
      856000000   -1,071368754e-01   -2,635075748e-01    3,202847540e-01   -3,936173618e-01    0,000000000e+00    0,000000000e+00    0,000000000e+00    0,000000000e+00
      870000000   -2,746968865e-01   -1,673589945e-01   -2,888999181e-03   -5,267284513e-01    0,000000000e+00    0,000000000e+00    0,000000000e+00    0,000000000e+00
      884000000   -3,201794326e-01    3,519558161e-02   -3,473714292e-01   -3,932045996e-01    0,000000000e+00    0,000000000e+00    0,000000000e+00    0,000000000e+00
      898000000   -1,926306933e-01    2,059395164e-01   -4,895387292e-01   -6,332299858e-02    0,000000000e+00    0,000000000e+00    0,000000000e+00    0,000000000e+00
      912000000    7,750435267e-03    2,202225029e-01   -4,013701975e-01    2,793591321e-01    0,000000000e+00    0,000000000e+00    0,000000000e+00    0,000000000e+00
      926000000    1,510691196e-01    1,120706797e-01   -1,672550142e-01    4,137462378e-01    0,000000000e+00    0,000000000e+00    0,000000000e+00    0,000000000e+00
      940000000    2,012152076e-01   -4,611378536e-02    6,462015212e-02    4,248600900e-01    0,000000000e+00    0,000000000e+00    0,000000000e+00    0,000000000e+00
      954000000    1,556010842e-01   -2,019342333e-01    2,621949911e-01    3,414208293e-01    0,000000000e+00    0,000000000e+00    0,000000000e+00    0,000000000e+00
      968000000    2,342362888e-02   -3,169949949e-01    4,112696350e-01    1,795815676e-01    0,000000000e+00    0,000000000e+00    0,000000000e+00    0,000000000e+00
      982000000   -1,630921364e-01   -3,302834928e-01    4,732987285e-01   -6,640854478e-02    0,000000000e+00    0,000000000e+00    0,000000000e+00    0,000000000e+00
      996000000   -3,218976259e-01   -2,096772939e-01    3,691965938e-01   -3,546446562e-01    0,000000000e+00    0,000000000e+00    0,000000000e+00    0,000000000e+00
     1010000000   -3,375686407e-01   -6,555297878e-03    4,230840132e-02   -5,253006816e-01    0,000000000e+00    0,000000000e+00    0,000000000e+00    0,000000000e+00
     1024000000   -2,083401084e-01    9,057765454e-02   -3,451795578e-01   -3,796305656e-01    0,000000000e+00    0,000000000e+00    0,000000000e+00    0,000000000e+00
     1038000000   -1,352462471e-01    1,144758426e-02   -4,831413031e-01    6,289643794e-02    0,000000000e+00    0,000000000e+00    0,000000000e+00    0,000000000e+00
     1052000000   -2,853032947e-01    5,166291818e-02   -9,591951966e-02    3,750314415e-01    0,000000000e+00    0,000000000e+00    0,000000000e+00    0,000000000e+00
     1066000000   -1,502733529e-01    2,961028814e-01    1,433104724e-01    1,322175264e-01    0,000000000e+00    0,000000000e+00    0,000000000e+00    0,000000000e+00
     1080000000    9,809575230e-02    2,455762774e-01    9,051425755e-02    2,192112617e-02    0,000000000e+00    0,000000000e+00    0,000000000e+00    0,000000000e+00
     1094000000    2,217702568e-01    8,591160923e-02    6,882672757e-02    1,018307824e-02    0,000000000e+00    0,000000000e+00    0,000000000e+00    0,000000000e+00
     1108000000    2,403336167e-01   -8,618909121e-02    8,123407513e-02    1,911619795e-03    0,000000000e+00    0,000000000e+00    0,000000000e+00    0,000000000e+00
     1122000000    1,819820702e-01   -2,527855933e-01    1,045803875e-01   -2,686294168e-02    0,000000000e+00    0,000000000e+00    0,000000000e+00    0,000000000e+00
     1136000000    4,791007191e-02   -3,793866634e-01    1,252838373e-01   -7,416677475e-02    0,000000000e+00    0,000000000e+00    0,000000000e+00    0,000000000e+00
     1150000000   -1,567622721e-01   -4,218042493e-01    1,418881118e-01   -1,500045806e-01    0,000000000e+00    0,000000000e+00    0,000000000e+00    0,000000000e+00
     1164000000   -3,806967735e-01   -3,218814731e-01    9,580120444e-02   -2,778916955e-01    0,000000000e+00    0,000000000e+00    0,000000000e+00    0,000000000e+00
     1178000000   -4,694348276e-01   -8,504272997e-02   -1,058428884e-01   -4,077698588e-01    0,000000000e+00    0,000000000e+00    0,000000000e+00    0,000000000e+00
     1192000000   -3,739520609e-01    4,190090299e-02   -4,613454342e-01   -1,961055547e-01    0,000000000e+00    0,000000000e+00    0,000000000e+00    0,000000000e+00
     1206000000   -4,136956632e-01    1,296418011e-01   -2,752295732e-01    2,384308428e-01    0,000000000e+00    0,000000000e+00    0,000000000e+00    0,000000000e+00
     1220000000   -2,743648887e-01    3,345563710e-01   -1,371576567e-03    1,670102775e-01    0,000000000e+00    0,000000000e+00    0,000000000e+00    0,000000000e+00
     1234000000   -4,816639423e-02    3,550349474e-01    2,153815888e-02    5,578855798e-02    0,000000000e+00    0,000000000e+00    0,000000000e+00    0,000000000e+00
     1248000000    1,220131963e-01    2,475091666e-01    6,533859763e-03    2,454139106e-02    0,000000000e+00    0,000000000e+00    0,000000000e+00    0,000000000e+00
     1262000000    2,115525454e-01    1,022168547e-01    4,596031271e-03    2,924514376e-02    0,000000000e+00    0,000000000e+00    0,000000000e+00    0,000000000e+00
     1276000000    2,360577732e-01   -6,297013909e-02    2,853784710e-02    3,447525203e-02    0,000000000e+00    0,000000000e+00    0,000000000e+00    0,000000000e+00
     1290000000    1,955952793e-01   -2,153018117e-01    5,776877329e-02    2,772875875e-02    0,000000000e+00    0,000000000e+00    0,000000000e+00    0,000000000e+00
     1304000000    8,432855457e-02   -3,544209898e-01    7,769089192e-02    1,145118289e-02    0,000000000e+00    0,000000000e+00    0,000000000e+00    0,000000000e+00
     1318000000   -1,085836366e-01   -4,484064579e-01    8,339614421e-02   -1,176739577e-02    0,000000000e+00    0,000000000e+00    0,000000000e+00    0,000000000e+00
     1332000000   -3,515067399e-01   -4,307884872e-01    9,000674635e-02   -8,654868230e-03    0,000000000e+00    0,000000000e+00    0,000000000e+00    0,000000000e+00
     1346000000   -5,916063786e-01   -2,498826087e-01    1,039850712e-01   -9,946276434e-03    0,000000000e+00    0,000000000e+00    0,000000000e+00    0,000000000e+00
     1360000000   -6,518210769e-01    7,170167565e-02    1,356927007e-01   -1,382411830e-02    0,000000000e+00    0,000000000e+00    0,000000000e+00    0,000000000e+00
     1374000000   -4,939007163e-01    3,354234397e-01    1,658864617e-01   -5,897523090e-02    0,000000000e+00    0,000000000e+00    0,000000000e+00    0,000000000e+00
     1388000000   -2,575154006e-01    4,310024679e-01    1,592526585e-01   -7,739241421e-02    0,000000000e+00    0,000000000e+00    0,000000000e+00    0,000000000e+00
     1402000000   -4,553835839e-02    3,861325085e-01    1,333485991e-01   -9,976549447e-02    0,000000000e+00    0,000000000e+00    0,000000000e+00    0,000000000e+00
     1416000000    1,032823846e-01    2,873956859e-01    1,345004886e-01   -7,742024958e-02    0,000000000e+00    0,000000000e+00    0,000000000e+00    0,000000000e+00
     1430000000    1,887798756e-01    1,484480947e-01    1,227739081e-01   -7,081343234e-02    0,000000000e+00    0,000000000e+00    0,000000000e+00    0,000000000e+00
     1444000000    2,167904675e-01   -8,808436804e-03    1,272788346e-01   -2,107504569e-02    0,000000000e+00    0,000000000e+00    0,000000000e+00    0,000000000e+00
     1458000000    1,841307580e-01   -1,835759431e-01    1,501736343e-01    2,809174173e-02    0,000000000e+00    0,000000000e+00    0,000000000e+00    0,000000000e+00
     1472000000    6,743503362e-02   -3,523377478e-01    2,011792213e-01    5,882640183e-02    0,000000000e+00    0,000000000e+00    0,000000000e+00    0,000000000e+00
     1486000000   -1,297390461e-01   -4,647099972e-01    3,013089299e-01    9,677878022e-02    0,000000000e+00    0,000000000e+00    0,000000000e+00    0,000000000e+00
     1500000000   -4,461178780e-01   -4,849320948e-01    4,032565355e-01    4,685129970e-02    0,000000000e+00    0,000000000e+00    0,000000000e+00    0,000000000e+00
