! NanoVNA-App
! Date: 2025-09-25 15:57:30
! Start: 100MHz Stop: 1,5GHz Points: 101
! S-Parameter data: F S11 S21 S12 S22
# Hz S RI R 50
!     Frequency           S11_Real           S11_Imag           S21_Real           S21_Imag           S12_Real           S12_Imag           S22_Real           S22_Imag
      100000000   -2,821884863e-02   -2,834933810e-03    3,722676933e-01   -7,224709988e-01    0,000000000e+00    0,000000000e+00    0,000000000e+00    0,000000000e+00
      114000000   -1,563191786e-02    1,290536299e-02   -9,142231941e-02   -8,047618866e-01    0,000000000e+00    0,000000000e+00    0,000000000e+00    0,000000000e+00
      128000000    4,413064104e-03    1,189621910e-02   -5,159691572e-01   -6,187233329e-01    0,000000000e+00    0,000000000e+00    0,000000000e+00    0,000000000e+00
      142000000    1,548187993e-02   -1,795152668e-03   -7,675552368e-01   -2,341802269e-01    0,000000000e+00    0,000000000e+00    0,000000000e+00    0,000000000e+00
      156000000    1,514906902e-02   -1,351680793e-02   -7,682884932e-01    2,215031236e-01    0,000000000e+00    0,000000000e+00    0,000000000e+00    0,000000000e+00
      170000000    1,765587740e-02   -2,099774033e-02   -5,152447224e-01    6,059405804e-01    0,000000000e+00    0,000000000e+00    0,000000000e+00    0,000000000e+00
      184000000    2,204158343e-02   -3,555545211e-02   -9,831508249e-02    7,860050797e-01    0,000000000e+00    0,000000000e+00    0,000000000e+00    0,000000000e+00
      198000000    1,401178446e-02   -6,065301970e-02    3,460853696e-01    7,106520534e-01    0,000000000e+00    0,000000000e+00    0,000000000e+00    0,000000000e+00
      212000000   -1,771932840e-02   -7,916168869e-02    6,806549430e-01    4,063641429e-01    0,000000000e+00    0,000000000e+00    0,000000000e+00    0,000000000e+00
      226000000   -6,038489193e-02   -6,663455069e-02    7,958016992e-01   -3,565699607e-02    0,000000000e+00    0,000000000e+00    0,000000000e+00    0,000000000e+00
      240000000   -8,054541796e-02   -2,280690148e-02    6,414492130e-01   -4,715083539e-01    0,000000000e+00    0,000000000e+00    0,000000000e+00    0,000000000e+00
      254000000   -6,079086289e-02    1,975053176e-02    2,712929845e-01   -7,423242331e-01    0,000000000e+00    0,000000000e+00    0,000000000e+00    0,000000000e+00
      268000000   -2,093032375e-02    3,087745048e-02   -1,812435091e-01   -7,608618736e-01    0,000000000e+00    0,000000000e+00    0,000000000e+00    0,000000000e+00
      282000000    6,954006385e-03    1,376173552e-02   -5,631992817e-01   -5,324804187e-01    0,000000000e+00    0,000000000e+00    0,000000000e+00    0,000000000e+00
      296000000    1,232598536e-02   -6,323703565e-03   -7,602374554e-01   -1,342631429e-01    0,000000000e+00    0,000000000e+00    0,000000000e+00    0,000000000e+00
      310000000    1,348415203e-02   -1,460143644e-02   -7,076717019e-01    3,050111830e-01    0,000000000e+00    0,000000000e+00    0,000000000e+00    0,000000000e+00
      324000000    2,277518064e-02   -2,482734248e-02   -4,217721522e-01    6,401814222e-01    0,000000000e+00    0,000000000e+00    0,000000000e+00    0,000000000e+00
      338000000    2,823337540e-02   -5,088654533e-02   -6,742418045e-04    7,605975866e-01    0,000000000e+00    0,000000000e+00    0,000000000e+00    0,000000000e+00
      352000000    1,028427761e-02   -8,308136463e-02    4,125795960e-01    6,347578764e-01    0,000000000e+00    0,000000000e+00    0,000000000e+00    0,000000000e+00
      366000000   -3,182970360e-02   -9,374926984e-02    6,927940845e-01    3,035539985e-01    0,000000000e+00    0,000000000e+00    0,000000000e+00    0,000000000e+00
      380000000   -6,749790907e-02   -6,874106824e-02    7,459577918e-01   -1,335097849e-01    0,000000000e+00    0,000000000e+00    0,000000000e+00    0,000000000e+00
      394000000   -6,852042675e-02   -3,059557080e-02    5,386680961e-01   -5,272843838e-01    0,000000000e+00    0,000000000e+00    0,000000000e+00    0,000000000e+00
      408000000   -4,294307157e-02   -1,546544489e-02    1,501795352e-01   -7,346732616e-01    0,000000000e+00    0,000000000e+00    0,000000000e+00    0,000000000e+00
      422000000   -2,613795921e-02   -3,134149686e-02   -2,785100341e-01   -6,904394031e-01    0,000000000e+00    0,000000000e+00    0,000000000e+00    0,000000000e+00
      436000000   -3,920051455e-02   -4,894040525e-02   -6,099562645e-01   -4,195663631e-01    0,000000000e+00    0,000000000e+00    0,000000000e+00    0,000000000e+00
      450000000   -6,453581154e-02   -3,921478242e-02   -7,369008660e-01   -7,295626216e-03    0,000000000e+00    0,000000000e+00    0,000000000e+00    0,000000000e+00
      464000000   -6,762569398e-02   -5,936897825e-03   -6,076220274e-01    4,062995613e-01    0,000000000e+00    0,000000000e+00    0,000000000e+00    0,000000000e+00
      478000000   -3,899814561e-02    1,591465250e-02   -2,678877711e-01    6,699127555e-01    0,000000000e+00    0,000000000e+00    0,000000000e+00    0,000000000e+00
      492000000   -5,164807662e-03    6,254930049e-03    1,525380164e-01    6,944097877e-01    0,000000000e+00    0,000000000e+00    0,000000000e+00    0,000000000e+00
      506000000    6,923552137e-03   -2,041874826e-02    5,076458454e-01    4,877144396e-01    0,000000000e+00    0,000000000e+00    0,000000000e+00    0,000000000e+00
      520000000    9,899734287e-04   -3,883591667e-02    6,912941337e-01    1,216334999e-01    0,000000000e+00    0,000000000e+00    0,000000000e+00    0,000000000e+00
      534000000   -3,380123293e-03   -4,545788094e-02    6,320136786e-01   -2,820049524e-01    0,000000000e+00    0,000000000e+00    0,000000000e+00    0,000000000e+00
      548000000    1,213563140e-03   -5,941028893e-02    3,608219028e-01   -5,797078609e-01    0,000000000e+00    0,000000000e+00    0,000000000e+00    0,000000000e+00
      562000000   -7,649510633e-03   -8,811086416e-02   -2,634745277e-02   -6,724185348e-01    0,000000000e+00    0,000000000e+00    0,000000000e+00    0,000000000e+00
      576000000   -4,551180452e-02   -1,092547178e-01   -4,009462893e-01   -5,378565192e-01    0,000000000e+00    0,000000000e+00    0,000000000e+00    0,000000000e+00
      590000000   -9,475462139e-02   -9,349314123e-02   -6,393976808e-01   -2,192492932e-01    0,000000000e+00    0,000000000e+00    0,000000000e+00    0,000000000e+00
      604000000   -1,117013767e-01   -4,128580913e-02   -6,476555467e-01    1,987267733e-01    0,000000000e+00    0,000000000e+00    0,000000000e+00    0,000000000e+00
      618000000   -7,540533692e-02   -2,314100508e-03   -4,016248882e-01    5,355450511e-01    0,000000000e+00    0,000000000e+00    0,000000000e+00    0,000000000e+00
      632000000   -2,950541116e-02   -2,106261253e-02   -1,073375437e-02    6,551616788e-01    0,000000000e+00    0,000000000e+00    0,000000000e+00    0,000000000e+00
      646000000   -3,677900881e-02   -7,746257633e-02    3,662959635e-01    5,269268751e-01    0,000000000e+00    0,000000000e+00    0,000000000e+00    0,000000000e+00
      660000000   -1,119400188e-01   -9,929642826e-02    6,010385156e-01    1,933943927e-01    0,000000000e+00    0,000000000e+00    0,000000000e+00    0,000000000e+00
      674000000   -2,001762241e-01   -2,310950495e-02    5,647246242e-01   -2,397800237e-01    0,000000000e+00    0,000000000e+00    0,000000000e+00    0,000000000e+00
      688000000   -1,794422716e-01    1,449183524e-01    2,085798830e-01   -5,213838816e-01    0,000000000e+00    0,000000000e+00    0,000000000e+00    0,000000000e+00
      702000000    2,753968164e-02    2,457357496e-01   -1,978568286e-01   -3,985262215e-01    0,000000000e+00    0,000000000e+00    0,000000000e+00    0,000000000e+00
      716000000    2,640916407e-01    1,100806221e-01   -2,720184922e-01   -8,297497034e-02    0,000000000e+00    0,000000000e+00    0,000000000e+00    0,000000000e+00
      730000000    3,036284447e-01   -1,860884726e-01   -1,063573807e-01    3,158190474e-02    0,000000000e+00    0,000000000e+00    0,000000000e+00    0,000000000e+00
      744000000    9,421987087e-02   -4,283412695e-01   -4,259738699e-02   -6,603456289e-02    0,000000000e+00    0,000000000e+00    0,000000000e+00    0,000000000e+00
      758000000   -2,598156631e-01   -4,287887216e-01   -1,759559363e-01   -1,256731600e-01    0,000000000e+00    0,000000000e+00    0,000000000e+00    0,000000000e+00
      772000000   -4,836625159e-01   -1,184852794e-01   -3,373620510e-01    3,818979487e-02    0,000000000e+00    0,000000000e+00    0,000000000e+00    0,000000000e+00
      786000000   -3,414966762e-01    2,220131755e-01   -2,628001273e-01    3,174860179e-01    0,000000000e+00    0,000000000e+00    0,000000000e+00    0,000000000e+00
      800000000   -4,025286436e-02    2,756817341e-01    2,640783787e-03    4,375585616e-01    0,000000000e+00    0,000000000e+00    0,000000000e+00    0,000000000e+00
      814000000    1,440542936e-01    1,249967366e-01    2,642695904e-01    3,603357673e-01    0,000000000e+00    0,000000000e+00    0,000000000e+00    0,000000000e+00
      828000000    1,676737368e-01   -7,052139193e-02    4,331526458e-01    1,565366238e-01    0,000000000e+00    0,000000000e+00    0,000000000e+00    0,000000000e+00
      842000000    6,698400527e-02   -2,184360176e-01    4,671192169e-01   -1,201257780e-01    0,000000000e+00    0,000000000e+00    0,000000000e+00    0,000000000e+00
      856000000   -1,068000495e-01   -2,634117603e-01    3,206096292e-01   -3,943580389e-01    0,000000000e+00    0,000000000e+00    0,000000000e+00    0,000000000e+00
      870000000   -2,740928829e-01   -1,686429530e-01   -2,446482889e-03   -5,267698765e-01    0,000000000e+00    0,000000000e+00    0,000000000e+00    0,000000000e+00
      884000000   -3,206928670e-01    3,515771404e-02   -3,476434648e-01   -3,926855922e-01    0,000000000e+00    0,000000000e+00    0,000000000e+00    0,000000000e+00
      898000000   -1,923061013e-01    2,058429718e-01   -4,887565672e-01   -6,302599609e-02    0,000000000e+00    0,000000000e+00    0,000000000e+00    0,000000000e+00
      912000000    7,443320472e-03    2,186726034e-01   -3,994138837e-01    2,820292115e-01    0,000000000e+00    0,000000000e+00    0,000000000e+00    0,000000000e+00
      926000000    1,481027305e-01    1,131038889e-01   -1,706915349e-01    4,157876670e-01    0,000000000e+00    0,000000000e+00    0,000000000e+00    0,000000000e+00
      940000000    1,990956813e-01   -4,427014664e-02    6,459451467e-02    4,264858365e-01    0,000000000e+00    0,000000000e+00    0,000000000e+00    0,000000000e+00
      954000000    1,542998403e-01   -2,044445872e-01    2,601639032e-01    3,418231010e-01    0,000000000e+00    0,000000000e+00    0,000000000e+00    0,000000000e+00
      968000000    2,415586077e-02   -3,114386499e-01    4,106833637e-01    1,798068881e-01    0,000000000e+00    0,000000000e+00    0,000000000e+00    0,000000000e+00
      982000000   -1,600870192e-01   -3,303136826e-01    4,750320315e-01   -6,511166692e-02    0,000000000e+00    0,000000000e+00    0,000000000e+00    0,000000000e+00
      996000000   -3,226590157e-01   -2,072146088e-01    3,701884151e-01   -3,554524779e-01    0,000000000e+00    0,000000000e+00    0,000000000e+00    0,000000000e+00
     1010000000   -3,388351202e-01   -9,486261755e-03    4,156673700e-02   -5,242978334e-01    0,000000000e+00    0,000000000e+00    0,000000000e+00    0,000000000e+00
     1024000000   -2,090659142e-01    9,414336085e-02   -3,472202718e-01   -3,791170120e-01    0,000000000e+00    0,000000000e+00    0,000000000e+00    0,000000000e+00
     1038000000   -1,377986670e-01    7,736553438e-03   -4,810029268e-01    6,251677871e-02    0,000000000e+00    0,000000000e+00    0,000000000e+00    0,000000000e+00
     1052000000   -2,863669395e-01    5,653423816e-02   -9,443182498e-02    3,727741539e-01    0,000000000e+00    0,000000000e+00    0,000000000e+00    0,000000000e+00
     1066000000   -1,505860984e-01    2,974665761e-01    1,446789652e-01    1,306719780e-01    0,000000000e+00    0,000000000e+00    0,000000000e+00    0,000000000e+00
     1080000000    9,539620578e-02    2,508979142e-01    9,377444535e-02    2,009605989e-02    0,000000000e+00    0,000000000e+00    0,000000000e+00    0,000000000e+00
     1094000000    2,235709131e-01    9,019859135e-02    6,936735660e-02    1,021143049e-02    0,000000000e+00    0,000000000e+00    0,000000000e+00    0,000000000e+00
     1108000000    2,418308109e-01   -8,967866004e-02    8,236803859e-02   -4,023794027e-04    0,000000000e+00    0,000000000e+00    0,000000000e+00    0,000000000e+00
     1122000000    1,844127923e-01   -2,528728545e-01    1,032577381e-01   -2,746609598e-02    0,000000000e+00    0,000000000e+00    0,000000000e+00    0,000000000e+00
     1136000000    5,304550380e-02   -3,778170943e-01    1,244158670e-01   -7,569953054e-02    0,000000000e+00    0,000000000e+00    0,000000000e+00    0,000000000e+00
     1150000000   -1,593307257e-01   -4,260050058e-01    1,391511410e-01   -1,541022658e-01    0,000000000e+00    0,000000000e+00    0,000000000e+00    0,000000000e+00
     1164000000   -3,777167797e-01   -3,209071159e-01    9,920407087e-02   -2,788327932e-01    0,000000000e+00    0,000000000e+00    0,000000000e+00    0,000000000e+00
     1178000000   -4,641021788e-01   -8,945812285e-02   -1,026307270e-01   -4,063717127e-01    0,000000000e+00    0,000000000e+00    0,000000000e+00    0,000000000e+00
     1192000000   -3,750609457e-01    4,044396803e-02   -4,617137909e-01   -1,985531747e-01    0,000000000e+00    0,000000000e+00    0,000000000e+00    0,000000000e+00
     1206000000   -4,185807705e-01    1,327864379e-01   -2,740866244e-01    2,358257324e-01    0,000000000e+00    0,000000000e+00    0,000000000e+00    0,000000000e+00
     1220000000   -2,733667195e-01    3,337571025e-01   -5,221557338e-03    1,664192230e-01    0,000000000e+00    0,000000000e+00    0,000000000e+00    0,000000000e+00
     1234000000   -4,244732484e-02    3,454177678e-01    2,659479529e-02    5,170419812e-02    0,000000000e+00    0,000000000e+00    0,000000000e+00    0,000000000e+00
     1248000000    1,253099740e-01    2,503642142e-01    2,751136664e-03    2,582017332e-02    0,000000000e+00    0,000000000e+00    0,000000000e+00    0,000000000e+00
     1262000000    2,116801590e-01    9,842281044e-02    5,138612818e-03    2,793248557e-02    0,000000000e+00    0,000000000e+00    0,000000000e+00    0,000000000e+00
     1276000000    2,309988737e-01   -5,337399989e-02    2,572469041e-02    3,615370020e-02    0,000000000e+00    0,000000000e+00    0,000000000e+00    0,000000000e+00
     1290000000    1,962619573e-01   -2,147293687e-01    6,116834655e-02    2,722707577e-02    0,000000000e+00    0,000000000e+00    0,000000000e+00    0,000000000e+00
     1304000000    8,113733679e-02   -3,519372642e-01    7,437504828e-02    8,619670756e-03    0,000000000e+00    0,000000000e+00    0,000000000e+00    0,000000000e+00
     1318000000   -1,000054181e-01   -4,450890422e-01    8,691670746e-02   -1,278987899e-02    0,000000000e+00    0,000000000e+00    0,000000000e+00    0,000000000e+00
     1332000000   -3,585858643e-01   -4,361969829e-01    8,084630221e-02   -2,052735537e-02    0,000000000e+00    0,000000000e+00    0,000000000e+00    0,000000000e+00
     1346000000   -5,916287899e-01   -2,507544458e-01    9,967397898e-02   -9,115110151e-03    0,000000000e+00    0,000000000e+00    0,000000000e+00    0,000000000e+00
     1360000000   -6,497001052e-01    7,466948777e-02    1,445534825e-01   -1,083179656e-02    0,000000000e+00    0,000000000e+00    0,000000000e+00    0,000000000e+00
     1374000000   -4,954941869e-01    3,371180892e-01    1,611672342e-01   -4,976163805e-02    0,000000000e+00    0,000000000e+00    0,000000000e+00    0,000000000e+00
     1388000000   -2,483448982e-01    4,276297092e-01    1,647360623e-01   -7,690078765e-02    0,000000000e+00    0,000000000e+00    0,000000000e+00    0,000000000e+00
     1402000000   -5,006277561e-02    3,929406106e-01    1,370170861e-01   -8,849313855e-02    0,000000000e+00    0,000000000e+00    0,000000000e+00    0,000000000e+00
     1416000000    9,976268560e-02    2,846598327e-01    1,149500012e-01   -8,020068705e-02    0,000000000e+00    0,000000000e+00    0,000000000e+00    0,000000000e+00
     1430000000    1,945695877e-01    1,504676640e-01    1,235993952e-01   -6,745146215e-02    0,000000000e+00    0,000000000e+00    0,000000000e+00    0,000000000e+00
     1444000000    2,195946574e-01   -1,060122903e-02    1,305361539e-01   -2,664043568e-02    0,000000000e+00    0,000000000e+00    0,000000000e+00    0,000000000e+00
     1458000000    1,780490130e-01   -1,823147088e-01    1,477686316e-01    9,625406004e-03    0,000000000e+00    0,000000000e+00    0,000000000e+00    0,000000000e+00
     1472000000    7,386114448e-02   -3,457784951e-01    2,055171281e-01    5,315394700e-02    0,000000000e+00    0,000000000e+00    0,000000000e+00    0,000000000e+00
     1486000000   -1,369084269e-01   -4,768418074e-01    2,867318392e-01    8,248437196e-02    0,000000000e+00    0,000000000e+00    0,000000000e+00    0,000000000e+00
     1500000000   -4,419896305e-01   -4,772396088e-01    4,228669107e-01    4,841366783e-02    0,000000000e+00    0,000000000e+00    0,000000000e+00    0,000000000e+00
