! NanoVNA-App
! Date: 2025-09-25 16:02:26
! Start: 100MHz Stop: 1,5GHz Points: 101
! S-Parameter data: F S11 S21 S12 S22
# Hz S RI R 50
!     Frequency           S11_Real           S11_Imag           S21_Real           S21_Imag           S12_Real           S12_Imag           S22_Real           S22_Imag
      100000000   -2,830045111e-02   -2,879363252e-03    3,722928464e-01   -7,224196196e-01    0,000000000e+00    0,000000000e+00    0,000000000e+00    0,000000000e+00
      114000000   -1,573050581e-02    1,290342864e-02   -9,124891460e-02   -8,047257662e-01    0,000000000e+00    0,000000000e+00    0,000000000e+00    0,000000000e+00
      128000000    4,338357598e-03    1,196560264e-02   -5,158911347e-01   -6,186376214e-01    0,000000000e+00    0,000000000e+00    0,000000000e+00    0,000000000e+00
      142000000    1,547490805e-02   -1,706356881e-03   -7,673354149e-01   -2,343053371e-01    0,000000000e+00    0,000000000e+00    0,000000000e+00    0,000000000e+00
      156000000    1,543468144e-02   -1,298435032e-02   -7,642484903e-01    2,208230495e-01    0,000000000e+00    0,000000000e+00    0,000000000e+00    0,000000000e+00
      170000000    1,769489981e-02   -2,096779644e-02   -5,155701637e-01    6,063612103e-01    0,000000000e+00    0,000000000e+00    0,000000000e+00    0,000000000e+00
      184000000    2,203088999e-02   -3,552944586e-02   -9,833961725e-02    7,860558033e-01    0,000000000e+00    0,000000000e+00    0,000000000e+00    0,000000000e+00
      198000000    1,402631961e-02   -6,065243110e-02    3,463151455e-01    7,112341523e-01    0,000000000e+00    0,000000000e+00    0,000000000e+00    0,000000000e+00
      212000000   -1,765787415e-02   -7,914017886e-02    6,806309223e-01    4,062869549e-01    0,000000000e+00    0,000000000e+00    0,000000000e+00    0,000000000e+00
      226000000   -6,037550047e-02   -6,655477732e-02    7,958724499e-01   -3,565618023e-02    0,000000000e+00    0,000000000e+00    0,000000000e+00    0,000000000e+00
      240000000   -8,057969809e-02   -2,271776088e-02    6,416468024e-01   -4,717676342e-01    0,000000000e+00    0,000000000e+00    0,000000000e+00    0,000000000e+00
      254000000   -6,079638004e-02    1,983478107e-02    2,712190747e-01   -7,419561744e-01    0,000000000e+00    0,000000000e+00    0,000000000e+00    0,000000000e+00
      268000000   -2,096479200e-02    3,086973727e-02   -1,814161539e-01   -7,606239319e-01    0,000000000e+00    0,000000000e+00    0,000000000e+00    0,000000000e+00
      282000000    6,929866504e-03    1,379004773e-02   -5,633318424e-01   -5,326934457e-01    0,000000000e+00    0,000000000e+00    0,000000000e+00    0,000000000e+00
      296000000    1,243097521e-02   -6,323521025e-03   -7,603507638e-01   -1,344359219e-01    0,000000000e+00    0,000000000e+00    0,000000000e+00    0,000000000e+00
      310000000    1,340613514e-02   -1,449754741e-02   -7,094141841e-01    3,054260910e-01    0,000000000e+00    0,000000000e+00    0,000000000e+00    0,000000000e+00
      324000000    2,246185392e-02   -2,472632751e-02   -4,216438532e-01    6,397977471e-01    0,000000000e+00    0,000000000e+00    0,000000000e+00    0,000000000e+00
      338000000    2,830163203e-02   -5,064854398e-02   -3,453602083e-03    7,593269944e-01    0,000000000e+00    0,000000000e+00    0,000000000e+00    0,000000000e+00
      352000000    1,034582686e-02   -8,277426660e-02    4,107813835e-01    6,348516941e-01    0,000000000e+00    0,000000000e+00    0,000000000e+00    0,000000000e+00
      366000000   -3,196555376e-02   -9,371931106e-02    6,927126646e-01    3,034615815e-01    0,000000000e+00    0,000000000e+00    0,000000000e+00    0,000000000e+00
      380000000   -6,781025976e-02   -6,900569797e-02    7,456846833e-01   -1,348015666e-01    0,000000000e+00    0,000000000e+00    0,000000000e+00    0,000000000e+00
      394000000   -6,858532876e-02   -3,069586866e-02    5,383415222e-01   -5,293044448e-01    0,000000000e+00    0,000000000e+00    0,000000000e+00    0,000000000e+00
      408000000   -4,267271236e-02   -1,572295092e-02    1,490659118e-01   -7,359019518e-01    0,000000000e+00    0,000000000e+00    0,000000000e+00    0,000000000e+00
      422000000   -2,624075487e-02   -3,108032420e-02   -2,794231772e-01   -6,893280745e-01    0,000000000e+00    0,000000000e+00    0,000000000e+00    0,000000000e+00
      436000000   -3,942901641e-02   -4,915114120e-02   -6,107084155e-01   -4,190643728e-01    0,000000000e+00    0,000000000e+00    0,000000000e+00    0,000000000e+00
      450000000   -6,461336464e-02   -3,919078782e-02   -7,371123433e-01   -7,515206467e-03    0,000000000e+00    0,000000000e+00    0,000000000e+00    0,000000000e+00
      464000000   -6,785709411e-02   -6,524045020e-03   -6,078488827e-01    4,061281681e-01    0,000000000e+00    0,000000000e+00    0,000000000e+00    0,000000000e+00
      478000000   -3,865614533e-02    1,579250954e-02   -2,681308389e-01    6,697607040e-01    0,000000000e+00    0,000000000e+00    0,000000000e+00    0,000000000e+00
      492000000   -5,189673975e-03    6,520364899e-03    1,514769644e-01    6,951140761e-01    0,000000000e+00    0,000000000e+00    0,000000000e+00    0,000000000e+00
      506000000    6,857346278e-03   -2,031112835e-02    5,073454380e-01    4,882822931e-01    0,000000000e+00    0,000000000e+00    0,000000000e+00    0,000000000e+00
      520000000    8,029552992e-04   -3,882448003e-02    6,894278526e-01    1,209631562e-01    0,000000000e+00    0,000000000e+00    0,000000000e+00    0,000000000e+00
      534000000   -3,026234917e-03   -4,518420249e-02    6,329647303e-01   -2,821428478e-01    0,000000000e+00    0,000000000e+00    0,000000000e+00    0,000000000e+00
      548000000    5,619633594e-04   -5,951354653e-02    3,593358397e-01   -5,792376399e-01    0,000000000e+00    0,000000000e+00    0,000000000e+00    0,000000000e+00
      562000000   -7,983393036e-03   -8,870599419e-02   -2,732410096e-02   -6,726109982e-01    0,000000000e+00    0,000000000e+00    0,000000000e+00    0,000000000e+00
      576000000   -4,562890902e-02   -1,091284454e-01   -4,006743729e-01   -5,391088724e-01    0,000000000e+00    0,000000000e+00    0,000000000e+00    0,000000000e+00
      590000000   -9,461699426e-02   -9,381596744e-02   -6,415104866e-01   -2,194345593e-01    0,000000000e+00    0,000000000e+00    0,000000000e+00    0,000000000e+00
      604000000   -1,116003171e-01   -4,093550891e-02   -6,473942995e-01    1,987781376e-01    0,000000000e+00    0,000000000e+00    0,000000000e+00    0,000000000e+00
      618000000   -7,611876726e-02   -2,121724188e-03   -4,029662609e-01    5,364623070e-01    0,000000000e+00    0,000000000e+00    0,000000000e+00    0,000000000e+00
      632000000   -2,951353043e-02   -2,121622302e-02   -1,283382252e-02    6,554363370e-01    0,000000000e+00    0,000000000e+00    0,000000000e+00    0,000000000e+00
      646000000   -3,687327728e-02   -7,664135844e-02    3,660247326e-01    5,278837085e-01    0,000000000e+00    0,000000000e+00    0,000000000e+00    0,000000000e+00
      660000000   -1,110239923e-01   -9,920391440e-02    6,011990905e-01    1,935696602e-01    0,000000000e+00    0,000000000e+00    0,000000000e+00    0,000000000e+00
      674000000   -1,991972774e-01   -2,325217612e-02    5,660309792e-01   -2,394480556e-01    0,000000000e+00    0,000000000e+00    0,000000000e+00    0,000000000e+00
      688000000   -1,789198518e-01    1,438739747e-01    2,099965364e-01   -5,216585994e-01    0,000000000e+00    0,000000000e+00    0,000000000e+00    0,000000000e+00
      702000000    2,499806508e-02    2,464813441e-01   -2,033304125e-01   -4,110822678e-01    0,000000000e+00    0,000000000e+00    0,000000000e+00    0,000000000e+00
      716000000    2,628315985e-01    1,109868065e-01   -2,739318907e-01   -8,415021747e-02    0,000000000e+00    0,000000000e+00    0,000000000e+00    0,000000000e+00
      730000000    3,035412431e-01   -1,851301640e-01   -1,078651398e-01    3,268209100e-02    0,000000000e+00    0,000000000e+00    0,000000000e+00    0,000000000e+00
      744000000    9,455920011e-02   -4,272948503e-01   -4,231233150e-02   -6,437262148e-02    0,000000000e+00    0,000000000e+00    0,000000000e+00    0,000000000e+00
      758000000   -2,591690719e-01   -4,297173619e-01   -1,746166646e-01   -1,254468262e-01    0,000000000e+00    0,000000000e+00    0,000000000e+00    0,000000000e+00
      772000000   -4,865280390e-01   -1,197469458e-01   -3,353693187e-01    3,766509891e-02    0,000000000e+00    0,000000000e+00    0,000000000e+00    0,000000000e+00
      786000000   -3,412967026e-01    2,224227339e-01   -2,632221282e-01    3,165346682e-01    0,000000000e+00    0,000000000e+00    0,000000000e+00    0,000000000e+00
      800000000   -4,054834321e-02    2,776648104e-01    3,202628810e-03    4,362568557e-01    0,000000000e+00    0,000000000e+00    0,000000000e+00    0,000000000e+00
      814000000    1,447509229e-01    1,256434768e-01    2,634905279e-01    3,599897027e-01    0,000000000e+00    0,000000000e+00    0,000000000e+00    0,000000000e+00
      828000000    1,682903618e-01   -7,017174363e-02    4,327379763e-01    1,568409055e-01    0,000000000e+00    0,000000000e+00    0,000000000e+00    0,000000000e+00
      842000000    6,707315147e-02   -2,184386253e-01    4,665633440e-01   -1,201957762e-01    0,000000000e+00    0,000000000e+00    0,000000000e+00    0,000000000e+00
      856000000   -1,069453880e-01   -2,643080652e-01    3,198172152e-01   -3,955050707e-01    0,000000000e+00    0,000000000e+00    0,000000000e+00    0,000000000e+00
      870000000   -2,746671736e-01   -1,678294241e-01   -2,844497561e-03   -5,267872214e-01    0,000000000e+00    0,000000000e+00    0,000000000e+00    0,000000000e+00
      884000000   -3,207024336e-01    3,636969626e-02   -3,472115397e-01   -3,921280205e-01    0,000000000e+00    0,000000000e+00    0,000000000e+00    0,000000000e+00
      898000000   -1,925785393e-01    2,075877041e-01   -4,898014963e-01   -6,235805526e-02    0,000000000e+00    0,000000000e+00    0,000000000e+00    0,000000000e+00
      912000000    6,973212119e-03    2,196431756e-01   -4,009656310e-01    2,637114823e-01    0,000000000e+00    0,000000000e+00    0,000000000e+00    0,000000000e+00
      926000000    1,513293386e-01    1,117166057e-01   -1,678257436e-01    4,145112932e-01    0,000000000e+00    0,000000000e+00    0,000000000e+00    0,000000000e+00
      940000000    1,956591308e-01   -4,614470154e-02    6,431101263e-02    4,254776239e-01    0,000000000e+00    0,000000000e+00    0,000000000e+00    0,000000000e+00
      954000000    1,525670290e-01   -2,044930458e-01    2,609364986e-01    3,424130082e-01    0,000000000e+00    0,000000000e+00    0,000000000e+00    0,000000000e+00
      968000000    2,611843497e-02   -3,166065216e-01    4,118292332e-01    1,783128977e-01    0,000000000e+00    0,000000000e+00    0,000000000e+00    0,000000000e+00
      982000000   -1,597905457e-01   -3,330696225e-01    4,756222367e-01   -6,640950590e-02    0,000000000e+00    0,000000000e+00    0,000000000e+00    0,000000000e+00
      996000000   -3,232968152e-01   -2,102392763e-01    3,672787249e-01   -3,572942019e-01    0,000000000e+00    0,000000000e+00    0,000000000e+00    0,000000000e+00
     1010000000   -3,434704542e-01   -7,148693781e-03    4,127723351e-02   -5,235962272e-01    0,000000000e+00    0,000000000e+00    0,000000000e+00    0,000000000e+00
     1024000000   -2,083168328e-01    8,988989890e-02   -3,464657664e-01   -3,793747127e-01    0,000000000e+00    0,000000000e+00    0,000000000e+00    0,000000000e+00
     1038000000   -1,343862265e-01    1,158318203e-02   -4,829084873e-01    6,414034218e-02    0,000000000e+00    0,000000000e+00    0,000000000e+00    0,000000000e+00
     1052000000   -2,870283723e-01    5,746773258e-02   -9,174970537e-02    3,724419475e-01    0,000000000e+00    0,000000000e+00    0,000000000e+00    0,000000000e+00
     1066000000   -1,477194279e-01    2,908211648e-01    1,438649595e-01    1,326931864e-01    0,000000000e+00    0,000000000e+00    0,000000000e+00    0,000000000e+00
     1080000000    1,044067666e-01    2,485411018e-01    9,037408978e-02    2,139341086e-02    0,000000000e+00    0,000000000e+00    0,000000000e+00    0,000000000e+00
     1094000000    2,182655782e-01    8,832487464e-02    7,029237598e-02    9,974459186e-03    0,000000000e+00    0,000000000e+00    0,000000000e+00    0,000000000e+00
     1108000000    2,431011647e-01   -8,572426438e-02    8,174302429e-02    1,212657196e-03    0,000000000e+00    0,000000000e+00    0,000000000e+00    0,000000000e+00
     1122000000    1,840924025e-01   -2,488339692e-01    1,023419350e-01   -2,429451421e-02    0,000000000e+00    0,000000000e+00    0,000000000e+00    0,000000000e+00
     1136000000    5,007414147e-02   -3,809197247e-01    1,251382381e-01   -7,311756164e-02    0,000000000e+00    0,000000000e+00    0,000000000e+00    0,000000000e+00
     1150000000   -1,528272480e-01   -4,252991080e-01    1,424352825e-01   -1,498601884e-01    0,000000000e+00    0,000000000e+00    0,000000000e+00    0,000000000e+00
     1164000000   -3,753463626e-01   -3,245142400e-01    1,021792144e-01   -2,827535868e-01    0,000000000e+00    0,000000000e+00    0,000000000e+00    0,000000000e+00
     1178000000   -4,617075026e-01   -8,473197371e-02   -1,023227572e-01   -4,032658339e-01    0,000000000e+00    0,000000000e+00    0,000000000e+00    0,000000000e+00
     1192000000   -3,753221333e-01    3,384948522e-02   -4,618238211e-01   -1,980811059e-01    0,000000000e+00    0,000000000e+00    0,000000000e+00    0,000000000e+00
     1206000000   -4,145022333e-01    1,378798932e-01   -2,715884745e-01    2,357324064e-01    0,000000000e+00    0,000000000e+00    0,000000000e+00    0,000000000e+00
     1220000000   -2,723810673e-01    3,289394379e-01    4,479730851e-04    1,622723788e-01    0,000000000e+00    0,000000000e+00    0,000000000e+00    0,000000000e+00
     1234000000   -4,391418025e-02    3,471984267e-01    2,627104335e-02    5,559891835e-02    0,000000000e+00    0,000000000e+00    0,000000000e+00    0,000000000e+00
     1248000000    1,257842779e-01    2,508200705e-01    4,321348853e-03    2,394421957e-02    0,000000000e+00    0,000000000e+00    0,000000000e+00    0,000000000e+00
     1262000000    2,097774297e-01    1,070542932e-01    1,045546960e-03    3,016127087e-02    0,000000000e+00    0,000000000e+00    0,000000000e+00    0,000000000e+00
     1276000000    2,378497869e-01   -5,653317645e-02    3,102336079e-02    3,787954152e-02    0,000000000e+00    0,000000000e+00    0,000000000e+00    0,000000000e+00
     1290000000    1,942717582e-01   -2,137519270e-01    5,750945583e-02    3,057093173e-02    0,000000000e+00    0,000000000e+00    0,000000000e+00    0,000000000e+00
     1304000000    8,187144995e-02   -3,548590243e-01    7,309369743e-02    6,116061006e-03    0,000000000e+00    0,000000000e+00    0,000000000e+00    0,000000000e+00
     1318000000   -1,018301174e-01   -4,502528608e-01    8,401467651e-02   -6,837037858e-03    0,000000000e+00    0,000000000e+00    0,000000000e+00    0,000000000e+00
     1332000000   -3,592936695e-01   -4,400723279e-01    8,450281620e-02   -1,949989796e-02    0,000000000e+00    0,000000000e+00    0,000000000e+00    0,000000000e+00
     1346000000   -5,871605277e-01   -2,472081035e-01    1,010575220e-01   -1,116253808e-02    0,000000000e+00    0,000000000e+00    0,000000000e+00    0,000000000e+00
     1360000000   -6,555696726e-01    7,452272624e-02    1,423777342e-01   -1,326474920e-02    0,000000000e+00    0,000000000e+00    0,000000000e+00    0,000000000e+00
     1374000000   -4,912438989e-01    3,351076543e-01    1,693813503e-01   -5,690300092e-02    0,000000000e+00    0,000000000e+00    0,000000000e+00    0,000000000e+00
     1388000000   -2,477391511e-01    4,232074022e-01    1,752705574e-01   -7,532155514e-02    0,000000000e+00    0,000000000e+00    0,000000000e+00    0,000000000e+00
     1402000000   -4,517497122e-02    3,937746882e-01    1,439882517e-01   -8,722995967e-02    0,000000000e+00    0,000000000e+00    0,000000000e+00    0,000000000e+00
     1416000000    9,683057666e-02    2,894082367e-01    1,202235967e-01   -8,399863541e-02    0,000000000e+00    0,000000000e+00    0,000000000e+00    0,000000000e+00
     1430000000    1,927662641e-01    1,455339193e-01    1,071666852e-01   -9,069408476e-02    0,000000000e+00    0,000000000e+00    0,000000000e+00    0,000000000e+00
     1444000000    2,128326595e-01   -6,754750852e-03    1,229948476e-01   -1,636689901e-02    0,000000000e+00    0,000000000e+00    0,000000000e+00    0,000000000e+00
     1458000000    1,835950017e-01   -1,833733320e-01    1,511353999e-01    1,101452112e-02    0,000000000e+00    0,000000000e+00    0,000000000e+00    0,000000000e+00
     1472000000    6,228366867e-02   -3,464536071e-01    1,801048815e-01    5,914916471e-02    0,000000000e+00    0,000000000e+00    0,000000000e+00    0,000000000e+00
     1486000000   -1,488872468e-01   -4,675330222e-01    2,822439671e-01    7,952671498e-02    0,000000000e+00    0,000000000e+00    0,000000000e+00    0,000000000e+00
     1500000000   -4,340229928e-01   -4,663842916e-01    4,160206616e-01    6,052327901e-02    0,000000000e+00    0,000000000e+00    0,000000000e+00    0,000000000e+00
