! NanoVNA-App
! Date: 2025-09-25 15:58:35
! Start: 100MHz Stop: 1,5GHz Points: 101
! S-Parameter data: F S11 S21 S12 S22
# Hz S RI R 50
!     Frequency           S11_Real           S11_Imag           S21_Real           S21_Imag           S12_Real           S12_Imag           S22_Real           S22_Imag
      100000000   -2,822250500e-02   -2,844321774e-03    3,722245693e-01   -7,224579453e-01    0,000000000e+00    0,000000000e+00    0,000000000e+00    0,000000000e+00
      114000000   -1,565373316e-02    1,288634539e-02   -9,132780880e-02   -8,046429753e-01    0,000000000e+00    0,000000000e+00    0,000000000e+00    0,000000000e+00
      128000000    4,380744416e-03    1,192399487e-02   -5,158846974e-01   -6,186886430e-01    0,000000000e+00    0,000000000e+00    0,000000000e+00    0,000000000e+00
      142000000    1,546796132e-02   -1,777833910e-03   -7,673413754e-01   -2,341476828e-01    0,000000000e+00    0,000000000e+00    0,000000000e+00    0,000000000e+00
      156000000    1,687506214e-02   -1,387463138e-02   -7,703269124e-01    2,262923867e-01    0,000000000e+00    0,000000000e+00    0,000000000e+00    0,000000000e+00
      170000000    1,765903272e-02   -2,104674652e-02   -5,156690478e-01    6,063815355e-01    0,000000000e+00    0,000000000e+00    0,000000000e+00    0,000000000e+00
      184000000    2,202646062e-02   -3,558060527e-02   -9,824828058e-02    7,858463526e-01    0,000000000e+00    0,000000000e+00    0,000000000e+00    0,000000000e+00
      198000000    1,404839847e-02   -6,066511571e-02    3,459994793e-01    7,110207081e-01    0,000000000e+00    0,000000000e+00    0,000000000e+00    0,000000000e+00
      212000000   -1,771038026e-02   -7,914319634e-02    6,805356741e-01    4,061476588e-01    0,000000000e+00    0,000000000e+00    0,000000000e+00    0,000000000e+00
      226000000   -6,031889096e-02   -6,667365134e-02    7,956609130e-01   -3,551596031e-02    0,000000000e+00    0,000000000e+00    0,000000000e+00    0,000000000e+00
      240000000   -8,060815930e-02   -2,273940295e-02    6,416265368e-01   -4,717712700e-01    0,000000000e+00    0,000000000e+00    0,000000000e+00    0,000000000e+00
      254000000   -6,079398841e-02    1,982731000e-02    2,708864510e-01   -7,419987917e-01    0,000000000e+00    0,000000000e+00    0,000000000e+00    0,000000000e+00
      268000000   -2,092135884e-02    3,088981844e-02   -1,812848747e-01   -7,607573867e-01    0,000000000e+00    0,000000000e+00    0,000000000e+00    0,000000000e+00
      282000000    6,919151172e-03    1,371938549e-02   -5,635085702e-01   -5,323184133e-01    0,000000000e+00    0,000000000e+00    0,000000000e+00    0,000000000e+00
      296000000    1,246355660e-02   -6,367204711e-03   -7,605441213e-01   -1,342944205e-01    0,000000000e+00    0,000000000e+00    0,000000000e+00    0,000000000e+00
      310000000    1,359936502e-02   -1,475995220e-02   -7,091627121e-01    3,031823337e-01    0,000000000e+00    0,000000000e+00    0,000000000e+00    0,000000000e+00
      324000000    2,268665098e-02   -2,451307699e-02   -4,217113256e-01    6,394807100e-01    0,000000000e+00    0,000000000e+00    0,000000000e+00    0,000000000e+00
      338000000    2,835012786e-02   -5,071808398e-02   -4,084030632e-03    7,607855201e-01    0,000000000e+00    0,000000000e+00    0,000000000e+00    0,000000000e+00
      352000000    1,022714656e-02   -8,287361264e-02    4,115039110e-01    6,351432204e-01    0,000000000e+00    0,000000000e+00    0,000000000e+00    0,000000000e+00
      366000000   -3,178739548e-02   -9,364297986e-02    6,934315562e-01    3,041466177e-01    0,000000000e+00    0,000000000e+00    0,000000000e+00    0,000000000e+00
      380000000   -6,768590212e-02   -6,879772991e-02    7,457020283e-01   -1,340404749e-01    0,000000000e+00    0,000000000e+00    0,000000000e+00    0,000000000e+00
      394000000   -6,852773577e-02   -3,047306091e-02    5,400278568e-01   -5,289920568e-01    0,000000000e+00    0,000000000e+00    0,000000000e+00    0,000000000e+00
      408000000   -4,247250408e-02   -1,533641573e-02    1,505084038e-01   -7,334497571e-01    0,000000000e+00    0,000000000e+00    0,000000000e+00    0,000000000e+00
      422000000   -2,599840984e-02   -3,128740564e-02   -2,794444561e-01   -6,899160743e-01    0,000000000e+00    0,000000000e+00    0,000000000e+00    0,000000000e+00
      436000000   -3,924923018e-02   -4,905467480e-02   -6,102183461e-01   -4,196332693e-01    0,000000000e+00    0,000000000e+00    0,000000000e+00    0,000000000e+00
      450000000   -6,461692601e-02   -3,921684623e-02   -7,372607589e-01   -7,598827593e-03    0,000000000e+00    0,000000000e+00    0,000000000e+00    0,000000000e+00
      464000000   -6,757557392e-02   -6,475919858e-03   -6,074047089e-01    4,060153067e-01    0,000000000e+00    0,000000000e+00    0,000000000e+00    0,000000000e+00
      478000000   -3,844202310e-02    1,601165161e-02   -2,668164968e-01    6,701493859e-01    0,000000000e+00    0,000000000e+00    0,000000000e+00    0,000000000e+00
      492000000   -4,909354262e-03    6,443352439e-03    1,516006291e-01    6,953858137e-01    0,000000000e+00    0,000000000e+00    0,000000000e+00    0,000000000e+00
      506000000    6,800414063e-03   -2,016278543e-02    5,075322390e-01    4,885521829e-01    0,000000000e+00    0,000000000e+00    0,000000000e+00    0,000000000e+00
      520000000    8,036150248e-04   -3,836610913e-02    6,887601614e-01    1,234289035e-01    0,000000000e+00    0,000000000e+00    0,000000000e+00    0,000000000e+00
      534000000   -3,054065164e-03   -4,547764361e-02    6,328861117e-01   -2,814893723e-01    0,000000000e+00    0,000000000e+00    0,000000000e+00    0,000000000e+00
      548000000    9,895140538e-04   -5,960890278e-02    3,595669568e-01   -5,787986517e-01    0,000000000e+00    0,000000000e+00    0,000000000e+00    0,000000000e+00
      562000000   -7,480706554e-03   -8,847773820e-02   -2,592653222e-02   -6,722935438e-01    0,000000000e+00    0,000000000e+00    0,000000000e+00    0,000000000e+00
      576000000   -4,510785267e-02   -1,091464087e-01   -4,009177387e-01   -5,377472639e-01    0,000000000e+00    0,000000000e+00    0,000000000e+00    0,000000000e+00
      590000000   -9,458169341e-02   -9,324630350e-02   -6,397454739e-01   -2,166641057e-01    0,000000000e+00    0,000000000e+00    0,000000000e+00    0,000000000e+00
      604000000   -1,113711745e-01   -4,133714363e-02   -6,473058462e-01    1,980864406e-01    0,000000000e+00    0,000000000e+00    0,000000000e+00    0,000000000e+00
      618000000   -7,623299956e-02   -2,296831226e-03   -4,017176926e-01    5,359550118e-01    0,000000000e+00    0,000000000e+00    0,000000000e+00    0,000000000e+00
      632000000   -3,024344519e-02   -2,174206823e-02   -1,193470228e-02    6,552478075e-01    0,000000000e+00    0,000000000e+00    0,000000000e+00    0,000000000e+00
      646000000   -3,638017923e-02   -7,721016556e-02    3,663347661e-01    5,282402635e-01    0,000000000e+00    0,000000000e+00    0,000000000e+00    0,000000000e+00
      660000000   -1,113190725e-01   -1,005510986e-01    6,006025076e-01    1,935287267e-01    0,000000000e+00    0,000000000e+00    0,000000000e+00    0,000000000e+00
      674000000   -2,004362196e-01   -2,366269007e-02    5,656754375e-01   -2,393454909e-01    0,000000000e+00    0,000000000e+00    0,000000000e+00    0,000000000e+00
      688000000   -1,795114279e-01    1,446790844e-01    2,088540643e-01   -5,216332674e-01    0,000000000e+00    0,000000000e+00    0,000000000e+00    0,000000000e+00
      702000000    2,768002450e-02    2,462367415e-01   -1,994360238e-01   -4,026270211e-01    0,000000000e+00    0,000000000e+00    0,000000000e+00    0,000000000e+00
      716000000    2,639944553e-01    1,101453602e-01   -2,727944553e-01   -8,303830028e-02    0,000000000e+00    0,000000000e+00    0,000000000e+00    0,000000000e+00
      730000000    3,039167821e-01   -1,866575480e-01   -1,066190973e-01    3,187603876e-02    0,000000000e+00    0,000000000e+00    0,000000000e+00    0,000000000e+00
      744000000    9,402778745e-02   -4,279878139e-01   -4,217541218e-02   -6,558021158e-02    0,000000000e+00    0,000000000e+00    0,000000000e+00    0,000000000e+00
      758000000   -2,602876127e-01   -4,295798242e-01   -1,759644747e-01   -1,254120320e-01    0,000000000e+00    0,000000000e+00    0,000000000e+00    0,000000000e+00
      772000000   -4,852379858e-01   -1,181045398e-01   -3,369065523e-01    3,805289045e-02    0,000000000e+00    0,000000000e+00    0,000000000e+00    0,000000000e+00
      786000000   -3,420955241e-01    2,222830802e-01   -2,626659274e-01    3,171830475e-01    0,000000000e+00    0,000000000e+00    0,000000000e+00    0,000000000e+00
      800000000   -4,035119340e-02    2,768641114e-01    3,164149122e-03    4,368503392e-01    0,000000000e+00    0,000000000e+00    0,000000000e+00    0,000000000e+00
      814000000    1,445099860e-01    1,250480860e-01    2,643378973e-01    3,594620824e-01    0,000000000e+00    0,000000000e+00    0,000000000e+00    0,000000000e+00
      828000000    1,682731807e-01   -7,023014128e-02    4,327263236e-01    1,564175338e-01    0,000000000e+00    0,000000000e+00    0,000000000e+00    0,000000000e+00
      842000000    6,750075519e-02   -2,180917114e-01    4,667442143e-01   -1,203966215e-01    0,000000000e+00    0,000000000e+00    0,000000000e+00    0,000000000e+00
      856000000   -1,078528091e-01   -2,631303966e-01    3,197428882e-01   -3,946388662e-01    0,000000000e+00    0,000000000e+00    0,000000000e+00    0,000000000e+00
      870000000   -2,734802067e-01   -1,682779044e-01   -2,922995714e-03   -5,269383192e-01    0,000000000e+00    0,000000000e+00    0,000000000e+00    0,000000000e+00
      884000000   -3,204213679e-01    3,510661051e-02   -3,476621509e-01   -3,935468197e-01    0,000000000e+00    0,000000000e+00    0,000000000e+00    0,000000000e+00
      898000000   -1,921885312e-01    2,071890980e-01   -4,891594946e-01   -6,279435754e-02    0,000000000e+00    0,000000000e+00    0,000000000e+00    0,000000000e+00
      912000000    7,265167776e-03    2,189868242e-01   -3,987708688e-01    2,805534303e-01    0,000000000e+00    0,000000000e+00    0,000000000e+00    0,000000000e+00
      926000000    1,514674127e-01    1,119461656e-01   -1,684030592e-01    4,162125587e-01    0,000000000e+00    0,000000000e+00    0,000000000e+00    0,000000000e+00
      940000000    1,968548745e-01   -4,583542049e-02    6,291345507e-02    4,245596230e-01    0,000000000e+00    0,000000000e+00    0,000000000e+00    0,000000000e+00
      954000000    1,517015845e-01   -2,044401020e-01    2,615517974e-01    3,407462835e-01    0,000000000e+00    0,000000000e+00    0,000000000e+00    0,000000000e+00
      968000000    2,410599403e-02   -3,162858784e-01    4,121766686e-01    1,787859201e-01    0,000000000e+00    0,000000000e+00    0,000000000e+00    0,000000000e+00
      982000000   -1,643518955e-01   -3,303294182e-01    4,747182131e-01   -6,811077148e-02    0,000000000e+00    0,000000000e+00    0,000000000e+00    0,000000000e+00
      996000000   -3,231657445e-01   -2,102580369e-01    3,668209314e-01   -3,558835983e-01    0,000000000e+00    0,000000000e+00    0,000000000e+00    0,000000000e+00
     1010000000   -3,367671669e-01   -7,365165744e-03    4,177122563e-02   -5,258153677e-01    0,000000000e+00    0,000000000e+00    0,000000000e+00    0,000000000e+00
     1024000000   -2,073335648e-01    9,137765318e-02   -3,453088105e-01   -3,787191510e-01    0,000000000e+00    0,000000000e+00    0,000000000e+00    0,000000000e+00
     1038000000   -1,347012818e-01    6,955310237e-03   -4,815259874e-01    6,448882818e-02    0,000000000e+00    0,000000000e+00    0,000000000e+00    0,000000000e+00
     1052000000   -2,913724482e-01    5,400606617e-02   -9,348193556e-02    3,712212741e-01    0,000000000e+00    0,000000000e+00    0,000000000e+00    0,000000000e+00
     1066000000   -1,468687356e-01    2,973299026e-01    1,445475519e-01    1,310420930e-01    0,000000000e+00    0,000000000e+00    0,000000000e+00    0,000000000e+00
     1080000000    1,000543684e-01    2,458617538e-01    9,117233008e-02    2,028817497e-02    0,000000000e+00    0,000000000e+00    0,000000000e+00    0,000000000e+00
     1094000000    2,238723189e-01    8,655010909e-02    6,878314167e-02    9,394420311e-03    0,000000000e+00    0,000000000e+00    0,000000000e+00    0,000000000e+00
     1108000000    2,445933223e-01   -8,492799103e-02    8,223848790e-02   -1,664725249e-03    0,000000000e+00    0,000000000e+00    0,000000000e+00    0,000000000e+00
     1122000000    1,832130700e-01   -2,473391891e-01    1,029245108e-01   -2,657144517e-02    0,000000000e+00    0,000000000e+00    0,000000000e+00    0,000000000e+00
     1136000000    4,537448287e-02   -3,771288395e-01    1,262665391e-01   -7,449271530e-02    0,000000000e+00    0,000000000e+00    0,000000000e+00    0,000000000e+00
     1150000000   -1,519939601e-01   -4,237922132e-01    1,354050487e-01   -1,519161910e-01    0,000000000e+00    0,000000000e+00    0,000000000e+00    0,000000000e+00
     1164000000   -3,791487217e-01   -3,267240226e-01    9,617976844e-02   -2,803609073e-01    0,000000000e+00    0,000000000e+00    0,000000000e+00    0,000000000e+00
     1178000000   -4,626734257e-01   -8,319106698e-02   -1,068964228e-01   -4,014201164e-01    0,000000000e+00    0,000000000e+00    0,000000000e+00    0,000000000e+00
     1192000000   -3,710914850e-01    3,350848332e-02   -4,638386369e-01   -1,977750212e-01    0,000000000e+00    0,000000000e+00    0,000000000e+00    0,000000000e+00
     1206000000   -4,103050828e-01    1,334824562e-01   -2,716027498e-01    2,349487543e-01    0,000000000e+00    0,000000000e+00    0,000000000e+00    0,000000000e+00
     1220000000   -2,713394165e-01    3,317499161e-01   -5,527259200e-04    1,650817990e-01    0,000000000e+00    0,000000000e+00    0,000000000e+00    0,000000000e+00
     1234000000   -4,881744832e-02    3,456938565e-01    2,285283245e-02    5,435984209e-02    0,000000000e+00    0,000000000e+00    0,000000000e+00    0,000000000e+00
     1248000000    1,224870682e-01    2,451332361e-01    4,377420992e-03    2,083564177e-02    0,000000000e+00    0,000000000e+00    0,000000000e+00    0,000000000e+00
     1262000000    2,085749805e-01    1,024053767e-01    1,191969728e-03    3,162757307e-02    0,000000000e+00    0,000000000e+00    0,000000000e+00    0,000000000e+00
     1276000000    2,346373200e-01   -5,530601740e-02    3,022959642e-02    3,807513043e-02    0,000000000e+00    0,000000000e+00    0,000000000e+00    0,000000000e+00
     1290000000    1,905639172e-01   -2,112328708e-01    5,507969484e-02    2,695736662e-02    0,000000000e+00    0,000000000e+00    0,000000000e+00    0,000000000e+00
     1304000000    8,450914919e-02   -3,548558056e-01    7,510930300e-02    5,181592423e-03    0,000000000e+00    0,000000000e+00    0,000000000e+00    0,000000000e+00
     1318000000   -1,053862646e-01   -4,490748048e-01    8,084368706e-02   -1,484410744e-02    0,000000000e+00    0,000000000e+00    0,000000000e+00    0,000000000e+00
     1332000000   -3,539484441e-01   -4,298514426e-01    8,878462762e-02   -9,036346339e-03    0,000000000e+00    0,000000000e+00    0,000000000e+00    0,000000000e+00
     1346000000   -5,882934928e-01   -2,469510883e-01    1,104421541e-01   -1,014710404e-02    0,000000000e+00    0,000000000e+00    0,000000000e+00    0,000000000e+00
     1360000000   -6,514000893e-01    7,536473870e-02    1,462554038e-01   -1,494292542e-02    0,000000000e+00    0,000000000e+00    0,000000000e+00    0,000000000e+00
     1374000000   -4,970705211e-01    3,293795586e-01    1,614309400e-01   -4,967260733e-02    0,000000000e+00    0,000000000e+00    0,000000000e+00    0,000000000e+00
     1388000000   -2,556393743e-01    4,176919162e-01    1,624191552e-01   -8,604685217e-02    0,000000000e+00    0,000000000e+00    0,000000000e+00    0,000000000e+00
     1402000000   -3,938374296e-02    3,929281533e-01    1,481314451e-01   -9,498123080e-02    0,000000000e+00    0,000000000e+00    0,000000000e+00    0,000000000e+00
     1416000000    9,751861542e-02    2,877304554e-01    1,195113733e-01   -8,799195290e-02    0,000000000e+00    0,000000000e+00    0,000000000e+00    0,000000000e+00
     1430000000    1,877351403e-01    1,448187381e-01    1,054064184e-01   -7,312334329e-02    0,000000000e+00    0,000000000e+00    0,000000000e+00    0,000000000e+00
     1444000000    2,197429687e-01   -1,603177749e-02    1,269602627e-01   -2,659228630e-02    0,000000000e+00    0,000000000e+00    0,000000000e+00    0,000000000e+00
     1458000000    1,826912165e-01   -1,819992661e-01    1,497824639e-01    2,608765662e-02    0,000000000e+00    0,000000000e+00    0,000000000e+00    0,000000000e+00
     1472000000    6,384859234e-02   -3,482319713e-01    1,997938752e-01    6,594596058e-02    0,000000000e+00    0,000000000e+00    0,000000000e+00    0,000000000e+00
     1486000000   -1,396089345e-01   -4,722486436e-01    2,989347279e-01    9,938512743e-02    0,000000000e+00    0,000000000e+00    0,000000000e+00    0,000000000e+00
     1500000000   -4,428161383e-01   -4,694894850e-01    4,110626578e-01    6,113508344e-02    0,000000000e+00    0,000000000e+00    0,000000000e+00    0,000000000e+00
