! NanoVNA-App
! Date: 2025-09-25 15:57:21
! Start: 100MHz Stop: 1,5GHz Points: 101
! S-Parameter data: F S11 S21 S12 S22
# Hz S RI R 50
!     Frequency           S11_Real           S11_Imag           S21_Real           S21_Imag           S12_Real           S12_Imag           S22_Real           S22_Imag
      100000000   -2,822136879e-02   -2,826415002e-03    3,722333908e-01   -7,224695086e-01    0,000000000e+00    0,000000000e+00    0,000000000e+00    0,000000000e+00
      114000000   -1,563907042e-02    1,287029032e-02   -9,120600671e-02   -8,046213388e-01    0,000000000e+00    0,000000000e+00    0,000000000e+00    0,000000000e+00
      128000000    4,414131399e-03    1,190609951e-02   -5,160186887e-01   -6,186926961e-01    0,000000000e+00    0,000000000e+00    0,000000000e+00    0,000000000e+00
      142000000    1,548887789e-02   -1,826188411e-03   -7,675028443e-01   -2,340913564e-01    0,000000000e+00    0,000000000e+00    0,000000000e+00    0,000000000e+00
      156000000    1,749069802e-02   -1,384344604e-02   -7,678253651e-01    2,273564637e-01    0,000000000e+00    0,000000000e+00    0,000000000e+00    0,000000000e+00
      170000000    1,766682416e-02   -2,095184475e-02   -5,153695941e-01    6,059707999e-01    0,000000000e+00    0,000000000e+00    0,000000000e+00    0,000000000e+00
      184000000    2,202941850e-02   -3,555117920e-02   -9,842798859e-02    7,863472700e-01    0,000000000e+00    0,000000000e+00    0,000000000e+00    0,000000000e+00
      198000000    1,404350996e-02   -6,065561250e-02    3,462766707e-01    7,109209895e-01    0,000000000e+00    0,000000000e+00    0,000000000e+00    0,000000000e+00
      212000000   -1,769112796e-02   -7,911395282e-02    6,807528734e-01    4,061329663e-01    0,000000000e+00    0,000000000e+00    0,000000000e+00    0,000000000e+00
      226000000   -6,037698314e-02   -6,665558368e-02    7,958187461e-01   -3,564894572e-02    0,000000000e+00    0,000000000e+00    0,000000000e+00    0,000000000e+00
      240000000   -8,054967970e-02   -2,269912511e-02    6,417165995e-01   -4,716082513e-01    0,000000000e+00    0,000000000e+00    0,000000000e+00    0,000000000e+00
      254000000   -6,079166383e-02    1,975451782e-02    2,710851133e-01   -7,418968678e-01    0,000000000e+00    0,000000000e+00    0,000000000e+00    0,000000000e+00
      268000000   -2,090024948e-02    3,089063615e-02   -1,810152233e-01   -7,609731555e-01    0,000000000e+00    0,000000000e+00    0,000000000e+00    0,000000000e+00
      282000000    6,930640433e-03    1,374811493e-02   -5,632715225e-01   -5,324723721e-01    0,000000000e+00    0,000000000e+00    0,000000000e+00    0,000000000e+00
      296000000    1,242485363e-02   -6,300757639e-03   -7,604530454e-01   -1,343469024e-01    0,000000000e+00    0,000000000e+00    0,000000000e+00    0,000000000e+00
      310000000    1,362946257e-02   -1,454143692e-02   -7,085508704e-01    3,055007160e-01    0,000000000e+00    0,000000000e+00    0,000000000e+00    0,000000000e+00
      324000000    2,245816775e-02   -2,480408549e-02   -4,208212495e-01    6,400467753e-01    0,000000000e+00    0,000000000e+00    0,000000000e+00    0,000000000e+00
      338000000    2,866235003e-02   -5,065688118e-02   -1,375145046e-03    7,585452795e-01    0,000000000e+00    0,000000000e+00    0,000000000e+00    0,000000000e+00
      352000000    9,919971228e-03   -8,267895877e-02    4,112291634e-01    6,345188618e-01    0,000000000e+00    0,000000000e+00    0,000000000e+00    0,000000000e+00
      366000000   -3,186947480e-02   -9,396123141e-02    6,931604147e-01    3,037443459e-01    0,000000000e+00    0,000000000e+00    0,000000000e+00    0,000000000e+00
      380000000   -6,745095551e-02   -6,902600080e-02    7,457281947e-01   -1,344808191e-01    0,000000000e+00    0,000000000e+00    0,000000000e+00    0,000000000e+00
      394000000   -6,869345158e-02   -3,057301790e-02    5,388169885e-01   -5,278587937e-01    0,000000000e+00    0,000000000e+00    0,000000000e+00    0,000000000e+00
      408000000   -4,253964126e-02   -1,555646583e-02    1,502537727e-01   -7,340046167e-01    0,000000000e+00    0,000000000e+00    0,000000000e+00    0,000000000e+00
      422000000   -2,619626746e-02   -3,112220764e-02   -2,794782519e-01   -6,900566220e-01    0,000000000e+00    0,000000000e+00    0,000000000e+00    0,000000000e+00
      436000000   -3,911743686e-02   -4,883703589e-02   -6,098325253e-01   -4,193487465e-01    0,000000000e+00    0,000000000e+00    0,000000000e+00    0,000000000e+00
      450000000   -6,466659158e-02   -3,929050639e-02   -7,367477417e-01   -8,021636866e-03    0,000000000e+00    0,000000000e+00    0,000000000e+00    0,000000000e+00
      464000000   -6,789277494e-02   -6,254019681e-03   -6,078076363e-01    4,063801467e-01    0,000000000e+00    0,000000000e+00    0,000000000e+00    0,000000000e+00
      478000000   -3,883771598e-02    1,586670242e-02   -2,676229179e-01    6,702224016e-01    0,000000000e+00    0,000000000e+00    0,000000000e+00    0,000000000e+00
      492000000   -5,337830633e-03    6,519847084e-03    1,518099159e-01    6,952755451e-01    0,000000000e+00    0,000000000e+00    0,000000000e+00    0,000000000e+00
      506000000    6,979096681e-03   -2,002188563e-02    5,078096986e-01    4,879929125e-01    0,000000000e+00    0,000000000e+00    0,000000000e+00    0,000000000e+00
      520000000    7,737704436e-04   -3,833009303e-02    6,894939542e-01    1,223728731e-01    0,000000000e+00    0,000000000e+00    0,000000000e+00    0,000000000e+00
      534000000   -3,243604442e-03   -4,572138935e-02    6,327388883e-01   -2,822836637e-01    0,000000000e+00    0,000000000e+00    0,000000000e+00    0,000000000e+00
      548000000    5,805580877e-04   -5,954269692e-02    3,601918221e-01   -5,788254738e-01    0,000000000e+00    0,000000000e+00    0,000000000e+00    0,000000000e+00
      562000000   -8,126077242e-03   -8,868397027e-02   -2,644965239e-02   -6,729935408e-01    0,000000000e+00    0,000000000e+00    0,000000000e+00    0,000000000e+00
      576000000   -4,537351429e-02   -1,096494272e-01   -4,011639357e-01   -5,376297235e-01    0,000000000e+00    0,000000000e+00    0,000000000e+00    0,000000000e+00
      590000000   -9,483750910e-02   -9,361460060e-02   -6,391488314e-01   -2,197241187e-01    0,000000000e+00    0,000000000e+00    0,000000000e+00    0,000000000e+00
      604000000   -1,113589630e-01   -4,099730402e-02   -6,473165154e-01    1,985859424e-01    0,000000000e+00    0,000000000e+00    0,000000000e+00    0,000000000e+00
      618000000   -7,539203763e-02   -2,069586422e-03   -4,015376866e-01    5,356143713e-01    0,000000000e+00    0,000000000e+00    0,000000000e+00    0,000000000e+00
      632000000   -3,026813455e-02   -2,117987722e-02   -1,142626721e-02    6,549041271e-01    0,000000000e+00    0,000000000e+00    0,000000000e+00    0,000000000e+00
      646000000   -3,701246902e-02   -7,699856162e-02    3,655078411e-01    5,282047987e-01    0,000000000e+00    0,000000000e+00    0,000000000e+00    0,000000000e+00
      660000000   -1,121715754e-01   -1,002747938e-01    6,004397869e-01    1,931878626e-01    0,000000000e+00    0,000000000e+00    0,000000000e+00    0,000000000e+00
      674000000   -1,995815039e-01   -2,421763726e-02    5,650256872e-01   -2,398785502e-01    0,000000000e+00    0,000000000e+00    0,000000000e+00    0,000000000e+00
      688000000   -1,793575883e-01    1,451191455e-01    2,089604139e-01   -5,215731859e-01    0,000000000e+00    0,000000000e+00    0,000000000e+00    0,000000000e+00
      702000000    2,770010568e-02    2,459537536e-01   -1,983082443e-01   -4,023417234e-01    0,000000000e+00    0,000000000e+00    0,000000000e+00    0,000000000e+00
      716000000    2,636997402e-01    1,107481718e-01   -2,721650004e-01   -8,310121298e-02    0,000000000e+00    0,000000000e+00    0,000000000e+00    0,000000000e+00
      730000000    3,037270010e-01   -1,865097284e-01   -1,063311771e-01    3,170738742e-02    0,000000000e+00    0,000000000e+00    0,000000000e+00    0,000000000e+00
      744000000    9,397040308e-02   -4,274218380e-01   -4,237993434e-02   -6,580308825e-02    0,000000000e+00    0,000000000e+00    0,000000000e+00    0,000000000e+00
      758000000   -2,597406507e-01   -4,292126000e-01   -1,762644202e-01   -1,257225126e-01    0,000000000e+00    0,000000000e+00    0,000000000e+00    0,000000000e+00
      772000000   -4,852996171e-01   -1,182355583e-01   -3,372929394e-01    3,869371116e-02    0,000000000e+00    0,000000000e+00    0,000000000e+00    0,000000000e+00
      786000000   -3,415726125e-01    2,212664038e-01   -2,631474733e-01    3,169355690e-01    0,000000000e+00    0,000000000e+00    0,000000000e+00    0,000000000e+00
      800000000   -4,122457653e-02    2,757124603e-01    2,614163561e-03    4,374903738e-01    0,000000000e+00    0,000000000e+00    0,000000000e+00    0,000000000e+00
      814000000    1,440104246e-01    1,254296154e-01    2,655887604e-01    3,596033454e-01    0,000000000e+00    0,000000000e+00    0,000000000e+00    0,000000000e+00
      828000000    1,675746143e-01   -7,017842680e-02    4,332939088e-01    1,569191664e-01    0,000000000e+00    0,000000000e+00    0,000000000e+00    0,000000000e+00
      842000000    6,733909994e-02   -2,178936452e-01    4,667154551e-01   -1,199678108e-01    0,000000000e+00    0,000000000e+00    0,000000000e+00    0,000000000e+00
      856000000   -1,064376161e-01   -2,635790408e-01    3,205044866e-01   -3,953876495e-01    0,000000000e+00    0,000000000e+00    0,000000000e+00    0,000000000e+00
      870000000   -2,749003768e-01   -1,680752635e-01   -3,443038324e-03   -5,264309049e-01    0,000000000e+00    0,000000000e+00    0,000000000e+00    0,000000000e+00
      884000000   -3,204774857e-01    3,621971235e-02   -3,484242857e-01   -3,923849165e-01    0,000000000e+00    0,000000000e+00    0,000000000e+00    0,000000000e+00
      898000000   -1,914196014e-01    2,067826837e-01   -4,883681834e-01   -6,290716678e-02    0,000000000e+00    0,000000000e+00    0,000000000e+00    0,000000000e+00
      912000000    6,790259387e-03    2,196108401e-01   -4,115233719e-01    2,744789720e-01    0,000000000e+00    0,000000000e+00    0,000000000e+00    0,000000000e+00
      926000000    1,488344818e-01    1,117641106e-01   -1,684370935e-01    4,145714641e-01    0,000000000e+00    0,000000000e+00    0,000000000e+00    0,000000000e+00
      940000000    1,968614608e-01   -4,452199116e-02    6,360121816e-02    4,263540208e-01    0,000000000e+00    0,000000000e+00    0,000000000e+00    0,000000000e+00
      954000000    1,566653550e-01   -2,031586319e-01    2,612675428e-01    3,422420323e-01    0,000000000e+00    0,000000000e+00    0,000000000e+00    0,000000000e+00
      968000000    2,676375210e-02   -3,129003644e-01    4,095287919e-01    1,792453229e-01    0,000000000e+00    0,000000000e+00    0,000000000e+00    0,000000000e+00
      982000000   -1,598426849e-01   -3,326305151e-01    4,753104150e-01   -6,829863787e-02    0,000000000e+00    0,000000000e+00    0,000000000e+00    0,000000000e+00
      996000000   -3,288714588e-01   -2,081226110e-01    3,702512383e-01   -3,540959656e-01    0,000000000e+00    0,000000000e+00    0,000000000e+00    0,000000000e+00
     1010000000   -3,383061290e-01   -6,348866504e-03    4,172557220e-02   -5,240313411e-01    0,000000000e+00    0,000000000e+00    0,000000000e+00    0,000000000e+00
     1024000000   -2,049025595e-01    8,948804438e-02   -3,452354968e-01   -3,808669150e-01    0,000000000e+00    0,000000000e+00    0,000000000e+00    0,000000000e+00
     1038000000   -1,334046870e-01    6,620653905e-03   -4,811592996e-01    6,195575744e-02    0,000000000e+00    0,000000000e+00    0,000000000e+00    0,000000000e+00
     1052000000   -2,838663459e-01    5,467506871e-02   -9,668744355e-02    3,720460236e-01    0,000000000e+00    0,000000000e+00    0,000000000e+00    0,000000000e+00
     1066000000   -1,472081393e-01    2,984400988e-01    1,407440156e-01    1,328286678e-01    0,000000000e+00    0,000000000e+00    0,000000000e+00    0,000000000e+00
     1080000000    1,031988561e-01    2,466529012e-01    9,148133546e-02    2,114256285e-02    0,000000000e+00    0,000000000e+00    0,000000000e+00    0,000000000e+00
     1094000000    2,190262973e-01    8,653914183e-02    7,040037215e-02    1,041351166e-02    0,000000000e+00    0,000000000e+00    0,000000000e+00    0,000000000e+00
     1108000000    2,417768389e-01   -8,382395655e-02    8,068663627e-02    9,949332889e-05    0,000000000e+00    0,000000000e+00    0,000000000e+00    0,000000000e+00
     1122000000    1,819144338e-01   -2,517350018e-01    1,045715138e-01   -2,747123688e-02    0,000000000e+00    0,000000000e+00    0,000000000e+00    0,000000000e+00
     1136000000    4,936379567e-02   -3,788923919e-01    1,270505935e-01   -7,268197089e-02    0,000000000e+00    0,000000000e+00    0,000000000e+00    0,000000000e+00
     1150000000   -1,548771560e-01   -4,206860363e-01    1,390823722e-01   -1,528288126e-01    0,000000000e+00    0,000000000e+00    0,000000000e+00    0,000000000e+00
     1164000000   -3,807416260e-01   -3,232461214e-01    9,878759831e-02   -2,751131952e-01    0,000000000e+00    0,000000000e+00    0,000000000e+00    0,000000000e+00
     1178000000   -4,699550867e-01   -9,034306556e-02   -1,071951389e-01   -4,057092667e-01    0,000000000e+00    0,000000000e+00    0,000000000e+00    0,000000000e+00
     1192000000   -3,747517169e-01    3,526204452e-02   -4,617391527e-01   -2,003378272e-01    0,000000000e+00    0,000000000e+00    0,000000000e+00    0,000000000e+00
     1206000000   -4,128305018e-01    1,313690990e-01   -2,709470689e-01    2,356742918e-01    0,000000000e+00    0,000000000e+00    0,000000000e+00    0,000000000e+00
     1220000000   -2,708366513e-01    3,329642415e-01    7,878493634e-04    1,668326408e-01    0,000000000e+00    0,000000000e+00    0,000000000e+00    0,000000000e+00
     1234000000   -4,298415408e-02    3,464716375e-01    2,563552000e-02    5,451292172e-02    0,000000000e+00    0,000000000e+00    0,000000000e+00    0,000000000e+00
     1248000000    1,217670515e-01    2,466264665e-01    1,111080404e-03    2,309525944e-02    0,000000000e+00    0,000000000e+00    0,000000000e+00    0,000000000e+00
     1262000000    2,148779333e-01    1,009990349e-01    1,894193352e-03    2,945781127e-02    0,000000000e+00    0,000000000e+00    0,000000000e+00    0,000000000e+00
     1276000000    2,386847436e-01   -6,027870253e-02    3,072271310e-02    3,280849010e-02    0,000000000e+00    0,000000000e+00    0,000000000e+00    0,000000000e+00
     1290000000    1,974840611e-01   -2,163233906e-01    5,776764452e-02    2,486032061e-02    0,000000000e+00    0,000000000e+00    0,000000000e+00    0,000000000e+00
     1304000000    8,587326854e-02   -3,535508811e-01    7,692079246e-02    7,793197874e-03    0,000000000e+00    0,000000000e+00    0,000000000e+00    0,000000000e+00
     1318000000   -1,049842015e-01   -4,444199204e-01    7,918155938e-02   -1,229426824e-02    0,000000000e+00    0,000000000e+00    0,000000000e+00    0,000000000e+00
     1332000000   -3,577867150e-01   -4,355917573e-01    9,341081232e-02   -1,595992781e-02    0,000000000e+00    0,000000000e+00    0,000000000e+00    0,000000000e+00
     1346000000   -5,870979428e-01   -2,473386675e-01    1,087148264e-01   -1,411656477e-02    0,000000000e+00    0,000000000e+00    0,000000000e+00    0,000000000e+00
     1360000000   -6,502628326e-01    7,440049946e-02    1,426702589e-01   -8,518191986e-03    0,000000000e+00    0,000000000e+00    0,000000000e+00    0,000000000e+00
     1374000000   -4,956353009e-01    3,358552456e-01    1,600319892e-01   -4,815126210e-02    0,000000000e+00    0,000000000e+00    0,000000000e+00    0,000000000e+00
     1388000000   -2,543013096e-01    4,268653393e-01    1,625355929e-01   -7,725697756e-02    0,000000000e+00    0,000000000e+00    0,000000000e+00    0,000000000e+00
     1402000000   -4,557925090e-02    3,855221570e-01    1,434192061e-01   -1,003954858e-01    0,000000000e+00    0,000000000e+00    0,000000000e+00    0,000000000e+00
     1416000000    1,018427536e-01    2,841038406e-01    1,210163087e-01   -8,390270174e-02    0,000000000e+00    0,000000000e+00    0,000000000e+00    0,000000000e+00
     1430000000    1,907504648e-01    1,518064588e-01    1,210799292e-01   -6,349365413e-02    0,000000000e+00    0,000000000e+00    0,000000000e+00    0,000000000e+00
     1444000000    2,186564207e-01   -1,683525555e-02    1,221988276e-01   -3,290837258e-02    0,000000000e+00    0,000000000e+00    0,000000000e+00    0,000000000e+00
     1458000000    1,753070056e-01   -1,789764613e-01    1,332706213e-01    2,260568924e-02    0,000000000e+00    0,000000000e+00    0,000000000e+00    0,000000000e+00
     1472000000    6,398712844e-02   -3,429454565e-01    1,990509629e-01    7,198874652e-02    0,000000000e+00    0,000000000e+00    0,000000000e+00    0,000000000e+00
     1486000000   -1,493969858e-01   -4,695285857e-01    2,941018045e-01    9,617488831e-02    0,000000000e+00    0,000000000e+00    0,000000000e+00    0,000000000e+00
     1500000000   -4,315620065e-01   -4,776983261e-01    4,103124142e-01    6,211578473e-02    0,000000000e+00    0,000000000e+00    0,000000000e+00    0,000000000e+00
