! NanoVNA-App
! Date: 2025-09-25 16:03:19
! Start: 100MHz Stop: 1,5GHz Points: 101
! S-Parameter data: F S11 S21 S12 S22
# Hz S RI R 50
!     Frequency           S11_Real           S11_Imag           S21_Real           S21_Imag           S12_Real           S12_Imag           S22_Real           S22_Imag
      100000000   -2,830617130e-02   -2,886294853e-03    3,723163903e-01   -7,224608064e-01    0,000000000e+00    0,000000000e+00    0,000000000e+00    0,000000000e+00
      114000000   -1,576304995e-02    1,289405767e-02   -9,130580723e-02   -8,045825958e-01    0,000000000e+00    0,000000000e+00    0,000000000e+00    0,000000000e+00
      128000000    4,314596765e-03    1,198691875e-02   -5,158272386e-01   -6,189827323e-01    0,000000000e+00    0,000000000e+00    0,000000000e+00    0,000000000e+00
      142000000    1,548352744e-02   -1,713818754e-03   -7,674915791e-01   -2,342904210e-01    0,000000000e+00    0,000000000e+00    0,000000000e+00    0,000000000e+00
      156000000    1,542418543e-02   -1,288590394e-02   -7,642950416e-01    2,205916345e-01    0,000000000e+00    0,000000000e+00    0,000000000e+00    0,000000000e+00
      170000000    1,770921052e-02   -2,098106407e-02   -5,153961182e-01    6,061463952e-01    0,000000000e+00    0,000000000e+00    0,000000000e+00    0,000000000e+00
      184000000    2,197429165e-02   -3,552675620e-02   -9,847587347e-02    7,859792113e-01    0,000000000e+00    0,000000000e+00    0,000000000e+00    0,000000000e+00
      198000000    1,400760747e-02   -6,063215807e-02    3,461346626e-01    7,108010054e-01    0,000000000e+00    0,000000000e+00    0,000000000e+00    0,000000000e+00
      212000000   -1,767606847e-02   -7,911528647e-02    6,809074879e-01    4,063309133e-01    0,000000000e+00    0,000000000e+00    0,000000000e+00    0,000000000e+00
      226000000   -6,036158279e-02   -6,662207097e-02    7,957811952e-01   -3,563873470e-02    0,000000000e+00    0,000000000e+00    0,000000000e+00    0,000000000e+00
      240000000   -8,052495122e-02   -2,280846238e-02    6,417113543e-01   -4,715956748e-01    0,000000000e+00    0,000000000e+00    0,000000000e+00    0,000000000e+00
      254000000   -6,079642847e-02    1,981865428e-02    2,709587514e-01   -7,420458198e-01    0,000000000e+00    0,000000000e+00    0,000000000e+00    0,000000000e+00
      268000000   -2,096103132e-02    3,090525977e-02   -1,810297668e-01   -7,612946630e-01    0,000000000e+00    0,000000000e+00    0,000000000e+00    0,000000000e+00
      282000000    6,941302214e-03    1,381004788e-02   -5,634784102e-01   -5,324417353e-01    0,000000000e+00    0,000000000e+00    0,000000000e+00    0,000000000e+00
      296000000    1,229845826e-02   -6,152338814e-03   -7,604891062e-01   -1,343589127e-01    0,000000000e+00    0,000000000e+00    0,000000000e+00    0,000000000e+00
      310000000    1,357272640e-02   -1,447618846e-02   -7,085650563e-01    3,051170111e-01    0,000000000e+00    0,000000000e+00    0,000000000e+00    0,000000000e+00
      324000000    2,242332511e-02   -2,477440424e-02   -4,212638438e-01    6,401197910e-01    0,000000000e+00    0,000000000e+00    0,000000000e+00    0,000000000e+00
      338000000    2,842768095e-02   -5,070721358e-02   -1,000872348e-03    7,591669559e-01    0,000000000e+00    0,000000000e+00    0,000000000e+00    0,000000000e+00
      352000000    1,018518955e-02   -8,285566419e-02    4,117761552e-01    6,360545754e-01    0,000000000e+00    0,000000000e+00    0,000000000e+00    0,000000000e+00
      366000000   -3,184378520e-02   -9,376630187e-02    6,940230727e-01    3,040438890e-01    0,000000000e+00    0,000000000e+00    0,000000000e+00    0,000000000e+00
      380000000   -6,742550433e-02   -6,872848421e-02    7,464113832e-01   -1,342138648e-01    0,000000000e+00    0,000000000e+00    0,000000000e+00    0,000000000e+00
      394000000   -6,868159771e-02   -3,049526364e-02    5,388558507e-01   -5,288306475e-01    0,000000000e+00    0,000000000e+00    0,000000000e+00    0,000000000e+00
      408000000   -4,262853041e-02   -1,585500315e-02    1,500321329e-01   -7,348611355e-01    0,000000000e+00    0,000000000e+00    0,000000000e+00    0,000000000e+00
      422000000   -2,601835877e-02   -3,090768121e-02   -2,789763808e-01   -6,897957921e-01    0,000000000e+00    0,000000000e+00    0,000000000e+00    0,000000000e+00
      436000000   -3,929367661e-02   -4,878807068e-02   -6,105024815e-01   -4,196971059e-01    0,000000000e+00    0,000000000e+00    0,000000000e+00    0,000000000e+00
      450000000   -6,469762325e-02   -3,926548362e-02   -7,372879982e-01   -7,607575972e-03    0,000000000e+00    0,000000000e+00    0,000000000e+00    0,000000000e+00
      464000000   -6,735663116e-02   -6,206656341e-03   -6,075491905e-01    4,065765142e-01    0,000000000e+00    0,000000000e+00    0,000000000e+00    0,000000000e+00
      478000000   -3,852019459e-02    1,641635969e-02   -2,675877512e-01    6,698498130e-01    0,000000000e+00    0,000000000e+00    0,000000000e+00    0,000000000e+00
      492000000   -5,183851812e-03    6,130801514e-03    1,518023312e-01    6,945601106e-01    0,000000000e+00    0,000000000e+00    0,000000000e+00    0,000000000e+00
      506000000    6,890731398e-03   -2,019895799e-02    5,081102848e-01    4,882227182e-01    0,000000000e+00    0,000000000e+00    0,000000000e+00    0,000000000e+00
      520000000    6,769064348e-04   -3,850379214e-02    6,897270083e-01    1,224261597e-01    0,000000000e+00    0,000000000e+00    0,000000000e+00    0,000000000e+00
      534000000   -3,209671704e-03   -4,572117329e-02    6,326931119e-01   -2,822013795e-01    0,000000000e+00    0,000000000e+00    0,000000000e+00    0,000000000e+00
      548000000    1,144199283e-03   -5,992016569e-02    3,603257537e-01   -5,800055861e-01    0,000000000e+00    0,000000000e+00    0,000000000e+00    0,000000000e+00
      562000000   -7,420412730e-03   -8,898504823e-02   -2,690226957e-02   -6,724197268e-01    0,000000000e+00    0,000000000e+00    0,000000000e+00    0,000000000e+00
      576000000   -4,508677498e-02   -1,095999107e-01   -4,010173678e-01   -5,380954742e-01    0,000000000e+00    0,000000000e+00    0,000000000e+00    0,000000000e+00
      590000000   -9,498737007e-02   -9,348881245e-02   -6,407502294e-01   -2,170013636e-01    0,000000000e+00    0,000000000e+00    0,000000000e+00    0,000000000e+00
      604000000   -1,113931313e-01   -4,120108485e-02   -6,476038694e-01    1,984179616e-01    0,000000000e+00    0,000000000e+00    0,000000000e+00    0,000000000e+00
      618000000   -7,565404475e-02   -2,164071426e-03   -4,027085602e-01    5,358576179e-01    0,000000000e+00    0,000000000e+00    0,000000000e+00    0,000000000e+00
      632000000   -3,019329533e-02   -2,155389823e-02   -1,234676782e-02    6,553980708e-01    0,000000000e+00    0,000000000e+00    0,000000000e+00    0,000000000e+00
      646000000   -3,579391539e-02   -7,677122205e-02    3,660801351e-01    5,284520388e-01    0,000000000e+00    0,000000000e+00    0,000000000e+00    0,000000000e+00
      660000000   -1,111036092e-01   -9,902049601e-02    6,011559963e-01    1,936747432e-01    0,000000000e+00    0,000000000e+00    0,000000000e+00    0,000000000e+00
      674000000   -1,994413733e-01   -2,324080095e-02    5,660448670e-01   -2,390308529e-01    0,000000000e+00    0,000000000e+00    0,000000000e+00    0,000000000e+00
      688000000   -1,786146164e-01    1,435743868e-01    2,105372995e-01   -5,222406387e-01    0,000000000e+00    0,000000000e+00    0,000000000e+00    0,000000000e+00
      702000000    2,366619371e-02    2,468249351e-01   -2,013275176e-01   -4,109158814e-01    0,000000000e+00    0,000000000e+00    0,000000000e+00    0,000000000e+00
      716000000    2,633930743e-01    1,112692282e-01   -2,746614814e-01   -8,428855240e-02    0,000000000e+00    0,000000000e+00    0,000000000e+00    0,000000000e+00
      730000000    3,034490049e-01   -1,854967624e-01   -1,084048301e-01    3,313520923e-02    0,000000000e+00    0,000000000e+00    0,000000000e+00    0,000000000e+00
      744000000    9,543216228e-02   -4,282124937e-01   -4,220385104e-02   -6,373371184e-02    0,000000000e+00    0,000000000e+00    0,000000000e+00    0,000000000e+00
      758000000   -2,577095032e-01   -4,303481877e-01   -1,742653847e-01   -1,252937168e-01    0,000000000e+00    0,000000000e+00    0,000000000e+00    0,000000000e+00
      772000000   -4,864783287e-01   -1,208183914e-01   -3,357559443e-01    3,777138516e-02    0,000000000e+00    0,000000000e+00    0,000000000e+00    0,000000000e+00
      786000000   -3,424359858e-01    2,206890136e-01   -2,630569935e-01    3,163881004e-01    0,000000000e+00    0,000000000e+00    0,000000000e+00    0,000000000e+00
      800000000   -4,150212556e-02    2,774915695e-01    2,343672793e-03    4,366071522e-01    0,000000000e+00    0,000000000e+00    0,000000000e+00    0,000000000e+00
      814000000    1,440502107e-01    1,255860925e-01    2,633992732e-01    3,590390682e-01    0,000000000e+00    0,000000000e+00    0,000000000e+00    0,000000000e+00
      828000000    1,682859659e-01   -6,972514838e-02    4,324661195e-01    1,567790061e-01    0,000000000e+00    0,000000000e+00    0,000000000e+00    0,000000000e+00
      842000000    6,809069961e-02   -2,187251449e-01    4,666760266e-01   -1,202945635e-01    0,000000000e+00    0,000000000e+00    0,000000000e+00    0,000000000e+00
      856000000   -1,061710790e-01   -2,635360360e-01    3,196613491e-01   -3,940959871e-01    0,000000000e+00    0,000000000e+00    0,000000000e+00    0,000000000e+00
      870000000   -2,750542462e-01   -1,681500524e-01   -2,015846549e-03   -5,259056091e-01    0,000000000e+00    0,000000000e+00    0,000000000e+00    0,000000000e+00
      884000000   -3,215050995e-01    3,594088554e-02   -3,478543460e-01   -3,911656737e-01    0,000000000e+00    0,000000000e+00    0,000000000e+00    0,000000000e+00
      898000000   -1,930738986e-01    2,065574080e-01   -4,891436994e-01   -6,296756119e-02    0,000000000e+00    0,000000000e+00    0,000000000e+00    0,000000000e+00
      912000000    7,787518203e-03    2,201222032e-01   -4,034580886e-01    2,637868524e-01    0,000000000e+00    0,000000000e+00    0,000000000e+00    0,000000000e+00
      926000000    1,487712413e-01    1,129884720e-01   -1,718106568e-01    4,175297022e-01    0,000000000e+00    0,000000000e+00    0,000000000e+00    0,000000000e+00
      940000000    1,976528168e-01   -4,606647044e-02    6,165549904e-02    4,254062772e-01    0,000000000e+00    0,000000000e+00    0,000000000e+00    0,000000000e+00
      954000000    1,548754424e-01   -2,020486444e-01    2,631778419e-01    3,406625986e-01    0,000000000e+00    0,000000000e+00    0,000000000e+00    0,000000000e+00
      968000000    2,406791225e-02   -3,124707937e-01    4,100116491e-01    1,804335862e-01    0,000000000e+00    0,000000000e+00    0,000000000e+00    0,000000000e+00
      982000000   -1,598589122e-01   -3,328141272e-01    4,750084579e-01   -6,786224246e-02    0,000000000e+00    0,000000000e+00    0,000000000e+00    0,000000000e+00
      996000000   -3,280313313e-01   -2,102847695e-01    3,667871654e-01   -3,547621667e-01    0,000000000e+00    0,000000000e+00    0,000000000e+00    0,000000000e+00
     1010000000   -3,438343406e-01   -9,252244607e-03    4,354185984e-02   -5,214397907e-01    0,000000000e+00    0,000000000e+00    0,000000000e+00    0,000000000e+00
     1024000000   -2,080751508e-01    9,593998641e-02   -3,432091475e-01   -3,808272779e-01    0,000000000e+00    0,000000000e+00    0,000000000e+00    0,000000000e+00
     1038000000   -1,331780404e-01    8,696436882e-03   -4,844752252e-01    6,426770240e-02    0,000000000e+00    0,000000000e+00    0,000000000e+00    0,000000000e+00
     1052000000   -2,896159291e-01    5,147840828e-02   -9,485496581e-02    3,750782013e-01    0,000000000e+00    0,000000000e+00    0,000000000e+00    0,000000000e+00
     1066000000   -1,475813985e-01    2,990746796e-01    1,460501403e-01    1,318991333e-01    0,000000000e+00    0,000000000e+00    0,000000000e+00    0,000000000e+00
     1080000000    1,016954929e-01    2,464515418e-01    9,095848352e-02    2,061352134e-02    0,000000000e+00    0,000000000e+00    0,000000000e+00    0,000000000e+00
     1094000000    2,236075252e-01    8,774564415e-02    6,702938676e-02    9,383312427e-03    0,000000000e+00    0,000000000e+00    0,000000000e+00    0,000000000e+00
     1108000000    2,401971668e-01   -8,881369978e-02    8,165404201e-02   -1,689689700e-03    0,000000000e+00    0,000000000e+00    0,000000000e+00    0,000000000e+00
     1122000000    1,841580123e-01   -2,526382208e-01    1,035030782e-01   -2,579350956e-02    0,000000000e+00    0,000000000e+00    0,000000000e+00    0,000000000e+00
     1136000000    5,001572520e-02   -3,766275644e-01    1,280166060e-01   -7,200130820e-02    0,000000000e+00    0,000000000e+00    0,000000000e+00    0,000000000e+00
     1150000000   -1,536738724e-01   -4,206319153e-01    1,367105693e-01   -1,483607590e-01    0,000000000e+00    0,000000000e+00    0,000000000e+00    0,000000000e+00
     1164000000   -3,795222342e-01   -3,241065145e-01    9,891194105e-02   -2,770741880e-01    0,000000000e+00    0,000000000e+00    0,000000000e+00    0,000000000e+00
     1178000000   -4,667848945e-01   -8,408202976e-02   -1,062478945e-01   -4,045667946e-01    0,000000000e+00    0,000000000e+00    0,000000000e+00    0,000000000e+00
     1192000000   -3,777200282e-01    3,924407810e-02   -4,682191908e-01   -1,967858225e-01    0,000000000e+00    0,000000000e+00    0,000000000e+00    0,000000000e+00
     1206000000   -4,149778485e-01    1,278690100e-01   -2,719573975e-01    2,343345284e-01    0,000000000e+00    0,000000000e+00    0,000000000e+00    0,000000000e+00
     1220000000   -2,714032233e-01    3,290277719e-01   -1,841829275e-03    1,618836224e-01    0,000000000e+00    0,000000000e+00    0,000000000e+00    0,000000000e+00
     1234000000   -4,981759936e-02    3,465186954e-01    2,143384516e-02    5,437212810e-02    0,000000000e+00    0,000000000e+00    0,000000000e+00    0,000000000e+00
     1248000000    1,232770830e-01    2,540786266e-01    5,316551775e-03    2,472218312e-02    0,000000000e+00    0,000000000e+00    0,000000000e+00    0,000000000e+00
     1262000000    2,106587142e-01    1,051828042e-01    2,972745337e-03    3,267221525e-02    0,000000000e+00    0,000000000e+00    0,000000000e+00    0,000000000e+00
     1276000000    2,331056446e-01   -5,854309723e-02    2,064891532e-02    3,318953514e-02    0,000000000e+00    0,000000000e+00    0,000000000e+00    0,000000000e+00
     1290000000    1,935276985e-01   -2,160428166e-01    5,554773286e-02    2,665994130e-02    0,000000000e+00    0,000000000e+00    0,000000000e+00    0,000000000e+00
     1304000000    8,550472558e-02   -3,553594053e-01    7,889767736e-02    1,675571781e-03    0,000000000e+00    0,000000000e+00    0,000000000e+00    0,000000000e+00
     1318000000   -1,008169353e-01   -4,444098473e-01    8,382119238e-02   -6,641231012e-03    0,000000000e+00    0,000000000e+00    0,000000000e+00    0,000000000e+00
     1332000000   -3,556575477e-01   -4,365303516e-01    9,478797764e-02   -1,674336195e-02    0,000000000e+00    0,000000000e+00    0,000000000e+00    0,000000000e+00
     1346000000   -5,904403925e-01   -2,466093898e-01    1,008498371e-01   -5,310229957e-03    0,000000000e+00    0,000000000e+00    0,000000000e+00    0,000000000e+00
     1360000000   -6,492427588e-01    7,605499774e-02    1,354255974e-01   -1,324577630e-02    0,000000000e+00    0,000000000e+00    0,000000000e+00    0,000000000e+00
     1374000000   -4,947398901e-01    3,296882808e-01    1,690460593e-01   -5,331852660e-02    0,000000000e+00    0,000000000e+00    0,000000000e+00    0,000000000e+00
     1388000000   -2,508123517e-01    4,302901030e-01    1,656453311e-01   -7,753358781e-02    0,000000000e+00    0,000000000e+00    0,000000000e+00    0,000000000e+00
     1402000000   -4,201097041e-02    3,934145272e-01    1,376435310e-01   -9,243349731e-02    0,000000000e+00    0,000000000e+00    0,000000000e+00    0,000000000e+00
     1416000000    9,731700271e-02    2,877238393e-01    1,120101139e-01   -7,965087891e-02    0,000000000e+00    0,000000000e+00    0,000000000e+00    0,000000000e+00
     1430000000    1,867821962e-01    1,529053897e-01    1,067211255e-01   -6,538542360e-02    0,000000000e+00    0,000000000e+00    0,000000000e+00    0,000000000e+00
     1444000000    2,186578065e-01   -1,293918677e-02    1,183299422e-01   -2,963824384e-02    0,000000000e+00    0,000000000e+00    0,000000000e+00    0,000000000e+00
     1458000000    1,824521571e-01   -1,870041639e-01    1,512968689e-01    1,187425479e-02    0,000000000e+00    0,000000000e+00    0,000000000e+00    0,000000000e+00
     1472000000    7,299141586e-02   -3,508495986e-01    2,088657618e-01    6,179829314e-02    0,000000000e+00    0,000000000e+00    0,000000000e+00    0,000000000e+00
     1486000000   -1,347175986e-01   -4,703423977e-01    3,006824255e-01    1,014373451e-01    0,000000000e+00    0,000000000e+00    0,000000000e+00    0,000000000e+00
     1500000000   -4,396697581e-01   -4,806042910e-01    4,117311239e-01    4,955836385e-02    0,000000000e+00    0,000000000e+00    0,000000000e+00    0,000000000e+00
