! NanoVNA-App
! Date: 2025-09-25 15:55:53
! Start: 100MHz Stop: 1,5GHz Points: 101
! S-Parameter data: F S11 S21 S12 S22
# Hz S RI R 50
!     Frequency           S11_Real           S11_Imag           S21_Real           S21_Imag           S12_Real           S12_Imag           S22_Real           S22_Imag
      100000000   -2,818425000e-02   -2,824195893e-03    3,722238541e-01   -7,225003839e-01    0,000000000e+00    0,000000000e+00    0,000000000e+00    0,000000000e+00
      114000000   -1,559983660e-02    1,286858879e-02   -9,138724953e-02   -8,047783971e-01    0,000000000e+00    0,000000000e+00    0,000000000e+00    0,000000000e+00
      128000000    4,402838182e-03    1,183297019e-02   -5,158329010e-01   -6,185874343e-01    0,000000000e+00    0,000000000e+00    0,000000000e+00    0,000000000e+00
      142000000    1,550124586e-02   -1,854315167e-03   -7,674705982e-01   -2,342446446e-01    0,000000000e+00    0,000000000e+00    0,000000000e+00    0,000000000e+00
      156000000    1,511816401e-02   -1,351997256e-02   -7,683798075e-01    2,215293348e-01    0,000000000e+00    0,000000000e+00    0,000000000e+00    0,000000000e+00
      170000000    1,757950336e-02   -2,103474736e-02   -5,154334307e-01    6,060353518e-01    0,000000000e+00    0,000000000e+00    0,000000000e+00    0,000000000e+00
      184000000    2,201644890e-02   -3,555802628e-02   -9,814171493e-02    7,858251929e-01    0,000000000e+00    0,000000000e+00    0,000000000e+00    0,000000000e+00
      198000000    1,405731775e-02   -6,069546938e-02    3,458457291e-01    7,108801007e-01    0,000000000e+00    0,000000000e+00    0,000000000e+00    0,000000000e+00
      212000000   -1,767563261e-02   -7,917934656e-02    6,805286407e-01    4,063616693e-01    0,000000000e+00    0,000000000e+00    0,000000000e+00    0,000000000e+00
      226000000   -6,035267562e-02   -6,663902104e-02    7,957565188e-01   -3,561428562e-02    0,000000000e+00    0,000000000e+00    0,000000000e+00    0,000000000e+00
      240000000   -8,058588207e-02   -2,279779501e-02    6,416571736e-01   -4,718265235e-01    0,000000000e+00    0,000000000e+00    0,000000000e+00    0,000000000e+00
      254000000   -6,081019714e-02    1,976042055e-02    2,710518837e-01   -7,417132854e-01    0,000000000e+00    0,000000000e+00    0,000000000e+00    0,000000000e+00
      268000000   -2,097642235e-02    3,078885004e-02   -1,812664717e-01   -7,609605193e-01    0,000000000e+00    0,000000000e+00    0,000000000e+00    0,000000000e+00
      282000000    6,887166295e-03    1,375260856e-02   -5,633727312e-01   -5,324969888e-01    0,000000000e+00    0,000000000e+00    0,000000000e+00    0,000000000e+00
      296000000    1,245138329e-02   -6,284362171e-03   -7,601947188e-01   -1,343384981e-01    0,000000000e+00    0,000000000e+00    0,000000000e+00    0,000000000e+00
      310000000    1,355667971e-02   -1,465462707e-02   -7,079765201e-01    3,052798212e-01    0,000000000e+00    0,000000000e+00    0,000000000e+00    0,000000000e+00
      324000000    2,236384340e-02   -2,483707108e-02   -4,216669202e-01    6,394492388e-01    0,000000000e+00    0,000000000e+00    0,000000000e+00    0,000000000e+00
      338000000    2,819417790e-02   -5,055284500e-02   -4,058278631e-03    7,624560595e-01    0,000000000e+00    0,000000000e+00    0,000000000e+00    0,000000000e+00
      352000000    1,017229538e-02   -8,272808790e-02    4,109066427e-01    6,356638670e-01    0,000000000e+00    0,000000000e+00    0,000000000e+00    0,000000000e+00
      366000000   -3,151661530e-02   -9,365525842e-02    6,923698783e-01    3,044147789e-01    0,000000000e+00    0,000000000e+00    0,000000000e+00    0,000000000e+00
      380000000   -6,768933684e-02   -6,893450767e-02    7,451324463e-01   -1,343628317e-01    0,000000000e+00    0,000000000e+00    0,000000000e+00    0,000000000e+00
      394000000   -6,833327562e-02   -3,056240641e-02    5,388029814e-01   -5,277882218e-01    0,000000000e+00    0,000000000e+00    0,000000000e+00    0,000000000e+00
      408000000   -4,282083362e-02   -1,561358664e-02    1,511553526e-01   -7,342317104e-01    0,000000000e+00    0,000000000e+00    0,000000000e+00    0,000000000e+00
      422000000   -2,621997893e-02   -3,115563467e-02   -2,798372507e-01   -6,899928451e-01    0,000000000e+00    0,000000000e+00    0,000000000e+00    0,000000000e+00
      436000000   -3,935926035e-02   -4,897841439e-02   -6,104807854e-01   -4,196306467e-01    0,000000000e+00    0,000000000e+00    0,000000000e+00    0,000000000e+00
      450000000   -6,482931226e-02   -3,879149631e-02   -7,368798852e-01   -7,495553233e-03    0,000000000e+00    0,000000000e+00    0,000000000e+00    0,000000000e+00
      464000000   -6,789910793e-02   -6,019372027e-03   -6,074323058e-01    4,059823751e-01    0,000000000e+00    0,000000000e+00    0,000000000e+00    0,000000000e+00
      478000000   -3,892282024e-02    1,591469161e-02   -2,681547105e-01    6,697639227e-01    0,000000000e+00    0,000000000e+00    0,000000000e+00    0,000000000e+00
      492000000   -5,095534027e-03    6,543992087e-03    1,515400261e-01    6,947609782e-01    0,000000000e+00    0,000000000e+00    0,000000000e+00    0,000000000e+00
      506000000    7,162834518e-03   -2,032190934e-02    5,076243281e-01    4,880324602e-01    0,000000000e+00    0,000000000e+00    0,000000000e+00    0,000000000e+00
      520000000    6,968912203e-04   -3,868619725e-02    6,884512305e-01    1,217597201e-01    0,000000000e+00    0,000000000e+00    0,000000000e+00    0,000000000e+00
      534000000   -3,296766896e-03   -4,573716968e-02    6,322832704e-01   -2,817061245e-01    0,000000000e+00    0,000000000e+00    0,000000000e+00    0,000000000e+00
      548000000    5,403322284e-04   -5,960509926e-02    3,593518138e-01   -5,799039602e-01    0,000000000e+00    0,000000000e+00    0,000000000e+00    0,000000000e+00
      562000000   -7,947213016e-03   -8,808994293e-02   -2,566198073e-02   -6,722981334e-01    0,000000000e+00    0,000000000e+00    0,000000000e+00    0,000000000e+00
      576000000   -4,576123133e-02   -1,097675338e-01   -4,012655914e-01   -5,383413434e-01    0,000000000e+00    0,000000000e+00    0,000000000e+00    0,000000000e+00
      590000000   -9,460314363e-02   -9,340629727e-02   -6,411968470e-01   -2,169441730e-01    0,000000000e+00    0,000000000e+00    0,000000000e+00    0,000000000e+00
      604000000   -1,112478673e-01   -4,121588171e-02   -6,472678185e-01    1,980153918e-01    0,000000000e+00    0,000000000e+00    0,000000000e+00    0,000000000e+00
      618000000   -7,527671754e-02   -2,128019929e-03   -4,012718201e-01    5,352426767e-01    0,000000000e+00    0,000000000e+00    0,000000000e+00    0,000000000e+00
      632000000   -2,962186001e-02   -2,077583969e-02   -1,219973154e-02    6,564478874e-01    0,000000000e+00    0,000000000e+00    0,000000000e+00    0,000000000e+00
      646000000   -3,638417274e-02   -7,730274647e-02    3,657280505e-01    5,270156860e-01    0,000000000e+00    0,000000000e+00    0,000000000e+00    0,000000000e+00
      660000000   -1,113751829e-01   -1,001078039e-01    6,008243561e-01    1,938870996e-01    0,000000000e+00    0,000000000e+00    0,000000000e+00    0,000000000e+00
      674000000   -1,993830949e-01   -2,315083891e-02    5,648919344e-01   -2,397405207e-01    0,000000000e+00    0,000000000e+00    0,000000000e+00    0,000000000e+00
      688000000   -1,787083000e-01    1,441978663e-01    2,097176015e-01   -5,208767653e-01    0,000000000e+00    0,000000000e+00    0,000000000e+00    0,000000000e+00
      702000000    2,741970681e-02    2,456357926e-01   -1,989723593e-01   -4,023825824e-01    0,000000000e+00    0,000000000e+00    0,000000000e+00    0,000000000e+00
      716000000    2,642310560e-01    1,106685624e-01   -2,722155750e-01   -8,340428025e-02    0,000000000e+00    0,000000000e+00    0,000000000e+00    0,000000000e+00
      730000000    3,036961555e-01   -1,864246428e-01   -1,062736064e-01    3,154276311e-02    0,000000000e+00    0,000000000e+00    0,000000000e+00    0,000000000e+00
      744000000    9,360495210e-02   -4,270921648e-01   -4,240103066e-02   -6,598384678e-02    0,000000000e+00    0,000000000e+00    0,000000000e+00    0,000000000e+00
      758000000   -2,584422827e-01   -4,291058481e-01   -1,762593836e-01   -1,257737279e-01    0,000000000e+00    0,000000000e+00    0,000000000e+00    0,000000000e+00
      772000000   -4,841166437e-01   -1,190365106e-01   -3,370850384e-01    3,824163973e-02    0,000000000e+00    0,000000000e+00    0,000000000e+00    0,000000000e+00
      786000000   -3,409755230e-01    2,205982506e-01   -2,632670105e-01    3,165189028e-01    0,000000000e+00    0,000000000e+00    0,000000000e+00    0,000000000e+00
      800000000   -4,037130624e-02    2,762869596e-01    3,492546035e-03    4,381258190e-01    0,000000000e+00    0,000000000e+00    0,000000000e+00    0,000000000e+00
      814000000    1,439531595e-01    1,249287277e-01    2,642038763e-01    3,593397141e-01    0,000000000e+00    0,000000000e+00    0,000000000e+00    0,000000000e+00
      828000000    1,675653309e-01   -6,994502991e-02    4,333311915e-01    1,564728767e-01    0,000000000e+00    0,000000000e+00    0,000000000e+00    0,000000000e+00
      842000000    6,664512306e-02   -2,179138809e-01    4,666280448e-01   -1,201494038e-01    0,000000000e+00    0,000000000e+00    0,000000000e+00    0,000000000e+00
      856000000   -1,067762747e-01   -2,638411522e-01    3,198762238e-01   -3,944609761e-01    0,000000000e+00    0,000000000e+00    0,000000000e+00    0,000000000e+00
      870000000   -2,743356526e-01   -1,686996818e-01   -1,887852559e-03   -5,274998546e-01    0,000000000e+00    0,000000000e+00    0,000000000e+00    0,000000000e+00
      884000000   -3,196172714e-01    3,563755751e-02   -3,468866348e-01   -3,929605484e-01    0,000000000e+00    0,000000000e+00    0,000000000e+00    0,000000000e+00
      898000000   -1,919110864e-01    2,057347745e-01   -4,888581336e-01   -6,383602321e-02    0,000000000e+00    0,000000000e+00    0,000000000e+00    0,000000000e+00
      912000000    5,586157553e-03    2,189495116e-01   -3,943130076e-01    2,712310553e-01    0,000000000e+00    0,000000000e+00    0,000000000e+00    0,000000000e+00
      926000000    1,511393487e-01    1,142711490e-01   -1,663399041e-01    4,160751104e-01    0,000000000e+00    0,000000000e+00    0,000000000e+00    0,000000000e+00
      940000000    1,977714449e-01   -4,728187621e-02    6,326707453e-02    4,245605767e-01    0,000000000e+00    0,000000000e+00    0,000000000e+00    0,000000000e+00
      954000000    1,518611163e-01   -2,003347874e-01    2,599242628e-01    3,421455026e-01    0,000000000e+00    0,000000000e+00    0,000000000e+00    0,000000000e+00
      968000000    2,157548815e-02   -3,151185811e-01    4,105148315e-01    1,793570369e-01    0,000000000e+00    0,000000000e+00    0,000000000e+00    0,000000000e+00
      982000000   -1,596062034e-01   -3,283182979e-01    4,737720490e-01   -6,816246361e-02    0,000000000e+00    0,000000000e+00    0,000000000e+00    0,000000000e+00
      996000000   -3,270736635e-01   -2,067958266e-01    3,682212234e-01   -3,563429117e-01    0,000000000e+00    0,000000000e+00    0,000000000e+00    0,000000000e+00
     1010000000   -3,425057232e-01   -6,061729509e-03    4,159260914e-02   -5,271919370e-01    0,000000000e+00    0,000000000e+00    0,000000000e+00    0,000000000e+00
     1024000000   -2,096187919e-01    9,261931479e-02   -3,443607688e-01   -3,814185262e-01    0,000000000e+00    0,000000000e+00    0,000000000e+00    0,000000000e+00
     1038000000   -1,345269829e-01    1,361590717e-02   -4,827921391e-01    6,222497672e-02    0,000000000e+00    0,000000000e+00    0,000000000e+00    0,000000000e+00
     1052000000   -2,842361033e-01    4,891371354e-02   -9,861677140e-02    3,749853969e-01    0,000000000e+00    0,000000000e+00    0,000000000e+00    0,000000000e+00
     1066000000   -1,450050920e-01    2,905644476e-01    1,441127509e-01    1,351814121e-01    0,000000000e+00    0,000000000e+00    0,000000000e+00    0,000000000e+00
     1080000000    9,691142291e-02    2,474710345e-01    9,088491648e-02    2,238454111e-02    0,000000000e+00    0,000000000e+00    0,000000000e+00    0,000000000e+00
     1094000000    2,218362689e-01    8,698973805e-02    7,222760469e-02    8,991297334e-03    0,000000000e+00    0,000000000e+00    0,000000000e+00    0,000000000e+00
     1108000000    2,440905273e-01   -8,741603047e-02    8,212881535e-02   -2,053784207e-03    0,000000000e+00    0,000000000e+00    0,000000000e+00    0,000000000e+00
     1122000000    1,852465421e-01   -2,478249371e-01    1,027629897e-01   -2,707888559e-02    0,000000000e+00    0,000000000e+00    0,000000000e+00    0,000000000e+00
     1136000000    4,812074080e-02   -3,743074238e-01    1,258520484e-01   -7,318900526e-02    0,000000000e+00    0,000000000e+00    0,000000000e+00    0,000000000e+00
     1150000000   -1,568973064e-01   -4,226322770e-01    1,356357783e-01   -1,509319246e-01    0,000000000e+00    0,000000000e+00    0,000000000e+00    0,000000000e+00
     1164000000   -3,758123517e-01   -3,244172633e-01    1,004249901e-01   -2,775838375e-01    0,000000000e+00    0,000000000e+00    0,000000000e+00    0,000000000e+00
     1178000000   -4,624874890e-01   -8,302655816e-02   -1,028064340e-01   -4,065938890e-01    0,000000000e+00    0,000000000e+00    0,000000000e+00    0,000000000e+00
     1192000000   -3,746457100e-01    3,688661754e-02   -4,589981437e-01   -1,981127113e-01    0,000000000e+00    0,000000000e+00    0,000000000e+00    0,000000000e+00
     1206000000   -4,106464982e-01    1,327635050e-01   -2,738281488e-01    2,383515686e-01    0,000000000e+00    0,000000000e+00    0,000000000e+00    0,000000000e+00
     1220000000   -2,753999531e-01    3,264645338e-01   -4,575050436e-03    1,625659317e-01    0,000000000e+00    0,000000000e+00    0,000000000e+00    0,000000000e+00
     1234000000   -4,605951905e-02    3,458856046e-01    2,331783064e-02    4,723834619e-02    0,000000000e+00    0,000000000e+00    0,000000000e+00    0,000000000e+00
     1248000000    1,254804730e-01    2,474323511e-01    1,531457528e-03    2,106619626e-02    0,000000000e+00    0,000000000e+00    0,000000000e+00    0,000000000e+00
     1262000000    2,118102312e-01    9,944571555e-02   -2,281369874e-03    3,263710812e-02    0,000000000e+00    0,000000000e+00    0,000000000e+00    0,000000000e+00
     1276000000    2,347816676e-01   -5,597057566e-02    2,845944278e-02    3,742064908e-02    0,000000000e+00    0,000000000e+00    0,000000000e+00    0,000000000e+00
     1290000000    1,908565760e-01   -2,156512141e-01    5,720027909e-02    2,439177223e-02    0,000000000e+00    0,000000000e+00    0,000000000e+00    0,000000000e+00
     1304000000    9,047668427e-02   -3,563555479e-01    8,179183304e-02    7,665711455e-03    0,000000000e+00    0,000000000e+00    0,000000000e+00    0,000000000e+00
     1318000000   -1,016063243e-01   -4,442366958e-01    9,233007580e-02   -1,162899192e-02    0,000000000e+00    0,000000000e+00    0,000000000e+00    0,000000000e+00
     1332000000   -3,541993499e-01   -4,306770265e-01    8,523949981e-02   -1,214952487e-02    0,000000000e+00    0,000000000e+00    0,000000000e+00    0,000000000e+00
     1346000000   -5,853506327e-01   -2,407986820e-01    1,109932959e-01   -8,932613768e-03    0,000000000e+00    0,000000000e+00    0,000000000e+00    0,000000000e+00
     1360000000   -6,470105648e-01    7,379321754e-02    1,393369436e-01   -1,060539857e-02    0,000000000e+00    0,000000000e+00    0,000000000e+00    0,000000000e+00
     1374000000   -4,885368049e-01    3,389004171e-01    1,578940153e-01   -4,266493022e-02    0,000000000e+00    0,000000000e+00    0,000000000e+00    0,000000000e+00
     1388000000   -2,531057596e-01    4,264571369e-01    1,679348499e-01   -8,151132613e-02    0,000000000e+00    0,000000000e+00    0,000000000e+00    0,000000000e+00
     1402000000   -4,815178737e-02    3,840148747e-01    1,413655579e-01   -1,061657295e-01    0,000000000e+00    0,000000000e+00    0,000000000e+00    0,000000000e+00
     1416000000    1,015941799e-01    2,889163196e-01    1,250215024e-01   -7,895689458e-02    0,000000000e+00    0,000000000e+00    0,000000000e+00    0,000000000e+00
     1430000000    1,857012808e-01    1,465211213e-01    1,118026301e-01   -5,016665533e-02    0,000000000e+00    0,000000000e+00    0,000000000e+00    0,000000000e+00
     1444000000    2,171714604e-01   -1,172638685e-02    1,289597750e-01   -2,965379693e-02    0,000000000e+00    0,000000000e+00    0,000000000e+00    0,000000000e+00
     1458000000    1,841009408e-01   -1,853875518e-01    1,533996612e-01    1,640589908e-02    0,000000000e+00    0,000000000e+00    0,000000000e+00    0,000000000e+00
     1472000000    6,409796327e-02   -3,497505784e-01    1,972001344e-01    5,715383217e-02    0,000000000e+00    0,000000000e+00    0,000000000e+00    0,000000000e+00
     1486000000   -1,325571984e-01   -4,667294025e-01    2,912043333e-01    9,265246987e-02    0,000000000e+00    0,000000000e+00    0,000000000e+00    0,000000000e+00
     1500000000   -4,356307387e-01   -4,817138016e-01    4,164164960e-01    4,400794581e-02    0,000000000e+00    0,000000000e+00    0,000000000e+00    0,000000000e+00
