! NanoVNA-App
! Date: 2025-09-25 15:58:11
! Start: 100MHz Stop: 1,5GHz Points: 101
! S-Parameter data: F S11 S21 S12 S22
# Hz S RI R 50
!     Frequency           S11_Real           S11_Imag           S21_Real           S21_Imag           S12_Real           S12_Imag           S22_Real           S22_Imag
      100000000   -2,824261785e-02   -2,839345019e-03    3,722634912e-01   -7,224444747e-01    0,000000000e+00    0,000000000e+00    0,000000000e+00    0,000000000e+00
      114000000   -1,565322839e-02    1,286684256e-02   -9,133867919e-02   -8,046094179e-01    0,000000000e+00    0,000000000e+00    0,000000000e+00    0,000000000e+00
      128000000    4,367550835e-03    1,186838746e-02   -5,160658956e-01   -6,188315153e-01    0,000000000e+00    0,000000000e+00    0,000000000e+00    0,000000000e+00
      142000000    1,549991034e-02   -1,794575830e-03   -7,673616409e-01   -2,341181934e-01    0,000000000e+00    0,000000000e+00    0,000000000e+00    0,000000000e+00
      156000000    1,524982601e-02   -1,357500441e-02   -7,683302164e-01    2,213095427e-01    0,000000000e+00    0,000000000e+00    0,000000000e+00    0,000000000e+00
      170000000    1,762523502e-02   -2,096032165e-02   -5,154969692e-01    6,062796116e-01    0,000000000e+00    0,000000000e+00    0,000000000e+00    0,000000000e+00
      184000000    2,198963054e-02   -3,555696458e-02   -9,810642153e-02    7,856703997e-01    0,000000000e+00    0,000000000e+00    0,000000000e+00    0,000000000e+00
      198000000    1,397954393e-02   -6,060383096e-02    3,458481133e-01    7,110983729e-01    0,000000000e+00    0,000000000e+00    0,000000000e+00    0,000000000e+00
      212000000   -1,769538969e-02   -7,910756767e-02    6,808189154e-01    4,061770737e-01    0,000000000e+00    0,000000000e+00    0,000000000e+00    0,000000000e+00
      226000000   -6,028449535e-02   -6,667995453e-02    7,956739068e-01   -3,559896722e-02    0,000000000e+00    0,000000000e+00    0,000000000e+00    0,000000000e+00
      240000000   -8,054858446e-02   -2,276620641e-02    6,412758827e-01   -4,715951681e-01    0,000000000e+00    0,000000000e+00    0,000000000e+00    0,000000000e+00
      254000000   -6,076385081e-02    1,982225105e-02    2,710616291e-01   -7,420266271e-01    0,000000000e+00    0,000000000e+00    0,000000000e+00    0,000000000e+00
      268000000   -2,097986452e-02    3,089480288e-02   -1,812701672e-01   -7,608019710e-01    0,000000000e+00    0,000000000e+00    0,000000000e+00    0,000000000e+00
      282000000    6,925120950e-03    1,370255835e-02   -5,629963875e-01   -5,323626399e-01    0,000000000e+00    0,000000000e+00    0,000000000e+00    0,000000000e+00
      296000000    1,236398611e-02   -6,267666351e-03   -7,605395317e-01   -1,342386007e-01    0,000000000e+00    0,000000000e+00    0,000000000e+00    0,000000000e+00
      310000000    1,353127882e-02   -1,455333177e-02   -7,092350721e-01    3,040257394e-01    0,000000000e+00    0,000000000e+00    0,000000000e+00    0,000000000e+00
      324000000    2,260203473e-02   -2,466965467e-02   -4,211965203e-01    6,394115090e-01    0,000000000e+00    0,000000000e+00    0,000000000e+00    0,000000000e+00
      338000000    2,834554948e-02   -5,057676136e-02   -4,782789852e-03    7,612723708e-01    0,000000000e+00    0,000000000e+00    0,000000000e+00    0,000000000e+00
      352000000    1,022997219e-02   -8,270835131e-02    4,114877880e-01    6,353371143e-01    0,000000000e+00    0,000000000e+00    0,000000000e+00    0,000000000e+00
      366000000   -3,195751458e-02   -9,407243878e-02    6,937096119e-01    3,036974669e-01    0,000000000e+00    0,000000000e+00    0,000000000e+00    0,000000000e+00
      380000000   -6,753503531e-02   -6,896273792e-02    7,450813651e-01   -1,342892200e-01    0,000000000e+00    0,000000000e+00    0,000000000e+00    0,000000000e+00
      394000000   -6,859864295e-02   -3,044450469e-02    5,401336551e-01   -5,280693173e-01    0,000000000e+00    0,000000000e+00    0,000000000e+00    0,000000000e+00
      408000000   -4,282692447e-02   -1,543605514e-02    1,489316523e-01   -7,335185409e-01    0,000000000e+00    0,000000000e+00    0,000000000e+00    0,000000000e+00
      422000000   -2,621348202e-02   -3,100694902e-02   -2,788286805e-01   -6,897725463e-01    0,000000000e+00    0,000000000e+00    0,000000000e+00    0,000000000e+00
      436000000   -3,945434093e-02   -4,905974492e-02   -6,108556986e-01   -4,195264280e-01    0,000000000e+00    0,000000000e+00    0,000000000e+00    0,000000000e+00
      450000000   -6,490080804e-02   -3,905851021e-02   -7,371753454e-01   -8,022330701e-03    0,000000000e+00    0,000000000e+00    0,000000000e+00    0,000000000e+00
      464000000   -6,774202734e-02   -6,383686792e-03   -6,079267263e-01    4,061715007e-01    0,000000000e+00    0,000000000e+00    0,000000000e+00    0,000000000e+00
      478000000   -3,848993406e-02    1,598835550e-02   -2,677867115e-01    6,702032089e-01    0,000000000e+00    0,000000000e+00    0,000000000e+00    0,000000000e+00
      492000000   -5,470152944e-03    6,513753440e-03    1,511207670e-01    6,952353716e-01    0,000000000e+00    0,000000000e+00    0,000000000e+00    0,000000000e+00
      506000000    7,224473171e-03   -2,003607526e-02    5,079538226e-01    4,879680276e-01    0,000000000e+00    0,000000000e+00    0,000000000e+00    0,000000000e+00
      520000000    1,987262949e-04   -3,842758387e-02    6,883166432e-01    1,211041510e-01    0,000000000e+00    0,000000000e+00    0,000000000e+00    0,000000000e+00
      534000000   -3,201871878e-03   -4,504967108e-02    6,325479150e-01   -2,818195522e-01    0,000000000e+00    0,000000000e+00    0,000000000e+00    0,000000000e+00
      548000000    7,116498309e-04   -5,966437981e-02    3,601841629e-01   -5,788524151e-01    0,000000000e+00    0,000000000e+00    0,000000000e+00    0,000000000e+00
      562000000   -7,928063162e-03   -8,868066221e-02   -2,699072473e-02   -6,732152700e-01    0,000000000e+00    0,000000000e+00    0,000000000e+00    0,000000000e+00
      576000000   -4,512140527e-02   -1,098999530e-01   -4,015879035e-01   -5,390354395e-01    0,000000000e+00    0,000000000e+00    0,000000000e+00    0,000000000e+00
      590000000   -9,488625079e-02   -9,322762489e-02   -6,389564872e-01   -2,189316303e-01    0,000000000e+00    0,000000000e+00    0,000000000e+00    0,000000000e+00
      604000000   -1,118640304e-01   -4,157070816e-02   -6,475979090e-01    1,983631402e-01    0,000000000e+00    0,000000000e+00    0,000000000e+00    0,000000000e+00
      618000000   -7,588244230e-02   -2,905671950e-03   -4,005345106e-01    5,369257331e-01    0,000000000e+00    0,000000000e+00    0,000000000e+00    0,000000000e+00
      632000000   -3,025663272e-02   -2,092241868e-02   -1,196891535e-02    6,552720666e-01    0,000000000e+00    0,000000000e+00    0,000000000e+00    0,000000000e+00
      646000000   -3,592775762e-02   -7,656638324e-02    3,664140701e-01    5,270942450e-01    0,000000000e+00    0,000000000e+00    0,000000000e+00    0,000000000e+00
      660000000   -1,119696647e-01   -9,928512573e-02    6,009994149e-01    1,933882982e-01    0,000000000e+00    0,000000000e+00    0,000000000e+00    0,000000000e+00
      674000000   -1,988938004e-01   -2,412614040e-02    5,657544136e-01   -2,393789887e-01    0,000000000e+00    0,000000000e+00    0,000000000e+00    0,000000000e+00
      688000000   -1,784184575e-01    1,441291273e-01    2,096671313e-01   -5,216186643e-01    0,000000000e+00    0,000000000e+00    0,000000000e+00    0,000000000e+00
      702000000    2,689856477e-02    2,482064366e-01   -2,043599486e-01   -4,064247012e-01    0,000000000e+00    0,000000000e+00    0,000000000e+00    0,000000000e+00
      716000000    2,632837296e-01    1,114682332e-01   -2,734162211e-01   -8,384681493e-02    0,000000000e+00    0,000000000e+00    0,000000000e+00    0,000000000e+00
      730000000    3,038094044e-01   -1,859358251e-01   -1,073656529e-01    3,222294152e-02    0,000000000e+00    0,000000000e+00    0,000000000e+00    0,000000000e+00
      744000000    9,498409927e-02   -4,275086522e-01   -4,253621399e-02   -6,497358531e-02    0,000000000e+00    0,000000000e+00    0,000000000e+00    0,000000000e+00
      758000000   -2,594833672e-01   -4,293870926e-01   -1,755239069e-01   -1,253440976e-01    0,000000000e+00    0,000000000e+00    0,000000000e+00    0,000000000e+00
      772000000   -4,850093424e-01   -1,204909831e-01   -3,362582326e-01    3,822266310e-02    0,000000000e+00    0,000000000e+00    0,000000000e+00    0,000000000e+00
      786000000   -3,428034186e-01    2,219315618e-01   -2,623206377e-01    3,168307543e-01    0,000000000e+00    0,000000000e+00    0,000000000e+00    0,000000000e+00
      800000000   -4,064711183e-02    2,768785655e-01    2,499761293e-03    4,360381067e-01    0,000000000e+00    0,000000000e+00    0,000000000e+00    0,000000000e+00
      814000000    1,442658454e-01    1,257987767e-01    2,633247077e-01    3,595737517e-01    0,000000000e+00    0,000000000e+00    0,000000000e+00    0,000000000e+00
      828000000    1,680491120e-01   -7,040238380e-02    4,332891107e-01    1,567425132e-01    0,000000000e+00    0,000000000e+00    0,000000000e+00    0,000000000e+00
      842000000    6,687471271e-02   -2,182345241e-01    4,667659104e-01   -1,202793643e-01    0,000000000e+00    0,000000000e+00    0,000000000e+00    0,000000000e+00
      856000000   -1,065033078e-01   -2,639979422e-01    3,199696541e-01   -3,950431645e-01    0,000000000e+00    0,000000000e+00    0,000000000e+00    0,000000000e+00
      870000000   -2,739471793e-01   -1,684837192e-01   -2,126535866e-03   -5,264499187e-01    0,000000000e+00    0,000000000e+00    0,000000000e+00    0,000000000e+00
      884000000   -3,208547533e-01    3,500501439e-02   -3,475549817e-01   -3,935645223e-01    0,000000000e+00    0,000000000e+00    0,000000000e+00    0,000000000e+00
      898000000   -1,913778335e-01    2,062824667e-01   -4,886844754e-01   -6,287337095e-02    0,000000000e+00    0,000000000e+00    0,000000000e+00    0,000000000e+00
      912000000    6,505465601e-03    2,193968147e-01   -3,957079053e-01    2,778620422e-01    0,000000000e+00    0,000000000e+00    0,000000000e+00    0,000000000e+00
      926000000    1,485442966e-01    1,139955223e-01   -1,695267558e-01    4,175768197e-01    0,000000000e+00    0,000000000e+00    0,000000000e+00    0,000000000e+00
      940000000    2,007735074e-01   -4,636178166e-02    6,424736977e-02    4,237003028e-01    0,000000000e+00    0,000000000e+00    0,000000000e+00    0,000000000e+00
      954000000    1,522790641e-01   -2,041665316e-01    2,614922225e-01    3,423637450e-01    0,000000000e+00    0,000000000e+00    0,000000000e+00    0,000000000e+00
      968000000    2,691431530e-02   -3,160420060e-01    4,120130539e-01    1,791899800e-01    0,000000000e+00    0,000000000e+00    0,000000000e+00    0,000000000e+00
      982000000   -1,606262028e-01   -3,318499327e-01    4,749827981e-01   -6,718771905e-02    0,000000000e+00    0,000000000e+00    0,000000000e+00    0,000000000e+00
      996000000   -3,273901641e-01   -2,110055238e-01    3,679466546e-01   -3,551450968e-01    0,000000000e+00    0,000000000e+00    0,000000000e+00    0,000000000e+00
     1010000000   -3,388191164e-01   -1,025861036e-02    4,193381593e-02   -5,236084461e-01    0,000000000e+00    0,000000000e+00    0,000000000e+00    0,000000000e+00
     1024000000   -2,048145682e-01    9,108418226e-02   -3,467397690e-01   -3,797136247e-01    0,000000000e+00    0,000000000e+00    0,000000000e+00    0,000000000e+00
     1038000000   -1,319269836e-01    1,109482814e-02   -4,825551212e-01    6,336162984e-02    0,000000000e+00    0,000000000e+00    0,000000000e+00    0,000000000e+00
     1052000000   -2,851497233e-01    5,589922518e-02   -9,620925039e-02    3,724252880e-01    0,000000000e+00    0,000000000e+00    0,000000000e+00    0,000000000e+00
     1066000000   -1,500692368e-01    2,931580842e-01    1,451326907e-01    1,358915716e-01    0,000000000e+00    0,000000000e+00    0,000000000e+00    0,000000000e+00
     1080000000    1,021922901e-01    2,449938655e-01    8,999691904e-02    2,175782807e-02    0,000000000e+00    0,000000000e+00    0,000000000e+00    0,000000000e+00
     1094000000    2,182276100e-01    8,977461606e-02    6,962662935e-02    9,356895462e-03    0,000000000e+00    0,000000000e+00    0,000000000e+00    0,000000000e+00
     1108000000    2,451385707e-01   -8,669803292e-02    8,055631816e-02    8,971436182e-05    0,000000000e+00    0,000000000e+00    0,000000000e+00    0,000000000e+00
     1122000000    1,840258837e-01   -2,489921153e-01    1,026454940e-01   -2,540312149e-02    0,000000000e+00    0,000000000e+00    0,000000000e+00    0,000000000e+00
     1136000000    5,287180468e-02   -3,780009747e-01    1,264373660e-01   -7,588246465e-02    0,000000000e+00    0,000000000e+00    0,000000000e+00    0,000000000e+00
     1150000000   -1,581708789e-01   -4,258344769e-01    1,361850202e-01   -1,527876407e-01    0,000000000e+00    0,000000000e+00    0,000000000e+00    0,000000000e+00
     1164000000   -3,746756911e-01   -3,256692588e-01    9,864622355e-02   -2,759472430e-01    0,000000000e+00    0,000000000e+00    0,000000000e+00    0,000000000e+00
     1178000000   -4,687570333e-01   -8,489685506e-02   -1,072706059e-01   -4,054832757e-01    0,000000000e+00    0,000000000e+00    0,000000000e+00    0,000000000e+00
     1192000000   -3,788827360e-01    3,685390949e-02   -4,621083140e-01   -1,978234798e-01    0,000000000e+00    0,000000000e+00    0,000000000e+00    0,000000000e+00
     1206000000   -4,150766134e-01    1,306758970e-01   -2,750056684e-01    2,318925709e-01    0,000000000e+00    0,000000000e+00    0,000000000e+00    0,000000000e+00
     1220000000   -2,696427405e-01    3,272621930e-01   -2,291626297e-03    1,600368023e-01    0,000000000e+00    0,000000000e+00    0,000000000e+00    0,000000000e+00
     1234000000   -4,114766419e-02    3,462028801e-01    2,854751609e-02    5,461294204e-02    0,000000000e+00    0,000000000e+00    0,000000000e+00    0,000000000e+00
     1248000000    1,236701608e-01    2,506881952e-01    6,229742896e-03    2,902434766e-02    0,000000000e+00    0,000000000e+00    0,000000000e+00    0,000000000e+00
     1262000000    2,106251419e-01    1,059831604e-01    4,904521629e-03    3,287012875e-02    0,000000000e+00    0,000000000e+00    0,000000000e+00    0,000000000e+00
     1276000000    2,291180640e-01   -5,527566373e-02    2,560511231e-02    3,750253469e-02    0,000000000e+00    0,000000000e+00    0,000000000e+00    0,000000000e+00
     1290000000    1,914070696e-01   -2,200946361e-01    5,730861798e-02    2,113350667e-02    0,000000000e+00    0,000000000e+00    0,000000000e+00    0,000000000e+00
     1304000000    8,507332206e-02   -3,566455543e-01    7,978606224e-02    5,416761618e-03    0,000000000e+00    0,000000000e+00    0,000000000e+00    0,000000000e+00
     1318000000   -1,065185890e-01   -4,512804151e-01    7,882566750e-02   -1,357859466e-02    0,000000000e+00    0,000000000e+00    0,000000000e+00    0,000000000e+00
     1332000000   -3,558050990e-01   -4,320766330e-01    8,450532705e-02   -1,373000909e-02    0,000000000e+00    0,000000000e+00    0,000000000e+00    0,000000000e+00
     1346000000   -5,888208747e-01   -2,503024936e-01    1,100485772e-01   -1,013069507e-02    0,000000000e+00    0,000000000e+00    0,000000000e+00    0,000000000e+00
     1360000000   -6,482527852e-01    7,234308124e-02    1,410531700e-01   -9,033310227e-03    0,000000000e+00    0,000000000e+00    0,000000000e+00    0,000000000e+00
     1374000000   -4,915263653e-01    3,305851817e-01    1,684298217e-01   -4,978256300e-02    0,000000000e+00    0,000000000e+00    0,000000000e+00    0,000000000e+00
     1388000000   -2,524210215e-01    4,255582392e-01    1,635813862e-01   -7,431893051e-02    0,000000000e+00    0,000000000e+00    0,000000000e+00    0,000000000e+00
     1402000000   -4,659604281e-02    3,962147534e-01    1,403259933e-01   -9,644707292e-02    0,000000000e+00    0,000000000e+00    0,000000000e+00    0,000000000e+00
     1416000000    9,611608833e-02    2,826654613e-01    1,085949168e-01   -8,893294632e-02    0,000000000e+00    0,000000000e+00    0,000000000e+00    0,000000000e+00
     1430000000    1,817648411e-01    1,439895034e-01    1,152353883e-01   -6,364114583e-02    0,000000000e+00    0,000000000e+00    0,000000000e+00    0,000000000e+00
     1444000000    2,096191496e-01   -9,711372666e-03    1,128662899e-01   -2,137086168e-02    0,000000000e+00    0,000000000e+00    0,000000000e+00    0,000000000e+00
     1458000000    1,818199903e-01   -1,851282120e-01    1,447443068e-01    3,598599462e-03    0,000000000e+00    0,000000000e+00    0,000000000e+00    0,000000000e+00
     1472000000    7,176412642e-02   -3,519956172e-01    2,001435608e-01    6,726445258e-02    0,000000000e+00    0,000000000e+00    0,000000000e+00    0,000000000e+00
     1486000000   -1,384940296e-01   -4,640258551e-01    2,838834226e-01    9,636580199e-02    0,000000000e+00    0,000000000e+00    0,000000000e+00    0,000000000e+00
     1500000000   -4,358965755e-01   -4,772088230e-01    4,183150232e-01    5,387182161e-02    0,000000000e+00    0,000000000e+00    0,000000000e+00    0,000000000e+00
