! NanoVNA-App
! Date: 2025-09-25 16:00:13
! Start: 100MHz Stop: 1,5GHz Points: 101
! S-Parameter data: F S11 S21 S12 S22
# Hz S RI R 50
!     Frequency           S11_Real           S11_Imag           S21_Real           S21_Imag           S12_Real           S12_Imag           S22_Real           S22_Imag
      100000000   -2,825332433e-02   -2,860451583e-03    3,722867966e-01   -7,223970890e-01    0,000000000e+00    0,000000000e+00    0,000000000e+00    0,000000000e+00
      114000000   -1,571160182e-02    1,290625054e-02   -9,125577658e-02   -8,047566414e-01    0,000000000e+00    0,000000000e+00    0,000000000e+00    0,000000000e+00
      128000000    4,345512018e-03    1,192892063e-02   -5,159464478e-01   -6,187673211e-01    0,000000000e+00    0,000000000e+00    0,000000000e+00    0,000000000e+00
      142000000    1,548979431e-02   -1,766982023e-03   -7,674649954e-01   -2,341019809e-01    0,000000000e+00    0,000000000e+00    0,000000000e+00    0,000000000e+00
      156000000    1,556587406e-02   -1,360377111e-02   -7,700082064e-01    2,230080664e-01    0,000000000e+00    0,000000000e+00    0,000000000e+00    0,000000000e+00
      170000000    1,768395491e-02   -2,101590298e-02   -5,151030421e-01    6,063197255e-01    0,000000000e+00    0,000000000e+00    0,000000000e+00    0,000000000e+00
      184000000    2,205448598e-02   -3,557911143e-02   -9,812282771e-02    7,856922150e-01    0,000000000e+00    0,000000000e+00    0,000000000e+00    0,000000000e+00
      198000000    1,405519899e-02   -6,064073741e-02    3,458440006e-01    7,104926109e-01    0,000000000e+00    0,000000000e+00    0,000000000e+00    0,000000000e+00
      212000000   -1,768504642e-02   -7,918215543e-02    6,807101965e-01    4,060089886e-01    0,000000000e+00    0,000000000e+00    0,000000000e+00    0,000000000e+00
      226000000   -6,026818976e-02   -6,666065753e-02    7,956585884e-01   -3,559612483e-02    0,000000000e+00    0,000000000e+00    0,000000000e+00    0,000000000e+00
      240000000   -8,048859239e-02   -2,276941389e-02    6,414593458e-01   -4,716171324e-01    0,000000000e+00    0,000000000e+00    0,000000000e+00    0,000000000e+00
      254000000   -6,078895181e-02    1,980820857e-02    2,708596885e-01   -7,419642806e-01    0,000000000e+00    0,000000000e+00    0,000000000e+00    0,000000000e+00
      268000000   -2,096184716e-02    3,081372194e-02   -1,812475771e-01   -7,608212829e-01    0,000000000e+00    0,000000000e+00    0,000000000e+00    0,000000000e+00
      282000000    6,964010186e-03    1,368526649e-02   -5,632115006e-01   -5,324613452e-01    0,000000000e+00    0,000000000e+00    0,000000000e+00    0,000000000e+00
      296000000    1,246436778e-02   -6,329063792e-03   -7,605171800e-01   -1,343140304e-01    0,000000000e+00    0,000000000e+00    0,000000000e+00    0,000000000e+00
      310000000    1,368449815e-02   -1,469585206e-02   -7,094520926e-01    3,048159182e-01    0,000000000e+00    0,000000000e+00    0,000000000e+00    0,000000000e+00
      324000000    2,255363390e-02   -2,475797199e-02   -4,214263856e-01    6,392932534e-01    0,000000000e+00    0,000000000e+00    0,000000000e+00    0,000000000e+00
      338000000    2,796563879e-02   -5,067598447e-02   -2,761493903e-03    7,581193447e-01    0,000000000e+00    0,000000000e+00    0,000000000e+00    0,000000000e+00
      352000000    1,029178780e-02   -8,275134861e-02    4,119912386e-01    6,354150772e-01    0,000000000e+00    0,000000000e+00    0,000000000e+00    0,000000000e+00
      366000000   -3,165014088e-02   -9,405045211e-02    6,932174563e-01    3,040003181e-01    0,000000000e+00    0,000000000e+00    0,000000000e+00    0,000000000e+00
      380000000   -6,744419783e-02   -6,890072674e-02    7,462338209e-01   -1,345717311e-01    0,000000000e+00    0,000000000e+00    0,000000000e+00    0,000000000e+00
      394000000   -6,849036366e-02   -3,053798154e-02    5,403776765e-01   -5,295503139e-01    0,000000000e+00    0,000000000e+00    0,000000000e+00    0,000000000e+00
      408000000   -4,257950187e-02   -1,547532249e-02    1,508675516e-01   -7,336640358e-01    0,000000000e+00    0,000000000e+00    0,000000000e+00    0,000000000e+00
      422000000   -2,626330405e-02   -3,108605184e-02   -2,786721289e-01   -6,909295917e-01    0,000000000e+00    0,000000000e+00    0,000000000e+00    0,000000000e+00
      436000000   -3,918904439e-02   -4,901834577e-02   -6,102035642e-01   -4,191962779e-01    0,000000000e+00    0,000000000e+00    0,000000000e+00    0,000000000e+00
      450000000   -6,477277726e-02   -3,897298872e-02   -7,370569110e-01   -7,410027552e-03    0,000000000e+00    0,000000000e+00    0,000000000e+00    0,000000000e+00
      464000000   -6,767284870e-02   -6,063850597e-03   -6,076379418e-01    4,066739976e-01    0,000000000e+00    0,000000000e+00    0,000000000e+00    0,000000000e+00
      478000000   -3,880821168e-02    1,620909385e-02   -2,672502697e-01    6,706922650e-01    0,000000000e+00    0,000000000e+00    0,000000000e+00    0,000000000e+00
      492000000   -4,865506664e-03    6,189526524e-03    1,518242210e-01    6,953425407e-01    0,000000000e+00    0,000000000e+00    0,000000000e+00    0,000000000e+00
      506000000    6,719673052e-03   -2,029217966e-02    5,080583692e-01    4,885695279e-01    0,000000000e+00    0,000000000e+00    0,000000000e+00    0,000000000e+00
      520000000    2,422902908e-04   -3,892954066e-02    6,898161173e-01    1,207967103e-01    0,000000000e+00    0,000000000e+00    0,000000000e+00    0,000000000e+00
      534000000   -3,040229203e-03   -4,502160475e-02    6,323048472e-01   -2,814882398e-01    0,000000000e+00    0,000000000e+00    0,000000000e+00    0,000000000e+00
      548000000    7,811242831e-04   -5,930194631e-02    3,607057631e-01   -5,798448324e-01    0,000000000e+00    0,000000000e+00    0,000000000e+00    0,000000000e+00
      562000000   -8,202677593e-03   -8,840863407e-02   -2,621507272e-02   -6,730755568e-01    0,000000000e+00    0,000000000e+00    0,000000000e+00    0,000000000e+00
      576000000   -4,531256109e-02   -1,096193790e-01   -4,008660913e-01   -5,381286740e-01    0,000000000e+00    0,000000000e+00    0,000000000e+00    0,000000000e+00
      590000000   -9,481219947e-02   -9,331907332e-02   -6,392660737e-01   -2,176104337e-01    0,000000000e+00    0,000000000e+00    0,000000000e+00    0,000000000e+00
      604000000   -1,118367389e-01   -4,130149633e-02   -6,482436061e-01    1,985292733e-01    0,000000000e+00    0,000000000e+00    0,000000000e+00    0,000000000e+00
      618000000   -7,591115683e-02   -1,903560595e-03   -4,024405777e-01    5,358016491e-01    0,000000000e+00    0,000000000e+00    0,000000000e+00    0,000000000e+00
      632000000   -3,021173738e-02   -2,103359438e-02   -1,261064690e-02    6,559346914e-01    0,000000000e+00    0,000000000e+00    0,000000000e+00    0,000000000e+00
      646000000   -3,587214276e-02   -7,637880743e-02    3,662497699e-01    5,265457630e-01    0,000000000e+00    0,000000000e+00    0,000000000e+00    0,000000000e+00
      660000000   -1,117705852e-01   -1,007280871e-01    6,008355021e-01    1,932310462e-01    0,000000000e+00    0,000000000e+00    0,000000000e+00    0,000000000e+00
      674000000   -2,001972646e-01   -2,305536158e-02    5,650882721e-01   -2,397512496e-01    0,000000000e+00    0,000000000e+00    0,000000000e+00    0,000000000e+00
      688000000   -1,780939102e-01    1,447039247e-01    2,089565545e-01   -5,219388604e-01    0,000000000e+00    0,000000000e+00    0,000000000e+00    0,000000000e+00
      702000000    2,686564997e-02    2,456180453e-01   -1,973374784e-01   -4,030857086e-01    0,000000000e+00    0,000000000e+00    0,000000000e+00    0,000000000e+00
      716000000    2,637604773e-01    1,108250991e-01   -2,723281682e-01   -8,314185590e-02    0,000000000e+00    0,000000000e+00    0,000000000e+00    0,000000000e+00
      730000000    3,031503260e-01   -1,861872822e-01   -1,061136797e-01    3,180037811e-02    0,000000000e+00    0,000000000e+00    0,000000000e+00    0,000000000e+00
      744000000    9,360937774e-02   -4,282425940e-01   -4,207278043e-02   -6,575714052e-02    0,000000000e+00    0,000000000e+00    0,000000000e+00    0,000000000e+00
      758000000   -2,599004507e-01   -4,293275476e-01   -1,759294122e-01   -1,259290576e-01    0,000000000e+00    0,000000000e+00    0,000000000e+00    0,000000000e+00
      772000000   -4,840015173e-01   -1,186030060e-01   -3,370426297e-01    3,865102679e-02    0,000000000e+00    0,000000000e+00    0,000000000e+00    0,000000000e+00
      786000000   -3,410567045e-01    2,203929126e-01   -2,633917630e-01    3,170131743e-01    0,000000000e+00    0,000000000e+00    0,000000000e+00    0,000000000e+00
      800000000   -4,099818319e-02    2,767288983e-01    3,232997609e-03    4,371791184e-01    0,000000000e+00    0,000000000e+00    0,000000000e+00    0,000000000e+00
      814000000    1,442569047e-01    1,247923896e-01    2,643785477e-01    3,596290946e-01    0,000000000e+00    0,000000000e+00    0,000000000e+00    0,000000000e+00
      828000000    1,676978767e-01   -7,031133771e-02    4,330321550e-01    1,566180885e-01    0,000000000e+00    0,000000000e+00    0,000000000e+00    0,000000000e+00
      842000000    6,672494859e-02   -2,185814232e-01    4,672063887e-01   -1,203125492e-01    0,000000000e+00    0,000000000e+00    0,000000000e+00    0,000000000e+00
      856000000   -1,061933935e-01   -2,641849220e-01    3,202269077e-01   -3,961577117e-01    0,000000000e+00    0,000000000e+00    0,000000000e+00    0,000000000e+00
      870000000   -2,743035555e-01   -1,683610976e-01   -2,448720159e-03   -5,275079012e-01    0,000000000e+00    0,000000000e+00    0,000000000e+00    0,000000000e+00
      884000000   -3,203333318e-01    3,546007723e-02   -3,483505547e-01   -3,931666017e-01    0,000000000e+00    0,000000000e+00    0,000000000e+00    0,000000000e+00
      898000000   -1,922858506e-01    2,054822892e-01   -4,890660048e-01   -6,370057911e-02    0,000000000e+00    0,000000000e+00    0,000000000e+00    0,000000000e+00
      912000000    7,818249986e-03    2,188890278e-01   -4,066695571e-01    2,807243764e-01    0,000000000e+00    0,000000000e+00    0,000000000e+00    0,000000000e+00
      926000000    1,490668058e-01    1,124518365e-01   -1,711831987e-01    4,164222479e-01    0,000000000e+00    0,000000000e+00    0,000000000e+00    0,000000000e+00
      940000000    1,971831918e-01   -4,716123641e-02    6,350031495e-02    4,258810282e-01    0,000000000e+00    0,000000000e+00    0,000000000e+00    0,000000000e+00
      954000000    1,545265913e-01   -2,010117620e-01    2,616514564e-01    3,420809209e-01    0,000000000e+00    0,000000000e+00    0,000000000e+00    0,000000000e+00
      968000000    2,446891367e-02   -3,127907217e-01    4,090760350e-01    1,787251234e-01    0,000000000e+00    0,000000000e+00    0,000000000e+00    0,000000000e+00
      982000000   -1,595069468e-01   -3,313539624e-01    4,748701453e-01   -6,826431304e-02    0,000000000e+00    0,000000000e+00    0,000000000e+00    0,000000000e+00
      996000000   -3,262938559e-01   -2,120997757e-01    3,686767519e-01   -3,573719561e-01    0,000000000e+00    0,000000000e+00    0,000000000e+00    0,000000000e+00
     1010000000   -3,380791843e-01   -4,572451115e-03    4,205042124e-02   -5,228779912e-01    0,000000000e+00    0,000000000e+00    0,000000000e+00    0,000000000e+00
     1024000000   -2,049338520e-01    9,006501734e-02   -3,466647863e-01   -3,802530766e-01    0,000000000e+00    0,000000000e+00    0,000000000e+00    0,000000000e+00
     1038000000   -1,387519389e-01    1,029720623e-02   -4,800645411e-01    6,366859376e-02    0,000000000e+00    0,000000000e+00    0,000000000e+00    0,000000000e+00
     1052000000   -2,905300260e-01    5,600600690e-02   -9,128965437e-02    3,725537360e-01    0,000000000e+00    0,000000000e+00    0,000000000e+00    0,000000000e+00
     1066000000   -1,487664282e-01    2,934894264e-01    1,465821117e-01    1,314346641e-01    0,000000000e+00    0,000000000e+00    0,000000000e+00    0,000000000e+00
     1080000000    1,039644405e-01    2,471714467e-01    8,960374445e-02    2,250723541e-02    0,000000000e+00    0,000000000e+00    0,000000000e+00    0,000000000e+00
     1094000000    2,181681544e-01    8,799164742e-02    6,870305538e-02    8,995051496e-03    0,000000000e+00    0,000000000e+00    0,000000000e+00    0,000000000e+00
     1108000000    2,425605655e-01   -8,466134965e-02    8,060678095e-02   -5,628049257e-04    0,000000000e+00    0,000000000e+00    0,000000000e+00    0,000000000e+00
     1122000000    1,819483042e-01   -2,496176064e-01    1,046074629e-01   -2,660932206e-02    0,000000000e+00    0,000000000e+00    0,000000000e+00    0,000000000e+00
     1136000000    4,982007295e-02   -3,798269629e-01    1,259105951e-01   -7,443337142e-02    0,000000000e+00    0,000000000e+00    0,000000000e+00    0,000000000e+00
     1150000000   -1,600078195e-01   -4,219832122e-01    1,355957836e-01   -1,497688144e-01    0,000000000e+00    0,000000000e+00    0,000000000e+00    0,000000000e+00
     1164000000   -3,757495284e-01   -3,226379454e-01    9,729658067e-02   -2,742124498e-01    0,000000000e+00    0,000000000e+00    0,000000000e+00    0,000000000e+00
     1178000000   -4,636315405e-01   -8,174780756e-02   -1,057295576e-01   -4,045124948e-01    0,000000000e+00    0,000000000e+00    0,000000000e+00    0,000000000e+00
     1192000000   -3,722418547e-01    3,425052390e-02   -4,627936184e-01   -2,011687309e-01    0,000000000e+00    0,000000000e+00    0,000000000e+00    0,000000000e+00
     1206000000   -4,131959081e-01    1,318250448e-01   -2,712290287e-01    2,375754267e-01    0,000000000e+00    0,000000000e+00    0,000000000e+00    0,000000000e+00
     1220000000   -2,715267241e-01    3,315606713e-01    1,569224638e-03    1,634815037e-01    0,000000000e+00    0,000000000e+00    0,000000000e+00    0,000000000e+00
     1234000000   -4,140361026e-02    3,523836434e-01    2,521390468e-02    5,548166484e-02    0,000000000e+00    0,000000000e+00    0,000000000e+00    0,000000000e+00
     1248000000    1,228511482e-01    2,479094565e-01    8,889099583e-03    2,236968093e-02    0,000000000e+00    0,000000000e+00    0,000000000e+00    0,000000000e+00
     1262000000    2,093054354e-01    1,038244218e-01   -2,179900184e-04    3,268215433e-02    0,000000000e+00    0,000000000e+00    0,000000000e+00    0,000000000e+00
     1276000000    2,304775715e-01   -5,781568214e-02    2,267846465e-02    3,203009441e-02    0,000000000e+00    0,000000000e+00    0,000000000e+00    0,000000000e+00
     1290000000    1,924762875e-01   -2,198584974e-01    5,373858288e-02    2,200452052e-02    0,000000000e+00    0,000000000e+00    0,000000000e+00    0,000000000e+00
     1304000000    8,571677655e-02   -3,613714576e-01    7,993627340e-02    3,614622634e-03    0,000000000e+00    0,000000000e+00    0,000000000e+00    0,000000000e+00
     1318000000   -1,032521352e-01   -4,503175616e-01    8,525680006e-02   -1,118012052e-02    0,000000000e+00    0,000000000e+00    0,000000000e+00    0,000000000e+00
     1332000000   -3,547540307e-01   -4,342061281e-01    8,739217371e-02   -1,384043228e-02    0,000000000e+00    0,000000000e+00    0,000000000e+00    0,000000000e+00
     1346000000   -5,898008347e-01   -2,546489537e-01    1,027185544e-01   -8,769197389e-03    0,000000000e+00    0,000000000e+00    0,000000000e+00    0,000000000e+00
     1360000000   -6,561651826e-01    6,979475170e-02    1,340767145e-01   -2,340051346e-02    0,000000000e+00    0,000000000e+00    0,000000000e+00    0,000000000e+00
     1374000000   -4,894114435e-01    3,407213688e-01    1,628664285e-01   -3,950540721e-02    0,000000000e+00    0,000000000e+00    0,000000000e+00    0,000000000e+00
     1388000000   -2,499628663e-01    4,309399724e-01    1,615268141e-01   -8,211232722e-02    0,000000000e+00    0,000000000e+00    0,000000000e+00    0,000000000e+00
     1402000000   -5,019878596e-02    3,893814683e-01    1,329255253e-01   -9,862191230e-02    0,000000000e+00    0,000000000e+00    0,000000000e+00    0,000000000e+00
     1416000000    1,030358896e-01    2,831134498e-01    1,204821467e-01   -8,498045802e-02    0,000000000e+00    0,000000000e+00    0,000000000e+00    0,000000000e+00
     1430000000    1,876823157e-01    1,520326436e-01    1,179957390e-01   -4,578918591e-02    0,000000000e+00    0,000000000e+00    0,000000000e+00    0,000000000e+00
     1444000000    2,181427479e-01   -8,879990317e-03    1,310463548e-01   -2,463717014e-02    0,000000000e+00    0,000000000e+00    0,000000000e+00    0,000000000e+00
     1458000000    1,809377819e-01   -1,876095980e-01    1,372665167e-01    1,151579618e-02    0,000000000e+00    0,000000000e+00    0,000000000e+00    0,000000000e+00
     1472000000    6,067041308e-02   -3,487247825e-01    1,872121692e-01    6,893011928e-02    0,000000000e+00    0,000000000e+00    0,000000000e+00    0,000000000e+00
     1486000000   -1,458023787e-01   -4,789212942e-01    2,875142694e-01    8,107496798e-02    0,000000000e+00    0,000000000e+00    0,000000000e+00    0,000000000e+00
     1500000000   -4,415690005e-01   -4,757757187e-01    4,129747152e-01    4,925284162e-02    0,000000000e+00    0,000000000e+00    0,000000000e+00    0,000000000e+00
