! NanoVNA-App
! Date: 2025-09-25 15:57:23
! Start: 100MHz Stop: 1,5GHz Points: 101
! S-Parameter data: F S11 S21 S12 S22
# Hz S RI R 50
!     Frequency           S11_Real           S11_Imag           S21_Real           S21_Imag           S12_Real           S12_Imag           S22_Real           S22_Imag
      100000000   -2,821800858e-02   -2,830105834e-03    3,722516298e-01   -7,224921584e-01    0,000000000e+00    0,000000000e+00    0,000000000e+00    0,000000000e+00
      114000000   -1,563445479e-02    1,288506482e-02   -9,146346152e-02   -8,046723604e-01    0,000000000e+00    0,000000000e+00    0,000000000e+00    0,000000000e+00
      128000000    4,420135170e-03    1,189849060e-02   -5,157037377e-01   -6,187344790e-01    0,000000000e+00    0,000000000e+00    0,000000000e+00    0,000000000e+00
      142000000    1,548691932e-02   -1,814491116e-03   -7,673936486e-01   -2,340914607e-01    0,000000000e+00    0,000000000e+00    0,000000000e+00    0,000000000e+00
      156000000    1,666393876e-02   -1,307499595e-02   -7,645961642e-01    2,250554115e-01    0,000000000e+00    0,000000000e+00    0,000000000e+00    0,000000000e+00
      170000000    1,760289073e-02   -2,104010060e-02   -5,153901577e-01    6,064020395e-01    0,000000000e+00    0,000000000e+00    0,000000000e+00    0,000000000e+00
      184000000    2,201171406e-02   -3,558062389e-02   -9,827119857e-02    7,862509489e-01    0,000000000e+00    0,000000000e+00    0,000000000e+00    0,000000000e+00
      198000000    1,403654274e-02   -6,068389118e-02    3,458414078e-01    7,106154561e-01    0,000000000e+00    0,000000000e+00    0,000000000e+00    0,000000000e+00
      212000000   -1,766221598e-02   -7,912144810e-02    6,806937456e-01    4,062919915e-01    0,000000000e+00    0,000000000e+00    0,000000000e+00    0,000000000e+00
      226000000   -6,032764539e-02   -6,669530272e-02    7,958230376e-01   -3,555227071e-02    0,000000000e+00    0,000000000e+00    0,000000000e+00    0,000000000e+00
      240000000   -8,058187366e-02   -2,275574021e-02    6,417234540e-01   -4,716592133e-01    0,000000000e+00    0,000000000e+00    0,000000000e+00    0,000000000e+00
      254000000   -6,086019799e-02    1,975544915e-02    2,710221708e-01   -7,420130372e-01    0,000000000e+00    0,000000000e+00    0,000000000e+00    0,000000000e+00
      268000000   -2,096694894e-02    3,087789752e-02   -1,810032576e-01   -7,608641982e-01    0,000000000e+00    0,000000000e+00    0,000000000e+00    0,000000000e+00
      282000000    6,918123458e-03    1,372114755e-02   -5,631953478e-01   -5,327062011e-01    0,000000000e+00    0,000000000e+00    0,000000000e+00    0,000000000e+00
      296000000    1,247360185e-02   -6,318224128e-03   -7,603710890e-01   -1,342606544e-01    0,000000000e+00    0,000000000e+00    0,000000000e+00    0,000000000e+00
      310000000    1,347889099e-02   -1,462151390e-02   -7,087605596e-01    3,035385907e-01    0,000000000e+00    0,000000000e+00    0,000000000e+00    0,000000000e+00
      324000000    2,269652300e-02   -2,454692312e-02   -4,215511084e-01    6,390288472e-01    0,000000000e+00    0,000000000e+00    0,000000000e+00    0,000000000e+00
      338000000    2,866682224e-02   -5,058569834e-02   -3,047351493e-03    7,618439794e-01    0,000000000e+00    0,000000000e+00    0,000000000e+00    0,000000000e+00
      352000000    1,012451295e-02   -8,280373365e-02    4,112092555e-01    6,351583600e-01    0,000000000e+00    0,000000000e+00    0,000000000e+00    0,000000000e+00
      366000000   -3,176005185e-02   -9,386025369e-02    6,926122904e-01    3,035025001e-01    0,000000000e+00    0,000000000e+00    0,000000000e+00    0,000000000e+00
      380000000   -6,745976955e-02   -6,901346892e-02    7,458751798e-01   -1,344996989e-01    0,000000000e+00    0,000000000e+00    0,000000000e+00    0,000000000e+00
      394000000   -6,856147200e-02   -3,056609072e-02    5,386869311e-01   -5,274794102e-01    0,000000000e+00    0,000000000e+00    0,000000000e+00    0,000000000e+00
      408000000   -4,307047278e-02   -1,555393077e-02    1,495401561e-01   -7,325425148e-01    0,000000000e+00    0,000000000e+00    0,000000000e+00    0,000000000e+00
      422000000   -2,614662610e-02   -3,125568852e-02   -2,794247866e-01   -6,898090243e-01    0,000000000e+00    0,000000000e+00    0,000000000e+00    0,000000000e+00
      436000000   -3,934191540e-02   -4,881388694e-02   -6,103697419e-01   -4,190109968e-01    0,000000000e+00    0,000000000e+00    0,000000000e+00    0,000000000e+00
      450000000   -6,487967819e-02   -3,923476487e-02   -7,369679809e-01   -7,719237823e-03    0,000000000e+00    0,000000000e+00    0,000000000e+00    0,000000000e+00
      464000000   -6,765012443e-02   -6,168527994e-03   -6,081305146e-01    4,063118398e-01    0,000000000e+00    0,000000000e+00    0,000000000e+00    0,000000000e+00
      478000000   -3,881775960e-02    1,599338092e-02   -2,676003277e-01    6,697420478e-01    0,000000000e+00    0,000000000e+00    0,000000000e+00    0,000000000e+00
      492000000   -5,299101118e-03    5,771000404e-03    1,518431306e-01    6,946964264e-01    0,000000000e+00    0,000000000e+00    0,000000000e+00    0,000000000e+00
      506000000    7,057840005e-03   -2,027683705e-02    5,081672072e-01    4,887911379e-01    0,000000000e+00    0,000000000e+00    0,000000000e+00    0,000000000e+00
      520000000    5,915162619e-04   -3,856517002e-02    6,886893511e-01    1,225827709e-01    0,000000000e+00    0,000000000e+00    0,000000000e+00    0,000000000e+00
      534000000   -2,816288732e-03   -4,558781534e-02    6,329903007e-01   -2,821722627e-01    0,000000000e+00    0,000000000e+00    0,000000000e+00    0,000000000e+00
      548000000    4,436231393e-04   -5,970273912e-02    3,595209718e-01   -5,790156126e-01    0,000000000e+00    0,000000000e+00    0,000000000e+00    0,000000000e+00
      562000000   -7,814387791e-03   -8,880910277e-02   -2,674708143e-02   -6,723756790e-01    0,000000000e+00    0,000000000e+00    0,000000000e+00    0,000000000e+00
      576000000   -4,550019279e-02   -1,093747094e-01   -4,007822275e-01   -5,376225710e-01    0,000000000e+00    0,000000000e+00    0,000000000e+00    0,000000000e+00
      590000000   -9,469082952e-02   -9,361116588e-02   -6,419832110e-01   -2,174196988e-01    0,000000000e+00    0,000000000e+00    0,000000000e+00    0,000000000e+00
      604000000   -1,115579382e-01   -4,092420265e-02   -6,468111277e-01    1,986901313e-01    0,000000000e+00    0,000000000e+00    0,000000000e+00    0,000000000e+00
      618000000   -7,541615516e-02   -2,021305030e-03   -4,016958177e-01    5,360234976e-01    0,000000000e+00    0,000000000e+00    0,000000000e+00    0,000000000e+00
      632000000   -2,961992100e-02   -2,076470107e-02   -1,190561894e-02    6,552911401e-01    0,000000000e+00    0,000000000e+00    0,000000000e+00    0,000000000e+00
      646000000   -3,633426502e-02   -7,624225318e-02    3,653935194e-01    5,268684030e-01    0,000000000e+00    0,000000000e+00    0,000000000e+00    0,000000000e+00
      660000000   -1,112774387e-01   -9,991127253e-02    6,011808515e-01    1,927541494e-01    0,000000000e+00    0,000000000e+00    0,000000000e+00    0,000000000e+00
      674000000   -2,003209144e-01   -2,384284511e-02    5,652449727e-01   -2,392541617e-01    0,000000000e+00    0,000000000e+00    0,000000000e+00    0,000000000e+00
      688000000   -1,780443341e-01    1,455050111e-01    2,089234889e-01   -5,217077136e-01    0,000000000e+00    0,000000000e+00    0,000000000e+00    0,000000000e+00
      702000000    2,420854941e-02    2,451478243e-01   -1,935025603e-01   -4,066354930e-01    0,000000000e+00    0,000000000e+00    0,000000000e+00    0,000000000e+00
      716000000    2,639940083e-01    1,098682880e-01   -2,719722092e-01   -8,285088092e-02    0,000000000e+00    0,000000000e+00    0,000000000e+00    0,000000000e+00
      730000000    3,036065698e-01   -1,870251745e-01   -1,065315157e-01    3,168264031e-02    0,000000000e+00    0,000000000e+00    0,000000000e+00    0,000000000e+00
      744000000    9,379908442e-02   -4,279840291e-01   -4,267874360e-02   -6,588537246e-02    0,000000000e+00    0,000000000e+00    0,000000000e+00    0,000000000e+00
      758000000   -2,605503798e-01   -4,290405512e-01   -1,761527508e-01   -1,257032901e-01    0,000000000e+00    0,000000000e+00    0,000000000e+00    0,000000000e+00
      772000000   -4,855170846e-01   -1,195130199e-01   -3,369227648e-01    3,841173276e-02    0,000000000e+00    0,000000000e+00    0,000000000e+00    0,000000000e+00
      786000000   -3,415136635e-01    2,206630707e-01   -2,624400258e-01    3,166396320e-01    0,000000000e+00    0,000000000e+00    0,000000000e+00    0,000000000e+00
      800000000   -4,115248844e-02    2,769199014e-01    3,235598793e-03    4,364127219e-01    0,000000000e+00    0,000000000e+00    0,000000000e+00    0,000000000e+00
      814000000    1,435391903e-01    1,252909452e-01    2,638565004e-01    3,592773974e-01    0,000000000e+00    0,000000000e+00    0,000000000e+00    0,000000000e+00
      828000000    1,673310399e-01   -7,012891769e-02    4,331733584e-01    1,564747691e-01    0,000000000e+00    0,000000000e+00    0,000000000e+00    0,000000000e+00
      842000000    6,687749922e-02   -2,190871984e-01    4,666139781e-01   -1,205426753e-01    0,000000000e+00    0,000000000e+00    0,000000000e+00    0,000000000e+00
      856000000   -1,069516465e-01   -2,631776333e-01    3,200254440e-01   -3,948910534e-01    0,000000000e+00    0,000000000e+00    0,000000000e+00    0,000000000e+00
      870000000   -2,745136917e-01   -1,674014330e-01   -1,765736495e-03   -5,273171663e-01    0,000000000e+00    0,000000000e+00    0,000000000e+00    0,000000000e+00
      884000000   -3,209587038e-01    3,583937511e-02   -3,484208882e-01   -3,931683004e-01    0,000000000e+00    0,000000000e+00    0,000000000e+00    0,000000000e+00
      898000000   -1,917811930e-01    2,069153339e-01   -4,888375700e-01   -6,292750686e-02    0,000000000e+00    0,000000000e+00    0,000000000e+00    0,000000000e+00
      912000000    7,388705853e-03    2,189481854e-01   -4,101292193e-01    2,720851600e-01    0,000000000e+00    0,000000000e+00    0,000000000e+00    0,000000000e+00
      926000000    1,493023187e-01    1,110409051e-01   -1,691900939e-01    4,150317013e-01    0,000000000e+00    0,000000000e+00    0,000000000e+00    0,000000000e+00
      940000000    1,981753260e-01   -4,796528071e-02    6,366678327e-02    4,249670506e-01    0,000000000e+00    0,000000000e+00    0,000000000e+00    0,000000000e+00
      954000000    1,548983604e-01   -2,035437077e-01    2,602514923e-01    3,418017328e-01    0,000000000e+00    0,000000000e+00    0,000000000e+00    0,000000000e+00
      968000000    2,349251695e-02   -3,139272332e-01    4,101451933e-01    1,777666211e-01    0,000000000e+00    0,000000000e+00    0,000000000e+00    0,000000000e+00
      982000000   -1,590522677e-01   -3,290556967e-01    4,735149741e-01   -6,799738109e-02    0,000000000e+00    0,000000000e+00    0,000000000e+00    0,000000000e+00
      996000000   -3,218456805e-01   -2,079395801e-01    3,685118556e-01   -3,576463163e-01    0,000000000e+00    0,000000000e+00    0,000000000e+00    0,000000000e+00
     1010000000   -3,414432108e-01   -1,027641352e-02    4,324407130e-02   -5,241513252e-01    0,000000000e+00    0,000000000e+00    0,000000000e+00    0,000000000e+00
     1024000000   -2,079034001e-01    9,535869211e-02   -3,447425067e-01   -3,808247447e-01    0,000000000e+00    0,000000000e+00    0,000000000e+00    0,000000000e+00
     1038000000   -1,379303932e-01    8,738556877e-03   -4,832073152e-01    6,299262494e-02    0,000000000e+00    0,000000000e+00    0,000000000e+00    0,000000000e+00
     1052000000   -2,866459489e-01    5,543348938e-02   -9,428937733e-02    3,721985817e-01    0,000000000e+00    0,000000000e+00    0,000000000e+00    0,000000000e+00
     1066000000   -1,491152197e-01    2,894584239e-01    1,452845782e-01    1,323923022e-01    0,000000000e+00    0,000000000e+00    0,000000000e+00    0,000000000e+00
     1080000000    9,716922790e-02    2,524117529e-01    9,132266045e-02    2,051001228e-02    0,000000000e+00    0,000000000e+00    0,000000000e+00    0,000000000e+00
     1094000000    2,240353078e-01    9,032581002e-02    7,137138397e-02    1,055595092e-02    0,000000000e+00    0,000000000e+00    0,000000000e+00    0,000000000e+00
     1108000000    2,426035106e-01   -8,828663826e-02    8,033837378e-02   -6,933955592e-04    0,000000000e+00    0,000000000e+00    0,000000000e+00    0,000000000e+00
     1122000000    1,810771227e-01   -2,499028742e-01    1,048520729e-01   -2,778756618e-02    0,000000000e+00    0,000000000e+00    0,000000000e+00    0,000000000e+00
     1136000000    5,105926469e-02   -3,764415979e-01    1,289026886e-01   -7,327710837e-02    0,000000000e+00    0,000000000e+00    0,000000000e+00    0,000000000e+00
     1150000000   -1,539966017e-01   -4,201973379e-01    1,356110126e-01   -1,539551914e-01    0,000000000e+00    0,000000000e+00    0,000000000e+00    0,000000000e+00
     1164000000   -3,764631152e-01   -3,256162703e-01    9,834557772e-02   -2,778798938e-01    0,000000000e+00    0,000000000e+00    0,000000000e+00    0,000000000e+00
     1178000000   -4,679981768e-01   -8,757513016e-02   -1,101748720e-01   -4,044270515e-01    0,000000000e+00    0,000000000e+00    0,000000000e+00    0,000000000e+00
     1192000000   -3,735311329e-01    4,279522970e-02   -4,660183191e-01   -1,956240088e-01    0,000000000e+00    0,000000000e+00    0,000000000e+00    0,000000000e+00
     1206000000   -4,128948152e-01    1,299248934e-01   -2,731935382e-01    2,321210057e-01    0,000000000e+00    0,000000000e+00    0,000000000e+00    0,000000000e+00
     1220000000   -2,715723217e-01    3,300034404e-01    3,814364027e-04    1,627665460e-01    0,000000000e+00    0,000000000e+00    0,000000000e+00    0,000000000e+00
     1234000000   -4,998752475e-02    3,473620713e-01    2,350235358e-02    5,063603446e-02    0,000000000e+00    0,000000000e+00    0,000000000e+00    0,000000000e+00
     1248000000    1,184456572e-01    2,447375953e-01    6,128521170e-03    2,265927196e-02    0,000000000e+00    0,000000000e+00    0,000000000e+00    0,000000000e+00
     1262000000    2,100625485e-01    1,040743217e-01    1,562874881e-03    3,345903754e-02    0,000000000e+00    0,000000000e+00    0,000000000e+00    0,000000000e+00
     1276000000    2,312277853e-01   -5,877637118e-02    2,319036983e-02    3,722135350e-02    0,000000000e+00    0,000000000e+00    0,000000000e+00    0,000000000e+00
     1290000000    1,928812861e-01   -2,188227177e-01    5,465663224e-02    2,146029286e-02    0,000000000e+00    0,000000000e+00    0,000000000e+00    0,000000000e+00
     1304000000    8,586747199e-02   -3,579878211e-01    8,094667643e-02    1,487119705e-03    0,000000000e+00    0,000000000e+00    0,000000000e+00    0,000000000e+00
     1318000000   -1,084212363e-01   -4,454355240e-01    8,323832601e-02   -1,198220253e-02    0,000000000e+00    0,000000000e+00    0,000000000e+00    0,000000000e+00
     1332000000   -3,565914035e-01   -4,341796339e-01    8,440521359e-02   -2,026126347e-02    0,000000000e+00    0,000000000e+00    0,000000000e+00    0,000000000e+00
     1346000000   -5,881376266e-01   -2,463904023e-01    1,047415584e-01   -7,154345512e-03    0,000000000e+00    0,000000000e+00    0,000000000e+00    0,000000000e+00
     1360000000   -6,504940987e-01    6,857949495e-02    1,353763938e-01   -1,850198396e-02    0,000000000e+00    0,000000000e+00    0,000000000e+00    0,000000000e+00
     1374000000   -4,949967265e-01    3,336069286e-01    1,762094647e-01   -4,736396298e-02    0,000000000e+00    0,000000000e+00    0,000000000e+00    0,000000000e+00
     1388000000   -2,574253976e-01    4,260491431e-01    1,572000980e-01   -7,980221510e-02    0,000000000e+00    0,000000000e+00    0,000000000e+00    0,000000000e+00
     1402000000   -4,836026579e-02    3,926729262e-01    1,409353018e-01   -9,451898932e-02    0,000000000e+00    0,000000000e+00    0,000000000e+00    0,000000000e+00
     1416000000    1,049883142e-01    2,868829370e-01    1,239221022e-01   -7,931552082e-02    0,000000000e+00    0,000000000e+00    0,000000000e+00    0,000000000e+00
     1430000000    1,912174523e-01    1,433872432e-01    1,198067218e-01   -8,168394864e-02    0,000000000e+00    0,000000000e+00    0,000000000e+00    0,000000000e+00
     1444000000    2,194771767e-01   -6,760896649e-03    1,298375130e-01   -1,031327434e-02    0,000000000e+00    0,000000000e+00    0,000000000e+00    0,000000000e+00
     1458000000    1,814734191e-01   -1,792500764e-01    1,357924491e-01    2,426570281e-02    0,000000000e+00    0,000000000e+00    0,000000000e+00    0,000000000e+00
     1472000000    6,035245955e-02   -3,488480747e-01    1,858881116e-01    6,052976847e-02    0,000000000e+00    0,000000000e+00    0,000000000e+00    0,000000000e+00
     1486000000   -1,408711076e-01   -4,760024250e-01    2,909844816e-01    7,436961681e-02    0,000000000e+00    0,000000000e+00    0,000000000e+00    0,000000000e+00
     1500000000   -4,432938695e-01   -4,681835473e-01    4,016165137e-01    5,273936689e-02    0,000000000e+00    0,000000000e+00    0,000000000e+00    0,000000000e+00
