! NanoVNA-App
! Date: 2025-09-25 15:57:58
! Start: 100MHz Stop: 1,5GHz Points: 101
! S-Parameter data: F S11 S21 S12 S22
# Hz S RI R 50
!     Frequency           S11_Real           S11_Imag           S21_Real           S21_Imag           S12_Real           S12_Imag           S22_Real           S22_Imag
      100000000   -2,822130732e-02   -2,830346813e-03    3,722753525e-01   -7,225067616e-01    0,000000000e+00    0,000000000e+00    0,000000000e+00    0,000000000e+00
      114000000   -1,567878388e-02    1,288318634e-02   -9,128851444e-02   -8,047263622e-01    0,000000000e+00    0,000000000e+00    0,000000000e+00    0,000000000e+00
      128000000    4,406730179e-03    1,194609050e-02   -5,161001682e-01   -6,188044548e-01    0,000000000e+00    0,000000000e+00    0,000000000e+00    0,000000000e+00
      142000000    1,546571497e-02   -1,815986936e-03   -7,673684359e-01   -2,341026962e-01    0,000000000e+00    0,000000000e+00    0,000000000e+00    0,000000000e+00
      156000000    1,659745537e-02   -1,318806130e-02   -7,646396160e-01    2,250997871e-01    0,000000000e+00    0,000000000e+00    0,000000000e+00    0,000000000e+00
      170000000    1,766141690e-02   -2,102688141e-02   -5,155704021e-01    6,063262820e-01    0,000000000e+00    0,000000000e+00    0,000000000e+00    0,000000000e+00
      184000000    2,199424058e-02   -3,559950367e-02   -9,816346318e-02    7,860003114e-01    0,000000000e+00    0,000000000e+00    0,000000000e+00    0,000000000e+00
      198000000    1,400529500e-02   -6,066486984e-02    3,460049629e-01    7,110004425e-01    0,000000000e+00    0,000000000e+00    0,000000000e+00    0,000000000e+00
      212000000   -1,766870543e-02   -7,916800678e-02    6,807839274e-01    4,062849283e-01    0,000000000e+00    0,000000000e+00    0,000000000e+00    0,000000000e+00
      226000000   -6,035822257e-02   -6,660573930e-02    7,958021760e-01   -3,567228466e-02    0,000000000e+00    0,000000000e+00    0,000000000e+00    0,000000000e+00
      240000000   -8,056061715e-02   -2,279422432e-02    6,418112516e-01   -4,717161357e-01    0,000000000e+00    0,000000000e+00    0,000000000e+00    0,000000000e+00
      254000000   -6,079134718e-02    1,982080936e-02    2,709501088e-01   -7,421720624e-01    0,000000000e+00    0,000000000e+00    0,000000000e+00    0,000000000e+00
      268000000   -2,098565176e-02    3,086762503e-02   -1,811035275e-01   -7,611085176e-01    0,000000000e+00    0,000000000e+00    0,000000000e+00    0,000000000e+00
      282000000    6,971315481e-03    1,371404994e-02   -5,632554889e-01   -5,325739980e-01    0,000000000e+00    0,000000000e+00    0,000000000e+00    0,000000000e+00
      296000000    1,228763163e-02   -6,303253584e-03   -7,604824901e-01   -1,343572438e-01    0,000000000e+00    0,000000000e+00    0,000000000e+00    0,000000000e+00
      310000000    1,349188294e-02   -1,448261831e-02   -7,079000473e-01    3,035653830e-01    0,000000000e+00    0,000000000e+00    0,000000000e+00    0,000000000e+00
      324000000    2,270397730e-02   -2,459790744e-02   -4,208828211e-01    6,392864585e-01    0,000000000e+00    0,000000000e+00    0,000000000e+00    0,000000000e+00
      338000000    2,836101130e-02   -5,070246756e-02   -3,636204929e-04    7,601939440e-01    0,000000000e+00    0,000000000e+00    0,000000000e+00    0,000000000e+00
      352000000    1,005070191e-02   -8,283162862e-02    4,108721316e-01    6,351575255e-01    0,000000000e+00    0,000000000e+00    0,000000000e+00    0,000000000e+00
      366000000   -3,182220086e-02   -9,388210624e-02    6,934587359e-01    3,043395281e-01    0,000000000e+00    0,000000000e+00    0,000000000e+00    0,000000000e+00
      380000000   -6,752716005e-02   -6,887363642e-02    7,454291582e-01   -1,339700818e-01    0,000000000e+00    0,000000000e+00    0,000000000e+00    0,000000000e+00
      394000000   -6,832554936e-02   -3,062167577e-02    5,403936505e-01   -5,297343731e-01    0,000000000e+00    0,000000000e+00    0,000000000e+00    0,000000000e+00
      408000000   -4,272617400e-02   -1,550165284e-02    1,510019153e-01   -7,338365316e-01    0,000000000e+00    0,000000000e+00    0,000000000e+00    0,000000000e+00
      422000000   -2,594573423e-02   -3,126830980e-02   -2,793139815e-01   -6,896801591e-01    0,000000000e+00    0,000000000e+00    0,000000000e+00    0,000000000e+00
      436000000   -3,931750357e-02   -4,916952178e-02   -6,108146310e-01   -4,190796316e-01    0,000000000e+00    0,000000000e+00    0,000000000e+00    0,000000000e+00
      450000000   -6,481032073e-02   -3,911777958e-02   -7,370709181e-01   -7,520365063e-03    0,000000000e+00    0,000000000e+00    0,000000000e+00    0,000000000e+00
      464000000   -6,743077189e-02   -6,034227088e-03   -6,073482037e-01    4,066301584e-01    0,000000000e+00    0,000000000e+00    0,000000000e+00    0,000000000e+00
      478000000   -3,867308050e-02    1,580039598e-02   -2,679286897e-01    6,694835424e-01    0,000000000e+00    0,000000000e+00    0,000000000e+00    0,000000000e+00
      492000000   -5,403228570e-03    6,451972295e-03    1,519941986e-01    6,958312988e-01    0,000000000e+00    0,000000000e+00    0,000000000e+00    0,000000000e+00
      506000000    6,844466086e-03   -2,046053857e-02    5,077549815e-01    4,884302020e-01    0,000000000e+00    0,000000000e+00    0,000000000e+00    0,000000000e+00
      520000000    3,481779131e-04   -3,871123865e-02    6,899414062e-01    1,207697913e-01    0,000000000e+00    0,000000000e+00    0,000000000e+00    0,000000000e+00
      534000000   -3,205638612e-03   -4,524244368e-02    6,326511502e-01   -2,815974057e-01    0,000000000e+00    0,000000000e+00    0,000000000e+00    0,000000000e+00
      548000000    8,580345311e-04   -5,959308147e-02    3,596954644e-01   -5,793949962e-01    0,000000000e+00    0,000000000e+00    0,000000000e+00    0,000000000e+00
      562000000   -8,315707557e-03   -8,852884173e-02   -2,651582099e-02   -6,722380519e-01    0,000000000e+00    0,000000000e+00    0,000000000e+00    0,000000000e+00
      576000000   -4,549292475e-02   -1,098760515e-01   -4,011501372e-01   -5,383749008e-01    0,000000000e+00    0,000000000e+00    0,000000000e+00    0,000000000e+00
      590000000   -9,465874732e-02   -9,341658652e-02   -6,391654611e-01   -2,182647884e-01    0,000000000e+00    0,000000000e+00    0,000000000e+00    0,000000000e+00
      604000000   -1,112590805e-01   -4,120713100e-02   -6,470103264e-01    1,980222166e-01    0,000000000e+00    0,000000000e+00    0,000000000e+00    0,000000000e+00
      618000000   -7,535499334e-02   -2,140472410e-03   -4,019498527e-01    5,353924632e-01    0,000000000e+00    0,000000000e+00    0,000000000e+00    0,000000000e+00
      632000000   -3,026767820e-02   -2,155069634e-02   -1,252136473e-02    6,551283002e-01    0,000000000e+00    0,000000000e+00    0,000000000e+00    0,000000000e+00
      646000000   -3,677417338e-02   -7,619486749e-02    3,659103513e-01    5,275635123e-01    0,000000000e+00    0,000000000e+00    0,000000000e+00    0,000000000e+00
      660000000   -1,124469787e-01   -9,993962198e-02    6,006398797e-01    1,932726353e-01    0,000000000e+00    0,000000000e+00    0,000000000e+00    0,000000000e+00
      674000000   -2,002055347e-01   -2,425863221e-02    5,654505491e-01   -2,397467196e-01    0,000000000e+00    0,000000000e+00    0,000000000e+00    0,000000000e+00
      688000000   -1,785226613e-01    1,437803358e-01    2,090034932e-01   -5,220516920e-01    0,000000000e+00    0,000000000e+00    0,000000000e+00    0,000000000e+00
      702000000    2,715805359e-02    2,451868504e-01   -1,969218105e-01   -4,035963714e-01    0,000000000e+00    0,000000000e+00    0,000000000e+00    0,000000000e+00
      716000000    2,629527152e-01    1,107714772e-01   -2,727728486e-01   -8,344431221e-02    0,000000000e+00    0,000000000e+00    0,000000000e+00    0,000000000e+00
      730000000    3,033175170e-01   -1,858621091e-01   -1,070596203e-01    3,195266426e-02    0,000000000e+00    0,000000000e+00    0,000000000e+00    0,000000000e+00
      744000000    9,386467934e-02   -4,283300340e-01   -4,214003310e-02   -6,503409892e-02    0,000000000e+00    0,000000000e+00    0,000000000e+00    0,000000000e+00
      758000000   -2,594996989e-01   -4,285957515e-01   -1,755408198e-01   -1,258020401e-01    0,000000000e+00    0,000000000e+00    0,000000000e+00    0,000000000e+00
      772000000   -4,841573834e-01   -1,202099323e-01   -3,363913894e-01    3,851575777e-02    0,000000000e+00    0,000000000e+00    0,000000000e+00    0,000000000e+00
      786000000   -3,408913016e-01    2,211810201e-01   -2,633101940e-01    3,170026243e-01    0,000000000e+00    0,000000000e+00    0,000000000e+00    0,000000000e+00
      800000000   -4,177346826e-02    2,762287855e-01    3,217340680e-03    4,376999438e-01    0,000000000e+00    0,000000000e+00    0,000000000e+00    0,000000000e+00
      814000000    1,442265809e-01    1,249896809e-01    2,642504573e-01    3,593790531e-01    0,000000000e+00    0,000000000e+00    0,000000000e+00    0,000000000e+00
      828000000    1,678107083e-01   -7,023435086e-02    4,327800870e-01    1,567135453e-01    0,000000000e+00    0,000000000e+00    0,000000000e+00    0,000000000e+00
      842000000    6,759078801e-02   -2,180729806e-01    4,666205943e-01   -1,201265305e-01    0,000000000e+00    0,000000000e+00    0,000000000e+00    0,000000000e+00
      856000000   -1,067880616e-01   -2,632109225e-01    3,199149370e-01   -3,956290483e-01    0,000000000e+00    0,000000000e+00    0,000000000e+00    0,000000000e+00
      870000000   -2,754566073e-01   -1,682351977e-01   -3,439650871e-03   -5,274685621e-01    0,000000000e+00    0,000000000e+00    0,000000000e+00    0,000000000e+00
      884000000   -3,212369978e-01    3,532197326e-02   -3,498238623e-01   -3,930885792e-01    0,000000000e+00    0,000000000e+00    0,000000000e+00    0,000000000e+00
      898000000   -1,927410960e-01    2,066919208e-01   -4,890788198e-01   -6,281640381e-02    0,000000000e+00    0,000000000e+00    0,000000000e+00    0,000000000e+00
      912000000    8,041113615e-03    2,190766335e-01   -4,109987617e-01    2,726952434e-01    0,000000000e+00    0,000000000e+00    0,000000000e+00    0,000000000e+00
      926000000    1,508648396e-01    1,134976223e-01   -1,681460887e-01    4,170248806e-01    0,000000000e+00    0,000000000e+00    0,000000000e+00    0,000000000e+00
      940000000    1,962946802e-01   -4,403611645e-02    6,338492036e-02    4,242836833e-01    0,000000000e+00    0,000000000e+00    0,000000000e+00    0,000000000e+00
      954000000    1,553329080e-01   -2,036762387e-01    2,625315785e-01    3,419259489e-01    0,000000000e+00    0,000000000e+00    0,000000000e+00    0,000000000e+00
      968000000    2,620332688e-02   -3,111507297e-01    4,116854966e-01    1,799945235e-01    0,000000000e+00    0,000000000e+00    0,000000000e+00    0,000000000e+00
      982000000   -1,635158807e-01   -3,301393688e-01    4,759543538e-01   -6,663672626e-02    0,000000000e+00    0,000000000e+00    0,000000000e+00    0,000000000e+00
      996000000   -3,275029063e-01   -2,097781152e-01    3,691163957e-01   -3,558153212e-01    0,000000000e+00    0,000000000e+00    0,000000000e+00    0,000000000e+00
     1010000000   -3,408861458e-01   -4,923800938e-03    4,235550016e-02   -5,254213810e-01    0,000000000e+00    0,000000000e+00    0,000000000e+00    0,000000000e+00
     1024000000   -2,035873383e-01    9,120979905e-02   -3,470915556e-01   -3,790322542e-01    0,000000000e+00    0,000000000e+00    0,000000000e+00    0,000000000e+00
     1038000000   -1,323942989e-01    1,094485167e-02   -4,825707972e-01    6,298226863e-02    0,000000000e+00    0,000000000e+00    0,000000000e+00    0,000000000e+00
     1052000000   -2,835588753e-01    5,317305773e-02   -9,386301786e-02    3,736789227e-01    0,000000000e+00    0,000000000e+00    0,000000000e+00    0,000000000e+00
     1066000000   -1,487663239e-01    2,921917737e-01    1,409623325e-01    1,302123219e-01    0,000000000e+00    0,000000000e+00    0,000000000e+00    0,000000000e+00
     1080000000    1,028850377e-01    2,468897551e-01    9,014767408e-02    2,233494259e-02    0,000000000e+00    0,000000000e+00    0,000000000e+00    0,000000000e+00
     1094000000    2,250055820e-01    9,048563987e-02    6,964249164e-02    1,055797562e-02    0,000000000e+00    0,000000000e+00    0,000000000e+00    0,000000000e+00
     1108000000    2,424482703e-01   -8,405318856e-02    8,144439012e-02   -1,918849419e-03    0,000000000e+00    0,000000000e+00    0,000000000e+00    0,000000000e+00
     1122000000    1,858174801e-01   -2,531718612e-01    1,050847396e-01   -2,776144817e-02    0,000000000e+00    0,000000000e+00    0,000000000e+00    0,000000000e+00
     1136000000    5,175061524e-02   -3,774900436e-01    1,275649667e-01   -7,335810363e-02    0,000000000e+00    0,000000000e+00    0,000000000e+00    0,000000000e+00
     1150000000   -1,551267654e-01   -4,202690125e-01    1,332753301e-01   -1,489871740e-01    0,000000000e+00    0,000000000e+00    0,000000000e+00    0,000000000e+00
     1164000000   -3,735564649e-01   -3,234367669e-01    1,004988775e-01   -2,769144773e-01    0,000000000e+00    0,000000000e+00    0,000000000e+00    0,000000000e+00
     1178000000   -4,629784822e-01   -9,236886352e-02   -1,037161946e-01   -4,060757160e-01    0,000000000e+00    0,000000000e+00    0,000000000e+00    0,000000000e+00
     1192000000   -3,756749034e-01    4,384788498e-02   -4,635548294e-01   -1,982122958e-01    0,000000000e+00    0,000000000e+00    0,000000000e+00    0,000000000e+00
     1206000000   -4,164399803e-01    1,338338256e-01   -2,749475241e-01    2,365348041e-01    0,000000000e+00    0,000000000e+00    0,000000000e+00    0,000000000e+00
     1220000000   -2,709033489e-01    3,266936541e-01   -3,447478870e-03    1,656393260e-01    0,000000000e+00    0,000000000e+00    0,000000000e+00    0,000000000e+00
     1234000000   -4,535952583e-02    3,504559398e-01    2,677021921e-02    5,355177820e-02    0,000000000e+00    0,000000000e+00    0,000000000e+00    0,000000000e+00
     1248000000    1,200795397e-01    2,533997297e-01    6,969833048e-04    2,424851060e-02    0,000000000e+00    0,000000000e+00    0,000000000e+00    0,000000000e+00
     1262000000    2,100598216e-01    1,013902202e-01    2,811763203e-03    3,487489745e-02    0,000000000e+00    0,000000000e+00    0,000000000e+00    0,000000000e+00
     1276000000    2,292419821e-01   -6,070163846e-02    2,429204993e-02    3,395817801e-02    0,000000000e+00    0,000000000e+00    0,000000000e+00    0,000000000e+00
     1290000000    1,950751245e-01   -2,112252265e-01    5,659688637e-02    3,090059757e-02    0,000000000e+00    0,000000000e+00    0,000000000e+00    0,000000000e+00
     1304000000    7,952047139e-02   -3,550513983e-01    7,018455863e-02    7,953513414e-03    0,000000000e+00    0,000000000e+00    0,000000000e+00    0,000000000e+00
     1318000000   -1,000464857e-01   -4,461025894e-01    8,604082465e-02   -9,866516106e-03    0,000000000e+00    0,000000000e+00    0,000000000e+00    0,000000000e+00
     1332000000   -3,569802940e-01   -4,368390739e-01    9,110362828e-02   -1,508933026e-02    0,000000000e+00    0,000000000e+00    0,000000000e+00    0,000000000e+00
     1346000000   -5,877751112e-01   -2,478950620e-01    1,088279411e-01   -7,916528732e-03    0,000000000e+00    0,000000000e+00    0,000000000e+00    0,000000000e+00
     1360000000   -6,548686624e-01    7,221645117e-02    1,300414354e-01   -1,510931458e-02    0,000000000e+00    0,000000000e+00    0,000000000e+00    0,000000000e+00
     1374000000   -4,876210093e-01    3,341985941e-01    1,727194041e-01   -4,357466474e-02    0,000000000e+00    0,000000000e+00    0,000000000e+00    0,000000000e+00
     1388000000   -2,550536692e-01    4,257414341e-01    1,623444557e-01   -8,773948252e-02    0,000000000e+00    0,000000000e+00    0,000000000e+00    0,000000000e+00
     1402000000   -4,697035626e-02    3,921917379e-01    1,339431554e-01   -1,020714268e-01    0,000000000e+00    0,000000000e+00    0,000000000e+00    0,000000000e+00
     1416000000    1,027264372e-01    2,842378020e-01    1,243792772e-01   -9,065257013e-02    0,000000000e+00    0,000000000e+00    0,000000000e+00    0,000000000e+00
     1430000000    1,840753704e-01    1,502851099e-01    1,049512774e-01   -6,642388552e-02    0,000000000e+00    0,000000000e+00    0,000000000e+00    0,000000000e+00
     1444000000    2,122677863e-01   -1,012262236e-02    1,237529963e-01   -2,877594531e-02    0,000000000e+00    0,000000000e+00    0,000000000e+00    0,000000000e+00
     1458000000    1,858540475e-01   -1,812661290e-01    1,433110833e-01    3,144066781e-02    0,000000000e+00    0,000000000e+00    0,000000000e+00    0,000000000e+00
     1472000000    7,569912821e-02   -3,500893116e-01    2,045783848e-01    5,911114439e-02    0,000000000e+00    0,000000000e+00    0,000000000e+00    0,000000000e+00
     1486000000   -1,406982839e-01   -4,691229761e-01    2,800967097e-01    9,220912308e-02    0,000000000e+00    0,000000000e+00    0,000000000e+00    0,000000000e+00
     1500000000   -4,449235499e-01   -4,843695760e-01    4,009268284e-01    4,367310181e-02    0,000000000e+00    0,000000000e+00    0,000000000e+00    0,000000000e+00
