! NanoVNA-App
! Date: 2025-09-25 16:02:47
! Start: 100MHz Stop: 1,5GHz Points: 101
! S-Parameter data: F S11 S21 S12 S22
# Hz S RI R 50
!     Frequency           S11_Real           S11_Imag           S21_Real           S21_Imag           S12_Real           S12_Imag           S22_Real           S22_Imag
      100000000   -2,831092477e-02   -2,881491091e-03    3,722856939e-01   -7,224442959e-01    0,000000000e+00    0,000000000e+00    0,000000000e+00    0,000000000e+00
      114000000   -1,575375535e-02    1,289990824e-02   -9,115511179e-02   -8,046204448e-01    0,000000000e+00    0,000000000e+00    0,000000000e+00    0,000000000e+00
      128000000    4,299651831e-03    1,198962145e-02   -5,158529878e-01   -6,187084913e-01    0,000000000e+00    0,000000000e+00    0,000000000e+00    0,000000000e+00
      142000000    1,548245084e-02   -1,715982915e-03   -7,673060298e-01   -2,341084182e-01    0,000000000e+00    0,000000000e+00    0,000000000e+00    0,000000000e+00
      156000000    1,669305563e-02   -1,301163808e-02   -7,645440102e-01    2,249390632e-01    0,000000000e+00    0,000000000e+00    0,000000000e+00    0,000000000e+00
      170000000    1,771621965e-02   -2,095458098e-02   -5,154643059e-01    6,061859727e-01    0,000000000e+00    0,000000000e+00    0,000000000e+00    0,000000000e+00
      184000000    2,205102146e-02   -3,555380180e-02   -9,809925407e-02    7,863443494e-01    0,000000000e+00    0,000000000e+00    0,000000000e+00    0,000000000e+00
      198000000    1,401968766e-02   -6,064264849e-02    3,459177613e-01    7,106948495e-01    0,000000000e+00    0,000000000e+00    0,000000000e+00    0,000000000e+00
      212000000   -1,765667647e-02   -7,913466543e-02    6,807604432e-01    4,061504006e-01    0,000000000e+00    0,000000000e+00    0,000000000e+00    0,000000000e+00
      226000000   -6,035429984e-02   -6,659206003e-02    7,958438396e-01   -3,564241156e-02    0,000000000e+00    0,000000000e+00    0,000000000e+00    0,000000000e+00
      240000000   -8,049167693e-02   -2,275090851e-02    6,418806314e-01   -4,719456434e-01    0,000000000e+00    0,000000000e+00    0,000000000e+00    0,000000000e+00
      254000000   -6,079797819e-02    1,981663890e-02    2,708663344e-01   -7,419480681e-01    0,000000000e+00    0,000000000e+00    0,000000000e+00    0,000000000e+00
      268000000   -2,100965939e-02    3,083732538e-02   -1,810690463e-01   -7,611792684e-01    0,000000000e+00    0,000000000e+00    0,000000000e+00    0,000000000e+00
      282000000    6,991556846e-03    1,376749668e-02   -5,631431937e-01   -5,324114561e-01    0,000000000e+00    0,000000000e+00    0,000000000e+00    0,000000000e+00
      296000000    1,239048410e-02   -6,317884661e-03   -7,605646849e-01   -1,344011128e-01    0,000000000e+00    0,000000000e+00    0,000000000e+00    0,000000000e+00
      310000000    1,349592581e-02   -1,461693738e-02   -7,083968520e-01    3,032256365e-01    0,000000000e+00    0,000000000e+00    0,000000000e+00    0,000000000e+00
      324000000    2,246351540e-02   -2,478156984e-02   -4,217910171e-01    6,398749948e-01    0,000000000e+00    0,000000000e+00    0,000000000e+00    0,000000000e+00
      338000000    2,837100253e-02   -5,116816238e-02   -1,195481862e-03    7,606984973e-01    0,000000000e+00    0,000000000e+00    0,000000000e+00    0,000000000e+00
      352000000    1,018464472e-02   -8,280999959e-02    4,124625325e-01    6,350845098e-01    0,000000000e+00    0,000000000e+00    0,000000000e+00    0,000000000e+00
      366000000   -3,188624606e-02   -9,379823506e-02    6,930606365e-01    3,035403192e-01    0,000000000e+00    0,000000000e+00    0,000000000e+00    0,000000000e+00
      380000000   -6,771127135e-02   -6,876045465e-02    7,457261682e-01   -1,338357478e-01    0,000000000e+00    0,000000000e+00    0,000000000e+00    0,000000000e+00
      394000000   -6,877072901e-02   -3,040126525e-02    5,384950638e-01   -5,270732045e-01    0,000000000e+00    0,000000000e+00    0,000000000e+00    0,000000000e+00
      408000000   -4,285698757e-02   -1,549342740e-02    1,494145840e-01   -7,334836125e-01    0,000000000e+00    0,000000000e+00    0,000000000e+00    0,000000000e+00
      422000000   -2,632058784e-02   -3,112554923e-02   -2,797932923e-01   -6,898073554e-01    0,000000000e+00    0,000000000e+00    0,000000000e+00    0,000000000e+00
      436000000   -3,911399841e-02   -4,901084304e-02   -6,105151772e-01   -4,191700518e-01    0,000000000e+00    0,000000000e+00    0,000000000e+00    0,000000000e+00
      450000000   -6,468148530e-02   -3,915420547e-02   -7,374282479e-01   -7,284016814e-03    0,000000000e+00    0,000000000e+00    0,000000000e+00    0,000000000e+00
      464000000   -6,760983914e-02   -6,446902175e-03   -6,079037189e-01    4,058393836e-01    0,000000000e+00    0,000000000e+00    0,000000000e+00    0,000000000e+00
      478000000   -3,868937865e-02    1,572236046e-02   -2,667557597e-01    6,701782942e-01    0,000000000e+00    0,000000000e+00    0,000000000e+00    0,000000000e+00
      492000000   -5,307564046e-03    6,521169562e-03    1,511748135e-01    6,952869296e-01    0,000000000e+00    0,000000000e+00    0,000000000e+00    0,000000000e+00
      506000000    7,202839945e-03   -2,010997571e-02    5,087544918e-01    4,886043072e-01    0,000000000e+00    0,000000000e+00    0,000000000e+00    0,000000000e+00
      520000000    8,422643878e-04   -3,876217082e-02    6,898059249e-01    1,199771240e-01    0,000000000e+00    0,000000000e+00    0,000000000e+00    0,000000000e+00
      534000000   -2,861899789e-03   -4,547167942e-02    6,327942014e-01   -2,823673189e-01    0,000000000e+00    0,000000000e+00    0,000000000e+00    0,000000000e+00
      548000000    1,236213371e-03   -5,962117016e-02    3,596784174e-01   -5,791060328e-01    0,000000000e+00    0,000000000e+00    0,000000000e+00    0,000000000e+00
      562000000   -7,934287190e-03   -8,894418180e-02   -2,671912313e-02   -6,737477779e-01    0,000000000e+00    0,000000000e+00    0,000000000e+00    0,000000000e+00
      576000000   -4,519670084e-02   -1,094921529e-01   -4,002615809e-01   -5,383862257e-01    0,000000000e+00    0,000000000e+00    0,000000000e+00    0,000000000e+00
      590000000   -9,467760473e-02   -9,360194206e-02   -6,402508020e-01   -2,197994888e-01    0,000000000e+00    0,000000000e+00    0,000000000e+00    0,000000000e+00
      604000000   -1,116957441e-01   -4,133389518e-02   -6,475955248e-01    1,984635144e-01    0,000000000e+00    0,000000000e+00    0,000000000e+00    0,000000000e+00
      618000000   -7,559337467e-02   -2,273812657e-03   -4,019478858e-01    5,364456177e-01    0,000000000e+00    0,000000000e+00    0,000000000e+00    0,000000000e+00
      632000000   -2,953637578e-02   -2,097009495e-02   -1,179727353e-02    6,559779048e-01    0,000000000e+00    0,000000000e+00    0,000000000e+00    0,000000000e+00
      646000000   -3,681953251e-02   -7,707227021e-02    3,660592437e-01    5,273092389e-01    0,000000000e+00    0,000000000e+00    0,000000000e+00    0,000000000e+00
      660000000   -1,114002019e-01   -9,886923432e-02    6,008982658e-01    1,939602941e-01    0,000000000e+00    0,000000000e+00    0,000000000e+00    0,000000000e+00
      674000000   -1,998222619e-01   -2,334518917e-02    5,658744574e-01   -2,392618507e-01    0,000000000e+00    0,000000000e+00    0,000000000e+00    0,000000000e+00
      688000000   -1,785794944e-01    1,446996480e-01    2,109150589e-01   -5,223038793e-01    0,000000000e+00    0,000000000e+00    0,000000000e+00    0,000000000e+00
      702000000    2,605297416e-02    2,444931567e-01   -2,002235651e-01   -4,047885537e-01    0,000000000e+00    0,000000000e+00    0,000000000e+00    0,000000000e+00
      716000000    2,630140781e-01    1,115202531e-01   -2,742964923e-01   -8,437079191e-02    0,000000000e+00    0,000000000e+00    0,000000000e+00    0,000000000e+00
      730000000    3,044133484e-01   -1,854501814e-01   -1,085693091e-01    3,281398863e-02    0,000000000e+00    0,000000000e+00    0,000000000e+00    0,000000000e+00
      744000000    9,405520558e-02   -4,279042482e-01   -4,195154086e-02   -6,370352209e-02    0,000000000e+00    0,000000000e+00    0,000000000e+00    0,000000000e+00
      758000000   -2,571055591e-01   -4,301512837e-01   -1,746112108e-01   -1,255449206e-01    0,000000000e+00    0,000000000e+00    0,000000000e+00    0,000000000e+00
      772000000   -4,848678112e-01   -1,194326282e-01   -3,357427120e-01    3,765312955e-02    0,000000000e+00    0,000000000e+00    0,000000000e+00    0,000000000e+00
      786000000   -3,421701491e-01    2,222356200e-01   -2,631970048e-01    3,164825439e-01    0,000000000e+00    0,000000000e+00    0,000000000e+00    0,000000000e+00
      800000000   -4,167998582e-02    2,777313590e-01    2,691042377e-03    4,361030757e-01    0,000000000e+00    0,000000000e+00    0,000000000e+00    0,000000000e+00
      814000000    1,441852301e-01    1,258736700e-01    2,639387846e-01    3,594235182e-01    0,000000000e+00    0,000000000e+00    0,000000000e+00    0,000000000e+00
      828000000    1,680608988e-01   -7,053267211e-02    4,327315688e-01    1,566818506e-01    0,000000000e+00    0,000000000e+00    0,000000000e+00    0,000000000e+00
      842000000    6,729035825e-02   -2,185061872e-01    4,667114317e-01   -1,198594570e-01    0,000000000e+00    0,000000000e+00    0,000000000e+00    0,000000000e+00
      856000000   -1,068628877e-01   -2,646168768e-01    3,198332489e-01   -3,947227895e-01    0,000000000e+00    0,000000000e+00    0,000000000e+00    0,000000000e+00
      870000000   -2,753228843e-01   -1,688205451e-01   -1,559234341e-03   -5,260165334e-01    0,000000000e+00    0,000000000e+00    0,000000000e+00    0,000000000e+00
      884000000   -3,206836581e-01    3,642231971e-02   -3,476005197e-01   -3,916501999e-01    0,000000000e+00    0,000000000e+00    0,000000000e+00    0,000000000e+00
      898000000   -1,924543083e-01    2,066274881e-01   -4,888930917e-01   -6,352677196e-02    0,000000000e+00    0,000000000e+00    0,000000000e+00    0,000000000e+00
      912000000    7,346213330e-03    2,193271369e-01   -4,100095928e-01    2,724083364e-01    0,000000000e+00    0,000000000e+00    0,000000000e+00    0,000000000e+00
      926000000    1,506474465e-01    1,148845777e-01   -1,681788713e-01    4,163861871e-01    0,000000000e+00    0,000000000e+00    0,000000000e+00    0,000000000e+00
      940000000    1,969160140e-01   -4,440224916e-02    6,317437440e-02    4,254392982e-01    0,000000000e+00    0,000000000e+00    0,000000000e+00    0,000000000e+00
      954000000    1,515411437e-01   -2,005995661e-01    2,606486678e-01    3,415524065e-01    0,000000000e+00    0,000000000e+00    0,000000000e+00    0,000000000e+00
      968000000    2,337025478e-02   -3,162462413e-01    4,091138840e-01    1,785568744e-01    0,000000000e+00    0,000000000e+00    0,000000000e+00    0,000000000e+00
      982000000   -1,619714051e-01   -3,294076622e-01    4,751633406e-01   -6,737738103e-02    0,000000000e+00    0,000000000e+00    0,000000000e+00    0,000000000e+00
      996000000   -3,272241950e-01   -2,072941661e-01    3,702420890e-01   -3,566807210e-01    0,000000000e+00    0,000000000e+00    0,000000000e+00    0,000000000e+00
     1010000000   -3,390143514e-01   -8,636468090e-03    4,188072309e-02   -5,246514678e-01    0,000000000e+00    0,000000000e+00    0,000000000e+00    0,000000000e+00
     1024000000   -2,088646591e-01    9,370981157e-02   -3,432614803e-01   -3,808870912e-01    0,000000000e+00    0,000000000e+00    0,000000000e+00    0,000000000e+00
     1038000000   -1,333575994e-01    1,273458544e-02   -4,833868444e-01    6,313412637e-02    0,000000000e+00    0,000000000e+00    0,000000000e+00    0,000000000e+00
     1052000000   -2,879843712e-01    5,567171797e-02   -9,700097144e-02    3,751012981e-01    0,000000000e+00    0,000000000e+00    0,000000000e+00    0,000000000e+00
     1066000000   -1,524052322e-01    2,974302471e-01    1,449083686e-01    1,334258020e-01    0,000000000e+00    0,000000000e+00    0,000000000e+00    0,000000000e+00
     1080000000    1,029529646e-01    2,505151331e-01    8,929014951e-02    2,098076232e-02    0,000000000e+00    0,000000000e+00    0,000000000e+00    0,000000000e+00
     1094000000    2,206167281e-01    8,633008599e-02    6,934922189e-02    1,023907494e-02    0,000000000e+00    0,000000000e+00    0,000000000e+00    0,000000000e+00
     1108000000    2,417746335e-01   -9,002824873e-02    7,876586914e-02    6,558515015e-04    0,000000000e+00    0,000000000e+00    0,000000000e+00    0,000000000e+00
     1122000000    1,851163656e-01   -2,539009750e-01    1,050372347e-01   -2,620877326e-02    0,000000000e+00    0,000000000e+00    0,000000000e+00    0,000000000e+00
     1136000000    4,870616272e-02   -3,807573318e-01    1,258776337e-01   -7,050919533e-02    0,000000000e+00    0,000000000e+00    0,000000000e+00    0,000000000e+00
     1150000000   -1,535293013e-01   -4,249238074e-01    1,383260489e-01   -1,502561122e-01    0,000000000e+00    0,000000000e+00    0,000000000e+00    0,000000000e+00
     1164000000   -3,756194115e-01   -3,252605200e-01    1,023900211e-01   -2,806091309e-01    0,000000000e+00    0,000000000e+00    0,000000000e+00    0,000000000e+00
     1178000000   -4,639486372e-01   -8,547439426e-02   -1,070213690e-01   -4,039793611e-01    0,000000000e+00    0,000000000e+00    0,000000000e+00    0,000000000e+00
     1192000000   -3,745880127e-01    4,155661538e-02   -4,623152614e-01   -1,943181157e-01    0,000000000e+00    0,000000000e+00    0,000000000e+00    0,000000000e+00
     1206000000   -4,149132371e-01    1,374828368e-01   -2,751791179e-01    2,392532229e-01    0,000000000e+00    0,000000000e+00    0,000000000e+00    0,000000000e+00
     1220000000   -2,789725065e-01    3,313550055e-01   -4,073250107e-03    1,652092338e-01    0,000000000e+00    0,000000000e+00    0,000000000e+00    0,000000000e+00
     1234000000   -5,037900060e-02    3,489343822e-01    1,909029111e-02    5,555923283e-02    0,000000000e+00    0,000000000e+00    0,000000000e+00    0,000000000e+00
     1248000000    1,186186969e-01    2,498515695e-01    1,276218449e-03    2,404147200e-02    0,000000000e+00    0,000000000e+00    0,000000000e+00    0,000000000e+00
     1262000000    2,109109163e-01    1,004255712e-01    2,196172019e-03    2,731690742e-02    0,000000000e+00    0,000000000e+00    0,000000000e+00    0,000000000e+00
     1276000000    2,359357476e-01   -5,258331820e-02    2,872110344e-02    3,730368242e-02    0,000000000e+00    0,000000000e+00    0,000000000e+00    0,000000000e+00
     1290000000    1,934245378e-01   -2,120876014e-01    5,306984857e-02    3,027545102e-02    0,000000000e+00    0,000000000e+00    0,000000000e+00    0,000000000e+00
     1304000000    8,296224475e-02   -3,567722440e-01    7,528575510e-02    1,035595592e-02    0,000000000e+00    0,000000000e+00    0,000000000e+00    0,000000000e+00
     1318000000   -1,008270010e-01   -4,471842051e-01    8,611810952e-02   -6,991259870e-04    0,000000000e+00    0,000000000e+00    0,000000000e+00    0,000000000e+00
     1332000000   -3,620542884e-01   -4,390080571e-01    8,787320554e-02   -1,513674762e-02    0,000000000e+00    0,000000000e+00    0,000000000e+00    0,000000000e+00
     1346000000   -5,906469822e-01   -2,488446683e-01    1,082535386e-01   -1,101586968e-02    0,000000000e+00    0,000000000e+00    0,000000000e+00    0,000000000e+00
     1360000000   -6,546583772e-01    7,264048606e-02    1,361512989e-01   -1,418464165e-02    0,000000000e+00    0,000000000e+00    0,000000000e+00    0,000000000e+00
     1374000000   -4,954295456e-01    3,338819146e-01    1,619025916e-01   -5,422847345e-02    0,000000000e+00    0,000000000e+00    0,000000000e+00    0,000000000e+00
     1388000000   -2,479617000e-01    4,213536978e-01    1,669602394e-01   -8,133290708e-02    0,000000000e+00    0,000000000e+00    0,000000000e+00    0,000000000e+00
     1402000000   -4,293790832e-02    3,928335309e-01    1,481556445e-01   -9,361876547e-02    0,000000000e+00    0,000000000e+00    0,000000000e+00    0,000000000e+00
     1416000000    1,015329063e-01    2,883515954e-01    1,264058053e-01   -8,961258829e-02    0,000000000e+00    0,000000000e+00    0,000000000e+00    0,000000000e+00
     1430000000    1,897726506e-01    1,449604928e-01    1,392625570e-01   -6,834537536e-02    0,000000000e+00    0,000000000e+00    0,000000000e+00    0,000000000e+00
     1444000000    2,132302672e-01   -1,343435422e-02    1,242951229e-01   -3,219581023e-02    0,000000000e+00    0,000000000e+00    0,000000000e+00    0,000000000e+00
     1458000000    1,846946925e-01   -1,763931811e-01    1,390483677e-01    2,368481643e-02    0,000000000e+00    0,000000000e+00    0,000000000e+00    0,000000000e+00
     1472000000    7,113140821e-02   -3,465175927e-01    2,034032047e-01    6,179292500e-02    0,000000000e+00    0,000000000e+00    0,000000000e+00    0,000000000e+00
     1486000000   -1,351237148e-01   -4,706380367e-01    3,013958335e-01    9,354512393e-02    0,000000000e+00    0,000000000e+00    0,000000000e+00    0,000000000e+00
     1500000000   -4,278196394e-01   -4,634436965e-01    4,013138413e-01    6,231019273e-02    0,000000000e+00    0,000000000e+00    0,000000000e+00    0,000000000e+00
