! NanoVNA-App
! Date: 2025-09-25 15:57:52
! Start: 100MHz Stop: 1,5GHz Points: 101
! S-Parameter data: F S11 S21 S12 S22
# Hz S RI R 50
!     Frequency           S11_Real           S11_Imag           S21_Real           S21_Imag           S12_Real           S12_Imag           S22_Real           S22_Imag
      100000000   -2,823485434e-02   -2,834421350e-03    3,722138107e-01   -7,224647999e-01    0,000000000e+00    0,000000000e+00    0,000000000e+00    0,000000000e+00
      114000000   -1,567651518e-02    1,288059726e-02   -9,134408087e-02   -8,047881722e-01    0,000000000e+00    0,000000000e+00    0,000000000e+00    0,000000000e+00
      128000000    4,373404197e-03    1,183434017e-02   -5,160627961e-01   -6,187924147e-01    0,000000000e+00    0,000000000e+00    0,000000000e+00    0,000000000e+00
      142000000    1,547529548e-02   -1,788916183e-03   -7,675062418e-01   -2,342313081e-01    0,000000000e+00    0,000000000e+00    0,000000000e+00    0,000000000e+00
      156000000    1,754478738e-02   -1,386200730e-02   -7,678926587e-01    2,273675948e-01    0,000000000e+00    0,000000000e+00    0,000000000e+00    0,000000000e+00
      170000000    1,768526807e-02   -2,099670842e-02   -5,153340101e-01    6,060540676e-01    0,000000000e+00    0,000000000e+00    0,000000000e+00    0,000000000e+00
      184000000    2,195441723e-02   -3,556189314e-02   -9,849373251e-02    7,862678766e-01    0,000000000e+00    0,000000000e+00    0,000000000e+00    0,000000000e+00
      198000000    1,407202613e-02   -6,066205353e-02    3,460355997e-01    7,106193900e-01    0,000000000e+00    0,000000000e+00    0,000000000e+00    0,000000000e+00
      212000000   -1,766660623e-02   -7,913035899e-02    6,806068420e-01    4,061608613e-01    0,000000000e+00    0,000000000e+00    0,000000000e+00    0,000000000e+00
      226000000   -6,032013893e-02   -6,668254733e-02    7,958663702e-01   -3,555624932e-02    0,000000000e+00    0,000000000e+00    0,000000000e+00    0,000000000e+00
      240000000   -8,043710142e-02   -2,269267105e-02    6,414206028e-01   -4,717549682e-01    0,000000000e+00    0,000000000e+00    0,000000000e+00    0,000000000e+00
      254000000   -6,082354486e-02    1,975621656e-02    2,709476352e-01   -7,418677211e-01    0,000000000e+00    0,000000000e+00    0,000000000e+00    0,000000000e+00
      268000000   -2,094961889e-02    3,085068613e-02   -1,813449115e-01   -7,610760927e-01    0,000000000e+00    0,000000000e+00    0,000000000e+00    0,000000000e+00
      282000000    6,979790051e-03    1,377938408e-02   -5,636241436e-01   -5,322328806e-01    0,000000000e+00    0,000000000e+00    0,000000000e+00    0,000000000e+00
      296000000    1,223530062e-02   -6,215740927e-03   -7,602124810e-01   -1,343091428e-01    0,000000000e+00    0,000000000e+00    0,000000000e+00    0,000000000e+00
      310000000    1,353850402e-02   -1,442888472e-02   -7,078099251e-01    3,036628067e-01    0,000000000e+00    0,000000000e+00    0,000000000e+00    0,000000000e+00
      324000000    2,260588482e-02   -2,493896149e-02   -4,207908511e-01    6,386215091e-01    0,000000000e+00    0,000000000e+00    0,000000000e+00    0,000000000e+00
      338000000    2,838524804e-02   -5,047014728e-02    3,637417831e-05    7,603485584e-01    0,000000000e+00    0,000000000e+00    0,000000000e+00    0,000000000e+00
      352000000    1,027132291e-02   -8,299470693e-02    4,111690223e-01    6,352634430e-01    0,000000000e+00    0,000000000e+00    0,000000000e+00    0,000000000e+00
      366000000   -3,172252327e-02   -9,384687245e-02    6,928089857e-01    3,038516343e-01    0,000000000e+00    0,000000000e+00    0,000000000e+00    0,000000000e+00
      380000000   -6,763415039e-02   -6,911320239e-02    7,455279827e-01   -1,347259134e-01    0,000000000e+00    0,000000000e+00    0,000000000e+00    0,000000000e+00
      394000000   -6,875750422e-02   -3,067151643e-02    5,401326418e-01   -5,287842155e-01    0,000000000e+00    0,000000000e+00    0,000000000e+00    0,000000000e+00
      408000000   -4,263822734e-02   -1,551077235e-02    1,506142914e-01   -7,340708971e-01    0,000000000e+00    0,000000000e+00    0,000000000e+00    0,000000000e+00
      422000000   -2,608845942e-02   -3,102478012e-02   -2,794895172e-01   -6,893044114e-01    0,000000000e+00    0,000000000e+00    0,000000000e+00    0,000000000e+00
      436000000   -3,910844773e-02   -4,910004511e-02   -6,105065942e-01   -4,196582437e-01    0,000000000e+00    0,000000000e+00    0,000000000e+00    0,000000000e+00
      450000000   -6,488765776e-02   -3,909046203e-02   -7,373420000e-01   -7,461611181e-03    0,000000000e+00    0,000000000e+00    0,000000000e+00    0,000000000e+00
      464000000   -6,767643988e-02   -6,495377049e-03   -6,076467037e-01    4,064113200e-01    0,000000000e+00    0,000000000e+00    0,000000000e+00    0,000000000e+00
      478000000   -3,883085400e-02    1,629388519e-02   -2,673673332e-01    6,702390313e-01    0,000000000e+00    0,000000000e+00    0,000000000e+00    0,000000000e+00
      492000000   -5,377036519e-03    6,239726208e-03    1,513285637e-01    6,949338913e-01    0,000000000e+00    0,000000000e+00    0,000000000e+00    0,000000000e+00
      506000000    6,880607922e-03   -2,018630505e-02    5,074952245e-01    4,880852103e-01    0,000000000e+00    0,000000000e+00    0,000000000e+00    0,000000000e+00
      520000000    3,853381204e-04   -3,895407915e-02    6,898941994e-01    1,206549853e-01    0,000000000e+00    0,000000000e+00    0,000000000e+00    0,000000000e+00
      534000000   -3,142034868e-03   -4,588328302e-02    6,325739622e-01   -2,823004723e-01    0,000000000e+00    0,000000000e+00    0,000000000e+00    0,000000000e+00
      548000000    1,265834435e-03   -5,994157493e-02    3,607946336e-01   -5,791851282e-01    0,000000000e+00    0,000000000e+00    0,000000000e+00    0,000000000e+00
      562000000   -7,819174789e-03   -8,850430697e-02   -2,616790682e-02   -6,721845269e-01    0,000000000e+00    0,000000000e+00    0,000000000e+00    0,000000000e+00
      576000000   -4,528114572e-02   -1,093027592e-01   -4,006071091e-01   -5,380832553e-01    0,000000000e+00    0,000000000e+00    0,000000000e+00    0,000000000e+00
      590000000   -9,487179667e-02   -9,354586899e-02   -6,407877207e-01   -2,194745541e-01    0,000000000e+00    0,000000000e+00    0,000000000e+00    0,000000000e+00
      604000000   -1,116909310e-01   -4,091359675e-02   -6,472360492e-01    1,991428286e-01    0,000000000e+00    0,000000000e+00    0,000000000e+00    0,000000000e+00
      618000000   -7,553979754e-02   -2,814503619e-03   -4,021560848e-01    5,348896980e-01    0,000000000e+00    0,000000000e+00    0,000000000e+00    0,000000000e+00
      632000000   -3,017843515e-02   -2,117004059e-02   -1,206012815e-02    6,549401879e-01    0,000000000e+00    0,000000000e+00    0,000000000e+00    0,000000000e+00
      646000000   -3,598517925e-02   -7,671616971e-02    3,658299744e-01    5,263795257e-01    0,000000000e+00    0,000000000e+00    0,000000000e+00    0,000000000e+00
      660000000   -1,123967096e-01   -1,005921215e-01    6,011962295e-01    1,942390949e-01    0,000000000e+00    0,000000000e+00    0,000000000e+00    0,000000000e+00
      674000000   -1,995567977e-01   -2,440288104e-02    5,650498271e-01   -2,395903766e-01    0,000000000e+00    0,000000000e+00    0,000000000e+00    0,000000000e+00
      688000000   -1,786800474e-01    1,441601217e-01    2,086487710e-01   -5,223460793e-01    0,000000000e+00    0,000000000e+00    0,000000000e+00    0,000000000e+00
      702000000    2,457306162e-02    2,471543401e-01   -2,015818059e-01   -4,064630568e-01    0,000000000e+00    0,000000000e+00    0,000000000e+00    0,000000000e+00
      716000000    2,642728090e-01    1,105986089e-01   -2,725867331e-01   -8,312967420e-02    0,000000000e+00    0,000000000e+00    0,000000000e+00    0,000000000e+00
      730000000    3,029171824e-01   -1,863314658e-01   -1,066502929e-01    3,171832487e-02    0,000000000e+00    0,000000000e+00    0,000000000e+00    0,000000000e+00
      744000000    9,280572087e-02   -4,271443784e-01   -4,237318784e-02   -6,548194587e-02    0,000000000e+00    0,000000000e+00    0,000000000e+00    0,000000000e+00
      758000000   -2,583025396e-01   -4,289822876e-01   -1,759964675e-01   -1,257423908e-01    0,000000000e+00    0,000000000e+00    0,000000000e+00    0,000000000e+00
      772000000   -4,852118194e-01   -1,204016954e-01   -3,367323875e-01    3,824584559e-02    0,000000000e+00    0,000000000e+00    0,000000000e+00    0,000000000e+00
      786000000   -3,412502408e-01    2,217607945e-01   -2,631908357e-01    3,168377578e-01    0,000000000e+00    0,000000000e+00    0,000000000e+00    0,000000000e+00
      800000000   -4,041251913e-02    2,761691809e-01    2,482044976e-03    4,367803633e-01    0,000000000e+00    0,000000000e+00    0,000000000e+00    0,000000000e+00
      814000000    1,445066184e-01    1,253978610e-01    2,634033561e-01    3,598435819e-01    0,000000000e+00    0,000000000e+00    0,000000000e+00    0,000000000e+00
      828000000    1,675886512e-01   -7,046155632e-02    4,334003627e-01    1,573845595e-01    0,000000000e+00    0,000000000e+00    0,000000000e+00    0,000000000e+00
      842000000    6,763993204e-02   -2,188629508e-01    4,667899311e-01   -1,202181205e-01    0,000000000e+00    0,000000000e+00    0,000000000e+00    0,000000000e+00
      856000000   -1,063670218e-01   -2,634075284e-01    3,206263781e-01   -3,946732879e-01    0,000000000e+00    0,000000000e+00    0,000000000e+00    0,000000000e+00
      870000000   -2,745477557e-01   -1,689957678e-01   -2,677419223e-03   -5,272350907e-01    0,000000000e+00    0,000000000e+00    0,000000000e+00    0,000000000e+00
      884000000   -3,196999431e-01    3,536893800e-02   -3,471326232e-01   -3,930135667e-01    0,000000000e+00    0,000000000e+00    0,000000000e+00    0,000000000e+00
      898000000   -1,922884732e-01    2,060634941e-01   -4,893119633e-01   -6,374879181e-02    0,000000000e+00    0,000000000e+00    0,000000000e+00    0,000000000e+00
      912000000    6,704861764e-03    2,188045532e-01   -3,976854682e-01    2,661821544e-01    0,000000000e+00    0,000000000e+00    0,000000000e+00    0,000000000e+00
      926000000    1,489078999e-01    1,120430529e-01   -1,707314551e-01    4,168414772e-01    0,000000000e+00    0,000000000e+00    0,000000000e+00    0,000000000e+00
      940000000    1,977790594e-01   -4,719918966e-02    6,191449985e-02    4,240548313e-01    0,000000000e+00    0,000000000e+00    0,000000000e+00    0,000000000e+00
      954000000    1,544426084e-01   -2,039935142e-01    2,614268661e-01    3,409034908e-01    0,000000000e+00    0,000000000e+00    0,000000000e+00    0,000000000e+00
      968000000    2,171521634e-02   -3,140842915e-01    4,095031917e-01    1,792889386e-01    0,000000000e+00    0,000000000e+00    0,000000000e+00    0,000000000e+00
      982000000   -1,584860533e-01   -3,294110894e-01    4,738329947e-01   -6,632874906e-02    0,000000000e+00    0,000000000e+00    0,000000000e+00    0,000000000e+00
      996000000   -3,258329332e-01   -2,130505294e-01    3,684678078e-01   -3,557950556e-01    0,000000000e+00    0,000000000e+00    0,000000000e+00    0,000000000e+00
     1010000000   -3,385489285e-01   -8,490477689e-03    4,033509269e-02   -5,223640203e-01    0,000000000e+00    0,000000000e+00    0,000000000e+00    0,000000000e+00
     1024000000   -2,087477297e-01    9,176395088e-02   -3,459015489e-01   -3,791207671e-01    0,000000000e+00    0,000000000e+00    0,000000000e+00    0,000000000e+00
     1038000000   -1,340295374e-01    6,685989909e-03   -4,816732705e-01    6,389763951e-02    0,000000000e+00    0,000000000e+00    0,000000000e+00    0,000000000e+00
     1052000000   -2,853376269e-01    5,108546093e-02   -9,628555179e-02    3,754226267e-01    0,000000000e+00    0,000000000e+00    0,000000000e+00    0,000000000e+00
     1066000000   -1,440350711e-01    2,929915786e-01    1,435098201e-01    1,334977597e-01    0,000000000e+00    0,000000000e+00    0,000000000e+00    0,000000000e+00
     1080000000    9,784148633e-02    2,484417260e-01    9,182745963e-02    2,305867150e-02    0,000000000e+00    0,000000000e+00    0,000000000e+00    0,000000000e+00
     1094000000    2,227436751e-01    9,092545509e-02    6,950993091e-02    7,877294905e-03    0,000000000e+00    0,000000000e+00    0,000000000e+00    0,000000000e+00
     1108000000    2,398597002e-01   -8,392023295e-02    8,138674498e-02   -1,646011253e-03    0,000000000e+00    0,000000000e+00    0,000000000e+00    0,000000000e+00
     1122000000    1,861730814e-01   -2,496841699e-01    1,046165749e-01   -2,664693817e-02    0,000000000e+00    0,000000000e+00    0,000000000e+00    0,000000000e+00
     1136000000    4,975462705e-02   -3,786941469e-01    1,238055974e-01   -7,392901927e-02    0,000000000e+00    0,000000000e+00    0,000000000e+00    0,000000000e+00
     1150000000   -1,565904766e-01   -4,187518656e-01    1,356326640e-01   -1,500984728e-01    0,000000000e+00    0,000000000e+00    0,000000000e+00    0,000000000e+00
     1164000000   -3,819900453e-01   -3,261113465e-01    9,787101299e-02   -2,757879496e-01    0,000000000e+00    0,000000000e+00    0,000000000e+00    0,000000000e+00
     1178000000   -4,636645615e-01   -8,566809446e-02   -1,013179719e-01   -4,016065598e-01    0,000000000e+00    0,000000000e+00    0,000000000e+00    0,000000000e+00
     1192000000   -3,738029003e-01    4,344550520e-02   -4,608181417e-01   -1,953820288e-01    0,000000000e+00    0,000000000e+00    0,000000000e+00    0,000000000e+00
     1206000000   -4,107854664e-01    1,305918694e-01   -2,744160295e-01    2,348989546e-01    0,000000000e+00    0,000000000e+00    0,000000000e+00    0,000000000e+00
     1220000000   -2,718995512e-01    3,287463784e-01   -3,995530715e-04    1,620366871e-01    0,000000000e+00    0,000000000e+00    0,000000000e+00    0,000000000e+00
     1234000000   -4,281110689e-02    3,475410342e-01    2,673035674e-02    5,141260475e-02    0,000000000e+00    0,000000000e+00    0,000000000e+00    0,000000000e+00
     1248000000    1,227715090e-01    2,496807426e-01    5,688882433e-03    2,934330702e-02    0,000000000e+00    0,000000000e+00    0,000000000e+00    0,000000000e+00
     1262000000    2,142035216e-01    9,953125566e-02    5,294762552e-03    2,663059533e-02    0,000000000e+00    0,000000000e+00    0,000000000e+00    0,000000000e+00
     1276000000    2,310985476e-01   -6,279536337e-02    2,343947068e-02    3,625611216e-02    0,000000000e+00    0,000000000e+00    0,000000000e+00    0,000000000e+00
     1290000000    1,925471425e-01   -2,144055068e-01    5,253420025e-02    3,112811595e-02    0,000000000e+00    0,000000000e+00    0,000000000e+00    0,000000000e+00
     1304000000    7,830759883e-02   -3,563212454e-01    7,681380212e-02    3,056961577e-03    0,000000000e+00    0,000000000e+00    0,000000000e+00    0,000000000e+00
     1318000000   -1,042901576e-01   -4,479162097e-01    8,299140632e-02   -1,154562738e-02    0,000000000e+00    0,000000000e+00    0,000000000e+00    0,000000000e+00
     1332000000   -3,587459326e-01   -4,294189513e-01    8,604408801e-02   -1,742264442e-02    0,000000000e+00    0,000000000e+00    0,000000000e+00    0,000000000e+00
     1346000000   -5,868415833e-01   -2,477444112e-01    1,014589444e-01   -3,328425344e-03    0,000000000e+00    0,000000000e+00    0,000000000e+00    0,000000000e+00
     1360000000   -6,494217515e-01    7,778075337e-02    1,474333555e-01   -8,102655411e-03    0,000000000e+00    0,000000000e+00    0,000000000e+00    0,000000000e+00
     1374000000   -4,903044403e-01    3,319924474e-01    1,651596278e-01   -5,920952931e-02    0,000000000e+00    0,000000000e+00    0,000000000e+00    0,000000000e+00
     1388000000   -2,540924549e-01    4,272397161e-01    1,606825292e-01   -7,263427973e-02    0,000000000e+00    0,000000000e+00    0,000000000e+00    0,000000000e+00
     1402000000   -4,830270633e-02    3,932828009e-01    1,354888082e-01   -9,065941721e-02    0,000000000e+00    0,000000000e+00    0,000000000e+00    0,000000000e+00
     1416000000    1,014021263e-01    2,853648365e-01    1,244421452e-01   -9,506134689e-02    0,000000000e+00    0,000000000e+00    0,000000000e+00    0,000000000e+00
     1430000000    1,906700283e-01    1,513580680e-01    1,385826916e-01   -6,566634774e-02    0,000000000e+00    0,000000000e+00    0,000000000e+00    0,000000000e+00
     1444000000    2,165509909e-01   -9,652639739e-03    1,261849254e-01   -2,308065444e-02    0,000000000e+00    0,000000000e+00    0,000000000e+00    0,000000000e+00
     1458000000    1,857114732e-01   -1,851466000e-01    1,557895243e-01    1,834238693e-02    0,000000000e+00    0,000000000e+00    0,000000000e+00    0,000000000e+00
     1472000000    6,843920052e-02   -3,493722975e-01    1,814437360e-01    5,734052509e-02    0,000000000e+00    0,000000000e+00    0,000000000e+00    0,000000000e+00
     1486000000   -1,349682808e-01   -4,707385898e-01    2,998014390e-01    8,398985118e-02    0,000000000e+00    0,000000000e+00    0,000000000e+00    0,000000000e+00
     1500000000   -4,368485510e-01   -4,717952907e-01    4,186787009e-01    6,494658440e-02    0,000000000e+00    0,000000000e+00    0,000000000e+00    0,000000000e+00
