! NanoVNA-App
! Date: 2025-09-25 16:03:17
! Start: 100MHz Stop: 1,5GHz Points: 101
! S-Parameter data: F S11 S21 S12 S22
# Hz S RI R 50
!     Frequency           S11_Real           S11_Imag           S21_Real           S21_Imag           S12_Real           S12_Imag           S22_Real           S22_Imag
      100000000   -2,830725163e-02   -2,883374225e-03    3,722773790e-01   -7,224156857e-01    0,000000000e+00    0,000000000e+00    0,000000000e+00    0,000000000e+00
      114000000   -1,574784517e-02    1,287287660e-02   -9,137298167e-02   -8,048378825e-01    0,000000000e+00    0,000000000e+00    0,000000000e+00    0,000000000e+00
      128000000    4,336578306e-03    1,198465843e-02   -5,159893036e-01   -6,188875437e-01    0,000000000e+00    0,000000000e+00    0,000000000e+00    0,000000000e+00
      142000000    1,547196042e-02   -1,703674905e-03   -7,674247622e-01   -2,341806442e-01    0,000000000e+00    0,000000000e+00    0,000000000e+00    0,000000000e+00
      156000000    1,613703929e-02   -1,372243464e-02   -7,707016468e-01    2,250348330e-01    0,000000000e+00    0,000000000e+00    0,000000000e+00    0,000000000e+00
      170000000    1,770072803e-02   -2,095635422e-02   -5,154118538e-01    6,062401533e-01    0,000000000e+00    0,000000000e+00    0,000000000e+00    0,000000000e+00
      184000000    2,198634110e-02   -3,553973138e-02   -9,835133702e-02    7,855749130e-01    0,000000000e+00    0,000000000e+00    0,000000000e+00    0,000000000e+00
      198000000    1,402191631e-02   -6,064207479e-02    3,461560309e-01    7,107934952e-01    0,000000000e+00    0,000000000e+00    0,000000000e+00    0,000000000e+00
      212000000   -1,766307652e-02   -7,912968844e-02    6,808320284e-01    4,062346220e-01    0,000000000e+00    0,000000000e+00    0,000000000e+00    0,000000000e+00
      226000000   -6,033970043e-02   -6,667243689e-02    7,958610654e-01   -3,560891747e-02    0,000000000e+00    0,000000000e+00    0,000000000e+00    0,000000000e+00
      240000000   -8,056227863e-02   -2,268527262e-02    6,415973902e-01   -4,718363583e-01    0,000000000e+00    0,000000000e+00    0,000000000e+00    0,000000000e+00
      254000000   -6,076051667e-02    1,983116940e-02    2,711320221e-01   -7,425574660e-01    0,000000000e+00    0,000000000e+00    0,000000000e+00    0,000000000e+00
      268000000   -2,093609422e-02    3,084085323e-02   -1,810655743e-01   -7,610763907e-01    0,000000000e+00    0,000000000e+00    0,000000000e+00    0,000000000e+00
      282000000    6,973746698e-03    1,377092116e-02   -5,633755326e-01   -5,328304768e-01    0,000000000e+00    0,000000000e+00    0,000000000e+00    0,000000000e+00
      296000000    1,241923589e-02   -6,229159888e-03   -7,605012655e-01   -1,343069077e-01    0,000000000e+00    0,000000000e+00    0,000000000e+00    0,000000000e+00
      310000000    1,364618819e-02   -1,461206377e-02   -7,077169418e-01    3,040863574e-01    0,000000000e+00    0,000000000e+00    0,000000000e+00    0,000000000e+00
      324000000    2,266212553e-02   -2,448818460e-02   -4,224449396e-01    6,397392154e-01    0,000000000e+00    0,000000000e+00    0,000000000e+00    0,000000000e+00
      338000000    2,843391337e-02   -5,087796226e-02   -2,759027062e-03    7,608643174e-01    0,000000000e+00    0,000000000e+00    0,000000000e+00    0,000000000e+00
      352000000    1,003878843e-02   -8,277854323e-02    4,123491347e-01    6,356223822e-01    0,000000000e+00    0,000000000e+00    0,000000000e+00    0,000000000e+00
      366000000   -3,167280555e-02   -9,369231015e-02    6,939152479e-01    3,045340478e-01    0,000000000e+00    0,000000000e+00    0,000000000e+00    0,000000000e+00
      380000000   -6,788138300e-02   -6,869886816e-02    7,454293370e-01   -1,341413856e-01    0,000000000e+00    0,000000000e+00    0,000000000e+00    0,000000000e+00
      394000000   -6,839740276e-02   -3,062020428e-02    5,395668745e-01   -5,290498734e-01    0,000000000e+00    0,000000000e+00    0,000000000e+00    0,000000000e+00
      408000000   -4,287277162e-02   -1,543221902e-02    1,498077512e-01   -7,332122922e-01    0,000000000e+00    0,000000000e+00    0,000000000e+00    0,000000000e+00
      422000000   -2,624986693e-02   -3,129395097e-02   -2,789070308e-01   -6,904782057e-01    0,000000000e+00    0,000000000e+00    0,000000000e+00    0,000000000e+00
      436000000   -3,930687532e-02   -4,880450293e-02   -6,109254956e-01   -4,199988842e-01    0,000000000e+00    0,000000000e+00    0,000000000e+00    0,000000000e+00
      450000000   -6,454270333e-02   -3,930464759e-02   -7,374790907e-01   -7,705127820e-03    0,000000000e+00    0,000000000e+00    0,000000000e+00    0,000000000e+00
      464000000   -6,769363582e-02   -6,342437584e-03   -6,087179780e-01    4,066358507e-01    0,000000000e+00    0,000000000e+00    0,000000000e+00    0,000000000e+00
      478000000   -3,908220306e-02    1,593556441e-02   -2,687470615e-01    6,700969934e-01    0,000000000e+00    0,000000000e+00    0,000000000e+00    0,000000000e+00
      492000000   -5,189721938e-03    6,235080771e-03    1,517571360e-01    6,956832409e-01    0,000000000e+00    0,000000000e+00    0,000000000e+00    0,000000000e+00
      506000000    6,830792874e-03   -1,994985715e-02    5,075117946e-01    4,891886711e-01    0,000000000e+00    0,000000000e+00    0,000000000e+00    0,000000000e+00
      520000000    3,802559222e-04   -3,853955492e-02    6,893075705e-01    1,211971045e-01    0,000000000e+00    0,000000000e+00    0,000000000e+00    0,000000000e+00
      534000000   -3,312735818e-03   -4,553190246e-02    6,327682137e-01   -2,820429802e-01    0,000000000e+00    0,000000000e+00    0,000000000e+00    0,000000000e+00
      548000000    1,059705624e-03   -6,001199037e-02    3,602983654e-01   -5,796149373e-01    0,000000000e+00    0,000000000e+00    0,000000000e+00    0,000000000e+00
      562000000   -7,659791503e-03   -8,871872723e-02   -2,566767484e-02   -6,734450459e-01    0,000000000e+00    0,000000000e+00    0,000000000e+00    0,000000000e+00
      576000000   -4,560177401e-02   -1,097671911e-01   -4,017687738e-01   -5,387647748e-01    0,000000000e+00    0,000000000e+00    0,000000000e+00    0,000000000e+00
      590000000   -9,482703358e-02   -9,353761375e-02   -6,409901977e-01   -2,194774151e-01    0,000000000e+00    0,000000000e+00    0,000000000e+00    0,000000000e+00
      604000000   -1,116008684e-01   -4,159299657e-02   -6,473745108e-01    1,981430054e-01    0,000000000e+00    0,000000000e+00    0,000000000e+00    0,000000000e+00
      618000000   -7,637339085e-02   -2,198253758e-03   -4,021148086e-01    5,358572602e-01    0,000000000e+00    0,000000000e+00    0,000000000e+00    0,000000000e+00
      632000000   -2,976244129e-02   -2,062192559e-02   -1,198235340e-02    6,557068825e-01    0,000000000e+00    0,000000000e+00    0,000000000e+00    0,000000000e+00
      646000000   -3,623654321e-02   -7,735289633e-02    3,660767972e-01    5,277896523e-01    0,000000000e+00    0,000000000e+00    0,000000000e+00    0,000000000e+00
      660000000   -1,118200496e-01   -9,944915771e-02    6,012346148e-01    1,937208921e-01    0,000000000e+00    0,000000000e+00    0,000000000e+00    0,000000000e+00
      674000000   -1,989004165e-01   -2,335531637e-02    5,661265254e-01   -2,397493571e-01    0,000000000e+00    0,000000000e+00    0,000000000e+00    0,000000000e+00
      688000000   -1,787616163e-01    1,432245374e-01    2,109532952e-01   -5,231933594e-01    0,000000000e+00    0,000000000e+00    0,000000000e+00    0,000000000e+00
      702000000    2,435754985e-02    2,441472411e-01   -1,929749697e-01   -4,057963192e-01    0,000000000e+00    0,000000000e+00    0,000000000e+00    0,000000000e+00
      716000000    2,623378634e-01    1,110246629e-01   -2,743901610e-01   -8,456912637e-02    0,000000000e+00    0,000000000e+00    0,000000000e+00    0,000000000e+00
      730000000    3,035573959e-01   -1,856087744e-01   -1,083706990e-01    3,322750703e-02    0,000000000e+00    0,000000000e+00    0,000000000e+00    0,000000000e+00
      744000000    9,541898966e-02   -4,285181165e-01   -4,218272865e-02   -6,347562373e-02    0,000000000e+00    0,000000000e+00    0,000000000e+00    0,000000000e+00
      758000000   -2,588390410e-01   -4,299697578e-01   -1,742819399e-01   -1,249082386e-01    0,000000000e+00    0,000000000e+00    0,000000000e+00    0,000000000e+00
      772000000   -4,865690768e-01   -1,207256094e-01   -3,352681398e-01    3,742111474e-02    0,000000000e+00    0,000000000e+00    0,000000000e+00    0,000000000e+00
      786000000   -3,422050476e-01    2,207598984e-01   -2,634069920e-01    3,162449300e-01    0,000000000e+00    0,000000000e+00    0,000000000e+00    0,000000000e+00
      800000000   -4,185889661e-02    2,771005332e-01    2,654158510e-03    4,363282621e-01    0,000000000e+00    0,000000000e+00    0,000000000e+00    0,000000000e+00
      814000000    1,442204267e-01    1,251791716e-01    2,646388412e-01    3,600202203e-01    0,000000000e+00    0,000000000e+00    0,000000000e+00    0,000000000e+00
      828000000    1,684461087e-01   -7,026265562e-02    4,324958324e-01    1,576408148e-01    0,000000000e+00    0,000000000e+00    0,000000000e+00    0,000000000e+00
      842000000    6,746856868e-02   -2,183160633e-01    4,666168690e-01   -1,200159937e-01    0,000000000e+00    0,000000000e+00    0,000000000e+00    0,000000000e+00
      856000000   -1,074007750e-01   -2,636136413e-01    3,197538555e-01   -3,950136304e-01    0,000000000e+00    0,000000000e+00    0,000000000e+00    0,000000000e+00
      870000000   -2,745401561e-01   -1,679901630e-01   -2,274996135e-03   -5,278621912e-01    0,000000000e+00    0,000000000e+00    0,000000000e+00    0,000000000e+00
      884000000   -3,214870095e-01    3,600466251e-02   -3,481777012e-01   -3,921780586e-01    0,000000000e+00    0,000000000e+00    0,000000000e+00    0,000000000e+00
      898000000   -1,931164116e-01    2,064737380e-01   -4,901367724e-01   -6,231559440e-02    0,000000000e+00    0,000000000e+00    0,000000000e+00    0,000000000e+00
      912000000    7,442316972e-03    2,195519954e-01   -4,092905521e-01    2,701264918e-01    0,000000000e+00    0,000000000e+00    0,000000000e+00    0,000000000e+00
      926000000    1,519335359e-01    1,148344874e-01   -1,688494533e-01    4,184378982e-01    0,000000000e+00    0,000000000e+00    0,000000000e+00    0,000000000e+00
      940000000    1,981468648e-01   -4,473280162e-02    6,364730746e-02    4,239470065e-01    0,000000000e+00    0,000000000e+00    0,000000000e+00    0,000000000e+00
      954000000    1,512088329e-01   -2,022692263e-01    2,615219355e-01    3,411734402e-01    0,000000000e+00    0,000000000e+00    0,000000000e+00    0,000000000e+00
      968000000    2,740033716e-02   -3,124703765e-01    4,102633595e-01    1,784230769e-01    0,000000000e+00    0,000000000e+00    0,000000000e+00    0,000000000e+00
      982000000   -1,612824500e-01   -3,336694837e-01    4,728928804e-01   -6,761431694e-02    0,000000000e+00    0,000000000e+00    0,000000000e+00    0,000000000e+00
      996000000   -3,228362501e-01   -2,106886655e-01    3,693486154e-01   -3,556590676e-01    0,000000000e+00    0,000000000e+00    0,000000000e+00    0,000000000e+00
     1010000000   -3,374030292e-01   -6,472443230e-03    4,038634896e-02   -5,262110829e-01    0,000000000e+00    0,000000000e+00    0,000000000e+00    0,000000000e+00
     1024000000   -2,064045072e-01    9,704440087e-02   -3,460983932e-01   -3,817525506e-01    0,000000000e+00    0,000000000e+00    0,000000000e+00    0,000000000e+00
     1038000000   -1,372726560e-01    1,393185183e-02   -4,826142788e-01    6,290337443e-02    0,000000000e+00    0,000000000e+00    0,000000000e+00    0,000000000e+00
     1052000000   -2,830625474e-01    5,176410079e-02   -9,676057100e-02    3,725152314e-01    0,000000000e+00    0,000000000e+00    0,000000000e+00    0,000000000e+00
     1066000000   -1,540737003e-01    2,934099734e-01    1,441075206e-01    1,323529631e-01    0,000000000e+00    0,000000000e+00    0,000000000e+00    0,000000000e+00
     1080000000    1,019001678e-01    2,523098588e-01    8,964124322e-02    1,954725757e-02    0,000000000e+00    0,000000000e+00    0,000000000e+00    0,000000000e+00
     1094000000    2,218442857e-01    8,591473103e-02    7,044599205e-02    1,158362906e-02    0,000000000e+00    0,000000000e+00    0,000000000e+00    0,000000000e+00
     1108000000    2,442454547e-01   -8,973911405e-02    7,929174602e-02    1,239449834e-03    0,000000000e+00    0,000000000e+00    0,000000000e+00    0,000000000e+00
     1122000000    1,867540628e-01   -2,516733110e-01    1,009606123e-01   -2,584362961e-02    0,000000000e+00    0,000000000e+00    0,000000000e+00    0,000000000e+00
     1136000000    5,219068006e-02   -3,767573833e-01    1,273013353e-01   -7,237670571e-02    0,000000000e+00    0,000000000e+00    0,000000000e+00    0,000000000e+00
     1150000000   -1,550834775e-01   -4,225913286e-01    1,343271881e-01   -1,511095613e-01    0,000000000e+00    0,000000000e+00    0,000000000e+00    0,000000000e+00
     1164000000   -3,746839166e-01   -3,289363980e-01    9,934093058e-02   -2,783586383e-01    0,000000000e+00    0,000000000e+00    0,000000000e+00    0,000000000e+00
     1178000000   -4,627550840e-01   -8,968759328e-02   -1,043115780e-01   -4,051058590e-01    0,000000000e+00    0,000000000e+00    0,000000000e+00    0,000000000e+00
     1192000000   -3,711915016e-01    3,792981431e-02   -4,598460495e-01   -1,995273829e-01    0,000000000e+00    0,000000000e+00    0,000000000e+00    0,000000000e+00
     1206000000   -4,180668890e-01    1,318156421e-01   -2,704386413e-01    2,374274433e-01    0,000000000e+00    0,000000000e+00    0,000000000e+00    0,000000000e+00
     1220000000   -2,766502500e-01    3,334545493e-01   -4,368700553e-03    1,636894345e-01    0,000000000e+00    0,000000000e+00    0,000000000e+00    0,000000000e+00
     1234000000   -4,487134144e-02    3,449208438e-01    2,692835592e-02    5,193748325e-02    0,000000000e+00    0,000000000e+00    0,000000000e+00    0,000000000e+00
     1248000000    1,155992672e-01    2,461869121e-01    1,553734648e-03    2,628971450e-02    0,000000000e+00    0,000000000e+00    0,000000000e+00    0,000000000e+00
     1262000000    2,116560042e-01    9,900946915e-02    2,962926170e-03    2,702139877e-02    0,000000000e+00    0,000000000e+00    0,000000000e+00    0,000000000e+00
     1276000000    2,372223437e-01   -5,992836878e-02    3,024749644e-02    3,400288150e-02    0,000000000e+00    0,000000000e+00    0,000000000e+00    0,000000000e+00
     1290000000    1,912656426e-01   -2,160757780e-01    5,273148417e-02    2,044815570e-02    0,000000000e+00    0,000000000e+00    0,000000000e+00    0,000000000e+00
     1304000000    8,459872007e-02   -3,591815531e-01    8,289383352e-02    4,457166884e-03    0,000000000e+00    0,000000000e+00    0,000000000e+00    0,000000000e+00
     1318000000   -9,965863824e-02   -4,454676211e-01    8,866728842e-02   -1,008099969e-02    0,000000000e+00    0,000000000e+00    0,000000000e+00    0,000000000e+00
     1332000000   -3,555320501e-01   -4,381762445e-01    8,530052751e-02   -1,666828990e-02    0,000000000e+00    0,000000000e+00    0,000000000e+00    0,000000000e+00
     1346000000   -5,908368826e-01   -2,419677675e-01    1,003178954e-01    4,052832257e-03    0,000000000e+00    0,000000000e+00    0,000000000e+00    0,000000000e+00
     1360000000   -6,512449384e-01    7,632762939e-02    1,385341883e-01   -7,137767505e-03    0,000000000e+00    0,000000000e+00    0,000000000e+00    0,000000000e+00
     1374000000   -4,959620535e-01    3,324755430e-01    1,623810381e-01   -4,608878493e-02    0,000000000e+00    0,000000000e+00    0,000000000e+00    0,000000000e+00
     1388000000   -2,481104583e-01    4,278481901e-01    1,677827090e-01   -8,030976355e-02    0,000000000e+00    0,000000000e+00    0,000000000e+00    0,000000000e+00
     1402000000   -5,010906979e-02    3,926980495e-01    1,347846836e-01   -9,687751532e-02    0,000000000e+00    0,000000000e+00    0,000000000e+00    0,000000000e+00
     1416000000    1,010742560e-01    2,900424004e-01    1,200313047e-01   -7,885228842e-02    0,000000000e+00    0,000000000e+00    0,000000000e+00    0,000000000e+00
     1430000000    1,907270551e-01    1,459291428e-01    1,162098125e-01   -7,671570033e-02    0,000000000e+00    0,000000000e+00    0,000000000e+00    0,000000000e+00
     1444000000    2,119519860e-01   -1,181425899e-02    1,148509160e-01   -2,861775458e-02    0,000000000e+00    0,000000000e+00    0,000000000e+00    0,000000000e+00
     1458000000    1,811564416e-01   -1,873314828e-01    1,448207498e-01    6,105016917e-03    0,000000000e+00    0,000000000e+00    0,000000000e+00    0,000000000e+00
     1472000000    6,281813234e-02   -3,457348645e-01    1,860522479e-01    6,699777395e-02    0,000000000e+00    0,000000000e+00    0,000000000e+00    0,000000000e+00
     1486000000   -1,346397847e-01   -4,815661907e-01    2,930365503e-01    8,827180415e-02    0,000000000e+00    0,000000000e+00    0,000000000e+00    0,000000000e+00
     1500000000   -4,356601536e-01   -4,790626168e-01    4,066077173e-01    5,423333496e-02    0,000000000e+00    0,000000000e+00    0,000000000e+00    0,000000000e+00
