! NanoVNA-App
! Date: 2025-09-25 15:57:16
! Start: 100MHz Stop: 1,5GHz Points: 101
! S-Parameter data: F S11 S21 S12 S22
# Hz S RI R 50
!     Frequency           S11_Real           S11_Imag           S21_Real           S21_Imag           S12_Real           S12_Imag           S22_Real           S22_Imag
      100000000   -2,821611241e-02   -2,827379154e-03    3,722563088e-01   -7,224851251e-01    0,000000000e+00    0,000000000e+00    0,000000000e+00    0,000000000e+00
      114000000   -1,564033888e-02    1,287272386e-02   -9,138270468e-02   -8,047500849e-01    0,000000000e+00    0,000000000e+00    0,000000000e+00    0,000000000e+00
      128000000    4,445083439e-03    1,189238857e-02   -5,158622861e-01   -6,187044978e-01    0,000000000e+00    0,000000000e+00    0,000000000e+00    0,000000000e+00
      142000000    1,548792329e-02   -1,821759506e-03   -7,675033808e-01   -2,341139466e-01    0,000000000e+00    0,000000000e+00    0,000000000e+00    0,000000000e+00
      156000000    1,665148884e-02   -1,318978053e-02   -7,645205259e-01    2,250928283e-01    0,000000000e+00    0,000000000e+00    0,000000000e+00    0,000000000e+00
      170000000    1,762674190e-02   -2,096931450e-02   -5,153701305e-01    6,061716080e-01    0,000000000e+00    0,000000000e+00    0,000000000e+00    0,000000000e+00
      184000000    2,205340192e-02   -3,556883335e-02   -9,841542691e-02    7,860364914e-01    0,000000000e+00    0,000000000e+00    0,000000000e+00    0,000000000e+00
      198000000    1,402955223e-02   -6,065291166e-02    3,461668193e-01    7,107099295e-01    0,000000000e+00    0,000000000e+00    0,000000000e+00    0,000000000e+00
      212000000   -1,763378456e-02   -7,915163785e-02    6,808090806e-01    4,063296914e-01    0,000000000e+00    0,000000000e+00    0,000000000e+00    0,000000000e+00
      226000000   -6,027945876e-02   -6,662736833e-02    7,957504988e-01   -3,565147892e-02    0,000000000e+00    0,000000000e+00    0,000000000e+00    0,000000000e+00
      240000000   -8,053492010e-02   -2,275862917e-02    6,412079334e-01   -4,715762138e-01    0,000000000e+00    0,000000000e+00    0,000000000e+00    0,000000000e+00
      254000000   -6,080157682e-02    1,978266612e-02    2,709137201e-01   -7,420310974e-01    0,000000000e+00    0,000000000e+00    0,000000000e+00    0,000000000e+00
      268000000   -2,097903006e-02    3,083445504e-02   -1,812978834e-01   -7,608184218e-01    0,000000000e+00    0,000000000e+00    0,000000000e+00    0,000000000e+00
      282000000    6,939202081e-03    1,377844531e-02   -5,632639527e-01   -5,324847102e-01    0,000000000e+00    0,000000000e+00    0,000000000e+00    0,000000000e+00
      296000000    1,239512675e-02   -6,252636202e-03   -7,603737116e-01   -1,343636364e-01    0,000000000e+00    0,000000000e+00    0,000000000e+00    0,000000000e+00
      310000000    1,353367791e-02   -1,455613505e-02   -7,090072632e-01    3,034382761e-01    0,000000000e+00    0,000000000e+00    0,000000000e+00    0,000000000e+00
      324000000    2,240446769e-02   -2,488153428e-02   -4,213809669e-01    6,390463710e-01    0,000000000e+00    0,000000000e+00    0,000000000e+00    0,000000000e+00
      338000000    2,818497829e-02   -5,064288527e-02   -4,930331372e-03    7,586414814e-01    0,000000000e+00    0,000000000e+00    0,000000000e+00    0,000000000e+00
      352000000    1,011452544e-02   -8,289422840e-02    4,111947715e-01    6,353414059e-01    0,000000000e+00    0,000000000e+00    0,000000000e+00    0,000000000e+00
      366000000   -3,191577643e-02   -9,393876791e-02    6,931815147e-01    3,040184677e-01    0,000000000e+00    0,000000000e+00    0,000000000e+00    0,000000000e+00
      380000000   -6,764956564e-02   -6,870009750e-02    7,461133599e-01   -1,340066344e-01    0,000000000e+00    0,000000000e+00    0,000000000e+00    0,000000000e+00
      394000000   -6,876731664e-02   -3,055590019e-02    5,387844443e-01   -5,279431343e-01    0,000000000e+00    0,000000000e+00    0,000000000e+00    0,000000000e+00
      408000000   -4,283220693e-02   -1,561189443e-02    1,497813314e-01   -7,338880897e-01    0,000000000e+00    0,000000000e+00    0,000000000e+00    0,000000000e+00
      422000000   -2,625822462e-02   -3,106038459e-02   -2,783767879e-01   -6,894855499e-01    0,000000000e+00    0,000000000e+00    0,000000000e+00    0,000000000e+00
      436000000   -3,937550262e-02   -4,900475964e-02   -6,102230549e-01   -4,195830226e-01    0,000000000e+00    0,000000000e+00    0,000000000e+00    0,000000000e+00
      450000000   -6,448960304e-02   -3,896821290e-02   -7,371226549e-01   -7,653591689e-03    0,000000000e+00    0,000000000e+00    0,000000000e+00    0,000000000e+00
      464000000   -6,727494299e-02   -5,873153452e-03   -6,078261137e-01    4,065986574e-01    0,000000000e+00    0,000000000e+00    0,000000000e+00    0,000000000e+00
      478000000   -3,867299110e-02    1,625702716e-02   -2,681006193e-01    6,701159477e-01    0,000000000e+00    0,000000000e+00    0,000000000e+00    0,000000000e+00
      492000000   -5,627606995e-03    6,237364840e-03    1,517125070e-01    6,950780153e-01    0,000000000e+00    0,000000000e+00    0,000000000e+00    0,000000000e+00
      506000000    7,040439174e-03   -2,025518008e-02    5,084969997e-01    4,883011580e-01    0,000000000e+00    0,000000000e+00    0,000000000e+00    0,000000000e+00
      520000000    4,974163603e-04   -3,817240521e-02    6,887857914e-01    1,208419502e-01    0,000000000e+00    0,000000000e+00    0,000000000e+00    0,000000000e+00
      534000000   -2,953062765e-03   -4,563371465e-02    6,326487064e-01   -2,826052904e-01    0,000000000e+00    0,000000000e+00    0,000000000e+00    0,000000000e+00
      548000000    9,391009808e-04   -5,945114046e-02    3,607069552e-01   -5,797652602e-01    0,000000000e+00    0,000000000e+00    0,000000000e+00    0,000000000e+00
      562000000   -8,048883639e-03   -8,833263814e-02   -2,680927515e-02   -6,727081537e-01    0,000000000e+00    0,000000000e+00    0,000000000e+00    0,000000000e+00
      576000000   -4,542482644e-02   -1,099773645e-01   -4,005997777e-01   -5,380803347e-01    0,000000000e+00    0,000000000e+00    0,000000000e+00    0,000000000e+00
      590000000   -9,490390867e-02   -9,331674874e-02   -6,388885975e-01   -2,194148749e-01    0,000000000e+00    0,000000000e+00    0,000000000e+00    0,000000000e+00
      604000000   -1,110424995e-01   -4,097814485e-02   -6,470834613e-01    1,992534995e-01    0,000000000e+00    0,000000000e+00    0,000000000e+00    0,000000000e+00
      618000000   -7,592201978e-02   -2,848654054e-03   -4,026495218e-01    5,355709195e-01    0,000000000e+00    0,000000000e+00    0,000000000e+00    0,000000000e+00
      632000000   -2,952975035e-02   -2,157181688e-02   -1,271381509e-02    6,546350718e-01    0,000000000e+00    0,000000000e+00    0,000000000e+00    0,000000000e+00
      646000000   -3,692663833e-02   -7,709694654e-02    3,661725223e-01    5,264909267e-01    0,000000000e+00    0,000000000e+00    0,000000000e+00    0,000000000e+00
      660000000   -1,113625690e-01   -9,953896701e-02    6,013819575e-01    1,937779635e-01    0,000000000e+00    0,000000000e+00    0,000000000e+00    0,000000000e+00
      674000000   -1,994482130e-01   -2,419385314e-02    5,651084185e-01   -2,401125133e-01    0,000000000e+00    0,000000000e+00    0,000000000e+00    0,000000000e+00
      688000000   -1,780889630e-01    1,447330713e-01    2,095526308e-01   -5,216201544e-01    0,000000000e+00    0,000000000e+00    0,000000000e+00    0,000000000e+00
      702000000    2,642466873e-02    2,478615791e-01   -2,030875087e-01   -4,043737054e-01    0,000000000e+00    0,000000000e+00    0,000000000e+00    0,000000000e+00
      716000000    2,640117705e-01    1,108735204e-01   -2,722956240e-01   -8,309581131e-02    0,000000000e+00    0,000000000e+00    0,000000000e+00    0,000000000e+00
      730000000    3,037205935e-01   -1,870571226e-01   -1,063996926e-01    3,183041140e-02    0,000000000e+00    0,000000000e+00    0,000000000e+00    0,000000000e+00
      744000000    9,287822247e-02   -4,276963472e-01   -4,220728576e-02   -6,591533124e-02    0,000000000e+00    0,000000000e+00    0,000000000e+00    0,000000000e+00
      758000000   -2,593420744e-01   -4,299567640e-01   -1,762295067e-01   -1,255295575e-01    0,000000000e+00    0,000000000e+00    0,000000000e+00    0,000000000e+00
      772000000   -4,855984747e-01   -1,183969080e-01   -3,366661966e-01    3,867042065e-02    0,000000000e+00    0,000000000e+00    0,000000000e+00    0,000000000e+00
      786000000   -3,407570422e-01    2,222256362e-01   -2,629580498e-01    3,169477284e-01    0,000000000e+00    0,000000000e+00    0,000000000e+00    0,000000000e+00
      800000000   -4,048544914e-02    2,759667635e-01    2,941741375e-03    4,374482334e-01    0,000000000e+00    0,000000000e+00    0,000000000e+00    0,000000000e+00
      814000000    1,442428678e-01    1,251621395e-01    2,645680904e-01    3,596090972e-01    0,000000000e+00    0,000000000e+00    0,000000000e+00    0,000000000e+00
      828000000    1,679900289e-01   -7,019535452e-02    4,327602684e-01    1,565540284e-01    0,000000000e+00    0,000000000e+00    0,000000000e+00    0,000000000e+00
      842000000    6,761755794e-02   -2,181299627e-01    4,673032761e-01   -1,201335788e-01    0,000000000e+00    0,000000000e+00    0,000000000e+00    0,000000000e+00
      856000000   -1,067537516e-01   -2,642519772e-01    3,198912740e-01   -3,945269287e-01    0,000000000e+00    0,000000000e+00    0,000000000e+00    0,000000000e+00
      870000000   -2,736724019e-01   -1,686174572e-01   -1,132280682e-03   -5,267005563e-01    0,000000000e+00    0,000000000e+00    0,000000000e+00    0,000000000e+00
      884000000   -3,197002411e-01    3,568626195e-02   -3,486652374e-01   -3,920751810e-01    0,000000000e+00    0,000000000e+00    0,000000000e+00    0,000000000e+00
      898000000   -1,923413426e-01    2,071341127e-01   -4,892924726e-01   -6,253051013e-02    0,000000000e+00    0,000000000e+00    0,000000000e+00    0,000000000e+00
      912000000    7,042069919e-03    2,198049724e-01   -4,086600244e-01    2,726296186e-01    0,000000000e+00    0,000000000e+00    0,000000000e+00    0,000000000e+00
      926000000    1,491190195e-01    1,123719811e-01   -1,714343876e-01    4,155105352e-01    0,000000000e+00    0,000000000e+00    0,000000000e+00    0,000000000e+00
      940000000    1,989739090e-01   -4,749950022e-02    6,268177181e-02    4,242696166e-01    0,000000000e+00    0,000000000e+00    0,000000000e+00    0,000000000e+00
      954000000    1,554993838e-01   -2,008111626e-01    2,607604861e-01    3,440243900e-01    0,000000000e+00    0,000000000e+00    0,000000000e+00    0,000000000e+00
      968000000    2,403934114e-02   -3,128535151e-01    4,099743366e-01    1,780735105e-01    0,000000000e+00    0,000000000e+00    0,000000000e+00    0,000000000e+00
      982000000   -1,584418118e-01   -3,317767382e-01    4,743416011e-01   -6,563765556e-02    0,000000000e+00    0,000000000e+00    0,000000000e+00    0,000000000e+00
      996000000   -3,257777393e-01   -2,109354138e-01    3,682674170e-01   -3,551005125e-01    0,000000000e+00    0,000000000e+00    0,000000000e+00    0,000000000e+00
     1010000000   -3,396680951e-01   -3,295524744e-03    4,315236211e-02   -5,217396617e-01    0,000000000e+00    0,000000000e+00    0,000000000e+00    0,000000000e+00
     1024000000   -2,065423280e-01    9,572012722e-02   -3,468348980e-01   -3,807320297e-01    0,000000000e+00    0,000000000e+00    0,000000000e+00    0,000000000e+00
     1038000000   -1,316436380e-01    9,966473095e-03   -4,820815921e-01    6,310297549e-02    0,000000000e+00    0,000000000e+00    0,000000000e+00    0,000000000e+00
     1052000000   -2,862847447e-01    5,518648401e-02   -9,643247724e-02    3,721952140e-01    0,000000000e+00    0,000000000e+00    0,000000000e+00    0,000000000e+00
     1066000000   -1,468721777e-01    2,996080220e-01    1,432194859e-01    1,330421567e-01    0,000000000e+00    0,000000000e+00    0,000000000e+00    0,000000000e+00
     1080000000    9,780528396e-02    2,536500692e-01    9,046478570e-02    2,361353487e-02    0,000000000e+00    0,000000000e+00    0,000000000e+00    0,000000000e+00
     1094000000    2,178438008e-01    8,863845468e-02    7,062151283e-02    8,295175619e-03    0,000000000e+00    0,000000000e+00    0,000000000e+00    0,000000000e+00
     1108000000    2,433585376e-01   -8,437258750e-02    8,295831829e-02   -1,231702045e-03    0,000000000e+00    0,000000000e+00    0,000000000e+00    0,000000000e+00
     1122000000    1,804500818e-01   -2,493785322e-01    1,039417982e-01   -2,762472630e-02    0,000000000e+00    0,000000000e+00    0,000000000e+00    0,000000000e+00
     1136000000    4,735642672e-02   -3,784513474e-01    1,284044236e-01   -7,439361513e-02    0,000000000e+00    0,000000000e+00    0,000000000e+00    0,000000000e+00
     1150000000   -1,535335481e-01   -4,251294732e-01    1,377846003e-01   -1,506998837e-01    0,000000000e+00    0,000000000e+00    0,000000000e+00    0,000000000e+00
     1164000000   -3,811619282e-01   -3,241933882e-01    9,572280198e-02   -2,777782083e-01    0,000000000e+00    0,000000000e+00    0,000000000e+00    0,000000000e+00
     1178000000   -4,676451683e-01   -8,901368827e-02   -1,074177474e-01   -4,072656333e-01    0,000000000e+00    0,000000000e+00    0,000000000e+00    0,000000000e+00
     1192000000   -3,752218187e-01    4,003204033e-02   -4,631037414e-01   -1,965004206e-01    0,000000000e+00    0,000000000e+00    0,000000000e+00    0,000000000e+00
     1206000000   -4,187839627e-01    1,330897361e-01   -2,776527703e-01    2,369116247e-01    0,000000000e+00    0,000000000e+00    0,000000000e+00    0,000000000e+00
     1220000000   -2,783082426e-01    3,279944956e-01   -2,340812935e-03    1,620316654e-01    0,000000000e+00    0,000000000e+00    0,000000000e+00    0,000000000e+00
     1234000000   -4,466405511e-02    3,444882929e-01    2,185831778e-02    5,087999627e-02    0,000000000e+00    0,000000000e+00    0,000000000e+00    0,000000000e+00
     1248000000    1,203450486e-01    2,529380023e-01    1,076138811e-03    3,370675072e-02    0,000000000e+00    0,000000000e+00    0,000000000e+00    0,000000000e+00
     1262000000    2,091076821e-01    1,009923667e-01    1,297468552e-03    3,427239135e-02    0,000000000e+00    0,000000000e+00    0,000000000e+00    0,000000000e+00
     1276000000    2,321693301e-01   -6,040091813e-02    2,573069558e-02    3,044307977e-02    0,000000000e+00    0,000000000e+00    0,000000000e+00    0,000000000e+00
     1290000000    1,937828958e-01   -2,159486264e-01    5,584651604e-02    2,069891803e-02    0,000000000e+00    0,000000000e+00    0,000000000e+00    0,000000000e+00
     1304000000    8,585331589e-02   -3,521984518e-01    8,102880418e-02    4,682994913e-03    0,000000000e+00    0,000000000e+00    0,000000000e+00    0,000000000e+00
     1318000000   -1,059741154e-01   -4,510044456e-01    8,617074788e-02   -1,774016023e-02    0,000000000e+00    0,000000000e+00    0,000000000e+00    0,000000000e+00
     1332000000   -3,546686769e-01   -4,354656041e-01    8,939465135e-02   -2,056736127e-02    0,000000000e+00    0,000000000e+00    0,000000000e+00    0,000000000e+00
     1346000000   -5,940451622e-01   -2,478988171e-01    1,015095636e-01   -8,731079288e-03    0,000000000e+00    0,000000000e+00    0,000000000e+00    0,000000000e+00
     1360000000   -6,512261033e-01    7,960508764e-02    1,400513351e-01   -4,111081362e-03    0,000000000e+00    0,000000000e+00    0,000000000e+00    0,000000000e+00
     1374000000   -4,907750189e-01    3,278044164e-01    1,705396771e-01   -4,950309917e-02    0,000000000e+00    0,000000000e+00    0,000000000e+00    0,000000000e+00
     1388000000   -2,529367208e-01    4,298410118e-01    1,563515067e-01   -7,621120661e-02    0,000000000e+00    0,000000000e+00    0,000000000e+00    0,000000000e+00
     1402000000   -4,888632894e-02    3,892054558e-01    1,358318180e-01   -1,018510312e-01    0,000000000e+00    0,000000000e+00    0,000000000e+00    0,000000000e+00
     1416000000    1,044306681e-01    2,850076556e-01    1,289571077e-01   -7,881903648e-02    0,000000000e+00    0,000000000e+00    0,000000000e+00    0,000000000e+00
     1430000000    1,905921996e-01    1,522820741e-01    1,277200878e-01   -4,180057347e-02    0,000000000e+00    0,000000000e+00    0,000000000e+00    0,000000000e+00
     1444000000    2,176019549e-01   -1,287400071e-02    1,322223395e-01   -2,266296744e-02    0,000000000e+00    0,000000000e+00    0,000000000e+00    0,000000000e+00
     1458000000    1,826110631e-01   -1,877505332e-01    1,499414444e-01    7,342061959e-03    0,000000000e+00    0,000000000e+00    0,000000000e+00    0,000000000e+00
     1472000000    7,737974823e-02   -3,527761102e-01    2,094723135e-01    6,385806948e-02    0,000000000e+00    0,000000000e+00    0,000000000e+00    0,000000000e+00
     1486000000   -1,475758255e-01   -4,737745523e-01    2,866759896e-01    9,316327423e-02    0,000000000e+00    0,000000000e+00    0,000000000e+00    0,000000000e+00
     1500000000   -4,419015348e-01   -4,782204032e-01    4,161547124e-01    4,505676404e-02    0,000000000e+00    0,000000000e+00    0,000000000e+00    0,000000000e+00
