! NanoVNA-App
! Date: 2025-09-25 16:03:11
! Start: 100MHz Stop: 1,5GHz Points: 101
! S-Parameter data: F S11 S21 S12 S22
# Hz S RI R 50
!     Frequency           S11_Real           S11_Imag           S21_Real           S21_Imag           S12_Real           S12_Imag           S22_Real           S22_Imag
      100000000   -2,830621786e-02   -2,871682635e-03    3,722684681e-01   -7,224434018e-01    0,000000000e+00    0,000000000e+00    0,000000000e+00    0,000000000e+00
      114000000   -1,576629654e-02    1,291773096e-02   -9,110739082e-02   -8,047386408e-01    0,000000000e+00    0,000000000e+00    0,000000000e+00    0,000000000e+00
      128000000    4,303317051e-03    1,197126415e-02   -5,160476565e-01   -6,188396811e-01    0,000000000e+00    0,000000000e+00    0,000000000e+00    0,000000000e+00
      142000000    1,546484698e-02   -1,695240149e-03   -7,675664425e-01   -2,341520488e-01    0,000000000e+00    0,000000000e+00    0,000000000e+00    0,000000000e+00
      156000000    1,625441201e-02   -1,272421610e-02   -7,634621263e-01    2,233171612e-01    0,000000000e+00    0,000000000e+00    0,000000000e+00    0,000000000e+00
      170000000    1,768442430e-02   -2,098513395e-02   -5,155265331e-01    6,063758135e-01    0,000000000e+00    0,000000000e+00    0,000000000e+00    0,000000000e+00
      184000000    2,199865878e-02   -3,552875295e-02   -9,825553000e-02    7,860299349e-01    0,000000000e+00    0,000000000e+00    0,000000000e+00    0,000000000e+00
      198000000    1,398060285e-02   -6,057412922e-02    3,458500803e-01    7,108675241e-01    0,000000000e+00    0,000000000e+00    0,000000000e+00    0,000000000e+00
      212000000   -1,768174022e-02   -7,910808921e-02    6,808879375e-01    4,063200355e-01    0,000000000e+00    0,000000000e+00    0,000000000e+00    0,000000000e+00
      226000000   -6,024876237e-02   -6,665364653e-02    7,957803011e-01   -3,568287566e-02    0,000000000e+00    0,000000000e+00    0,000000000e+00    0,000000000e+00
      240000000   -8,054558188e-02   -2,276829444e-02    6,417170167e-01   -4,716091454e-01    0,000000000e+00    0,000000000e+00    0,000000000e+00    0,000000000e+00
      254000000   -6,079933047e-02    1,974418014e-02    2,712035477e-01   -7,419355512e-01    0,000000000e+00    0,000000000e+00    0,000000000e+00    0,000000000e+00
      268000000   -2,089530788e-02    3,084456362e-02   -1,814767271e-01   -7,608352304e-01    0,000000000e+00    0,000000000e+00    0,000000000e+00    0,000000000e+00
      282000000    6,916271523e-03    1,378847379e-02   -5,632632971e-01   -5,325177908e-01    0,000000000e+00    0,000000000e+00    0,000000000e+00    0,000000000e+00
      296000000    1,243202016e-02   -6,234334316e-03   -7,606580853e-01   -1,343454719e-01    0,000000000e+00    0,000000000e+00    0,000000000e+00    0,000000000e+00
      310000000    1,362039614e-02   -1,458406169e-02   -7,078092694e-01    3,043804765e-01    0,000000000e+00    0,000000000e+00    0,000000000e+00    0,000000000e+00
      324000000    2,271262556e-02   -2,458565682e-02   -4,206410646e-01    6,394186020e-01    0,000000000e+00    0,000000000e+00    0,000000000e+00    0,000000000e+00
      338000000    2,817570232e-02   -5,062107369e-02   -4,278584849e-03    7,596036792e-01    0,000000000e+00    0,000000000e+00    0,000000000e+00    0,000000000e+00
      352000000    9,912277572e-03   -8,282949775e-02    4,116492271e-01    6,357856393e-01    0,000000000e+00    0,000000000e+00    0,000000000e+00    0,000000000e+00
      366000000   -3,206424788e-02   -9,378217161e-02    6,932353377e-01    3,033974171e-01    0,000000000e+00    0,000000000e+00    0,000000000e+00    0,000000000e+00
      380000000   -6,789665669e-02   -6,856898963e-02    7,457937598e-01   -1,339726597e-01    0,000000000e+00    0,000000000e+00    0,000000000e+00    0,000000000e+00
      394000000   -6,856480986e-02   -3,034964576e-02    5,388287306e-01   -5,293704271e-01    0,000000000e+00    0,000000000e+00    0,000000000e+00    0,000000000e+00
      408000000   -4,255400226e-02   -1,568062603e-02    1,500224322e-01   -7,332592010e-01    0,000000000e+00    0,000000000e+00    0,000000000e+00    0,000000000e+00
      422000000   -2,613431402e-02   -3,127850592e-02   -2,800098658e-01   -6,898006201e-01    0,000000000e+00    0,000000000e+00    0,000000000e+00    0,000000000e+00
      436000000   -3,925114498e-02   -4,862286523e-02   -6,103450060e-01   -4,197984934e-01    0,000000000e+00    0,000000000e+00    0,000000000e+00    0,000000000e+00
      450000000   -6,450832635e-02   -3,932692856e-02   -7,370834947e-01   -7,620119490e-03    0,000000000e+00    0,000000000e+00    0,000000000e+00    0,000000000e+00
      464000000   -6,729160994e-02   -6,217983086e-03   -6,084180474e-01    4,066246450e-01    0,000000000e+00    0,000000000e+00    0,000000000e+00    0,000000000e+00
      478000000   -3,858411312e-02    1,617513597e-02   -2,675798535e-01    6,700920463e-01    0,000000000e+00    0,000000000e+00    0,000000000e+00    0,000000000e+00
      492000000   -5,219465122e-03    6,004938390e-03    1,508910507e-01    6,947756410e-01    0,000000000e+00    0,000000000e+00    0,000000000e+00    0,000000000e+00
      506000000    6,795484573e-03   -2,013175562e-02    5,077663660e-01    4,888342023e-01    0,000000000e+00    0,000000000e+00    0,000000000e+00    0,000000000e+00
      520000000    8,363733068e-04   -3,847239166e-02    6,897644401e-01    1,224707514e-01    0,000000000e+00    0,000000000e+00    0,000000000e+00    0,000000000e+00
      534000000   -3,211317817e-03   -4,550372064e-02    6,328597069e-01   -2,822940052e-01    0,000000000e+00    0,000000000e+00    0,000000000e+00    0,000000000e+00
      548000000    5,513994838e-04   -5,941342562e-02    3,595518172e-01   -5,789101720e-01    0,000000000e+00    0,000000000e+00    0,000000000e+00    0,000000000e+00
      562000000   -7,560847327e-03   -8,846579492e-02   -2,614125423e-02   -6,721889377e-01    0,000000000e+00    0,000000000e+00    0,000000000e+00    0,000000000e+00
      576000000   -4,553692788e-02   -1,098887250e-01   -4,013976157e-01   -5,392013788e-01    0,000000000e+00    0,000000000e+00    0,000000000e+00    0,000000000e+00
      590000000   -9,461042285e-02   -9,346267581e-02   -6,395499706e-01   -2,172409296e-01    0,000000000e+00    0,000000000e+00    0,000000000e+00    0,000000000e+00
      604000000   -1,116946414e-01   -4,170036316e-02   -6,476384401e-01    1,980794221e-01    0,000000000e+00    0,000000000e+00    0,000000000e+00    0,000000000e+00
      618000000   -7,573895156e-02   -1,881797449e-03   -4,013621509e-01    5,361270905e-01    0,000000000e+00    0,000000000e+00    0,000000000e+00    0,000000000e+00
      632000000   -3,032328188e-02   -2,094737254e-02   -1,090691704e-02    6,554437280e-01    0,000000000e+00    0,000000000e+00    0,000000000e+00    0,000000000e+00
      646000000   -3,586757556e-02   -7,654688507e-02    3,659034967e-01    5,278095603e-01    0,000000000e+00    0,000000000e+00    0,000000000e+00    0,000000000e+00
      660000000   -1,119872257e-01   -9,980185330e-02    6,016874909e-01    1,939816177e-01    0,000000000e+00    0,000000000e+00    0,000000000e+00    0,000000000e+00
      674000000   -1,995797306e-01   -2,442354150e-02    5,657997727e-01   -2,400158346e-01    0,000000000e+00    0,000000000e+00    0,000000000e+00    0,000000000e+00
      688000000   -1,781273931e-01    1,442310214e-01    2,104936838e-01   -5,220716000e-01    0,000000000e+00    0,000000000e+00    0,000000000e+00    0,000000000e+00
      702000000    2,434159070e-02    2,432594746e-01   -1,956347674e-01   -4,027834237e-01    0,000000000e+00    0,000000000e+00    0,000000000e+00    0,000000000e+00
      716000000    2,629101574e-01    1,120776758e-01   -2,745415270e-01   -8,443089575e-02    0,000000000e+00    0,000000000e+00    0,000000000e+00    0,000000000e+00
      730000000    3,043816090e-01   -1,856620610e-01   -1,087929457e-01    3,315415978e-02    0,000000000e+00    0,000000000e+00    0,000000000e+00    0,000000000e+00
      744000000    9,538690001e-02   -4,274218380e-01   -4,284153134e-02   -6,354450434e-02    0,000000000e+00    0,000000000e+00    0,000000000e+00    0,000000000e+00
      758000000   -2,587330639e-01   -4,315270185e-01   -1,740359515e-01   -1,250292212e-01    0,000000000e+00    0,000000000e+00    0,000000000e+00    0,000000000e+00
      772000000   -4,854554534e-01   -1,214533970e-01   -3,360411227e-01    3,727958724e-02    0,000000000e+00    0,000000000e+00    0,000000000e+00    0,000000000e+00
      786000000   -3,430797458e-01    2,227553278e-01   -2,631985545e-01    3,159725666e-01    0,000000000e+00    0,000000000e+00    0,000000000e+00    0,000000000e+00
      800000000   -4,177482426e-02    2,778293192e-01    2,690664493e-03    4,364661872e-01    0,000000000e+00    0,000000000e+00    0,000000000e+00    0,000000000e+00
      814000000    1,446587294e-01    1,261832565e-01    2,633990049e-01    3,591807783e-01    0,000000000e+00    0,000000000e+00    0,000000000e+00    0,000000000e+00
      828000000    1,684142351e-01   -6,981445849e-02    4,327318072e-01    1,566153914e-01    0,000000000e+00    0,000000000e+00    0,000000000e+00    0,000000000e+00
      842000000    6,712167710e-02   -2,181565017e-01    4,663062692e-01   -1,196033806e-01    0,000000000e+00    0,000000000e+00    0,000000000e+00    0,000000000e+00
      856000000   -1,060826927e-01   -2,637902498e-01    3,201962113e-01   -3,940243423e-01    0,000000000e+00    0,000000000e+00    0,000000000e+00    0,000000000e+00
      870000000   -2,752556801e-01   -1,689990461e-01   -2,668547211e-03   -5,266650915e-01    0,000000000e+00    0,000000000e+00    0,000000000e+00    0,000000000e+00
      884000000   -3,206437528e-01    3,637272120e-02   -3,485357165e-01   -3,916453719e-01    0,000000000e+00    0,000000000e+00    0,000000000e+00    0,000000000e+00
      898000000   -1,933859736e-01    2,066543251e-01   -4,893169701e-01   -6,248063594e-02    0,000000000e+00    0,000000000e+00    0,000000000e+00    0,000000000e+00
      912000000    6,802310701e-03    2,196475863e-01   -4,031105340e-01    2,643124759e-01    0,000000000e+00    0,000000000e+00    0,000000000e+00    0,000000000e+00
      926000000    1,518450975e-01    1,122335196e-01   -1,680311561e-01    4,142858386e-01    0,000000000e+00    0,000000000e+00    0,000000000e+00    0,000000000e+00
      940000000    1,968010068e-01   -4,577939585e-02    6,259721518e-02    4,236268699e-01    0,000000000e+00    0,000000000e+00    0,000000000e+00    0,000000000e+00
      954000000    1,553986818e-01   -2,016482055e-01    2,621873319e-01    3,413856030e-01    0,000000000e+00    0,000000000e+00    0,000000000e+00    0,000000000e+00
      968000000    2,293950878e-02   -3,146723807e-01    4,115049839e-01    1,801719517e-01    0,000000000e+00    0,000000000e+00    0,000000000e+00    0,000000000e+00
      982000000   -1,598102450e-01   -3,307471275e-01    4,752895832e-01   -6,621593982e-02    0,000000000e+00    0,000000000e+00    0,000000000e+00    0,000000000e+00
      996000000   -3,275590539e-01   -2,125824988e-01    3,697409332e-01   -3,544349074e-01    0,000000000e+00    0,000000000e+00    0,000000000e+00    0,000000000e+00
     1010000000   -3,426580131e-01   -3,889248939e-03    4,178656265e-02   -5,246312022e-01    0,000000000e+00    0,000000000e+00    0,000000000e+00    0,000000000e+00
     1024000000   -2,090736032e-01    9,270181507e-02   -3,475483954e-01   -3,801553547e-01    0,000000000e+00    0,000000000e+00    0,000000000e+00    0,000000000e+00
     1038000000   -1,368706375e-01    7,482957095e-03   -4,821377993e-01    6,333448738e-02    0,000000000e+00    0,000000000e+00    0,000000000e+00    0,000000000e+00
     1052000000   -2,887056172e-01    5,587257072e-02   -9,449694306e-02    3,732457459e-01    0,000000000e+00    0,000000000e+00    0,000000000e+00    0,000000000e+00
     1066000000   -1,508983970e-01    2,958192825e-01    1,447383761e-01    1,313768029e-01    0,000000000e+00    0,000000000e+00    0,000000000e+00    0,000000000e+00
     1080000000    1,031708494e-01    2,502429485e-01    8,821027726e-02    2,239006199e-02    0,000000000e+00    0,000000000e+00    0,000000000e+00    0,000000000e+00
     1094000000    2,231385708e-01    9,220785648e-02    6,959251314e-02    9,417750873e-03    0,000000000e+00    0,000000000e+00    0,000000000e+00    0,000000000e+00
     1108000000    2,410925180e-01   -8,609643579e-02    8,152335882e-02   -2,136886760e-04    0,000000000e+00    0,000000000e+00    0,000000000e+00    0,000000000e+00
     1122000000    1,821641624e-01   -2,530456185e-01    1,041800603e-01   -2,677189000e-02    0,000000000e+00    0,000000000e+00    0,000000000e+00    0,000000000e+00
     1136000000    4,801388830e-02   -3,758312762e-01    1,283103228e-01   -7,364987582e-02    0,000000000e+00    0,000000000e+00    0,000000000e+00    0,000000000e+00
     1150000000   -1,560249776e-01   -4,208331406e-01    1,379758567e-01   -1,478278190e-01    0,000000000e+00    0,000000000e+00    0,000000000e+00    0,000000000e+00
     1164000000   -3,814307749e-01   -3,240568042e-01    1,006654650e-01   -2,742685080e-01    0,000000000e+00    0,000000000e+00    0,000000000e+00    0,000000000e+00
     1178000000   -4,613581002e-01   -8,540654182e-02   -1,030840650e-01   -4,050518870e-01    0,000000000e+00    0,000000000e+00    0,000000000e+00    0,000000000e+00
     1192000000   -3,709264100e-01    4,192549735e-02   -4,646378756e-01   -1,958430260e-01    0,000000000e+00    0,000000000e+00    0,000000000e+00    0,000000000e+00
     1206000000   -4,172043800e-01    1,358039826e-01   -2,765604556e-01    2,354878187e-01    0,000000000e+00    0,000000000e+00    0,000000000e+00    0,000000000e+00
     1220000000   -2,789486647e-01    3,315202296e-01   -5,752411671e-03    1,623568684e-01    0,000000000e+00    0,000000000e+00    0,000000000e+00    0,000000000e+00
     1234000000   -4,693563282e-02    3,481363654e-01    2,293707803e-02    5,335586891e-02    0,000000000e+00    0,000000000e+00    0,000000000e+00    0,000000000e+00
     1248000000    1,192735806e-01    2,509315610e-01    3,388059326e-03    2,252748422e-02    0,000000000e+00    0,000000000e+00    0,000000000e+00    0,000000000e+00
     1262000000    2,101026475e-01    1,026129872e-01   -5,748265539e-04    3,168430924e-02    0,000000000e+00    0,000000000e+00    0,000000000e+00    0,000000000e+00
     1276000000    2,325408459e-01   -5,778015405e-02    2,367082238e-02    3,110305779e-02    0,000000000e+00    0,000000000e+00    0,000000000e+00    0,000000000e+00
     1290000000    1,944003403e-01   -2,127296925e-01    5,580638722e-02    2,283821627e-02    0,000000000e+00    0,000000000e+00    0,000000000e+00    0,000000000e+00
     1304000000    8,306332678e-02   -3,587934971e-01    7,160523534e-02    4,894961137e-03    0,000000000e+00    0,000000000e+00    0,000000000e+00    0,000000000e+00
     1318000000   -1,032289192e-01   -4,500408173e-01    8,632130176e-02   -5,851593334e-03    0,000000000e+00    0,000000000e+00    0,000000000e+00    0,000000000e+00
     1332000000   -3,642446399e-01   -4,310779274e-01    8,651752770e-02   -5,300880410e-03    0,000000000e+00    0,000000000e+00    0,000000000e+00    0,000000000e+00
     1346000000   -5,873003006e-01   -2,496727705e-01    1,100034416e-01   -9,290748276e-03    0,000000000e+00    0,000000000e+00    0,000000000e+00    0,000000000e+00
     1360000000   -6,518051028e-01    7,367616892e-02    1,362103075e-01   -2,447666042e-02    0,000000000e+00    0,000000000e+00    0,000000000e+00    0,000000000e+00
     1374000000   -4,914634228e-01    3,359970152e-01    1,731350124e-01   -4,338242859e-02    0,000000000e+00    0,000000000e+00    0,000000000e+00    0,000000000e+00
     1388000000   -2,527818978e-01    4,294517338e-01    1,547875255e-01   -7,840457559e-02    0,000000000e+00    0,000000000e+00    0,000000000e+00    0,000000000e+00
     1402000000   -4,039759189e-02    3,897461891e-01    1,468437016e-01   -9,087708592e-02    0,000000000e+00    0,000000000e+00    0,000000000e+00    0,000000000e+00
     1416000000    1,013710275e-01    2,820450068e-01    1,239510328e-01   -9,358358383e-02    0,000000000e+00    0,000000000e+00    0,000000000e+00    0,000000000e+00
     1430000000    1,936754435e-01    1,528565139e-01    1,370877624e-01   -4,318301752e-02    0,000000000e+00    0,000000000e+00    0,000000000e+00    0,000000000e+00
     1444000000    2,157542855e-01   -7,463465445e-03    1,251106709e-01   -1,749049313e-02    0,000000000e+00    0,000000000e+00    0,000000000e+00    0,000000000e+00
     1458000000    1,816668212e-01   -1,827244014e-01    1,263600737e-01    2,208703570e-02    0,000000000e+00    0,000000000e+00    0,000000000e+00    0,000000000e+00
     1472000000    6,513138860e-02   -3,586033583e-01    1,843097061e-01    5,577120930e-02    0,000000000e+00    0,000000000e+00    0,000000000e+00    0,000000000e+00
     1486000000   -1,480417848e-01   -4,675853550e-01    2,897258401e-01    1,007554159e-01    0,000000000e+00    0,000000000e+00    0,000000000e+00    0,000000000e+00
     1500000000   -4,456621408e-01   -4,726078212e-01    3,869819939e-01    5,339111760e-02    0,000000000e+00    0,000000000e+00    0,000000000e+00    0,000000000e+00
