! NanoVNA-App
! Date: 2025-09-25 16:02:45
! Start: 100MHz Stop: 1,5GHz Points: 101
! S-Parameter data: F S11 S21 S12 S22
# Hz S RI R 50
!     Frequency           S11_Real           S11_Imag           S21_Real           S21_Imag           S12_Real           S12_Imag           S22_Real           S22_Imag
      100000000   -2,830779366e-02   -2,883421490e-03    3,722649217e-01   -7,224333286e-01    0,000000000e+00    0,000000000e+00    0,000000000e+00    0,000000000e+00
      114000000   -1,576402038e-02    1,290798839e-02   -9,112133086e-02   -8,048475981e-01    0,000000000e+00    0,000000000e+00    0,000000000e+00    0,000000000e+00
      128000000    4,311400931e-03    1,197808422e-02   -5,158270597e-01   -6,187092662e-01    0,000000000e+00    0,000000000e+00    0,000000000e+00    0,000000000e+00
      142000000    1,548210997e-02   -1,697587548e-03   -7,674733996e-01   -2,343208492e-01    0,000000000e+00    0,000000000e+00    0,000000000e+00    0,000000000e+00
      156000000    1,540612895e-02   -1,294091996e-02   -7,642666698e-01    2,207549214e-01    0,000000000e+00    0,000000000e+00    0,000000000e+00    0,000000000e+00
      170000000    1,767766476e-02   -2,096364275e-02   -5,152443051e-01    6,060369611e-01    0,000000000e+00    0,000000000e+00    0,000000000e+00    0,000000000e+00
      184000000    2,200716361e-02   -3,556947038e-02   -9,826578945e-02    7,861917615e-01    0,000000000e+00    0,000000000e+00    0,000000000e+00    0,000000000e+00
      198000000    1,402401738e-02   -6,061839685e-02    3,459607065e-01    7,108033895e-01    0,000000000e+00    0,000000000e+00    0,000000000e+00    0,000000000e+00
      212000000   -1,768309623e-02   -7,910264283e-02    6,808380485e-01    4,062385261e-01    0,000000000e+00    0,000000000e+00    0,000000000e+00    0,000000000e+00
      226000000   -6,034373492e-02   -6,659325957e-02    7,958397269e-01   -3,565902635e-02    0,000000000e+00    0,000000000e+00    0,000000000e+00    0,000000000e+00
      240000000   -8,051795512e-02   -2,268509567e-02    6,417088509e-01   -4,719777107e-01    0,000000000e+00    0,000000000e+00    0,000000000e+00    0,000000000e+00
      254000000   -6,083028764e-02    1,974704675e-02    2,712769806e-01   -7,423297167e-01    0,000000000e+00    0,000000000e+00    0,000000000e+00    0,000000000e+00
      268000000   -2,088413388e-02    3,092262149e-02   -1,814346164e-01   -7,609041333e-01    0,000000000e+00    0,000000000e+00    0,000000000e+00    0,000000000e+00
      282000000    6,944266614e-03    1,384074613e-02   -5,631734133e-01   -5,328800082e-01    0,000000000e+00    0,000000000e+00    0,000000000e+00    0,000000000e+00
      296000000    1,239695586e-02   -6,342463661e-03   -7,603334188e-01   -1,343250573e-01    0,000000000e+00    0,000000000e+00    0,000000000e+00    0,000000000e+00
      310000000    1,351036690e-02   -1,457669120e-02   -7,089813352e-01    3,053385913e-01    0,000000000e+00    0,000000000e+00    0,000000000e+00    0,000000000e+00
      324000000    2,257873304e-02   -2,455392294e-02   -4,207143784e-01    6,394724250e-01    0,000000000e+00    0,000000000e+00    0,000000000e+00    0,000000000e+00
      338000000    2,857276425e-02   -5,084108561e-02   -2,776505658e-03    7,580201030e-01    0,000000000e+00    0,000000000e+00    0,000000000e+00    0,000000000e+00
      352000000    1,018743962e-02   -8,273215592e-02    4,111384749e-01    6,357035041e-01    0,000000000e+00    0,000000000e+00    0,000000000e+00    0,000000000e+00
      366000000   -3,176403791e-02   -9,385004640e-02    6,936280727e-01    3,035224378e-01    0,000000000e+00    0,000000000e+00    0,000000000e+00    0,000000000e+00
      380000000   -6,747398525e-02   -6,870114058e-02    7,460761666e-01   -1,344654709e-01    0,000000000e+00    0,000000000e+00    0,000000000e+00    0,000000000e+00
      394000000   -6,863289326e-02   -3,075685166e-02    5,396271348e-01   -5,277264714e-01    0,000000000e+00    0,000000000e+00    0,000000000e+00    0,000000000e+00
      408000000   -4,276943952e-02   -1,548409648e-02    1,506102234e-01   -7,330572009e-01    0,000000000e+00    0,000000000e+00    0,000000000e+00    0,000000000e+00
      422000000   -2,615530603e-02   -3,098208643e-02   -2,791833878e-01   -6,889966130e-01    0,000000000e+00    0,000000000e+00    0,000000000e+00    0,000000000e+00
      436000000   -3,908862546e-02   -4,882238060e-02   -6,100846529e-01   -4,194870591e-01    0,000000000e+00    0,000000000e+00    0,000000000e+00    0,000000000e+00
      450000000   -6,454857439e-02   -3,904840350e-02   -7,369650006e-01   -7,375859655e-03    0,000000000e+00    0,000000000e+00    0,000000000e+00    0,000000000e+00
      464000000   -6,794239581e-02   -6,471389439e-03   -6,084522605e-01    4,063297510e-01    0,000000000e+00    0,000000000e+00    0,000000000e+00    0,000000000e+00
      478000000   -3,858923167e-02    1,631236821e-02   -2,684454918e-01    6,704244614e-01    0,000000000e+00    0,000000000e+00    0,000000000e+00    0,000000000e+00
      492000000   -5,319999065e-03    6,500062533e-03    1,513397694e-01    6,949473023e-01    0,000000000e+00    0,000000000e+00    0,000000000e+00    0,000000000e+00
      506000000    6,671487354e-03   -2,009801008e-02    5,076582432e-01    4,889421463e-01    0,000000000e+00    0,000000000e+00    0,000000000e+00    0,000000000e+00
      520000000    8,277083398e-04   -3,836372122e-02    6,901823878e-01    1,219968051e-01    0,000000000e+00    0,000000000e+00    0,000000000e+00    0,000000000e+00
      534000000   -3,287057392e-03   -4,515335336e-02    6,327761412e-01   -2,817809284e-01    0,000000000e+00    0,000000000e+00    0,000000000e+00    0,000000000e+00
      548000000    7,756188279e-04   -5,938648060e-02    3,604197800e-01   -5,798743963e-01    0,000000000e+00    0,000000000e+00    0,000000000e+00    0,000000000e+00
      562000000   -7,520155516e-03   -8,832039684e-02   -2,592587657e-02   -6,725600958e-01    0,000000000e+00    0,000000000e+00    0,000000000e+00    0,000000000e+00
      576000000   -4,568275437e-02   -1,101372242e-01   -4,009081423e-01   -5,383902788e-01    0,000000000e+00    0,000000000e+00    0,000000000e+00    0,000000000e+00
      590000000   -9,478580952e-02   -9,370543808e-02   -6,427736878e-01   -2,191409022e-01    0,000000000e+00    0,000000000e+00    0,000000000e+00    0,000000000e+00
      604000000   -1,115725711e-01   -4,095742479e-02   -6,475446820e-01    1,990398616e-01    0,000000000e+00    0,000000000e+00    0,000000000e+00    0,000000000e+00
      618000000   -7,635787874e-02   -2,496765926e-03   -4,031590819e-01    5,357373357e-01    0,000000000e+00    0,000000000e+00    0,000000000e+00    0,000000000e+00
      632000000   -3,032858111e-02   -2,138302661e-02   -1,273495425e-02    6,557732224e-01    0,000000000e+00    0,000000000e+00    0,000000000e+00    0,000000000e+00
      646000000   -3,668488562e-02   -7,601068914e-02    3,660991490e-01    5,275087357e-01    0,000000000e+00    0,000000000e+00    0,000000000e+00    0,000000000e+00
      660000000   -1,119887531e-01   -9,953611344e-02    6,017144322e-01    1,933622211e-01    0,000000000e+00    0,000000000e+00    0,000000000e+00    0,000000000e+00
      674000000   -1,996871680e-01   -2,446457185e-02    5,663747787e-01   -2,395785302e-01    0,000000000e+00    0,000000000e+00    0,000000000e+00    0,000000000e+00
      688000000   -1,783233285e-01    1,447329223e-01    2,096489817e-01   -5,228956342e-01    0,000000000e+00    0,000000000e+00    0,000000000e+00    0,000000000e+00
      702000000    2,326506376e-02    2,465288639e-01   -1,941335052e-01   -4,123868048e-01    0,000000000e+00    0,000000000e+00    0,000000000e+00    0,000000000e+00
      716000000    2,625867724e-01    1,114066318e-01   -2,741022110e-01   -8,455667645e-02    0,000000000e+00    0,000000000e+00    0,000000000e+00    0,000000000e+00
      730000000    3,034840524e-01   -1,857649088e-01   -1,081842259e-01    3,337130696e-02    0,000000000e+00    0,000000000e+00    0,000000000e+00    0,000000000e+00
      744000000    9,533899277e-02   -4,278084934e-01   -4,224480689e-02   -6,359257549e-02    0,000000000e+00    0,000000000e+00    0,000000000e+00    0,000000000e+00
      758000000   -2,594271302e-01   -4,302835763e-01   -1,740804762e-01   -1,253718734e-01    0,000000000e+00    0,000000000e+00    0,000000000e+00    0,000000000e+00
      772000000   -4,867418408e-01   -1,203561202e-01   -3,357614279e-01    3,749089688e-02    0,000000000e+00    0,000000000e+00    0,000000000e+00    0,000000000e+00
      786000000   -3,419952691e-01    2,228830755e-01   -2,628921270e-01    3,153846562e-01    0,000000000e+00    0,000000000e+00    0,000000000e+00    0,000000000e+00
      800000000   -4,092584178e-02    2,777228653e-01    2,861563116e-03    4,365621507e-01    0,000000000e+00    0,000000000e+00    0,000000000e+00    0,000000000e+00
      814000000    1,448728293e-01    1,257068515e-01    2,636376917e-01    3,594639599e-01    0,000000000e+00    0,000000000e+00    0,000000000e+00    0,000000000e+00
      828000000    1,683345288e-01   -6,971965730e-02    4,324165285e-01    1,568554789e-01    0,000000000e+00    0,000000000e+00    0,000000000e+00    0,000000000e+00
      842000000    6,742673367e-02   -2,188391984e-01    4,661129713e-01   -1,198160648e-01    0,000000000e+00    0,000000000e+00    0,000000000e+00    0,000000000e+00
      856000000   -1,067338809e-01   -2,635760903e-01    3,199605346e-01   -3,938180506e-01    0,000000000e+00    0,000000000e+00    0,000000000e+00    0,000000000e+00
      870000000   -2,742831409e-01   -1,689874083e-01   -1,491141855e-03   -5,268203020e-01    0,000000000e+00    0,000000000e+00    0,000000000e+00    0,000000000e+00
      884000000   -3,202837408e-01    3,584625944e-02   -3,475840092e-01   -3,916806281e-01    0,000000000e+00    0,000000000e+00    0,000000000e+00    0,000000000e+00
      898000000   -1,924929023e-01    2,073020935e-01   -4,886728823e-01   -6,210890040e-02    0,000000000e+00    0,000000000e+00    0,000000000e+00    0,000000000e+00
      912000000    6,209537853e-03    2,202159464e-01   -4,051449895e-01    2,805561423e-01    0,000000000e+00    0,000000000e+00    0,000000000e+00    0,000000000e+00
      926000000    1,495845467e-01    1,137325093e-01   -1,699305624e-01    4,169130027e-01    0,000000000e+00    0,000000000e+00    0,000000000e+00    0,000000000e+00
      940000000    2,007857114e-01   -4,563819617e-02    6,494304538e-02    4,240847230e-01    0,000000000e+00    0,000000000e+00    0,000000000e+00    0,000000000e+00
      954000000    1,514675915e-01   -2,043002993e-01    2,607128024e-01    3,404886425e-01    0,000000000e+00    0,000000000e+00    0,000000000e+00    0,000000000e+00
      968000000    2,281008475e-02   -3,162933886e-01    4,107320905e-01    1,785392165e-01    0,000000000e+00    0,000000000e+00    0,000000000e+00    0,000000000e+00
      982000000   -1,626703292e-01   -3,331265748e-01    4,738699794e-01   -6,497082114e-02    0,000000000e+00    0,000000000e+00    0,000000000e+00    0,000000000e+00
      996000000   -3,247322142e-01   -2,069518417e-01    3,693486452e-01   -3,535816073e-01    0,000000000e+00    0,000000000e+00    0,000000000e+00    0,000000000e+00
     1010000000   -3,407455683e-01   -4,973663948e-03    4,382694885e-02   -5,229390860e-01    0,000000000e+00    0,000000000e+00    0,000000000e+00    0,000000000e+00
     1024000000   -2,043199241e-01    9,570407122e-02   -3,441610932e-01   -3,807038069e-01    0,000000000e+00    0,000000000e+00    0,000000000e+00    0,000000000e+00
     1038000000   -1,363713592e-01    1,280401833e-02   -4,839550257e-01    6,341721117e-02    0,000000000e+00    0,000000000e+00    0,000000000e+00    0,000000000e+00
     1052000000   -2,838298976e-01    5,190589279e-02   -9,612604976e-02    3,718829751e-01    0,000000000e+00    0,000000000e+00    0,000000000e+00    0,000000000e+00
     1066000000   -1,526122242e-01    2,913246155e-01    1,447945982e-01    1,357013732e-01    0,000000000e+00    0,000000000e+00    0,000000000e+00    0,000000000e+00
     1080000000    1,008489728e-01    2,527467012e-01    8,968812227e-02    2,222440206e-02    0,000000000e+00    0,000000000e+00    0,000000000e+00    0,000000000e+00
     1094000000    2,186799198e-01    9,115863591e-02    6,903532147e-02    9,234867990e-03    0,000000000e+00    0,000000000e+00    0,000000000e+00    0,000000000e+00
     1108000000    2,452400029e-01   -8,735308796e-02    8,062549680e-02   -2,690221881e-03    0,000000000e+00    0,000000000e+00    0,000000000e+00    0,000000000e+00
     1122000000    1,818771511e-01   -2,517978847e-01    1,035499871e-01   -2,721608803e-02    0,000000000e+00    0,000000000e+00    0,000000000e+00    0,000000000e+00
     1136000000    5,089402944e-02   -3,748380244e-01    1,271592826e-01   -7,210946083e-02    0,000000000e+00    0,000000000e+00    0,000000000e+00    0,000000000e+00
     1150000000   -1,600783467e-01   -4,211431444e-01    1,370638311e-01   -1,494671404e-01    0,000000000e+00    0,000000000e+00    0,000000000e+00    0,000000000e+00
     1164000000   -3,770776689e-01   -3,239208162e-01    1,005193964e-01   -2,767233253e-01    0,000000000e+00    0,000000000e+00    0,000000000e+00    0,000000000e+00
     1178000000   -4,648317993e-01   -8,320679516e-02   -1,049912572e-01   -4,038638771e-01    0,000000000e+00    0,000000000e+00    0,000000000e+00    0,000000000e+00
     1192000000   -3,752363920e-01    4,094000533e-02   -4,638552964e-01   -1,927365512e-01    0,000000000e+00    0,000000000e+00    0,000000000e+00    0,000000000e+00
     1206000000   -4,111974239e-01    1,324628443e-01   -2,729475200e-01    2,353831679e-01    0,000000000e+00    0,000000000e+00    0,000000000e+00    0,000000000e+00
     1220000000   -2,799745202e-01    3,260604143e-01   -3,839127021e-03    1,595084369e-01    0,000000000e+00    0,000000000e+00    0,000000000e+00    0,000000000e+00
     1234000000   -4,427633435e-02    3,511604965e-01    2,461398207e-02    5,438133329e-02    0,000000000e+00    0,000000000e+00    0,000000000e+00    0,000000000e+00
     1248000000    1,199044883e-01    2,525893450e-01    4,424005747e-03    2,844407223e-02    0,000000000e+00    0,000000000e+00    0,000000000e+00    0,000000000e+00
     1262000000    2,157569230e-01    1,032934859e-01    5,707936827e-03    2,823415585e-02    0,000000000e+00    0,000000000e+00    0,000000000e+00    0,000000000e+00
     1276000000    2,378028333e-01   -5,718700215e-02    3,154765069e-02    4,002446309e-02    0,000000000e+00    0,000000000e+00    0,000000000e+00    0,000000000e+00
     1290000000    1,938452125e-01   -2,166225910e-01    5,666065216e-02    2,323415317e-02    0,000000000e+00    0,000000000e+00    0,000000000e+00    0,000000000e+00
     1304000000    8,957476169e-02   -3,584476113e-01    8,125729114e-02    3,116025822e-03    0,000000000e+00    0,000000000e+00    0,000000000e+00    0,000000000e+00
     1318000000   -1,060330272e-01   -4,491575062e-01    7,764711231e-02   -1,125636697e-02    0,000000000e+00    0,000000000e+00    0,000000000e+00    0,000000000e+00
     1332000000   -3,547163606e-01   -4,354285598e-01    9,290879965e-02   -1,999421790e-02    0,000000000e+00    0,000000000e+00    0,000000000e+00    0,000000000e+00
     1346000000   -5,902862549e-01   -2,580404580e-01    1,101011783e-01   -6,080232095e-03    0,000000000e+00    0,000000000e+00    0,000000000e+00    0,000000000e+00
     1360000000   -6,508638859e-01    7,167532295e-02    1,433278620e-01   -1,684266143e-02    0,000000000e+00    0,000000000e+00    0,000000000e+00    0,000000000e+00
     1374000000   -4,912258685e-01    3,367700577e-01    1,672277749e-01   -4,800057039e-02    0,000000000e+00    0,000000000e+00    0,000000000e+00    0,000000000e+00
     1388000000   -2,507700920e-01    4,269357920e-01    1,596436501e-01   -8,441781253e-02    0,000000000e+00    0,000000000e+00    0,000000000e+00    0,000000000e+00
     1402000000   -4,741783068e-02    3,920481801e-01    1,375594139e-01   -8,842050284e-02    0,000000000e+00    0,000000000e+00    0,000000000e+00    0,000000000e+00
     1416000000    1,015032828e-01    2,886743546e-01    1,159411371e-01   -8,766222745e-02    0,000000000e+00    0,000000000e+00    0,000000000e+00    0,000000000e+00
     1430000000    1,890433431e-01    1,488907933e-01    1,136616543e-01   -3,423392400e-02    0,000000000e+00    0,000000000e+00    0,000000000e+00    0,000000000e+00
     1444000000    2,082025856e-01   -1,590972021e-02    1,081231683e-01   -2,738694474e-02    0,000000000e+00    0,000000000e+00    0,000000000e+00    0,000000000e+00
     1458000000    1,842921972e-01   -1,794812083e-01    1,462467760e-01    2,328274213e-02    0,000000000e+00    0,000000000e+00    0,000000000e+00    0,000000000e+00
     1472000000    6,416519731e-02   -3,491267860e-01    1,892410815e-01    6,475934386e-02    0,000000000e+00    0,000000000e+00    0,000000000e+00    0,000000000e+00
     1486000000   -1,359248757e-01   -4,744495749e-01    3,064558208e-01    9,925398976e-02    0,000000000e+00    0,000000000e+00    0,000000000e+00    0,000000000e+00
     1500000000   -4,396242201e-01   -4,723704159e-01    4,069465101e-01    4,808989912e-02    0,000000000e+00    0,000000000e+00    0,000000000e+00    0,000000000e+00
