! NanoVNA-App
! Date: 2025-09-25 15:57:12
! Start: 100MHz Stop: 1,5GHz Points: 101
! S-Parameter data: F S11 S21 S12 S22
# Hz S RI R 50
!     Frequency           S11_Real           S11_Imag           S21_Real           S21_Imag           S12_Real           S12_Imag           S22_Real           S22_Imag
      100000000   -2,822150849e-02   -2,836791333e-03    3,722824752e-01   -7,224773169e-01    0,000000000e+00    0,000000000e+00    0,000000000e+00    0,000000000e+00
      114000000   -1,561580412e-02    1,285975706e-02   -9,137843549e-02   -8,048228025e-01    0,000000000e+00    0,000000000e+00    0,000000000e+00    0,000000000e+00
      128000000    4,414910451e-03    1,186317392e-02   -5,159372687e-01   -6,185889244e-01    0,000000000e+00    0,000000000e+00    0,000000000e+00    0,000000000e+00
      142000000    1,548524294e-02   -1,827017055e-03   -7,674750090e-01   -2,341901511e-01    0,000000000e+00    0,000000000e+00    0,000000000e+00    0,000000000e+00
      156000000    1,730290987e-02   -1,369560417e-02   -7,667528391e-01    2,269120365e-01    0,000000000e+00    0,000000000e+00    0,000000000e+00    0,000000000e+00
      170000000    1,767687313e-02   -2,101030201e-02   -5,154718161e-01    6,062449813e-01    0,000000000e+00    0,000000000e+00    0,000000000e+00    0,000000000e+00
      184000000    2,203609794e-02   -3,555556759e-02   -9,841760993e-02    7,859401703e-01    0,000000000e+00    0,000000000e+00    0,000000000e+00    0,000000000e+00
      198000000    1,404845528e-02   -6,068090349e-02    3,460168839e-01    7,111189365e-01    0,000000000e+00    0,000000000e+00    0,000000000e+00    0,000000000e+00
      212000000   -1,771556586e-02   -7,921224087e-02    6,805993915e-01    4,063053131e-01    0,000000000e+00    0,000000000e+00    0,000000000e+00    0,000000000e+00
      226000000   -6,028873101e-02   -6,666400284e-02    7,957322598e-01   -3,559704870e-02    0,000000000e+00    0,000000000e+00    0,000000000e+00    0,000000000e+00
      240000000   -8,046184480e-02   -2,281715721e-02    6,415250897e-01   -4,715845287e-01    0,000000000e+00    0,000000000e+00    0,000000000e+00    0,000000000e+00
      254000000   -6,081508845e-02    1,977014914e-02    2,711509764e-01   -7,421255708e-01    0,000000000e+00    0,000000000e+00    0,000000000e+00    0,000000000e+00
      268000000   -2,097388729e-02    3,085879609e-02   -1,811700165e-01   -7,607577443e-01    0,000000000e+00    0,000000000e+00    0,000000000e+00    0,000000000e+00
      282000000    6,906235125e-03    1,374555845e-02   -5,630745888e-01   -5,325506330e-01    0,000000000e+00    0,000000000e+00    0,000000000e+00    0,000000000e+00
      296000000    1,245300565e-02   -6,271129008e-03   -7,604731321e-01   -1,342380792e-01    0,000000000e+00    0,000000000e+00    0,000000000e+00    0,000000000e+00
      310000000    1,347209979e-02   -1,450281683e-02   -7,088059187e-01    3,035600483e-01    0,000000000e+00    0,000000000e+00    0,000000000e+00    0,000000000e+00
      324000000    2,234825678e-02   -2,459986322e-02   -4,206600189e-01    6,401143074e-01    0,000000000e+00    0,000000000e+00    0,000000000e+00    0,000000000e+00
      338000000    2,847198956e-02   -5,059843510e-02   -2,286723116e-03    7,617567182e-01    0,000000000e+00    0,000000000e+00    0,000000000e+00    0,000000000e+00
      352000000    1,024720911e-02   -8,292326331e-02    4,099966586e-01    6,351115108e-01    0,000000000e+00    0,000000000e+00    0,000000000e+00    0,000000000e+00
      366000000   -3,166024387e-02   -9,385636449e-02    6,934096217e-01    3,040891290e-01    0,000000000e+00    0,000000000e+00    0,000000000e+00    0,000000000e+00
      380000000   -6,761931628e-02   -6,887979060e-02    7,455564737e-01   -1,347251385e-01    0,000000000e+00    0,000000000e+00    0,000000000e+00    0,000000000e+00
      394000000   -6,840251386e-02   -3,062101267e-02    5,386347771e-01   -5,278129578e-01    0,000000000e+00    0,000000000e+00    0,000000000e+00    0,000000000e+00
      408000000   -4,276676476e-02   -1,571208052e-02    1,497922242e-01   -7,349352837e-01    0,000000000e+00    0,000000000e+00    0,000000000e+00    0,000000000e+00
      422000000   -2,605833858e-02   -3,112653270e-02   -2,792229354e-01   -6,895363331e-01    0,000000000e+00    0,000000000e+00    0,000000000e+00    0,000000000e+00
      436000000   -3,928469867e-02   -4,909435660e-02   -6,096077561e-01   -4,196770489e-01    0,000000000e+00    0,000000000e+00    0,000000000e+00    0,000000000e+00
      450000000   -6,482265890e-02   -3,909477592e-02   -7,372233868e-01   -7,620609365e-03    0,000000000e+00    0,000000000e+00    0,000000000e+00    0,000000000e+00
      464000000   -6,796999276e-02   -6,273064762e-03   -6,077525020e-01    4,063406289e-01    0,000000000e+00    0,000000000e+00    0,000000000e+00    0,000000000e+00
      478000000   -3,859429806e-02    1,579373144e-02   -2,673732638e-01    6,695398092e-01    0,000000000e+00    0,000000000e+00    0,000000000e+00    0,000000000e+00
      492000000   -5,406836513e-03    6,325357594e-03    1,516772211e-01    6,949167848e-01    0,000000000e+00    0,000000000e+00    0,000000000e+00    0,000000000e+00
      506000000    6,688185036e-03   -2,003217116e-02    5,066670775e-01    4,882768989e-01    0,000000000e+00    0,000000000e+00    0,000000000e+00    0,000000000e+00
      520000000    3,577379393e-04   -3,895253688e-02    6,896644831e-01    1,207336858e-01    0,000000000e+00    0,000000000e+00    0,000000000e+00    0,000000000e+00
      534000000   -3,262049984e-03   -4,582028463e-02    6,320788264e-01   -2,819662690e-01    0,000000000e+00    0,000000000e+00    0,000000000e+00    0,000000000e+00
      548000000    5,508183967e-04   -5,928032100e-02    3,598524332e-01   -5,790806413e-01    0,000000000e+00    0,000000000e+00    0,000000000e+00    0,000000000e+00
      562000000   -8,222176693e-03   -8,857489377e-02   -2,722334862e-02   -6,725366116e-01    0,000000000e+00    0,000000000e+00    0,000000000e+00    0,000000000e+00
      576000000   -4,547733814e-02   -1,092499793e-01   -4,016408324e-01   -5,382528305e-01    0,000000000e+00    0,000000000e+00    0,000000000e+00    0,000000000e+00
      590000000   -9,489251673e-02   -9,374061972e-02   -6,392155290e-01   -2,180144191e-01    0,000000000e+00    0,000000000e+00    0,000000000e+00    0,000000000e+00
      604000000   -1,116330400e-01   -4,112972692e-02   -6,476432681e-01    1,980865449e-01    0,000000000e+00    0,000000000e+00    0,000000000e+00    0,000000000e+00
      618000000   -7,598622143e-02   -2,729102504e-03   -4,015303850e-01    5,360617638e-01    0,000000000e+00    0,000000000e+00    0,000000000e+00    0,000000000e+00
      632000000   -2,969457768e-02   -2,177370526e-02   -1,220918447e-02    6,551098824e-01    0,000000000e+00    0,000000000e+00    0,000000000e+00    0,000000000e+00
      646000000   -3,582410142e-02   -7,698204368e-02    3,662414551e-01    5,276955962e-01    0,000000000e+00    0,000000000e+00    0,000000000e+00    0,000000000e+00
      660000000   -1,120578945e-01   -1,000100821e-01    6,005744934e-01    1,927722991e-01    0,000000000e+00    0,000000000e+00    0,000000000e+00    0,000000000e+00
      674000000   -1,997771561e-01   -2,317013964e-02    5,654070973e-01   -2,399059683e-01    0,000000000e+00    0,000000000e+00    0,000000000e+00    0,000000000e+00
      688000000   -1,780906767e-01    1,441648006e-01    2,091858536e-01   -5,213823318e-01    0,000000000e+00    0,000000000e+00    0,000000000e+00    0,000000000e+00
      702000000    2,709816024e-02    2,462942004e-01   -2,003191113e-01   -4,021981061e-01    0,000000000e+00    0,000000000e+00    0,000000000e+00    0,000000000e+00
      716000000    2,643368244e-01    1,103163511e-01   -2,722261548e-01   -8,288260549e-02    0,000000000e+00    0,000000000e+00    0,000000000e+00    0,000000000e+00
      730000000    3,032032847e-01   -1,862474382e-01   -1,061327085e-01    3,135376051e-02    0,000000000e+00    0,000000000e+00    0,000000000e+00    0,000000000e+00
      744000000    9,374800324e-02   -4,272859693e-01   -4,209085554e-02   -6,623277068e-02    0,000000000e+00    0,000000000e+00    0,000000000e+00    0,000000000e+00
      758000000   -2,582671940e-01   -4,282036722e-01   -1,762814224e-01   -1,262850910e-01    0,000000000e+00    0,000000000e+00    0,000000000e+00    0,000000000e+00
      772000000   -4,849441051e-01   -1,178173199e-01   -3,373794854e-01    3,846368194e-02    0,000000000e+00    0,000000000e+00    0,000000000e+00    0,000000000e+00
      786000000   -3,421075940e-01    2,219968438e-01   -2,624442577e-01    3,171355128e-01    0,000000000e+00    0,000000000e+00    0,000000000e+00    0,000000000e+00
      800000000   -4,019458219e-02    2,764860094e-01    3,915651701e-03    4,369943738e-01    0,000000000e+00    0,000000000e+00    0,000000000e+00    0,000000000e+00
      814000000    1,442889571e-01    1,252203584e-01    2,639127076e-01    3,590765893e-01    0,000000000e+00    0,000000000e+00    0,000000000e+00    0,000000000e+00
      828000000    1,674849689e-01   -6,980709732e-02    4,329680204e-01    1,569700390e-01    0,000000000e+00    0,000000000e+00    0,000000000e+00    0,000000000e+00
      842000000    6,688163429e-02   -2,180664688e-01    4,666815102e-01   -1,200087219e-01    0,000000000e+00    0,000000000e+00    0,000000000e+00    0,000000000e+00
      856000000   -1,065682843e-01   -2,636117339e-01    3,184336722e-01   -3,941318989e-01    0,000000000e+00    0,000000000e+00    0,000000000e+00    0,000000000e+00
      870000000   -2,744430304e-01   -1,687955558e-01   -2,414360410e-03   -5,276646018e-01    0,000000000e+00    0,000000000e+00    0,000000000e+00    0,000000000e+00
      884000000   -3,198969364e-01    3,516247869e-02   -3,479573131e-01   -3,933666348e-01    0,000000000e+00    0,000000000e+00    0,000000000e+00    0,000000000e+00
      898000000   -1,915052682e-01    2,066444755e-01   -4,888530672e-01   -6,285742670e-02    0,000000000e+00    0,000000000e+00    0,000000000e+00    0,000000000e+00
      912000000    6,615614984e-03    2,193298489e-01   -4,049507380e-01    2,795385718e-01    0,000000000e+00    0,000000000e+00    0,000000000e+00    0,000000000e+00
      926000000    1,517738700e-01    1,124107093e-01   -1,676170528e-01    4,161009490e-01    0,000000000e+00    0,000000000e+00    0,000000000e+00    0,000000000e+00
      940000000    1,978294104e-01   -4,727629572e-02    6,183496118e-02    4,260479808e-01    0,000000000e+00    0,000000000e+00    0,000000000e+00    0,000000000e+00
      954000000    1,546673626e-01   -2,048892677e-01    2,617698908e-01    3,415350914e-01    0,000000000e+00    0,000000000e+00    0,000000000e+00    0,000000000e+00
      968000000    2,183970995e-02   -3,143022954e-01    4,109134972e-01    1,779976487e-01    0,000000000e+00    0,000000000e+00    0,000000000e+00    0,000000000e+00
      982000000   -1,612848341e-01   -3,285106719e-01    4,743026197e-01   -6,618563086e-02    0,000000000e+00    0,000000000e+00    0,000000000e+00    0,000000000e+00
      996000000   -3,243675530e-01   -2,109881639e-01    3,677893877e-01   -3,556503952e-01    0,000000000e+00    0,000000000e+00    0,000000000e+00    0,000000000e+00
     1010000000   -3,438721597e-01   -5,746991374e-03    4,275098443e-02   -5,230097771e-01    0,000000000e+00    0,000000000e+00    0,000000000e+00    0,000000000e+00
     1024000000   -2,095245123e-01    9,294123203e-02   -3,438006341e-01   -3,815452158e-01    0,000000000e+00    0,000000000e+00    0,000000000e+00    0,000000000e+00
     1038000000   -1,363292187e-01    6,500305142e-03   -4,815032780e-01    6,320244074e-02    0,000000000e+00    0,000000000e+00    0,000000000e+00    0,000000000e+00
     1052000000   -2,890163660e-01    5,636774749e-02   -9,436835349e-02    3,722703457e-01    0,000000000e+00    0,000000000e+00    0,000000000e+00    0,000000000e+00
     1066000000   -1,515872926e-01    2,947206199e-01    1,444052905e-01    1,355720013e-01    0,000000000e+00    0,000000000e+00    0,000000000e+00    0,000000000e+00
     1080000000    1,024587229e-01    2,501405180e-01    9,148664773e-02    2,290199324e-02    0,000000000e+00    0,000000000e+00    0,000000000e+00    0,000000000e+00
     1094000000    2,208417356e-01    9,244554490e-02    6,901717931e-02    8,900411427e-03    0,000000000e+00    0,000000000e+00    0,000000000e+00    0,000000000e+00
     1108000000    2,397713512e-01   -8,516220748e-02    8,196135610e-02   -6,297325017e-04    0,000000000e+00    0,000000000e+00    0,000000000e+00    0,000000000e+00
     1122000000    1,858862638e-01   -2,516204417e-01    1,024987772e-01   -2,785154432e-02    0,000000000e+00    0,000000000e+00    0,000000000e+00    0,000000000e+00
     1136000000    4,773162678e-02   -3,794838786e-01    1,253376156e-01   -7,640157640e-02    0,000000000e+00    0,000000000e+00    0,000000000e+00    0,000000000e+00
     1150000000   -1,530352533e-01   -4,213953316e-01    1,383175701e-01   -1,502127945e-01    0,000000000e+00    0,000000000e+00    0,000000000e+00    0,000000000e+00
     1164000000   -3,764080107e-01   -3,270775080e-01    9,785769880e-02   -2,788490653e-01    0,000000000e+00    0,000000000e+00    0,000000000e+00    0,000000000e+00
     1178000000   -4,596124887e-01   -8,952127397e-02   -1,093029827e-01   -4,061007202e-01    0,000000000e+00    0,000000000e+00    0,000000000e+00    0,000000000e+00
     1192000000   -3,720495701e-01    3,954539075e-02   -4,629429281e-01   -1,985164732e-01    0,000000000e+00    0,000000000e+00    0,000000000e+00    0,000000000e+00
     1206000000   -4,177711606e-01    1,307421178e-01   -2,762756050e-01    2,357861102e-01    0,000000000e+00    0,000000000e+00    0,000000000e+00    0,000000000e+00
     1220000000   -2,722388506e-01    3,344713449e-01   -3,389570164e-03    1,685445607e-01    0,000000000e+00    0,000000000e+00    0,000000000e+00    0,000000000e+00
     1234000000   -5,150000751e-02    3,524623513e-01    2,436231822e-02    5,530459806e-02    0,000000000e+00    0,000000000e+00    0,000000000e+00    0,000000000e+00
     1248000000    1,250159740e-01    2,483962476e-01    7,127036806e-03    2,320638485e-02    0,000000000e+00    0,000000000e+00    0,000000000e+00    0,000000000e+00
     1262000000    2,159311771e-01    1,040210575e-01    5,635829642e-03    3,358167037e-02    0,000000000e+00    0,000000000e+00    0,000000000e+00    0,000000000e+00
     1276000000    2,346243262e-01   -6,153573468e-02    2,622686513e-02    3,348649666e-02    0,000000000e+00    0,000000000e+00    0,000000000e+00    0,000000000e+00
     1290000000    1,957333237e-01   -2,165898681e-01    6,200878322e-02    2,716623992e-02    0,000000000e+00    0,000000000e+00    0,000000000e+00    0,000000000e+00
     1304000000    8,503168076e-02   -3,538386822e-01    7,517608255e-02   -3,379594709e-04    0,000000000e+00    0,000000000e+00    0,000000000e+00    0,000000000e+00
     1318000000   -9,926532954e-02   -4,496758580e-01    8,459617198e-02   -1,320719905e-02    0,000000000e+00    0,000000000e+00    0,000000000e+00    0,000000000e+00
     1332000000   -3,583754301e-01   -4,345277846e-01    8,533429354e-02   -2,012559772e-02    0,000000000e+00    0,000000000e+00    0,000000000e+00    0,000000000e+00
     1346000000   -5,846085548e-01   -2,481804341e-01    1,120196879e-01   -5,607896950e-03    0,000000000e+00    0,000000000e+00    0,000000000e+00    0,000000000e+00
     1360000000   -6,553006768e-01    6,824216247e-02    1,393361986e-01   -2,347247489e-02    0,000000000e+00    0,000000000e+00    0,000000000e+00    0,000000000e+00
     1374000000   -4,893160760e-01    3,347410858e-01    1,694892645e-01   -6,052576751e-02    0,000000000e+00    0,000000000e+00    0,000000000e+00    0,000000000e+00
     1388000000   -2,555689514e-01    4,249480665e-01    1,609076411e-01   -8,973786980e-02    0,000000000e+00    0,000000000e+00    0,000000000e+00    0,000000000e+00
     1402000000   -4,051178321e-02    3,867526054e-01    1,446407586e-01   -9,829647839e-02    0,000000000e+00    0,000000000e+00    0,000000000e+00    0,000000000e+00
     1416000000    9,765575826e-02    2,869289517e-01    1,193507835e-01   -8,466979116e-02    0,000000000e+00    0,000000000e+00    0,000000000e+00    0,000000000e+00
     1430000000    1,866967231e-01    1,501712948e-01    1,095508486e-01   -6,771755964e-02    0,000000000e+00    0,000000000e+00    0,000000000e+00    0,000000000e+00
     1444000000    2,146794796e-01   -7,330896333e-03    1,212368533e-01   -2,052173577e-02    0,000000000e+00    0,000000000e+00    0,000000000e+00    0,000000000e+00
     1458000000    1,794032902e-01   -1,842554659e-01    1,571485996e-01    1,910004579e-02    0,000000000e+00    0,000000000e+00    0,000000000e+00    0,000000000e+00
     1472000000    6,961154193e-02   -3,467695117e-01    1,979529262e-01    7,245352864e-02    0,000000000e+00    0,000000000e+00    0,000000000e+00    0,000000000e+00
     1486000000   -1,449233890e-01   -4,682207108e-01    2,784768045e-01    9,932705015e-02    0,000000000e+00    0,000000000e+00    0,000000000e+00    0,000000000e+00
     1500000000   -4,520520568e-01   -4,754499197e-01    4,002995491e-01    4,439194128e-02    0,000000000e+00    0,000000000e+00    0,000000000e+00    0,000000000e+00
