! NanoVNA-App
! Date: 2025-09-25 15:59:41
! Start: 100MHz Stop: 1,5GHz Points: 101
! S-Parameter data: F S11 S21 S12 S22
# Hz S RI R 50
!     Frequency           S11_Real           S11_Imag           S21_Real           S21_Imag           S12_Real           S12_Imag           S22_Real           S22_Imag
      100000000   -2,825090848e-02   -2,872099867e-03    3,722569644e-01   -7,223808765e-01    0,000000000e+00    0,000000000e+00    0,000000000e+00    0,000000000e+00
      114000000   -1,572064497e-02    1,289217174e-02   -9,131997824e-02   -8,047375083e-01    0,000000000e+00    0,000000000e+00    0,000000000e+00    0,000000000e+00
      128000000    4,335828591e-03    1,199448109e-02   -5,158737302e-01   -6,187749505e-01    0,000000000e+00    0,000000000e+00    0,000000000e+00    0,000000000e+00
      142000000    1,548916753e-02   -1,780508435e-03   -7,673699856e-01   -2,341134697e-01    0,000000000e+00    0,000000000e+00    0,000000000e+00    0,000000000e+00
      156000000    1,577330567e-02   -1,287159603e-02   -7,635080814e-01    2,218105048e-01    0,000000000e+00    0,000000000e+00    0,000000000e+00    0,000000000e+00
      170000000    1,771116070e-02   -2,098912746e-02   -5,152825117e-01    6,059685946e-01    0,000000000e+00    0,000000000e+00    0,000000000e+00    0,000000000e+00
      184000000    2,199034765e-02   -3,559912741e-02   -9,807214141e-02    7,861593366e-01    0,000000000e+00    0,000000000e+00    0,000000000e+00    0,000000000e+00
      198000000    1,405406650e-02   -6,064689904e-02    3,459926248e-01    7,106560469e-01    0,000000000e+00    0,000000000e+00    0,000000000e+00    0,000000000e+00
      212000000   -1,769117825e-02   -7,914292067e-02    6,807527542e-01    4,061573744e-01    0,000000000e+00    0,000000000e+00    0,000000000e+00    0,000000000e+00
      226000000   -6,033748761e-02   -6,663967669e-02    7,957617044e-01   -3,568963706e-02    0,000000000e+00    0,000000000e+00    0,000000000e+00    0,000000000e+00
      240000000   -8,055904508e-02   -2,280865610e-02    6,416655779e-01   -4,713530540e-01    0,000000000e+00    0,000000000e+00    0,000000000e+00    0,000000000e+00
      254000000   -6,081245467e-02    1,978465542e-02    2,709015608e-01   -7,420768142e-01    0,000000000e+00    0,000000000e+00    0,000000000e+00    0,000000000e+00
      268000000   -2,099837549e-02    3,089857660e-02   -1,809799969e-01   -7,609273791e-01    0,000000000e+00    0,000000000e+00    0,000000000e+00    0,000000000e+00
      282000000    6,952723954e-03    1,372094452e-02   -5,629084110e-01   -5,323722959e-01    0,000000000e+00    0,000000000e+00    0,000000000e+00    0,000000000e+00
      296000000    1,243093703e-02   -6,305324379e-03   -7,606136203e-01   -1,343745291e-01    0,000000000e+00    0,000000000e+00    0,000000000e+00    0,000000000e+00
      310000000    1,372032985e-02   -1,429595985e-02   -7,087632418e-01    3,034688830e-01    0,000000000e+00    0,000000000e+00    0,000000000e+00    0,000000000e+00
      324000000    2,260060608e-02   -2,458153851e-02   -4,205919802e-01    6,396207809e-01    0,000000000e+00    0,000000000e+00    0,000000000e+00    0,000000000e+00
      338000000    2,846903540e-02   -5,065282062e-02   -2,575051738e-03    7,613504529e-01    0,000000000e+00    0,000000000e+00    0,000000000e+00    0,000000000e+00
      352000000    1,001711749e-02   -8,286193758e-02    4,115752876e-01    6,352263093e-01    0,000000000e+00    0,000000000e+00    0,000000000e+00    0,000000000e+00
      366000000   -3,179185092e-02   -9,356319904e-02    6,926800013e-01    3,038018942e-01    0,000000000e+00    0,000000000e+00    0,000000000e+00    0,000000000e+00
      380000000   -6,761910766e-02   -6,880135089e-02    7,457447648e-01   -1,344456673e-01    0,000000000e+00    0,000000000e+00    0,000000000e+00    0,000000000e+00
      394000000   -6,842991710e-02   -3,077472188e-02    5,391484499e-01   -5,282000899e-01    0,000000000e+00    0,000000000e+00    0,000000000e+00    0,000000000e+00
      408000000   -4,248798266e-02   -1,562195830e-02    1,498640925e-01   -7,339082360e-01    0,000000000e+00    0,000000000e+00    0,000000000e+00    0,000000000e+00
      422000000   -2,636498027e-02   -3,117203712e-02   -2,796058059e-01   -6,894009709e-01    0,000000000e+00    0,000000000e+00    0,000000000e+00    0,000000000e+00
      436000000   -3,904483840e-02   -4,888648167e-02   -6,101650596e-01   -4,194403589e-01    0,000000000e+00    0,000000000e+00    0,000000000e+00    0,000000000e+00
      450000000   -6,473522633e-02   -3,902488574e-02   -7,373695374e-01   -7,352171466e-03    0,000000000e+00    0,000000000e+00    0,000000000e+00    0,000000000e+00
      464000000   -6,741844118e-02   -6,477379240e-03   -6,076745391e-01    4,062647223e-01    0,000000000e+00    0,000000000e+00    0,000000000e+00    0,000000000e+00
      478000000   -3,843365982e-02    1,574499533e-02   -2,674262822e-01    6,702057719e-01    0,000000000e+00    0,000000000e+00    0,000000000e+00    0,000000000e+00
      492000000   -4,921555519e-03    6,337367464e-03    1,522957683e-01    6,956309080e-01    0,000000000e+00    0,000000000e+00    0,000000000e+00    0,000000000e+00
      506000000    6,761453580e-03   -2,016821131e-02    5,076256990e-01    4,886810184e-01    0,000000000e+00    0,000000000e+00    0,000000000e+00    0,000000000e+00
      520000000    5,321738427e-04   -3,846277297e-02    6,887952685e-01    1,220383719e-01    0,000000000e+00    0,000000000e+00    0,000000000e+00    0,000000000e+00
      534000000   -2,938801423e-03   -4,530590773e-02    6,331766844e-01   -2,816199660e-01    0,000000000e+00    0,000000000e+00    0,000000000e+00    0,000000000e+00
      548000000    8,782987134e-04   -5,988396704e-02    3,602175117e-01   -5,792779922e-01    0,000000000e+00    0,000000000e+00    0,000000000e+00    0,000000000e+00
      562000000   -8,053366095e-03   -8,833221346e-02   -2,653466910e-02   -6,733698249e-01    0,000000000e+00    0,000000000e+00    0,000000000e+00    0,000000000e+00
      576000000   -4,536410794e-02   -1,093994156e-01   -4,014655054e-01   -5,387759805e-01    0,000000000e+00    0,000000000e+00    0,000000000e+00    0,000000000e+00
      590000000   -9,480755031e-02   -9,350649267e-02   -6,391661167e-01   -2,191407681e-01    0,000000000e+00    0,000000000e+00    0,000000000e+00    0,000000000e+00
      604000000   -1,120060235e-01   -4,105614498e-02   -6,475664973e-01    1,988309473e-01    0,000000000e+00    0,000000000e+00    0,000000000e+00    0,000000000e+00
      618000000   -7,613706589e-02   -2,472967608e-03   -4,010534883e-01    5,356484056e-01    0,000000000e+00    0,000000000e+00    0,000000000e+00    0,000000000e+00
      632000000   -2,953514643e-02   -2,097473666e-02   -1,169462781e-02    6,550977230e-01    0,000000000e+00    0,000000000e+00    0,000000000e+00    0,000000000e+00
      646000000   -3,655099869e-02   -7,728160173e-02    3,663050532e-01    5,269176364e-01    0,000000000e+00    0,000000000e+00    0,000000000e+00    0,000000000e+00
      660000000   -1,116095036e-01   -9,931031615e-02    6,018859148e-01    1,938765198e-01    0,000000000e+00    0,000000000e+00    0,000000000e+00    0,000000000e+00
      674000000   -1,993723661e-01   -2,458239160e-02    5,653477311e-01   -2,400074750e-01    0,000000000e+00    0,000000000e+00    0,000000000e+00    0,000000000e+00
      688000000   -1,791079938e-01    1,437874734e-01    2,099728584e-01   -5,217496753e-01    0,000000000e+00    0,000000000e+00    0,000000000e+00    0,000000000e+00
      702000000    2,552001923e-02    2,472769618e-01   -2,022704482e-01   -4,043621421e-01    0,000000000e+00    0,000000000e+00    0,000000000e+00    0,000000000e+00
      716000000    2,631945610e-01    1,103095561e-01   -2,739312351e-01   -8,391425014e-02    0,000000000e+00    0,000000000e+00    0,000000000e+00    0,000000000e+00
      730000000    3,040436804e-01   -1,859839410e-01   -1,077037081e-01    3,234193102e-02    0,000000000e+00    0,000000000e+00    0,000000000e+00    0,000000000e+00
      744000000    9,437091649e-02   -4,272837937e-01   -4,272895679e-02   -6,448998302e-02    0,000000000e+00    0,000000000e+00    0,000000000e+00    0,000000000e+00
      758000000   -2,588237524e-01   -4,287743568e-01   -1,751943082e-01   -1,250572354e-01    0,000000000e+00    0,000000000e+00    0,000000000e+00    0,000000000e+00
      772000000   -4,858110845e-01   -1,204368621e-01   -3,362271488e-01    3,818029910e-02    0,000000000e+00    0,000000000e+00    0,000000000e+00    0,000000000e+00
      786000000   -3,424023092e-01    2,224541903e-01   -2,636352181e-01    3,166009188e-01    0,000000000e+00    0,000000000e+00    0,000000000e+00    0,000000000e+00
      800000000   -4,050139710e-02    2,770654559e-01    2,645874396e-03    4,361706376e-01    0,000000000e+00    0,000000000e+00    0,000000000e+00    0,000000000e+00
      814000000    1,442895532e-01    1,257138997e-01    2,642491758e-01    3,592283428e-01    0,000000000e+00    0,000000000e+00    0,000000000e+00    0,000000000e+00
      828000000    1,679759771e-01   -7,043051720e-02    4,326902628e-01    1,566708386e-01    0,000000000e+00    0,000000000e+00    0,000000000e+00    0,000000000e+00
      842000000    6,799352914e-02   -2,180584818e-01    4,664277434e-01   -1,199372485e-01    0,000000000e+00    0,000000000e+00    0,000000000e+00    0,000000000e+00
      856000000   -1,070221886e-01   -2,647159696e-01    3,200716376e-01   -3,941806853e-01    0,000000000e+00    0,000000000e+00    0,000000000e+00    0,000000000e+00
      870000000   -2,752543390e-01   -1,682011783e-01   -3,944932483e-03   -5,260614753e-01    0,000000000e+00    0,000000000e+00    0,000000000e+00    0,000000000e+00
      884000000   -3,208511770e-01    3,534878790e-02   -3,482016623e-01   -3,925413191e-01    0,000000000e+00    0,000000000e+00    0,000000000e+00    0,000000000e+00
      898000000   -1,928282678e-01    2,072769254e-01   -4,895544946e-01   -6,250110269e-02    0,000000000e+00    0,000000000e+00    0,000000000e+00    0,000000000e+00
      912000000    8,305397816e-03    2,185141891e-01   -3,923548460e-01    2,719794214e-01    0,000000000e+00    0,000000000e+00    0,000000000e+00    0,000000000e+00
      926000000    1,518560350e-01    1,128491685e-01   -1,666115522e-01    4,171780944e-01    0,000000000e+00    0,000000000e+00    0,000000000e+00    0,000000000e+00
      940000000    1,977636665e-01   -4,816401005e-02    6,379681081e-02    4,241012335e-01    0,000000000e+00    0,000000000e+00    0,000000000e+00    0,000000000e+00
      954000000    1,538876444e-01   -2,001249939e-01    2,611140013e-01    3,414246142e-01    0,000000000e+00    0,000000000e+00    0,000000000e+00    0,000000000e+00
      968000000    2,340091206e-02   -3,123500645e-01    4,115408957e-01    1,791772991e-01    0,000000000e+00    0,000000000e+00    0,000000000e+00    0,000000000e+00
      982000000   -1,598484665e-01   -3,315176964e-01    4,748805761e-01   -6,627418101e-02    0,000000000e+00    0,000000000e+00    0,000000000e+00    0,000000000e+00
      996000000   -3,230993748e-01   -2,109572738e-01    3,675558269e-01   -3,567205369e-01    0,000000000e+00    0,000000000e+00    0,000000000e+00    0,000000000e+00
     1010000000   -3,370872140e-01   -6,754354574e-03    4,170593992e-02   -5,244225860e-01    0,000000000e+00    0,000000000e+00    0,000000000e+00    0,000000000e+00
     1024000000   -2,053431869e-01    9,681091458e-02   -3,453037739e-01   -3,798604906e-01    0,000000000e+00    0,000000000e+00    0,000000000e+00    0,000000000e+00
     1038000000   -1,372898221e-01    1,238893718e-02   -4,804263711e-01    6,509016454e-02    0,000000000e+00    0,000000000e+00    0,000000000e+00    0,000000000e+00
     1052000000   -2,868937850e-01    5,065179989e-02   -9,326003492e-02    3,721350729e-01    0,000000000e+00    0,000000000e+00    0,000000000e+00    0,000000000e+00
     1066000000   -1,448874027e-01    2,923170030e-01    1,430549324e-01    1,354816705e-01    0,000000000e+00    0,000000000e+00    0,000000000e+00    0,000000000e+00
     1080000000    9,664948285e-02    2,505153418e-01    9,121762216e-02    2,231319807e-02    0,000000000e+00    0,000000000e+00    0,000000000e+00    0,000000000e+00
     1094000000    2,243400961e-01    8,837611973e-02    6,899068505e-02    1,002434362e-02    0,000000000e+00    0,000000000e+00    0,000000000e+00    0,000000000e+00
     1108000000    2,448042780e-01   -8,604805917e-02    8,172059804e-02    2,992529480e-04    0,000000000e+00    0,000000000e+00    0,000000000e+00    0,000000000e+00
     1122000000    1,818521321e-01   -2,542220056e-01    1,058257297e-01   -2,681918256e-02    0,000000000e+00    0,000000000e+00    0,000000000e+00    0,000000000e+00
     1136000000    5,209903792e-02   -3,801563382e-01    1,252755672e-01   -7,298959792e-02    0,000000000e+00    0,000000000e+00    0,000000000e+00    0,000000000e+00
     1150000000   -1,517193764e-01   -4,249202013e-01    1,376014054e-01   -1,512364298e-01    0,000000000e+00    0,000000000e+00    0,000000000e+00    0,000000000e+00
     1164000000   -3,807345331e-01   -3,231871724e-01    9,578519315e-02   -2,796854973e-01    0,000000000e+00    0,000000000e+00    0,000000000e+00    0,000000000e+00
     1178000000   -4,685313404e-01   -8,670990914e-02   -1,053966582e-01   -4,057950079e-01    0,000000000e+00    0,000000000e+00    0,000000000e+00    0,000000000e+00
     1192000000   -3,759735823e-01    3,373100981e-02   -4,651962817e-01   -1,974319816e-01    0,000000000e+00    0,000000000e+00    0,000000000e+00    0,000000000e+00
     1206000000   -4,141041040e-01    1,374110132e-01   -2,732774019e-01    2,417088300e-01    0,000000000e+00    0,000000000e+00    0,000000000e+00    0,000000000e+00
     1220000000   -2,793498039e-01    3,328108191e-01   -4,891992081e-03    1,635564119e-01    0,000000000e+00    0,000000000e+00    0,000000000e+00    0,000000000e+00
     1234000000   -4,538369924e-02    3,476759195e-01    2,841462754e-02    4,925575852e-02    0,000000000e+00    0,000000000e+00    0,000000000e+00    0,000000000e+00
     1248000000    1,245238557e-01    2,515177727e-01    8,594037965e-03    2,479731664e-02    0,000000000e+00    0,000000000e+00    0,000000000e+00    0,000000000e+00
     1262000000    2,084720582e-01    1,000217572e-01    3,632312175e-03    2,839017101e-02    0,000000000e+00    0,000000000e+00    0,000000000e+00    0,000000000e+00
     1276000000    2,320121974e-01   -6,025072560e-02    2,529656328e-02    3,295609728e-02    0,000000000e+00    0,000000000e+00    0,000000000e+00    0,000000000e+00
     1290000000    1,944456249e-01   -2,122535706e-01    5,569912866e-02    2,876388654e-02    0,000000000e+00    0,000000000e+00    0,000000000e+00    0,000000000e+00
     1304000000    8,575721085e-02   -3,592300415e-01    8,076494932e-02    3,865749575e-03    0,000000000e+00    0,000000000e+00    0,000000000e+00    0,000000000e+00
     1318000000   -1,018931270e-01   -4,475278854e-01    7,964631915e-02   -1,016262081e-02    0,000000000e+00    0,000000000e+00    0,000000000e+00    0,000000000e+00
     1332000000   -3,597962558e-01   -4,317983687e-01    8,699079603e-02   -1,650499739e-02    0,000000000e+00    0,000000000e+00    0,000000000e+00    0,000000000e+00
     1346000000   -5,869519711e-01   -2,473800182e-01    1,089522839e-01   -6,402464584e-03    0,000000000e+00    0,000000000e+00    0,000000000e+00    0,000000000e+00
     1360000000   -6,482896209e-01    7,209216803e-02    1,439214647e-01   -1,972408406e-02    0,000000000e+00    0,000000000e+00    0,000000000e+00    0,000000000e+00
     1374000000   -4,930091202e-01    3,247986138e-01    1,638425589e-01   -4,607813433e-02    0,000000000e+00    0,000000000e+00    0,000000000e+00    0,000000000e+00
     1388000000   -2,543595731e-01    4,255222380e-01    1,631343365e-01   -8,458836377e-02    0,000000000e+00    0,000000000e+00    0,000000000e+00    0,000000000e+00
     1402000000   -4,518380389e-02    3,839402497e-01    1,345826685e-01   -9,969044477e-02    0,000000000e+00    0,000000000e+00    0,000000000e+00    0,000000000e+00
     1416000000    1,018645093e-01    2,806448340e-01    1,302543283e-01   -8,779720962e-02    0,000000000e+00    0,000000000e+00    0,000000000e+00    0,000000000e+00
     1430000000    1,931992471e-01    1,516783983e-01    1,251536012e-01   -4,776224867e-02    0,000000000e+00    0,000000000e+00    0,000000000e+00    0,000000000e+00
     1444000000    2,120764107e-01   -1,225100271e-02    1,167709976e-01   -3,199675679e-02    0,000000000e+00    0,000000000e+00    0,000000000e+00    0,000000000e+00
     1458000000    1,817497313e-01   -1,836700737e-01    1,417429298e-01    1,154469792e-02    0,000000000e+00    0,000000000e+00    0,000000000e+00    0,000000000e+00
     1472000000    7,496355474e-02   -3,444992304e-01    1,957485378e-01    6,789473444e-02    0,000000000e+00    0,000000000e+00    0,000000000e+00    0,000000000e+00
     1486000000   -1,422407329e-01   -4,687713981e-01    2,780281603e-01    8,586920053e-02    0,000000000e+00    0,000000000e+00    0,000000000e+00    0,000000000e+00
     1500000000   -4,467284679e-01   -4,624784589e-01    4,039256275e-01    6,178102270e-02    0,000000000e+00    0,000000000e+00    0,000000000e+00    0,000000000e+00
