! NanoVNA-App
! Date: 2025-09-25 15:59:47
! Start: 100MHz Stop: 1,5GHz Points: 101
! S-Parameter data: F S11 S21 S12 S22
# Hz S RI R 50
!     Frequency           S11_Real           S11_Imag           S21_Real           S21_Imag           S12_Real           S12_Imag           S22_Real           S22_Imag
      100000000   -2,825322002e-02   -2,850874560e-03    3,722657263e-01   -7,223492861e-01    0,000000000e+00    0,000000000e+00    0,000000000e+00    0,000000000e+00
      114000000   -1,569442637e-02    1,286994293e-02   -9,138078243e-02   -8,047124743e-01    0,000000000e+00    0,000000000e+00    0,000000000e+00    0,000000000e+00
      128000000    4,381524399e-03    1,194209233e-02   -5,158411264e-01   -6,187423468e-01    0,000000000e+00    0,000000000e+00    0,000000000e+00    0,000000000e+00
      142000000    1,548758615e-02   -1,770030009e-03   -7,675269842e-01   -2,343226969e-01    0,000000000e+00    0,000000000e+00    0,000000000e+00    0,000000000e+00
      156000000    1,521166228e-02   -1,320715901e-02   -7,662909031e-01    2,204727829e-01    0,000000000e+00    0,000000000e+00    0,000000000e+00    0,000000000e+00
      170000000    1,762405410e-02   -2,097015642e-02   -5,152592063e-01    6,062046885e-01    0,000000000e+00    0,000000000e+00    0,000000000e+00    0,000000000e+00
      184000000    2,203870937e-02   -3,555447236e-02   -9,833892435e-02    7,861278653e-01    0,000000000e+00    0,000000000e+00    0,000000000e+00    0,000000000e+00
      198000000    1,403426193e-02   -6,066374481e-02    3,459792733e-01    7,106464505e-01    0,000000000e+00    0,000000000e+00    0,000000000e+00    0,000000000e+00
      212000000   -1,766491495e-02   -7,915034145e-02    6,808691025e-01    4,063336253e-01    0,000000000e+00    0,000000000e+00    0,000000000e+00    0,000000000e+00
      226000000   -6,038816273e-02   -6,658749282e-02    7,958139777e-01   -3,566035628e-02    0,000000000e+00    0,000000000e+00    0,000000000e+00    0,000000000e+00
      240000000   -8,049617708e-02   -2,277553454e-02    6,416218877e-01   -4,716252387e-01    0,000000000e+00    0,000000000e+00    0,000000000e+00    0,000000000e+00
      254000000   -6,082330644e-02    1,976258680e-02    2,708579898e-01   -7,419361472e-01    0,000000000e+00    0,000000000e+00    0,000000000e+00    0,000000000e+00
      268000000   -2,095863596e-02    3,088253736e-02   -1,810918003e-01   -7,606046200e-01    0,000000000e+00    0,000000000e+00    0,000000000e+00    0,000000000e+00
      282000000    6,977311336e-03    1,373222843e-02   -5,631909966e-01   -5,325080752e-01    0,000000000e+00    0,000000000e+00    0,000000000e+00    0,000000000e+00
      296000000    1,243256684e-02   -6,331123877e-03   -7,606254220e-01   -1,343989968e-01    0,000000000e+00    0,000000000e+00    0,000000000e+00    0,000000000e+00
      310000000    1,348503120e-02   -1,465951279e-02   -7,081850171e-01    3,031995296e-01    0,000000000e+00    0,000000000e+00    0,000000000e+00    0,000000000e+00
      324000000    2,272721007e-02   -2,483478934e-02   -4,212668836e-01    6,392577887e-01    0,000000000e+00    0,000000000e+00    0,000000000e+00    0,000000000e+00
      338000000    2,834982611e-02   -5,077131465e-02   -3,145975526e-03    7,616286278e-01    0,000000000e+00    0,000000000e+00    0,000000000e+00    0,000000000e+00
      352000000    1,018597931e-02   -8,302364498e-02    4,113831520e-01    6,343291402e-01    0,000000000e+00    0,000000000e+00    0,000000000e+00    0,000000000e+00
      366000000   -3,172964975e-02   -9,365979582e-02    6,929301023e-01    3,045771718e-01    0,000000000e+00    0,000000000e+00    0,000000000e+00    0,000000000e+00
      380000000   -6,761246920e-02   -6,893179566e-02    7,455384731e-01   -1,348821670e-01    0,000000000e+00    0,000000000e+00    0,000000000e+00    0,000000000e+00
      394000000   -6,848134100e-02   -3,063986637e-02    5,407797694e-01   -5,286972523e-01    0,000000000e+00    0,000000000e+00    0,000000000e+00    0,000000000e+00
      408000000   -4,301113263e-02   -1,536765601e-02    1,495043784e-01   -7,339016795e-01    0,000000000e+00    0,000000000e+00    0,000000000e+00    0,000000000e+00
      422000000   -2,604882978e-02   -3,116510995e-02   -2,783396840e-01   -6,898203492e-01    0,000000000e+00    0,000000000e+00    0,000000000e+00    0,000000000e+00
      436000000   -3,912584111e-02   -4,887995496e-02   -6,098362803e-01   -4,196635187e-01    0,000000000e+00    0,000000000e+00    0,000000000e+00    0,000000000e+00
      450000000   -6,455204636e-02   -3,918452933e-02   -7,368047833e-01   -7,680086419e-03    0,000000000e+00    0,000000000e+00    0,000000000e+00    0,000000000e+00
      464000000   -6,741154939e-02   -6,242307834e-03   -6,071398258e-01    4,058884382e-01    0,000000000e+00    0,000000000e+00    0,000000000e+00    0,000000000e+00
      478000000   -3,890155628e-02    1,604876854e-02   -2,681779265e-01    6,699194312e-01    0,000000000e+00    0,000000000e+00    0,000000000e+00    0,000000000e+00
      492000000   -5,133178551e-03    6,365597248e-03    1,517656147e-01    6,952791214e-01    0,000000000e+00    0,000000000e+00    0,000000000e+00    0,000000000e+00
      506000000    7,034332026e-03   -2,007669024e-02    5,076890588e-01    4,886646569e-01    0,000000000e+00    0,000000000e+00    0,000000000e+00    0,000000000e+00
      520000000    4,863366194e-04   -3,838652000e-02    6,881706119e-01    1,217286214e-01    0,000000000e+00    0,000000000e+00    0,000000000e+00    0,000000000e+00
      534000000   -3,081689123e-03   -4,573525861e-02    6,325832009e-01   -2,820167243e-01    0,000000000e+00    0,000000000e+00    0,000000000e+00    0,000000000e+00
      548000000    1,259976067e-03   -5,983863398e-02    3,603899181e-01   -5,794913173e-01    0,000000000e+00    0,000000000e+00    0,000000000e+00    0,000000000e+00
      562000000   -7,488926407e-03   -8,855096996e-02   -2,660855465e-02   -6,729009748e-01    0,000000000e+00    0,000000000e+00    0,000000000e+00    0,000000000e+00
      576000000   -4,548252001e-02   -1,098753288e-01   -4,010321498e-01   -5,382882357e-01    0,000000000e+00    0,000000000e+00    0,000000000e+00    0,000000000e+00
      590000000   -9,449110925e-02   -9,365259111e-02   -6,391355991e-01   -2,173579484e-01    0,000000000e+00    0,000000000e+00    0,000000000e+00    0,000000000e+00
      604000000   -1,115402058e-01   -4,097109661e-02   -6,474579573e-01    1,986626983e-01    0,000000000e+00    0,000000000e+00    0,000000000e+00    0,000000000e+00
      618000000   -7,548386604e-02   -2,860791516e-03   -4,023666382e-01    5,360865593e-01    0,000000000e+00    0,000000000e+00    0,000000000e+00    0,000000000e+00
      632000000   -2,961232513e-02   -2,148947120e-02   -1,245668251e-02    6,544785500e-01    0,000000000e+00    0,000000000e+00    0,000000000e+00    0,000000000e+00
      646000000   -3,565651551e-02   -7,651447505e-02    3,659585714e-01    5,275707841e-01    0,000000000e+00    0,000000000e+00    0,000000000e+00    0,000000000e+00
      660000000   -1,110211015e-01   -9,921772778e-02    6,011632085e-01    1,928815246e-01    0,000000000e+00    0,000000000e+00    0,000000000e+00    0,000000000e+00
      674000000   -1,987819076e-01   -2,341853641e-02    5,655620694e-01   -2,396581024e-01    0,000000000e+00    0,000000000e+00    0,000000000e+00    0,000000000e+00
      688000000   -1,784459502e-01    1,451751292e-01    2,093635350e-01   -5,211545825e-01    0,000000000e+00    0,000000000e+00    0,000000000e+00    0,000000000e+00
      702000000    2,403711155e-02    2,468729317e-01   -2,010008544e-01   -4,087049663e-01    0,000000000e+00    0,000000000e+00    0,000000000e+00    0,000000000e+00
      716000000    2,636085451e-01    1,111405268e-01   -2,736315429e-01   -8,397646248e-02    0,000000000e+00    0,000000000e+00    0,000000000e+00    0,000000000e+00
      730000000    3,035713732e-01   -1,854218096e-01   -1,074496582e-01    3,277728334e-02    0,000000000e+00    0,000000000e+00    0,000000000e+00    0,000000000e+00
      744000000    9,433446079e-02   -4,274207056e-01   -4,199096560e-02   -6,451542675e-02    0,000000000e+00    0,000000000e+00    0,000000000e+00    0,000000000e+00
      758000000   -2,598380744e-01   -4,287741482e-01   -1,750603765e-01   -1,255880892e-01    0,000000000e+00    0,000000000e+00    0,000000000e+00    0,000000000e+00
      772000000   -4,861132801e-01   -1,199494153e-01   -3,355618417e-01    3,788647056e-02    0,000000000e+00    0,000000000e+00    0,000000000e+00    0,000000000e+00
      786000000   -3,427582383e-01    2,212303728e-01   -2,629812062e-01    3,158755004e-01    0,000000000e+00    0,000000000e+00    0,000000000e+00    0,000000000e+00
      800000000   -4,110211879e-02    2,763010263e-01    3,022634890e-03    4,367035925e-01    0,000000000e+00    0,000000000e+00    0,000000000e+00    0,000000000e+00
      814000000    1,446620822e-01    1,258421391e-01    2,631648779e-01    3,594442010e-01    0,000000000e+00    0,000000000e+00    0,000000000e+00    0,000000000e+00
      828000000    1,683320254e-01   -6,992377341e-02    4,326614738e-01    1,564150453e-01    0,000000000e+00    0,000000000e+00    0,000000000e+00    0,000000000e+00
      842000000    6,731391698e-02   -2,187760174e-01    4,668070674e-01   -1,202991381e-01    0,000000000e+00    0,000000000e+00    0,000000000e+00    0,000000000e+00
      856000000   -1,073890999e-01   -2,632951140e-01    3,194400966e-01   -3,949261308e-01    0,000000000e+00    0,000000000e+00    0,000000000e+00    0,000000000e+00
      870000000   -2,752744555e-01   -1,687517911e-01   -2,395263175e-03   -5,271982551e-01    0,000000000e+00    0,000000000e+00    0,000000000e+00    0,000000000e+00
      884000000   -3,211123049e-01    3,517623991e-02   -3,487997949e-01   -3,941507936e-01    0,000000000e+00    0,000000000e+00    0,000000000e+00    0,000000000e+00
      898000000   -1,916806102e-01    2,069746256e-01   -4,887763858e-01   -6,212426722e-02    0,000000000e+00    0,000000000e+00    0,000000000e+00    0,000000000e+00
      912000000    7,062631194e-03    2,193023711e-01   -4,096910059e-01    2,697682083e-01    0,000000000e+00    0,000000000e+00    0,000000000e+00    0,000000000e+00
      926000000    1,507417560e-01    1,137390807e-01   -1,687581241e-01    4,154976010e-01    0,000000000e+00    0,000000000e+00    0,000000000e+00    0,000000000e+00
      940000000    2,001012564e-01   -4,728720710e-02    6,360820681e-02    4,240969718e-01    0,000000000e+00    0,000000000e+00    0,000000000e+00    0,000000000e+00
      954000000    1,513923258e-01   -2,018532306e-01    2,593356967e-01    3,419210911e-01    0,000000000e+00    0,000000000e+00    0,000000000e+00    0,000000000e+00
      968000000    2,761262283e-02   -3,130721748e-01    4,119006693e-01    1,780979037e-01    0,000000000e+00    0,000000000e+00    0,000000000e+00    0,000000000e+00
      982000000   -1,634073704e-01   -3,330717981e-01    4,756373167e-01   -6,645265222e-02    0,000000000e+00    0,000000000e+00    0,000000000e+00    0,000000000e+00
      996000000   -3,256231546e-01   -2,061134130e-01    3,672251105e-01   -3,560650051e-01    0,000000000e+00    0,000000000e+00    0,000000000e+00    0,000000000e+00
     1010000000   -3,392520845e-01   -1,002808288e-02    4,401428625e-02   -5,238373280e-01    0,000000000e+00    0,000000000e+00    0,000000000e+00    0,000000000e+00
     1024000000   -2,031038404e-01    9,198265523e-02   -3,463498354e-01   -3,787604868e-01    0,000000000e+00    0,000000000e+00    0,000000000e+00    0,000000000e+00
     1038000000   -1,344766468e-01    1,090127323e-02   -4,824666083e-01    6,259377301e-02    0,000000000e+00    0,000000000e+00    0,000000000e+00    0,000000000e+00
     1052000000   -2,871139050e-01    5,761817098e-02   -9,627351165e-02    3,723114133e-01    0,000000000e+00    0,000000000e+00    0,000000000e+00    0,000000000e+00
     1066000000   -1,462897658e-01    2,899539173e-01    1,450933516e-01    1,327553988e-01    0,000000000e+00    0,000000000e+00    0,000000000e+00    0,000000000e+00
     1080000000    9,669484198e-02    2,526214421e-01    9,173655510e-02    2,145802602e-02    0,000000000e+00    0,000000000e+00    0,000000000e+00    0,000000000e+00
     1094000000    2,241648734e-01    8,819863200e-02    6,905381382e-02    1,069671102e-02    0,000000000e+00    0,000000000e+00    0,000000000e+00    0,000000000e+00
     1108000000    2,397177666e-01   -8,866071701e-02    8,311030269e-02   -1,136034145e-03    0,000000000e+00    0,000000000e+00    0,000000000e+00    0,000000000e+00
     1122000000    1,848134995e-01   -2,501221597e-01    1,029125899e-01   -2,462084219e-02    0,000000000e+00    0,000000000e+00    0,000000000e+00    0,000000000e+00
     1136000000    4,742842168e-02   -3,768385351e-01    1,242709830e-01   -7,416883111e-02    0,000000000e+00    0,000000000e+00    0,000000000e+00    0,000000000e+00
     1150000000   -1,538396180e-01   -4,215747118e-01    1,392509937e-01   -1,498270035e-01    0,000000000e+00    0,000000000e+00    0,000000000e+00    0,000000000e+00
     1164000000   -3,792213798e-01   -3,263620734e-01    9,937215596e-02   -2,783014178e-01    0,000000000e+00    0,000000000e+00    0,000000000e+00    0,000000000e+00
     1178000000   -4,650064707e-01   -7,992424816e-02   -1,027629226e-01   -4,061025083e-01    0,000000000e+00    0,000000000e+00    0,000000000e+00    0,000000000e+00
     1192000000   -3,710763752e-01    3,425829858e-02   -4,636956751e-01   -1,979106963e-01    0,000000000e+00    0,000000000e+00    0,000000000e+00    0,000000000e+00
     1206000000   -4,187930822e-01    1,310460716e-01   -2,757123113e-01    2,366098464e-01    0,000000000e+00    0,000000000e+00    0,000000000e+00    0,000000000e+00
     1220000000   -2,709271014e-01    3,318788707e-01   -8,090434712e-04    1,644069850e-01    0,000000000e+00    0,000000000e+00    0,000000000e+00    0,000000000e+00
     1234000000   -4,315118119e-02    3,525675535e-01    2,371640876e-02    5,410471186e-02    0,000000000e+00    0,000000000e+00    0,000000000e+00    0,000000000e+00
     1248000000    1,213548556e-01    2,475290149e-01    5,076593719e-03    2,208582684e-02    0,000000000e+00    0,000000000e+00    0,000000000e+00    0,000000000e+00
     1262000000    2,165753096e-01    1,019414663e-01    7,363246288e-03    2,993135154e-02    0,000000000e+00    0,000000000e+00    0,000000000e+00    0,000000000e+00
     1276000000    2,343495935e-01   -5,776095390e-02    2,777545340e-02    3,578740358e-02    0,000000000e+00    0,000000000e+00    0,000000000e+00    0,000000000e+00
     1290000000    1,929356158e-01   -2,138652056e-01    5,195652694e-02    2,889422327e-02    0,000000000e+00    0,000000000e+00    0,000000000e+00    0,000000000e+00
     1304000000    8,188501000e-02   -3,584869802e-01    7,229880989e-02    8,728359826e-03    0,000000000e+00    0,000000000e+00    0,000000000e+00    0,000000000e+00
     1318000000   -1,037448272e-01   -4,472453296e-01    8,288335800e-02   -1,224034093e-02    0,000000000e+00    0,000000000e+00    0,000000000e+00    0,000000000e+00
     1332000000   -3,552850485e-01   -4,332649410e-01    8,567629755e-02   -1,124575827e-02    0,000000000e+00    0,000000000e+00    0,000000000e+00    0,000000000e+00
     1346000000   -5,905687809e-01   -2,517176270e-01    1,023055092e-01   -5,125875585e-03    0,000000000e+00    0,000000000e+00    0,000000000e+00    0,000000000e+00
     1360000000   -6,566441655e-01    7,561010122e-02    1,419315636e-01   -1,463272236e-02    0,000000000e+00    0,000000000e+00    0,000000000e+00    0,000000000e+00
     1374000000   -4,950033724e-01    3,343171477e-01    1,614991575e-01   -3,956724703e-02    0,000000000e+00    0,000000000e+00    0,000000000e+00    0,000000000e+00
     1388000000   -2,498964965e-01    4,273634553e-01    1,590719670e-01   -7,759254426e-02    0,000000000e+00    0,000000000e+00    0,000000000e+00    0,000000000e+00
     1402000000   -4,620111361e-02    3,894644380e-01    1,393091828e-01   -1,014577150e-01    0,000000000e+00    0,000000000e+00    0,000000000e+00    0,000000000e+00
     1416000000    1,011699066e-01    2,891888320e-01    1,300308555e-01   -8,294718713e-02    0,000000000e+00    0,000000000e+00    0,000000000e+00    0,000000000e+00
     1430000000    1,921420544e-01    1,526567638e-01    1,130184010e-01   -3,869348764e-02    0,000000000e+00    0,000000000e+00    0,000000000e+00    0,000000000e+00
     1444000000    2,134701014e-01   -5,299226847e-03    1,153241023e-01   -2,016447857e-02    0,000000000e+00    0,000000000e+00    0,000000000e+00    0,000000000e+00
     1458000000    1,736051589e-01   -1,863243878e-01    1,374886334e-01    1,726161875e-02    0,000000000e+00    0,000000000e+00    0,000000000e+00    0,000000000e+00
     1472000000    7,181509584e-02   -3,452998400e-01    1,935474575e-01    7,122114301e-02    0,000000000e+00    0,000000000e+00    0,000000000e+00    0,000000000e+00
     1486000000   -1,359103918e-01   -4,758510590e-01    2,971366346e-01    8,579550683e-02    0,000000000e+00    0,000000000e+00    0,000000000e+00    0,000000000e+00
     1500000000   -4,277149737e-01   -4,752652049e-01    4,151625931e-01    5,835614726e-02    0,000000000e+00    0,000000000e+00    0,000000000e+00    0,000000000e+00
