! NanoVNA-App
! Date: 2025-09-25 16:03:16
! Start: 100MHz Stop: 1,5GHz Points: 101
! S-Parameter data: F S11 S21 S12 S22
# Hz S RI R 50
!     Frequency           S11_Real           S11_Imag           S21_Real           S21_Imag           S12_Real           S12_Imag           S22_Real           S22_Imag
      100000000   -2,832417749e-02   -2,874227241e-03    3,722517788e-01   -7,224426270e-01    0,000000000e+00    0,000000000e+00    0,000000000e+00    0,000000000e+00
      114000000   -1,576367952e-02    1,293627080e-02   -9,139249474e-02   -8,048195243e-01    0,000000000e+00    0,000000000e+00    0,000000000e+00    0,000000000e+00
      128000000    4,348735325e-03    1,201633923e-02   -5,158791542e-01   -6,185532808e-01    0,000000000e+00    0,000000000e+00    0,000000000e+00    0,000000000e+00
      142000000    1,546447165e-02   -1,694478444e-03   -7,675337195e-01   -2,342171371e-01    0,000000000e+00    0,000000000e+00    0,000000000e+00    0,000000000e+00
      156000000    1,755256951e-02   -1,379427873e-02   -7,680332065e-01    2,273760140e-01    0,000000000e+00    0,000000000e+00    0,000000000e+00    0,000000000e+00
      170000000    1,770817488e-02   -2,093968540e-02   -5,154995322e-01    6,063695550e-01    0,000000000e+00    0,000000000e+00    0,000000000e+00    0,000000000e+00
      184000000    2,200900204e-02   -3,558973595e-02   -9,822443873e-02    7,856523395e-01    0,000000000e+00    0,000000000e+00    0,000000000e+00    0,000000000e+00
      198000000    1,402982976e-02   -6,065441668e-02    3,462037146e-01    7,109655142e-01    0,000000000e+00    0,000000000e+00    0,000000000e+00    0,000000000e+00
      212000000   -1,767355017e-02   -7,913935930e-02    6,807721853e-01    4,062997699e-01    0,000000000e+00    0,000000000e+00    0,000000000e+00    0,000000000e+00
      226000000   -6,033102423e-02   -6,664112210e-02    7,958521843e-01   -3,562327847e-02    0,000000000e+00    0,000000000e+00    0,000000000e+00    0,000000000e+00
      240000000   -8,050733805e-02   -2,278400958e-02    6,415454745e-01   -4,716753960e-01    0,000000000e+00    0,000000000e+00    0,000000000e+00    0,000000000e+00
      254000000   -6,080077216e-02    1,983876899e-02    2,710309327e-01   -7,421668172e-01    0,000000000e+00    0,000000000e+00    0,000000000e+00    0,000000000e+00
      268000000   -2,094679698e-02    3,083252162e-02   -1,808708757e-01   -7,609021068e-01    0,000000000e+00    0,000000000e+00    0,000000000e+00    0,000000000e+00
      282000000    6,986287888e-03    1,377554704e-02   -5,632842183e-01   -5,324174762e-01    0,000000000e+00    0,000000000e+00    0,000000000e+00    0,000000000e+00
      296000000    1,243302505e-02   -6,205459591e-03   -7,606945634e-01   -1,343844086e-01    0,000000000e+00    0,000000000e+00    0,000000000e+00    0,000000000e+00
      310000000    1,360917185e-02   -1,440460980e-02   -7,077014446e-01    3,045818806e-01    0,000000000e+00    0,000000000e+00    0,000000000e+00    0,000000000e+00
      324000000    2,242900431e-02   -2,463041432e-02   -4,221332669e-01    6,395298243e-01    0,000000000e+00    0,000000000e+00    0,000000000e+00    0,000000000e+00
      338000000    2,847804502e-02   -5,056978762e-02   -3,153265221e-03    7,601506114e-01    0,000000000e+00    0,000000000e+00    0,000000000e+00    0,000000000e+00
      352000000    1,028115582e-02   -8,286048472e-02    4,117991924e-01    6,356300116e-01    0,000000000e+00    0,000000000e+00    0,000000000e+00    0,000000000e+00
      366000000   -3,162925690e-02   -9,366679937e-02    6,938045621e-01    3,046513796e-01    0,000000000e+00    0,000000000e+00    0,000000000e+00    0,000000000e+00
      380000000   -6,763894856e-02   -6,865069270e-02    7,460489869e-01   -1,340756863e-01    0,000000000e+00    0,000000000e+00    0,000000000e+00    0,000000000e+00
      394000000   -6,849510223e-02   -3,065853752e-02    5,385838747e-01   -5,292990804e-01    0,000000000e+00    0,000000000e+00    0,000000000e+00    0,000000000e+00
      408000000   -4,268424958e-02   -1,557938755e-02    1,497781128e-01   -7,342687845e-01    0,000000000e+00    0,000000000e+00    0,000000000e+00    0,000000000e+00
      422000000   -2,577700652e-02   -3,110331669e-02   -2,797679901e-01   -6,899692416e-01    0,000000000e+00    0,000000000e+00    0,000000000e+00    0,000000000e+00
      436000000   -3,947460651e-02   -4,897442833e-02   -6,108482480e-01   -4,193205237e-01    0,000000000e+00    0,000000000e+00    0,000000000e+00    0,000000000e+00
      450000000   -6,474747509e-02   -3,925709426e-02   -7,372137308e-01   -7,659520954e-03    0,000000000e+00    0,000000000e+00    0,000000000e+00    0,000000000e+00
      464000000   -6,765341759e-02   -6,283732597e-03   -6,081075668e-01    4,063504338e-01    0,000000000e+00    0,000000000e+00    0,000000000e+00    0,000000000e+00
      478000000   -3,851248696e-02    1,623917744e-02   -2,668411434e-01    6,709654331e-01    0,000000000e+00    0,000000000e+00    0,000000000e+00    0,000000000e+00
      492000000   -5,170898978e-03    6,235985551e-03    1,517616212e-01    6,948043704e-01    0,000000000e+00    0,000000000e+00    0,000000000e+00    0,000000000e+00
      506000000    6,969321519e-03   -2,024059743e-02    5,083627105e-01    4,890658259e-01    0,000000000e+00    0,000000000e+00    0,000000000e+00    0,000000000e+00
      520000000    6,956744473e-04   -3,894520551e-02    6,909340620e-01    1,212657243e-01    0,000000000e+00    0,000000000e+00    0,000000000e+00    0,000000000e+00
      534000000   -2,770364750e-03   -4,556662217e-02    6,331746578e-01   -2,821862996e-01    0,000000000e+00    0,000000000e+00    0,000000000e+00    0,000000000e+00
      548000000    1,270388486e-03   -5,951795727e-02    3,606017828e-01   -5,791206360e-01    0,000000000e+00    0,000000000e+00    0,000000000e+00    0,000000000e+00
      562000000   -7,846953347e-03   -8,853980154e-02   -2,609324642e-02   -6,726998091e-01    0,000000000e+00    0,000000000e+00    0,000000000e+00    0,000000000e+00
      576000000   -4,534009472e-02   -1,094537824e-01   -4,010861218e-01   -5,385008454e-01    0,000000000e+00    0,000000000e+00    0,000000000e+00    0,000000000e+00
      590000000   -9,493530542e-02   -9,339173138e-02   -6,392387748e-01   -2,171068192e-01    0,000000000e+00    0,000000000e+00    0,000000000e+00    0,000000000e+00
      604000000   -1,115883291e-01   -4,093017802e-02   -6,480238438e-01    1,987076551e-01    0,000000000e+00    0,000000000e+00    0,000000000e+00    0,000000000e+00
      618000000   -7,622623444e-02   -2,007238101e-03   -4,032032192e-01    5,359081030e-01    0,000000000e+00    0,000000000e+00    0,000000000e+00    0,000000000e+00
      632000000   -3,066459857e-02   -2,094318159e-02   -1,218026038e-02    6,539812684e-01    0,000000000e+00    0,000000000e+00    0,000000000e+00    0,000000000e+00
      646000000   -3,610412031e-02   -7,644004375e-02    3,653336167e-01    5,268553495e-01    0,000000000e+00    0,000000000e+00    0,000000000e+00    0,000000000e+00
      660000000   -1,114604697e-01   -1,005103961e-01    6,009519100e-01    1,938563436e-01    0,000000000e+00    0,000000000e+00    0,000000000e+00    0,000000000e+00
      674000000   -1,990595013e-01   -2,311968617e-02    5,657370687e-01   -2,398445159e-01    0,000000000e+00    0,000000000e+00    0,000000000e+00    0,000000000e+00
      688000000   -1,794560403e-01    1,447090656e-01    2,104189396e-01   -5,220416784e-01    0,000000000e+00    0,000000000e+00    0,000000000e+00    0,000000000e+00
      702000000    2,659757063e-02    2,445208281e-01   -1,973975599e-01   -4,006259441e-01    0,000000000e+00    0,000000000e+00    0,000000000e+00    0,000000000e+00
      716000000    2,632451355e-01    1,114732921e-01   -2,746587992e-01   -8,484619856e-02    0,000000000e+00    0,000000000e+00    0,000000000e+00    0,000000000e+00
      730000000    3,042604923e-01   -1,855244637e-01   -1,084123924e-01    3,302814811e-02    0,000000000e+00    0,000000000e+00    0,000000000e+00    0,000000000e+00
      744000000    9,399995953e-02   -4,272436202e-01   -4,260370508e-02   -6,340423226e-02    0,000000000e+00    0,000000000e+00    0,000000000e+00    0,000000000e+00
      758000000   -2,577848136e-01   -4,302310050e-01   -1,742972732e-01   -1,248654798e-01    0,000000000e+00    0,000000000e+00    0,000000000e+00    0,000000000e+00
      772000000   -4,862023890e-01   -1,211691424e-01   -3,358533680e-01    3,730492666e-02    0,000000000e+00    0,000000000e+00    0,000000000e+00    0,000000000e+00
      786000000   -3,430664539e-01    2,209645361e-01   -2,634594738e-01    3,164004982e-01    0,000000000e+00    0,000000000e+00    0,000000000e+00    0,000000000e+00
      800000000   -4,110595211e-02    2,782856822e-01    2,647854155e-03    4,364995956e-01    0,000000000e+00    0,000000000e+00    0,000000000e+00    0,000000000e+00
      814000000    1,441954225e-01    1,261700839e-01    2,638244927e-01    3,590173125e-01    0,000000000e+00    0,000000000e+00    0,000000000e+00    0,000000000e+00
      828000000    1,680727154e-01   -6,957359612e-02    4,324367642e-01    1,565700471e-01    0,000000000e+00    0,000000000e+00    0,000000000e+00    0,000000000e+00
      842000000    6,747783720e-02   -2,184504271e-01    4,661550522e-01   -1,197828129e-01    0,000000000e+00    0,000000000e+00    0,000000000e+00    0,000000000e+00
      856000000   -1,072317287e-01   -2,646784484e-01    3,198266029e-01   -3,946218789e-01    0,000000000e+00    0,000000000e+00    0,000000000e+00    0,000000000e+00
      870000000   -2,749178112e-01   -1,679995805e-01   -2,262136666e-03   -5,272355676e-01    0,000000000e+00    0,000000000e+00    0,000000000e+00    0,000000000e+00
      884000000   -3,204692602e-01    3,585769236e-02   -3,474250734e-01   -3,930342197e-01    0,000000000e+00    0,000000000e+00    0,000000000e+00    0,000000000e+00
      898000000   -1,918664724e-01    2,071973979e-01   -4,883198440e-01   -6,259477139e-02    0,000000000e+00    0,000000000e+00    0,000000000e+00    0,000000000e+00
      912000000    7,538059726e-03    2,196078598e-01   -3,963473737e-01    2,786168456e-01    0,000000000e+00    0,000000000e+00    0,000000000e+00    0,000000000e+00
      926000000    1,519004405e-01    1,111271381e-01   -1,684772372e-01    4,140926898e-01    0,000000000e+00    0,000000000e+00    0,000000000e+00    0,000000000e+00
      940000000    2,008175552e-01   -4,577144980e-02    6,515734643e-02    4,257168770e-01    0,000000000e+00    0,000000000e+00    0,000000000e+00    0,000000000e+00
      954000000    1,547704041e-01   -2,002062649e-01    2,615422308e-01    3,421846926e-01    0,000000000e+00    0,000000000e+00    0,000000000e+00    0,000000000e+00
      968000000    2,226464823e-02   -3,145436049e-01    4,091584086e-01    1,807073057e-01    0,000000000e+00    0,000000000e+00    0,000000000e+00    0,000000000e+00
      982000000   -1,591312140e-01   -3,311412930e-01    4,750778973e-01   -6,575618684e-02    0,000000000e+00    0,000000000e+00    0,000000000e+00    0,000000000e+00
      996000000   -3,271581233e-01   -2,124128342e-01    3,678010702e-01   -3,547185957e-01    0,000000000e+00    0,000000000e+00    0,000000000e+00    0,000000000e+00
     1010000000   -3,433162570e-01   -4,811492283e-03    4,403767735e-02   -5,225368142e-01    0,000000000e+00    0,000000000e+00    0,000000000e+00    0,000000000e+00
     1024000000   -2,027987540e-01    9,240044653e-02   -3,463903368e-01   -3,820743561e-01    0,000000000e+00    0,000000000e+00    0,000000000e+00    0,000000000e+00
     1038000000   -1,351967007e-01    6,961463951e-03   -4,826388955e-01    6,216691062e-02    0,000000000e+00    0,000000000e+00    0,000000000e+00    0,000000000e+00
     1052000000   -2,862223983e-01    5,001537874e-02   -9,691186249e-02    3,711125851e-01    0,000000000e+00    0,000000000e+00    0,000000000e+00    0,000000000e+00
     1066000000   -1,481150389e-01    2,926217020e-01    1,461686492e-01    1,319432706e-01    0,000000000e+00    0,000000000e+00    0,000000000e+00    0,000000000e+00
     1080000000    9,806021303e-02    2,514928281e-01    9,153617918e-02    1,867995784e-02    0,000000000e+00    0,000000000e+00    0,000000000e+00    0,000000000e+00
     1094000000    2,240381539e-01    8,845378458e-02    6,943573803e-02    9,884157218e-03    0,000000000e+00    0,000000000e+00    0,000000000e+00    0,000000000e+00
     1108000000    2,384441346e-01   -8,814677596e-02    8,110280335e-02   -1,122872854e-04    0,000000000e+00    0,000000000e+00    0,000000000e+00    0,000000000e+00
     1122000000    1,854849756e-01   -2,489494830e-01    1,031098440e-01   -2,325241640e-02    0,000000000e+00    0,000000000e+00    0,000000000e+00    0,000000000e+00
     1136000000    4,628351331e-02   -3,762488067e-01    1,271444410e-01   -7,283140719e-02    0,000000000e+00    0,000000000e+00    0,000000000e+00    0,000000000e+00
     1150000000   -1,579908729e-01   -4,234490395e-01    1,360501647e-01   -1,491321772e-01    0,000000000e+00    0,000000000e+00    0,000000000e+00    0,000000000e+00
     1164000000   -3,802517653e-01   -3,235982060e-01    1,009832844e-01   -2,735879719e-01    0,000000000e+00    0,000000000e+00    0,000000000e+00    0,000000000e+00
     1178000000   -4,625090957e-01   -8,331166953e-02   -1,034311354e-01   -4,074987769e-01    0,000000000e+00    0,000000000e+00    0,000000000e+00    0,000000000e+00
     1192000000   -3,714750707e-01    3,625463322e-02   -4,608507752e-01   -1,986309290e-01    0,000000000e+00    0,000000000e+00    0,000000000e+00    0,000000000e+00
     1206000000   -4,184828699e-01    1,324620098e-01   -2,729728520e-01    2,378005236e-01    0,000000000e+00    0,000000000e+00    0,000000000e+00    0,000000000e+00
     1220000000   -2,734450102e-01    3,317688704e-01   -2,183434786e-03    1,663195193e-01    0,000000000e+00    0,000000000e+00    0,000000000e+00    0,000000000e+00
     1234000000   -4,558994621e-02    3,458526731e-01    2,598683350e-02    5,074305832e-02    0,000000000e+00    0,000000000e+00    0,000000000e+00    0,000000000e+00
     1248000000    1,183235943e-01    2,513586581e-01    1,644429052e-03    2,973496914e-02    0,000000000e+00    0,000000000e+00    0,000000000e+00    0,000000000e+00
     1262000000    2,093074024e-01    1,022702157e-01    2,654341748e-03    2,858651802e-02    0,000000000e+00    0,000000000e+00    0,000000000e+00    0,000000000e+00
     1276000000    2,370578647e-01   -5,466010794e-02    3,059240431e-02    3,423314914e-02    0,000000000e+00    0,000000000e+00    0,000000000e+00    0,000000000e+00
     1290000000    1,932962239e-01   -2,205737829e-01    5,530412123e-02    2,156253159e-02    0,000000000e+00    0,000000000e+00    0,000000000e+00    0,000000000e+00
     1304000000    8,618501574e-02   -3,631426990e-01    7,601327449e-02    3,705318784e-03    0,000000000e+00    0,000000000e+00    0,000000000e+00    0,000000000e+00
     1318000000   -1,014562249e-01   -4,474827349e-01    8,433037251e-02   -1,531282347e-02    0,000000000e+00    0,000000000e+00    0,000000000e+00    0,000000000e+00
     1332000000   -3,496161401e-01   -4,324227273e-01    8,869149536e-02   -1,110212598e-02    0,000000000e+00    0,000000000e+00    0,000000000e+00    0,000000000e+00
     1346000000   -5,953477621e-01   -2,464614660e-01    1,000668034e-01   -5,129974801e-03    0,000000000e+00    0,000000000e+00    0,000000000e+00    0,000000000e+00
     1360000000   -6,488204002e-01    7,124784589e-02    1,419363767e-01   -6,490326487e-03    0,000000000e+00    0,000000000e+00    0,000000000e+00    0,000000000e+00
     1374000000   -4,950013459e-01    3,332997262e-01    1,665216833e-01   -4,903987423e-02    0,000000000e+00    0,000000000e+00    0,000000000e+00    0,000000000e+00
     1388000000   -2,496656626e-01    4,262210429e-01    1,638156623e-01   -7,898576558e-02    0,000000000e+00    0,000000000e+00    0,000000000e+00    0,000000000e+00
     1402000000   -3,775179386e-02    3,899256885e-01    1,472601146e-01   -1,031449065e-01    0,000000000e+00    0,000000000e+00    0,000000000e+00    0,000000000e+00
     1416000000    1,037110463e-01    2,888399363e-01    1,270457506e-01   -8,458572626e-02    0,000000000e+00    0,000000000e+00    0,000000000e+00    0,000000000e+00
     1430000000    1,863809675e-01    1,456838697e-01    9,967567772e-02   -5,255827308e-02    0,000000000e+00    0,000000000e+00    0,000000000e+00    0,000000000e+00
     1444000000    2,150319368e-01   -7,729482371e-03    1,178915352e-01   -1,945255324e-02    0,000000000e+00    0,000000000e+00    0,000000000e+00    0,000000000e+00
     1458000000    1,814083159e-01   -1,811159551e-01    1,345639229e-01    1,697978005e-02    0,000000000e+00    0,000000000e+00    0,000000000e+00    0,000000000e+00
     1472000000    6,794992089e-02   -3,482168913e-01    2,005544156e-01    7,187466323e-02    0,000000000e+00    0,000000000e+00    0,000000000e+00    0,000000000e+00
     1486000000   -1,421291232e-01   -4,755501151e-01    2,823926806e-01    8,515709639e-02    0,000000000e+00    0,000000000e+00    0,000000000e+00    0,000000000e+00
     1500000000   -4,434735179e-01   -4,765067697e-01    4,146019518e-01    5,277732015e-02    0,000000000e+00    0,000000000e+00    0,000000000e+00    0,000000000e+00
