! NanoVNA-App
! Date: 2025-09-25 15:59:30
! Start: 100MHz Stop: 1,5GHz Points: 101
! S-Parameter data: F S11 S21 S12 S22
# Hz S RI R 50
!     Frequency           S11_Real           S11_Imag           S21_Real           S21_Imag           S12_Real           S12_Imag           S22_Real           S22_Imag
      100000000   -2,824402787e-02   -2,855767263e-03    3,723009825e-01   -7,224241495e-01    0,000000000e+00    0,000000000e+00    0,000000000e+00    0,000000000e+00
      114000000   -1,568957232e-02    1,287176087e-02   -9,127892554e-02   -8,046556711e-01    0,000000000e+00    0,000000000e+00    0,000000000e+00    0,000000000e+00
      128000000    4,356006160e-03    1,192854065e-02   -5,156839490e-01   -6,186164021e-01    0,000000000e+00    0,000000000e+00    0,000000000e+00    0,000000000e+00
      142000000    1,549035218e-02   -1,769438735e-03   -7,674942613e-01   -2,340656668e-01    0,000000000e+00    0,000000000e+00    0,000000000e+00    0,000000000e+00
      156000000    1,712000743e-02   -1,341530401e-02   -7,657039165e-01    2,263214141e-01    0,000000000e+00    0,000000000e+00    0,000000000e+00    0,000000000e+00
      170000000    1,769620366e-02   -2,096534334e-02   -5,155830979e-01    6,064296365e-01    0,000000000e+00    0,000000000e+00    0,000000000e+00    0,000000000e+00
      184000000    2,207035199e-02   -3,554025292e-02   -9,841472656e-02    7,861666083e-01    0,000000000e+00    0,000000000e+00    0,000000000e+00    0,000000000e+00
      198000000    1,403159928e-02   -6,066185981e-02    3,459263742e-01    7,108519673e-01    0,000000000e+00    0,000000000e+00    0,000000000e+00    0,000000000e+00
      212000000   -1,767586172e-02   -7,913087308e-02    6,807433367e-01    4,063178003e-01    0,000000000e+00    0,000000000e+00    0,000000000e+00    0,000000000e+00
      226000000   -6,027720496e-02   -6,662282348e-02    7,957127094e-01   -3,557664156e-02    0,000000000e+00    0,000000000e+00    0,000000000e+00    0,000000000e+00
      240000000   -8,054707199e-02   -2,274756506e-02    6,418849826e-01   -4,718252122e-01    0,000000000e+00    0,000000000e+00    0,000000000e+00    0,000000000e+00
      254000000   -6,077406183e-02    1,982729509e-02    2,710834444e-01   -7,419391274e-01    0,000000000e+00    0,000000000e+00    0,000000000e+00    0,000000000e+00
      268000000   -2,091053315e-02    3,092171066e-02   -1,809043586e-01   -7,611028552e-01    0,000000000e+00    0,000000000e+00    0,000000000e+00    0,000000000e+00
      282000000    6,995382719e-03    1,375797670e-02   -5,632556081e-01   -5,324480534e-01    0,000000000e+00    0,000000000e+00    0,000000000e+00    0,000000000e+00
      296000000    1,244909037e-02   -6,228665821e-03   -7,604444623e-01   -1,343822032e-01    0,000000000e+00    0,000000000e+00    0,000000000e+00    0,000000000e+00
      310000000    1,349654142e-02   -1,454703882e-02   -7,097817659e-01    3,036946356e-01    0,000000000e+00    0,000000000e+00    0,000000000e+00    0,000000000e+00
      324000000    2,250945941e-02   -2,475883625e-02   -4,216147065e-01    6,397548914e-01    0,000000000e+00    0,000000000e+00    0,000000000e+00    0,000000000e+00
      338000000    2,825947106e-02   -5,061952770e-02   -1,660538139e-03    7,627936602e-01    0,000000000e+00    0,000000000e+00    0,000000000e+00    0,000000000e+00
      352000000    1,020451449e-02   -8,294808865e-02    4,119032025e-01    6,353971362e-01    0,000000000e+00    0,000000000e+00    0,000000000e+00    0,000000000e+00
      366000000   -3,207196295e-02   -9,379143268e-02    6,931651235e-01    3,042172194e-01    0,000000000e+00    0,000000000e+00    0,000000000e+00    0,000000000e+00
      380000000   -6,762439013e-02   -6,879745424e-02    7,461169362e-01   -1,343828887e-01    0,000000000e+00    0,000000000e+00    0,000000000e+00    0,000000000e+00
      394000000   -6,849991530e-02   -3,034967929e-02    5,398941040e-01   -5,283794403e-01    0,000000000e+00    0,000000000e+00    0,000000000e+00    0,000000000e+00
      408000000   -4,278188571e-02   -1,560151577e-02    1,495816708e-01   -7,340081334e-01    0,000000000e+00    0,000000000e+00    0,000000000e+00    0,000000000e+00
      422000000   -2,594094537e-02   -3,092427924e-02   -2,792599201e-01   -6,904965639e-01    0,000000000e+00    0,000000000e+00    0,000000000e+00    0,000000000e+00
      436000000   -3,925309330e-02   -4,914377630e-02   -6,099546552e-01   -4,198918045e-01    0,000000000e+00    0,000000000e+00    0,000000000e+00    0,000000000e+00
      450000000   -6,483664364e-02   -3,931611776e-02   -7,368855476e-01   -7,447754033e-03    0,000000000e+00    0,000000000e+00    0,000000000e+00    0,000000000e+00
      464000000   -6,718644500e-02   -6,672347896e-03   -6,074479222e-01    4,065139890e-01    0,000000000e+00    0,000000000e+00    0,000000000e+00    0,000000000e+00
      478000000   -3,878404200e-02    1,592307352e-02   -2,686644793e-01    6,703357100e-01    0,000000000e+00    0,000000000e+00    0,000000000e+00    0,000000000e+00
      492000000   -5,203980953e-03    6,444292143e-03    1,519494206e-01    6,953454018e-01    0,000000000e+00    0,000000000e+00    0,000000000e+00    0,000000000e+00
      506000000    6,819591857e-03   -2,035649307e-02    5,072934628e-01    4,879465401e-01    0,000000000e+00    0,000000000e+00    0,000000000e+00    0,000000000e+00
      520000000    6,135709700e-04   -3,845409676e-02    6,883046031e-01    1,233696416e-01    0,000000000e+00    0,000000000e+00    0,000000000e+00    0,000000000e+00
      534000000   -3,327368526e-03   -4,523548484e-02    6,323767304e-01   -2,819620371e-01    0,000000000e+00    0,000000000e+00    0,000000000e+00    0,000000000e+00
      548000000    1,219984028e-03   -5,935405195e-02    3,601875007e-01   -5,791916251e-01    0,000000000e+00    0,000000000e+00    0,000000000e+00    0,000000000e+00
      562000000   -8,196732961e-03   -8,882930875e-02   -2,731276676e-02   -6,720594168e-01    0,000000000e+00    0,000000000e+00    0,000000000e+00    0,000000000e+00
      576000000   -4,567097127e-02   -1,094611734e-01   -4,008152187e-01   -5,387006402e-01    0,000000000e+00    0,000000000e+00    0,000000000e+00    0,000000000e+00
      590000000   -9,468775988e-02   -9,343440086e-02   -6,397593617e-01   -2,172038257e-01    0,000000000e+00    0,000000000e+00    0,000000000e+00    0,000000000e+00
      604000000   -1,116349623e-01   -4,158735648e-02   -6,475189328e-01    1,979943365e-01    0,000000000e+00    0,000000000e+00    0,000000000e+00    0,000000000e+00
      618000000   -7,566355169e-02   -1,748371171e-03   -4,027474523e-01    5,353690982e-01    0,000000000e+00    0,000000000e+00    0,000000000e+00    0,000000000e+00
      632000000   -3,000955284e-02   -2,067182027e-02   -1,254389901e-02    6,552081108e-01    0,000000000e+00    0,000000000e+00    0,000000000e+00    0,000000000e+00
      646000000   -3,573704511e-02   -7,683001459e-02    3,655997515e-01    5,273863673e-01    0,000000000e+00    0,000000000e+00    0,000000000e+00    0,000000000e+00
      660000000   -1,122937053e-01   -1,001967713e-01    6,013553739e-01    1,941591650e-01    0,000000000e+00    0,000000000e+00    0,000000000e+00    0,000000000e+00
      674000000   -1,996726841e-01   -2,303646505e-02    5,653669834e-01   -2,400376946e-01    0,000000000e+00    0,000000000e+00    0,000000000e+00    0,000000000e+00
      688000000   -1,788780391e-01    1,452501267e-01    2,097351700e-01   -5,211793780e-01    0,000000000e+00    0,000000000e+00    0,000000000e+00    0,000000000e+00
      702000000    2,592950873e-02    2,450641245e-01   -1,983376592e-01   -3,997892141e-01    0,000000000e+00    0,000000000e+00    0,000000000e+00    0,000000000e+00
      716000000    2,629623711e-01    1,106997579e-01   -2,733826935e-01   -8,385565877e-02    0,000000000e+00    0,000000000e+00    0,000000000e+00    0,000000000e+00
      730000000    3,032605350e-01   -1,862204969e-01   -1,070692465e-01    3,228093311e-02    0,000000000e+00    0,000000000e+00    0,000000000e+00    0,000000000e+00
      744000000    9,407830983e-02   -4,270896316e-01   -4,256828502e-02   -6,488116086e-02    0,000000000e+00    0,000000000e+00    0,000000000e+00    0,000000000e+00
      758000000   -2,595116198e-01   -4,292548895e-01   -1,751762480e-01   -1,250755638e-01    0,000000000e+00    0,000000000e+00    0,000000000e+00    0,000000000e+00
      772000000   -4,841436744e-01   -1,191559881e-01   -3,363648355e-01    3,802598268e-02    0,000000000e+00    0,000000000e+00    0,000000000e+00    0,000000000e+00
      786000000   -3,406779170e-01    2,222668082e-01   -2,626746893e-01    3,168322444e-01    0,000000000e+00    0,000000000e+00    0,000000000e+00    0,000000000e+00
      800000000   -4,133877158e-02    2,766771317e-01    3,436281811e-03    4,359572232e-01    0,000000000e+00    0,000000000e+00    0,000000000e+00    0,000000000e+00
      814000000    1,446603090e-01    1,249036863e-01    2,637695372e-01    3,601300418e-01    0,000000000e+00    0,000000000e+00    0,000000000e+00    0,000000000e+00
      828000000    1,682514399e-01   -7,024353743e-02    4,323740304e-01    1,563306749e-01    0,000000000e+00    0,000000000e+00    0,000000000e+00    0,000000000e+00
      842000000    6,782694161e-02   -2,183232754e-01    4,667104483e-01   -1,195865050e-01    0,000000000e+00    0,000000000e+00    0,000000000e+00    0,000000000e+00
      856000000   -1,061060056e-01   -2,645072043e-01    3,194438517e-01   -3,952973485e-01    0,000000000e+00    0,000000000e+00    0,000000000e+00    0,000000000e+00
      870000000   -2,745670080e-01   -1,673918813e-01   -3,245232860e-03   -5,263643265e-01    0,000000000e+00    0,000000000e+00    0,000000000e+00    0,000000000e+00
      884000000   -3,200059533e-01    3,552871197e-02   -3,479993343e-01   -3,926879168e-01    0,000000000e+00    0,000000000e+00    0,000000000e+00    0,000000000e+00
      898000000   -1,919225454e-01    2,070605457e-01   -4,886577725e-01   -6,191878393e-02    0,000000000e+00    0,000000000e+00    0,000000000e+00    0,000000000e+00
      912000000    6,360036321e-03    2,196237892e-01   -4,046768248e-01    2,631404698e-01    0,000000000e+00    0,000000000e+00    0,000000000e+00    0,000000000e+00
      926000000    1,507174671e-01    1,106561124e-01   -1,681234837e-01    4,152654409e-01    0,000000000e+00    0,000000000e+00    0,000000000e+00    0,000000000e+00
      940000000    1,998986751e-01   -4,641725123e-02    6,454069912e-02    4,235427976e-01    0,000000000e+00    0,000000000e+00    0,000000000e+00    0,000000000e+00
      954000000    1,568291932e-01   -2,015850395e-01    2,604593635e-01    3,425112665e-01    0,000000000e+00    0,000000000e+00    0,000000000e+00    0,000000000e+00
      968000000    2,550285496e-02   -3,153606355e-01    4,099974036e-01    1,795304865e-01    0,000000000e+00    0,000000000e+00    0,000000000e+00    0,000000000e+00
      982000000   -1,603896767e-01   -3,336384594e-01    4,746586680e-01   -6,566765904e-02    0,000000000e+00    0,000000000e+00    0,000000000e+00    0,000000000e+00
      996000000   -3,225091696e-01   -2,099138945e-01    3,678416014e-01   -3,562754691e-01    0,000000000e+00    0,000000000e+00    0,000000000e+00    0,000000000e+00
     1010000000   -3,419406414e-01   -1,030349638e-02    4,240547493e-02   -5,243781805e-01    0,000000000e+00    0,000000000e+00    0,000000000e+00    0,000000000e+00
     1024000000   -2,075215280e-01    9,491997957e-02   -3,448407650e-01   -3,811373711e-01    0,000000000e+00    0,000000000e+00    0,000000000e+00    0,000000000e+00
     1038000000   -1,388608962e-01    1,067757420e-02   -4,807163477e-01    6,578760594e-02    0,000000000e+00    0,000000000e+00    0,000000000e+00    0,000000000e+00
     1052000000   -2,857888937e-01    5,424011499e-02   -9,472261369e-02    3,706074059e-01    0,000000000e+00    0,000000000e+00    0,000000000e+00    0,000000000e+00
     1066000000   -1,502580047e-01    2,922112644e-01    1,438065320e-01    1,345609576e-01    0,000000000e+00    0,000000000e+00    0,000000000e+00    0,000000000e+00
     1080000000    1,013641655e-01    2,464558631e-01    9,200167656e-02    2,271392569e-02    0,000000000e+00    0,000000000e+00    0,000000000e+00    0,000000000e+00
     1094000000    2,238601297e-01    8,619929105e-02    6,994116306e-02    9,785545059e-03    0,000000000e+00    0,000000000e+00    0,000000000e+00    0,000000000e+00
     1108000000    2,392669618e-01   -8,818311989e-02    8,084430546e-02    2,017218794e-04    0,000000000e+00    0,000000000e+00    0,000000000e+00    0,000000000e+00
     1122000000    1,842196733e-01   -2,529559135e-01    1,032738909e-01   -2,640021592e-02    0,000000000e+00    0,000000000e+00    0,000000000e+00    0,000000000e+00
     1136000000    5,143238232e-02   -3,803829551e-01    1,273650974e-01   -7,128310949e-02    0,000000000e+00    0,000000000e+00    0,000000000e+00    0,000000000e+00
     1150000000   -1,525455713e-01   -4,213862121e-01    1,386059672e-01   -1,491380632e-01    0,000000000e+00    0,000000000e+00    0,000000000e+00    0,000000000e+00
     1164000000   -3,795233667e-01   -3,246718943e-01    9,890609980e-02   -2,780062854e-01    0,000000000e+00    0,000000000e+00    0,000000000e+00    0,000000000e+00
     1178000000   -4,645103514e-01   -8,484183997e-02   -1,098066568e-01   -4,023326933e-01    0,000000000e+00    0,000000000e+00    0,000000000e+00    0,000000000e+00
     1192000000   -3,731499016e-01    4,138931632e-02   -4,629527628e-01   -1,924304068e-01    0,000000000e+00    0,000000000e+00    0,000000000e+00    0,000000000e+00
     1206000000   -4,155956805e-01    1,351927668e-01   -2,711873651e-01    2,381988168e-01    0,000000000e+00    0,000000000e+00    0,000000000e+00    0,000000000e+00
     1220000000   -2,749513388e-01    3,337714672e-01   -1,293932437e-03    1,658715010e-01    0,000000000e+00    0,000000000e+00    0,000000000e+00    0,000000000e+00
     1234000000   -4,897324368e-02    3,502807617e-01    2,255657502e-02    5,352734029e-02    0,000000000e+00    0,000000000e+00    0,000000000e+00    0,000000000e+00
     1248000000    1,165827289e-01    2,528650761e-01    4,042836837e-03    2,257080376e-02    0,000000000e+00    0,000000000e+00    0,000000000e+00    0,000000000e+00
     1262000000    2,098472714e-01    1,020505428e-01    2,417760668e-03    2,890289761e-02    0,000000000e+00    0,000000000e+00    0,000000000e+00    0,000000000e+00
     1276000000    2,334080935e-01   -6,266596168e-02    2,725068666e-02    3,101838939e-02    0,000000000e+00    0,000000000e+00    0,000000000e+00    0,000000000e+00
     1290000000    1,941834837e-01   -2,178563774e-01    6,113880500e-02    2,128646523e-02    0,000000000e+00    0,000000000e+00    0,000000000e+00    0,000000000e+00
     1304000000    7,979182899e-02   -3,548761308e-01    7,951219380e-02    5,744250957e-03    0,000000000e+00    0,000000000e+00    0,000000000e+00    0,000000000e+00
     1318000000   -1,062650830e-01   -4,475697279e-01    8,001696318e-02   -1,049857400e-02    0,000000000e+00    0,000000000e+00    0,000000000e+00    0,000000000e+00
     1332000000   -3,545536399e-01   -4,363914728e-01    7,583846152e-02   -1,461612061e-02    0,000000000e+00    0,000000000e+00    0,000000000e+00    0,000000000e+00
     1346000000   -5,916540623e-01   -2,454829812e-01    1,013795584e-01   -1,126302965e-02    0,000000000e+00    0,000000000e+00    0,000000000e+00    0,000000000e+00
     1360000000   -6,499516964e-01    7,473799586e-02    1,493412256e-01   -1,772140712e-02    0,000000000e+00    0,000000000e+00    0,000000000e+00    0,000000000e+00
     1374000000   -4,922447503e-01    3,315039277e-01    1,659470499e-01   -4,883908108e-02    0,000000000e+00    0,000000000e+00    0,000000000e+00    0,000000000e+00
     1388000000   -2,573126256e-01    4,252430797e-01    1,563759148e-01   -9,071392566e-02    0,000000000e+00    0,000000000e+00    0,000000000e+00    0,000000000e+00
     1402000000   -4,112853482e-02    3,926787972e-01    1,471637785e-01   -9,454882145e-02    0,000000000e+00    0,000000000e+00    0,000000000e+00    0,000000000e+00
     1416000000    9,991513193e-02    2,864862680e-01    1,251224279e-01   -7,968416065e-02    0,000000000e+00    0,000000000e+00    0,000000000e+00    0,000000000e+00
     1430000000    1,865607798e-01    1,555488259e-01    1,074570492e-01   -5,806363374e-02    0,000000000e+00    0,000000000e+00    0,000000000e+00    0,000000000e+00
     1444000000    2,088045478e-01   -1,482145116e-02    1,099188551e-01   -2,248322777e-02    0,000000000e+00    0,000000000e+00    0,000000000e+00    0,000000000e+00
     1458000000    1,808369607e-01   -1,785972565e-01    1,464384049e-01    3,120425530e-02    0,000000000e+00    0,000000000e+00    0,000000000e+00    0,000000000e+00
     1472000000    6,582462788e-02   -3,479919434e-01    2,048856020e-01    6,134191528e-02    0,000000000e+00    0,000000000e+00    0,000000000e+00    0,000000000e+00
     1486000000   -1,415303051e-01   -4,811252356e-01    2,877762914e-01    9,115926921e-02    0,000000000e+00    0,000000000e+00    0,000000000e+00    0,000000000e+00
     1500000000   -4,475959241e-01   -4,904715121e-01    4,052755237e-01    4,909177125e-02    0,000000000e+00    0,000000000e+00    0,000000000e+00    0,000000000e+00
