! NanoVNA-App
! Date: 2025-09-25 15:57:04
! Start: 100MHz Stop: 1,5GHz Points: 101
! S-Parameter data: F S11 S21 S12 S22
# Hz S RI R 50
!     Frequency           S11_Real           S11_Imag           S21_Real           S21_Imag           S12_Real           S12_Imag           S22_Real           S22_Imag
      100000000   -2,820967138e-02   -2,842731541e-03    3,722802997e-01   -7,224382162e-01    0,000000000e+00    0,000000000e+00    0,000000000e+00    0,000000000e+00
      114000000   -1,562659256e-02    1,287985407e-02   -9,140417725e-02   -8,047595024e-01    0,000000000e+00    0,000000000e+00    0,000000000e+00    0,000000000e+00
      128000000    4,451648332e-03    1,187858451e-02   -5,158684254e-01   -6,188014150e-01    0,000000000e+00    0,000000000e+00    0,000000000e+00    0,000000000e+00
      142000000    1,551548764e-02   -1,817664015e-03   -7,672517896e-01   -2,340302318e-01    0,000000000e+00    0,000000000e+00    0,000000000e+00    0,000000000e+00
      156000000    1,740933210e-02   -1,394690387e-02   -7,679179907e-01    2,273650169e-01    0,000000000e+00    0,000000000e+00    0,000000000e+00    0,000000000e+00
      170000000    1,759853214e-02   -2,105059847e-02   -5,156990886e-01    6,064714789e-01    0,000000000e+00    0,000000000e+00    0,000000000e+00    0,000000000e+00
      184000000    2,200318687e-02   -3,559504449e-02   -9,821490943e-02    7,859061360e-01    0,000000000e+00    0,000000000e+00    0,000000000e+00    0,000000000e+00
      198000000    1,402984932e-02   -6,068460271e-02    3,460284770e-01    7,108258605e-01    0,000000000e+00    0,000000000e+00    0,000000000e+00    0,000000000e+00
      212000000   -1,767626591e-02   -7,919049263e-02    6,806809306e-01    4,063388109e-01    0,000000000e+00    0,000000000e+00    0,000000000e+00    0,000000000e+00
      226000000   -6,033504754e-02   -6,662438810e-02    7,957301140e-01   -3,558954224e-02    0,000000000e+00    0,000000000e+00    0,000000000e+00    0,000000000e+00
      240000000   -8,055911213e-02   -2,276088484e-02    6,415888071e-01   -4,717526734e-01    0,000000000e+00    0,000000000e+00    0,000000000e+00    0,000000000e+00
      254000000   -6,078374386e-02    1,978077926e-02    2,706911862e-01   -7,418525815e-01    0,000000000e+00    0,000000000e+00    0,000000000e+00    0,000000000e+00
      268000000   -2,087866887e-02    3,082878888e-02   -1,813742369e-01   -7,607181668e-01    0,000000000e+00    0,000000000e+00    0,000000000e+00    0,000000000e+00
      282000000    6,901842076e-03    1,369457971e-02   -5,630463958e-01   -5,323545933e-01    0,000000000e+00    0,000000000e+00    0,000000000e+00    0,000000000e+00
      296000000    1,228657737e-02   -6,195651833e-03   -7,603280544e-01   -1,343482435e-01    0,000000000e+00    0,000000000e+00    0,000000000e+00    0,000000000e+00
      310000000    1,359926537e-02   -1,451329887e-02   -7,088834643e-01    3,053557873e-01    0,000000000e+00    0,000000000e+00    0,000000000e+00    0,000000000e+00
      324000000    2,269012481e-02   -2,455315925e-02   -4,207812846e-01    6,395299435e-01    0,000000000e+00    0,000000000e+00    0,000000000e+00    0,000000000e+00
      338000000    2,866911888e-02   -5,087532476e-02   -3,225950757e-03    7,600638866e-01    0,000000000e+00    0,000000000e+00    0,000000000e+00    0,000000000e+00
      352000000    1,012746245e-02   -8,276626468e-02    4,110128284e-01    6,353962421e-01    0,000000000e+00    0,000000000e+00    0,000000000e+00    0,000000000e+00
      366000000   -3,147149459e-02   -9,367171675e-02    6,932284236e-01    3,046482205e-01    0,000000000e+00    0,000000000e+00    0,000000000e+00    0,000000000e+00
      380000000   -6,761384010e-02   -6,855234504e-02    7,459405065e-01   -1,339636892e-01    0,000000000e+00    0,000000000e+00    0,000000000e+00    0,000000000e+00
      394000000   -6,861975789e-02   -3,065869957e-02    5,397792459e-01   -5,289691091e-01    0,000000000e+00    0,000000000e+00    0,000000000e+00    0,000000000e+00
      408000000   -4,267568514e-02   -1,565571316e-02    1,509429812e-01   -7,338608503e-01    0,000000000e+00    0,000000000e+00    0,000000000e+00    0,000000000e+00
      422000000   -2,601091005e-02   -3,109189868e-02   -2,790326774e-01   -6,901265979e-01    0,000000000e+00    0,000000000e+00    0,000000000e+00    0,000000000e+00
      436000000   -3,920388222e-02   -4,887809604e-02   -6,099510193e-01   -4,192931950e-01    0,000000000e+00    0,000000000e+00    0,000000000e+00    0,000000000e+00
      450000000   -6,452131271e-02   -3,891207278e-02   -7,369434834e-01   -7,518558297e-03    0,000000000e+00    0,000000000e+00    0,000000000e+00    0,000000000e+00
      464000000   -6,773923337e-02   -5,846578162e-03   -6,076281667e-01    4,064007998e-01    0,000000000e+00    0,000000000e+00    0,000000000e+00    0,000000000e+00
      478000000   -3,837054595e-02    1,625441574e-02   -2,674762309e-01    6,705914736e-01    0,000000000e+00    0,000000000e+00    0,000000000e+00    0,000000000e+00
      492000000   -5,542330910e-03    5,919548217e-03    1,517811567e-01    6,948684454e-01    0,000000000e+00    0,000000000e+00    0,000000000e+00    0,000000000e+00
      506000000    6,893786602e-03   -1,999304257e-02    5,073390007e-01    4,891045690e-01    0,000000000e+00    0,000000000e+00    0,000000000e+00    0,000000000e+00
      520000000    7,861669874e-04   -3,860288113e-02    6,888041496e-01    1,214684322e-01    0,000000000e+00    0,000000000e+00    0,000000000e+00    0,000000000e+00
      534000000   -3,514634445e-03   -4,546774924e-02    6,322031021e-01   -2,819778621e-01    0,000000000e+00    0,000000000e+00    0,000000000e+00    0,000000000e+00
      548000000    1,196704572e-03   -5,959933251e-02    3,596903980e-01   -5,790181160e-01    0,000000000e+00    0,000000000e+00    0,000000000e+00    0,000000000e+00
      562000000   -7,776661776e-03   -8,823201805e-02   -2,646575682e-02   -6,720188260e-01    0,000000000e+00    0,000000000e+00    0,000000000e+00    0,000000000e+00
      576000000   -4,506723955e-02   -1,096961498e-01   -4,016841054e-01   -5,386437178e-01    0,000000000e+00    0,000000000e+00    0,000000000e+00    0,000000000e+00
      590000000   -9,477128834e-02   -9,340401739e-02   -6,418225169e-01   -2,177268863e-01    0,000000000e+00    0,000000000e+00    0,000000000e+00    0,000000000e+00
      604000000   -1,115849167e-01   -4,138860852e-02   -6,473631263e-01    1,978077888e-01    0,000000000e+00    0,000000000e+00    0,000000000e+00    0,000000000e+00
      618000000   -7,568584383e-02   -1,902295160e-03   -4,020027816e-01    5,357338190e-01    0,000000000e+00    0,000000000e+00    0,000000000e+00    0,000000000e+00
      632000000   -2,948278375e-02   -2,143548056e-02   -1,251260098e-02    6,548162103e-01    0,000000000e+00    0,000000000e+00    0,000000000e+00    0,000000000e+00
      646000000   -3,674272820e-02   -7,735172659e-02    3,650078177e-01    5,277110934e-01    0,000000000e+00    0,000000000e+00    0,000000000e+00    0,000000000e+00
      660000000   -1,117194444e-01   -1,005165353e-01    6,004067063e-01    1,928743124e-01    0,000000000e+00    0,000000000e+00    0,000000000e+00    0,000000000e+00
      674000000   -2,002473325e-01   -2,297467180e-02    5,649029016e-01   -2,400708944e-01    0,000000000e+00    0,000000000e+00    0,000000000e+00    0,000000000e+00
      688000000   -1,795743108e-01    1,452957094e-01    2,092554122e-01   -5,209211707e-01    0,000000000e+00    0,000000000e+00    0,000000000e+00    0,000000000e+00
      702000000    2,721429244e-02    2,483901531e-01   -2,045780569e-01   -4,044122100e-01    0,000000000e+00    0,000000000e+00    0,000000000e+00    0,000000000e+00
      716000000    2,641637325e-01    1,107116789e-01   -2,717836201e-01   -8,298613876e-02    0,000000000e+00    0,000000000e+00    0,000000000e+00    0,000000000e+00
      730000000    3,030105531e-01   -1,862549931e-01   -1,060623378e-01    3,131934255e-02    0,000000000e+00    0,000000000e+00    0,000000000e+00    0,000000000e+00
      744000000    9,278561175e-02   -4,279040992e-01   -4,221038520e-02   -6,614986062e-02    0,000000000e+00    0,000000000e+00    0,000000000e+00    0,000000000e+00
      758000000   -2,599818707e-01   -4,296728969e-01   -1,764132529e-01   -1,256783754e-01    0,000000000e+00    0,000000000e+00    0,000000000e+00    0,000000000e+00
      772000000   -4,844782352e-01   -1,198510155e-01   -3,370369375e-01    3,847165406e-02    0,000000000e+00    0,000000000e+00    0,000000000e+00    0,000000000e+00
      786000000   -3,414781094e-01    2,220337093e-01   -2,633424997e-01    3,170104623e-01    0,000000000e+00    0,000000000e+00    0,000000000e+00    0,000000000e+00
      800000000   -4,126655310e-02    2,763954401e-01    3,216071986e-03    4,369436800e-01    0,000000000e+00    0,000000000e+00    0,000000000e+00    0,000000000e+00
      814000000    1,437603831e-01    1,251294911e-01    2,645821571e-01    3,592309058e-01    0,000000000e+00    0,000000000e+00    0,000000000e+00    0,000000000e+00
      828000000    1,678248793e-01   -6,988966465e-02    4,329988360e-01    1,566007286e-01    0,000000000e+00    0,000000000e+00    0,000000000e+00    0,000000000e+00
      842000000    6,713642180e-02   -2,182157785e-01    4,665111601e-01   -1,202839836e-01    0,000000000e+00    0,000000000e+00    0,000000000e+00    0,000000000e+00
      856000000   -1,065185219e-01   -2,636539936e-01    3,203182817e-01   -3,951848447e-01    0,000000000e+00    0,000000000e+00    0,000000000e+00    0,000000000e+00
      870000000   -2,749355137e-01   -1,686537415e-01   -2,419682452e-03   -5,273080468e-01    0,000000000e+00    0,000000000e+00    0,000000000e+00    0,000000000e+00
      884000000   -3,200751543e-01    3,623404354e-02   -3,475714624e-01   -3,921604455e-01    0,000000000e+00    0,000000000e+00    0,000000000e+00    0,000000000e+00
      898000000   -1,916354299e-01    2,063242197e-01   -4,880917668e-01   -6,306703389e-02    0,000000000e+00    0,000000000e+00    0,000000000e+00    0,000000000e+00
      912000000    6,815258414e-03    2,178887725e-01   -4,067013264e-01    2,790546417e-01    0,000000000e+00    0,000000000e+00    0,000000000e+00    0,000000000e+00
      926000000    1,516353637e-01    1,132840738e-01   -1,670062393e-01    4,156641960e-01    0,000000000e+00    0,000000000e+00    0,000000000e+00    0,000000000e+00
      940000000    1,999815255e-01   -4,440000653e-02    6,382165849e-02    4,250096083e-01    0,000000000e+00    0,000000000e+00    0,000000000e+00    0,000000000e+00
      954000000    1,526134461e-01   -2,001571655e-01    2,596971989e-01    3,405876458e-01    0,000000000e+00    0,000000000e+00    0,000000000e+00    0,000000000e+00
      968000000    2,306877449e-02   -3,128979206e-01    4,103978872e-01    1,785901934e-01    0,000000000e+00    0,000000000e+00    0,000000000e+00    0,000000000e+00
      982000000   -1,631537527e-01   -3,338577449e-01    4,750505984e-01   -6,701660901e-02    0,000000000e+00    0,000000000e+00    0,000000000e+00    0,000000000e+00
      996000000   -3,250730336e-01   -2,125134766e-01    3,686956465e-01   -3,563767374e-01    0,000000000e+00    0,000000000e+00    0,000000000e+00    0,000000000e+00
     1010000000   -3,387783468e-01   -1,057090797e-02    4,111542553e-02   -5,233566761e-01    0,000000000e+00    0,000000000e+00    0,000000000e+00    0,000000000e+00
     1024000000   -2,029507011e-01    9,376973659e-02   -3,449821770e-01   -3,815152049e-01    0,000000000e+00    0,000000000e+00    0,000000000e+00    0,000000000e+00
     1038000000   -1,373342127e-01    7,767572999e-03   -4,829313457e-01    6,453408301e-02    0,000000000e+00    0,000000000e+00    0,000000000e+00    0,000000000e+00
     1052000000   -2,905392051e-01    5,661532283e-02   -9,367636591e-02    3,728141785e-01    0,000000000e+00    0,000000000e+00    0,000000000e+00    0,000000000e+00
     1066000000   -1,527534425e-01    2,954998612e-01    1,423313469e-01    1,326675117e-01    0,000000000e+00    0,000000000e+00    0,000000000e+00    0,000000000e+00
     1080000000    9,810777754e-02    2,469583452e-01    9,205221385e-02    2,125375904e-02    0,000000000e+00    0,000000000e+00    0,000000000e+00    0,000000000e+00
     1094000000    2,212658226e-01    8,612021059e-02    6,873129308e-02    9,497992694e-03    0,000000000e+00    0,000000000e+00    0,000000000e+00    0,000000000e+00
     1108000000    2,432976514e-01   -8,969648927e-02    8,190117031e-02   -1,854790957e-03    0,000000000e+00    0,000000000e+00    0,000000000e+00    0,000000000e+00
     1122000000    1,798970252e-01   -2,512497008e-01    1,038844734e-01   -2,818180248e-02    0,000000000e+00    0,000000000e+00    0,000000000e+00    0,000000000e+00
     1136000000    4,728879407e-02   -3,795229197e-01    1,248581484e-01   -7,429889590e-02    0,000000000e+00    0,000000000e+00    0,000000000e+00    0,000000000e+00
     1150000000   -1,553164423e-01   -4,219448268e-01    1,364162266e-01   -1,524318606e-01    0,000000000e+00    0,000000000e+00    0,000000000e+00    0,000000000e+00
     1164000000   -3,759126961e-01   -3,285465837e-01    9,999684244e-02   -2,763406634e-01    0,000000000e+00    0,000000000e+00    0,000000000e+00    0,000000000e+00
     1178000000   -4,688904285e-01   -8,618203551e-02   -1,021807939e-01   -4,070537388e-01    0,000000000e+00    0,000000000e+00    0,000000000e+00    0,000000000e+00
     1192000000   -3,699687123e-01    4,060910642e-02   -4,619688094e-01   -1,993659139e-01    0,000000000e+00    0,000000000e+00    0,000000000e+00    0,000000000e+00
     1206000000   -4,148150384e-01    1,300475150e-01   -2,748210728e-01    2,351456583e-01    0,000000000e+00    0,000000000e+00    0,000000000e+00    0,000000000e+00
     1220000000   -2,757717967e-01    3,266693652e-01   -4,137153272e-03    1,637381017e-01    0,000000000e+00    0,000000000e+00    0,000000000e+00    0,000000000e+00
     1234000000   -4,945084825e-02    3,499726653e-01    2,534488961e-02    5,635549873e-02    0,000000000e+00    0,000000000e+00    0,000000000e+00    0,000000000e+00
     1248000000    1,181041822e-01    2,468829155e-01   -1,633027336e-03    2,065441012e-02    0,000000000e+00    0,000000000e+00    0,000000000e+00    0,000000000e+00
     1262000000    2,145693302e-01    1,060604379e-01    8,126722649e-03    3,347390890e-02    0,000000000e+00    0,000000000e+00    0,000000000e+00    0,000000000e+00
     1276000000    2,300001085e-01   -5,526783317e-02    2,614181489e-02    3,594230860e-02    0,000000000e+00    0,000000000e+00    0,000000000e+00    0,000000000e+00
     1290000000    1,959195286e-01   -2,128713578e-01    5,933033675e-02    2,863464691e-02    0,000000000e+00    0,000000000e+00    0,000000000e+00    0,000000000e+00
     1304000000    8,422254771e-02   -3,537896276e-01    8,072804660e-02    8,048960008e-03    0,000000000e+00    0,000000000e+00    0,000000000e+00    0,000000000e+00
     1318000000   -1,048151702e-01   -4,482732117e-01    8,001307398e-02   -7,236596663e-03    0,000000000e+00    0,000000000e+00    0,000000000e+00    0,000000000e+00
     1332000000   -3,512536287e-01   -4,328623414e-01    9,353683144e-02   -1,823280193e-02    0,000000000e+00    0,000000000e+00    0,000000000e+00    0,000000000e+00
     1346000000   -5,906164050e-01   -2,461032867e-01    1,052998528e-01   -1,475012116e-02    0,000000000e+00    0,000000000e+00    0,000000000e+00    0,000000000e+00
     1360000000   -6,495872140e-01    7,432811707e-02    1,458669305e-01   -2,190984227e-02    0,000000000e+00    0,000000000e+00    0,000000000e+00    0,000000000e+00
     1374000000   -4,876931906e-01    3,308675289e-01    1,703180224e-01   -4,117647558e-02    0,000000000e+00    0,000000000e+00    0,000000000e+00    0,000000000e+00
     1388000000   -2,496420592e-01    4,208646715e-01    1,611473858e-01   -9,105287492e-02    0,000000000e+00    0,000000000e+00    0,000000000e+00    0,000000000e+00
     1402000000   -3,645453975e-02    3,843473196e-01    1,459365636e-01   -1,020450741e-01    0,000000000e+00    0,000000000e+00    0,000000000e+00    0,000000000e+00
     1416000000    9,642276913e-02    2,834888101e-01    1,227722466e-01   -8,914081752e-02    0,000000000e+00    0,000000000e+00    0,000000000e+00    0,000000000e+00
     1430000000    1,813205481e-01    1,425089389e-01    1,139175445e-01   -5,976917967e-02    0,000000000e+00    0,000000000e+00    0,000000000e+00    0,000000000e+00
     1444000000    2,127271444e-01   -1,027299743e-02    1,192374453e-01   -2,709989808e-02    0,000000000e+00    0,000000000e+00    0,000000000e+00    0,000000000e+00
     1458000000    1,837749183e-01   -1,804626286e-01    1,434395164e-01    3,244892880e-02    0,000000000e+00    0,000000000e+00    0,000000000e+00    0,000000000e+00
     1472000000    7,597559690e-02   -3,488547504e-01    2,045915425e-01    6,113878638e-02    0,000000000e+00    0,000000000e+00    0,000000000e+00    0,000000000e+00
     1486000000   -1,398072243e-01   -4,707711339e-01    2,865069211e-01    1,031908244e-01    0,000000000e+00    0,000000000e+00    0,000000000e+00    0,000000000e+00
     1500000000   -4,296093285e-01   -4,740143418e-01    4,161652625e-01    5,205929279e-02    0,000000000e+00    0,000000000e+00    0,000000000e+00    0,000000000e+00
