! NanoVNA-App
! Date: 2025-09-25 16:02:17
! Start: 100MHz Stop: 1,5GHz Points: 101
! S-Parameter data: F S11 S21 S12 S22
# Hz S RI R 50
!     Frequency           S11_Real           S11_Imag           S21_Real           S21_Imag           S12_Real           S12_Imag           S22_Real           S22_Imag
      100000000   -2,830251306e-02   -2,877761843e-03    3,723266423e-01   -7,224019170e-01    0,000000000e+00    0,000000000e+00    0,000000000e+00    0,000000000e+00
      114000000   -1,574551687e-02    1,288910955e-02   -9,129577130e-02   -8,047169447e-01    0,000000000e+00    0,000000000e+00    0,000000000e+00    0,000000000e+00
      128000000    4,288544878e-03    1,194232702e-02   -5,158130527e-01   -6,186620593e-01    0,000000000e+00    0,000000000e+00    0,000000000e+00    0,000000000e+00
      142000000    1,547504682e-02   -1,724801259e-03   -7,673844099e-01   -2,341643721e-01    0,000000000e+00    0,000000000e+00    0,000000000e+00    0,000000000e+00
      156000000    1,679907739e-02   -1,385614369e-02   -7,704069614e-01    2,264525145e-01    0,000000000e+00    0,000000000e+00    0,000000000e+00    0,000000000e+00
      170000000    1,769112982e-02   -2,095333487e-02   -5,155991912e-01    6,062853336e-01    0,000000000e+00    0,000000000e+00    0,000000000e+00    0,000000000e+00
      184000000    2,202980220e-02   -3,558581695e-02   -9,820720553e-02    7,862590551e-01    0,000000000e+00    0,000000000e+00    0,000000000e+00    0,000000000e+00
      198000000    1,403519791e-02   -6,064808369e-02    3,461424708e-01    7,110502720e-01    0,000000000e+00    0,000000000e+00    0,000000000e+00    0,000000000e+00
      212000000   -1,766855456e-02   -7,919465750e-02    6,808034182e-01    4,061746001e-01    0,000000000e+00    0,000000000e+00    0,000000000e+00    0,000000000e+00
      226000000   -6,027543172e-02   -6,670957804e-02    7,957394123e-01   -3,558638692e-02    0,000000000e+00    0,000000000e+00    0,000000000e+00    0,000000000e+00
      240000000   -8,049992472e-02   -2,277107909e-02    6,415503621e-01   -4,717568159e-01    0,000000000e+00    0,000000000e+00    0,000000000e+00    0,000000000e+00
      254000000   -6,077325344e-02    1,983327977e-02    2,710803151e-01   -7,420178652e-01    0,000000000e+00    0,000000000e+00    0,000000000e+00    0,000000000e+00
      268000000   -2,096143551e-02    3,084585629e-02   -1,810615361e-01   -7,607678175e-01    0,000000000e+00    0,000000000e+00    0,000000000e+00    0,000000000e+00
      282000000    6,960416213e-03    1,382471155e-02   -5,633082390e-01   -5,325449705e-01    0,000000000e+00    0,000000000e+00    0,000000000e+00    0,000000000e+00
      296000000    1,237829961e-02   -6,179165095e-03   -7,604669333e-01   -1,344383359e-01    0,000000000e+00    0,000000000e+00    0,000000000e+00    0,000000000e+00
      310000000    1,348686405e-02   -1,441904623e-02   -7,096371055e-01    3,049272895e-01    0,000000000e+00    0,000000000e+00    0,000000000e+00    0,000000000e+00
      324000000    2,240285277e-02   -2,473441511e-02   -4,221059084e-01    6,389557719e-01    0,000000000e+00    0,000000000e+00    0,000000000e+00    0,000000000e+00
      338000000    2,855203673e-02   -5,066026002e-02   -3,343897406e-03    7,587625384e-01    0,000000000e+00    0,000000000e+00    0,000000000e+00    0,000000000e+00
      352000000    1,020153798e-02   -8,274427801e-02    4,118245542e-01    6,353608966e-01    0,000000000e+00    0,000000000e+00    0,000000000e+00    0,000000000e+00
      366000000   -3,173661605e-02   -9,368850291e-02    6,935296655e-01    3,039647639e-01    0,000000000e+00    0,000000000e+00    0,000000000e+00    0,000000000e+00
      380000000   -6,764657050e-02   -6,890459359e-02    7,460644245e-01   -1,348441988e-01    0,000000000e+00    0,000000000e+00    0,000000000e+00    0,000000000e+00
      394000000   -6,827462465e-02   -3,048068658e-02    5,408086181e-01   -5,296958089e-01    0,000000000e+00    0,000000000e+00    0,000000000e+00    0,000000000e+00
      408000000   -4,261567444e-02   -1,569239609e-02    1,505841762e-01   -7,340723276e-01    0,000000000e+00    0,000000000e+00    0,000000000e+00    0,000000000e+00
      422000000   -2,632449754e-02   -3,114105202e-02   -2,792477310e-01   -6,892886162e-01    0,000000000e+00    0,000000000e+00    0,000000000e+00    0,000000000e+00
      436000000   -3,909960762e-02   -4,884561151e-02   -6,104010940e-01   -4,192167222e-01    0,000000000e+00    0,000000000e+00    0,000000000e+00    0,000000000e+00
      450000000   -6,484265625e-02   -3,879627213e-02   -7,373123765e-01   -7,357801311e-03    0,000000000e+00    0,000000000e+00    0,000000000e+00    0,000000000e+00
      464000000   -6,752800196e-02   -6,291794591e-03   -6,077837348e-01    4,062373936e-01    0,000000000e+00    0,000000000e+00    0,000000000e+00    0,000000000e+00
      478000000   -3,831142187e-02    1,587080024e-02   -2,674405575e-01    6,704225540e-01    0,000000000e+00    0,000000000e+00    0,000000000e+00    0,000000000e+00
      492000000   -4,929171875e-03    6,337166298e-03    1,521379054e-01    6,957490444e-01    0,000000000e+00    0,000000000e+00    0,000000000e+00    0,000000000e+00
      506000000    6,760727149e-03   -2,048228309e-02    5,075443387e-01    4,887515903e-01    0,000000000e+00    0,000000000e+00    0,000000000e+00    0,000000000e+00
      520000000    4,882262729e-04   -3,827330098e-02    6,904441714e-01    1,208200306e-01    0,000000000e+00    0,000000000e+00    0,000000000e+00    0,000000000e+00
      534000000   -3,300360171e-03   -4,541879147e-02    6,327638626e-01   -2,822995484e-01    0,000000000e+00    0,000000000e+00    0,000000000e+00    0,000000000e+00
      548000000    1,263973652e-03   -5,973682925e-02    3,600503206e-01   -5,796754956e-01    0,000000000e+00    0,000000000e+00    0,000000000e+00    0,000000000e+00
      562000000   -7,705278695e-03   -8,856654912e-02   -2,664116584e-02   -6,729879379e-01    0,000000000e+00    0,000000000e+00    0,000000000e+00    0,000000000e+00
      576000000   -4,560991377e-02   -1,100404263e-01   -4,015762508e-01   -5,384905338e-01    0,000000000e+00    0,000000000e+00    0,000000000e+00    0,000000000e+00
      590000000   -9,493945539e-02   -9,335361421e-02   -6,388743520e-01   -2,181957215e-01    0,000000000e+00    0,000000000e+00    0,000000000e+00    0,000000000e+00
      604000000   -1,117671430e-01   -4,146773741e-02   -6,480295658e-01    1,981083006e-01    0,000000000e+00    0,000000000e+00    0,000000000e+00    0,000000000e+00
      618000000   -7,583725452e-02   -1,976017840e-03   -4,016748071e-01    5,363322496e-01    0,000000000e+00    0,000000000e+00    0,000000000e+00    0,000000000e+00
      632000000   -3,039750457e-02   -2,097631246e-02   -1,217971928e-02    6,560090780e-01    0,000000000e+00    0,000000000e+00    0,000000000e+00    0,000000000e+00
      646000000   -3,587732464e-02   -7,628158480e-02    3,667561114e-01    5,272347331e-01    0,000000000e+00    0,000000000e+00    0,000000000e+00    0,000000000e+00
      660000000   -1,108168587e-01   -9,915353358e-02    6,011776924e-01    1,937461495e-01    0,000000000e+00    0,000000000e+00    0,000000000e+00    0,000000000e+00
      674000000   -1,992537081e-01   -2,466473356e-02    5,661777854e-01   -2,392645925e-01    0,000000000e+00    0,000000000e+00    0,000000000e+00    0,000000000e+00
      688000000   -1,789449751e-01    1,447384357e-01    2,098872513e-01   -5,229827166e-01    0,000000000e+00    0,000000000e+00    0,000000000e+00    0,000000000e+00
      702000000    2,508130483e-02    2,470697612e-01   -2,029732466e-01   -4,107342660e-01    0,000000000e+00    0,000000000e+00    0,000000000e+00    0,000000000e+00
      716000000    2,629566789e-01    1,106437147e-01   -2,741079330e-01   -8,434895426e-02    0,000000000e+00    0,000000000e+00    0,000000000e+00    0,000000000e+00
      730000000    3,040977418e-01   -1,856771111e-01   -1,080646962e-01    3,284033388e-02    0,000000000e+00    0,000000000e+00    0,000000000e+00    0,000000000e+00
      744000000    9,459409118e-02   -4,272190332e-01   -4,243509471e-02   -6,417669356e-02    0,000000000e+00    0,000000000e+00    0,000000000e+00    0,000000000e+00
      758000000   -2,593760490e-01   -4,305341542e-01   -1,751327664e-01   -1,254685521e-01    0,000000000e+00    0,000000000e+00    0,000000000e+00    0,000000000e+00
      772000000   -4,852264225e-01   -1,208236217e-01   -3,361053169e-01    3,812524676e-02    0,000000000e+00    0,000000000e+00    0,000000000e+00    0,000000000e+00
      786000000   -3,427133262e-01    2,218568623e-01   -2,629606724e-01    3,160661459e-01    0,000000000e+00    0,000000000e+00    0,000000000e+00    0,000000000e+00
      800000000   -4,168452322e-02    2,769801319e-01    1,957204659e-03    4,368392229e-01    0,000000000e+00    0,000000000e+00    0,000000000e+00    0,000000000e+00
      814000000    1,448750347e-01    1,255397499e-01    2,634797394e-01    3,592338860e-01    0,000000000e+00    0,000000000e+00    0,000000000e+00    0,000000000e+00
      828000000    1,681672931e-01   -7,057061046e-02    4,321651757e-01    1,564450711e-01    0,000000000e+00    0,000000000e+00    0,000000000e+00    0,000000000e+00
      842000000    6,726680696e-02   -2,185655832e-01    4,665159285e-01   -1,203442514e-01    0,000000000e+00    0,000000000e+00    0,000000000e+00    0,000000000e+00
      856000000   -1,069926918e-01   -2,643449306e-01    3,197910786e-01   -3,950402141e-01    0,000000000e+00    0,000000000e+00    0,000000000e+00    0,000000000e+00
      870000000   -2,754009366e-01   -1,675995737e-01   -2,608712064e-03   -5,267677307e-01    0,000000000e+00    0,000000000e+00    0,000000000e+00    0,000000000e+00
      884000000   -3,200533390e-01    3,543505445e-02   -3,473243713e-01   -3,929100037e-01    0,000000000e+00    0,000000000e+00    0,000000000e+00    0,000000000e+00
      898000000   -1,921111196e-01    2,067544907e-01   -4,887388349e-01   -6,235831231e-02    0,000000000e+00    0,000000000e+00    0,000000000e+00    0,000000000e+00
      912000000    7,837372832e-03    2,194809467e-01   -4,000943899e-01    2,800039947e-01    0,000000000e+00    0,000000000e+00    0,000000000e+00    0,000000000e+00
      926000000    1,506687552e-01    1,112227365e-01   -1,686614454e-01    4,130929112e-01    0,000000000e+00    0,000000000e+00    0,000000000e+00    0,000000000e+00
      940000000    2,002248913e-01   -4,761833698e-02    6,314262748e-02    4,231597483e-01    0,000000000e+00    0,000000000e+00    0,000000000e+00    0,000000000e+00
      954000000    1,560598910e-01   -2,013467699e-01    2,615799606e-01    3,391868174e-01    0,000000000e+00    0,000000000e+00    0,000000000e+00    0,000000000e+00
      968000000    2,401411161e-02   -3,171773255e-01    4,100039899e-01    1,782848984e-01    0,000000000e+00    0,000000000e+00    0,000000000e+00    0,000000000e+00
      982000000   -1,637409329e-01   -3,303974271e-01    4,748873711e-01   -6,696168333e-02    0,000000000e+00    0,000000000e+00    0,000000000e+00    0,000000000e+00
      996000000   -3,284782767e-01   -2,091409266e-01    3,682399392e-01   -3,571503460e-01    0,000000000e+00    0,000000000e+00    0,000000000e+00    0,000000000e+00
     1010000000   -3,429387808e-01   -7,717963774e-03    4,245778918e-02   -5,249148607e-01    0,000000000e+00    0,000000000e+00    0,000000000e+00    0,000000000e+00
     1024000000   -2,079052776e-01    9,149386734e-02   -3,459965289e-01   -3,798139393e-01    0,000000000e+00    0,000000000e+00    0,000000000e+00    0,000000000e+00
     1038000000   -1,357766986e-01    1,162936818e-02   -4,834213853e-01    6,297606230e-02    0,000000000e+00    0,000000000e+00    0,000000000e+00    0,000000000e+00
     1052000000   -2,851469815e-01    5,505655333e-02   -9,481979907e-02    3,700468540e-01    0,000000000e+00    0,000000000e+00    0,000000000e+00    0,000000000e+00
     1066000000   -1,462740153e-01    2,956719398e-01    1,446401179e-01    1,312179565e-01    0,000000000e+00    0,000000000e+00    0,000000000e+00    0,000000000e+00
     1080000000    1,014073640e-01    2,464788854e-01    8,969455957e-02    2,383527718e-02    0,000000000e+00    0,000000000e+00    0,000000000e+00    0,000000000e+00
     1094000000    2,232660353e-01    8,530134708e-02    6,809572875e-02    1,048420742e-02    0,000000000e+00    0,000000000e+00    0,000000000e+00    0,000000000e+00
     1108000000    2,394224256e-01   -8,515423536e-02    8,064141870e-02   -2,233490086e-04    0,000000000e+00    0,000000000e+00    0,000000000e+00    0,000000000e+00
     1122000000    1,822536886e-01   -2,504964769e-01    1,029359847e-01   -2,602612786e-02    0,000000000e+00    0,000000000e+00    0,000000000e+00    0,000000000e+00
     1136000000    4,824735969e-02   -3,803206086e-01    1,252962798e-01   -7,289914787e-02    0,000000000e+00    0,000000000e+00    0,000000000e+00    0,000000000e+00
     1150000000   -1,567061096e-01   -4,275958836e-01    1,401910186e-01   -1,522777826e-01    0,000000000e+00    0,000000000e+00    0,000000000e+00    0,000000000e+00
     1164000000   -3,762722015e-01   -3,263403475e-01    9,827170521e-02   -2,763346434e-01    0,000000000e+00    0,000000000e+00    0,000000000e+00    0,000000000e+00
     1178000000   -4,674798250e-01   -8,487510681e-02   -1,047217548e-01   -4,065695107e-01    0,000000000e+00    0,000000000e+00    0,000000000e+00    0,000000000e+00
     1192000000   -3,756241798e-01    3,495951742e-02   -4,613484442e-01   -1,971810758e-01    0,000000000e+00    0,000000000e+00    0,000000000e+00    0,000000000e+00
     1206000000   -4,177168906e-01    1,364607364e-01   -2,732939422e-01    2,414125800e-01    0,000000000e+00    0,000000000e+00    0,000000000e+00    0,000000000e+00
     1220000000   -2,767178118e-01    3,334211111e-01   -1,161391032e-03    1,637461036e-01    0,000000000e+00    0,000000000e+00    0,000000000e+00    0,000000000e+00
     1234000000   -4,881603643e-02    3,486173749e-01    2,200727351e-02    5,343380198e-02    0,000000000e+00    0,000000000e+00    0,000000000e+00    0,000000000e+00
     1248000000    1,189426556e-01    2,468048185e-01   -1,151514938e-03    2,455854416e-02    0,000000000e+00    0,000000000e+00    0,000000000e+00    0,000000000e+00
     1262000000    2,143892348e-01    9,873042256e-02    3,964170348e-03    2,811802179e-02    0,000000000e+00    0,000000000e+00    0,000000000e+00    0,000000000e+00
     1276000000    2,328317761e-01   -5,439303443e-02    2,539278939e-02    4,083525017e-02    0,000000000e+00    0,000000000e+00    0,000000000e+00    0,000000000e+00
     1290000000    1,969414502e-01   -2,123330683e-01    5,774244294e-02    2,475021407e-02    0,000000000e+00    0,000000000e+00    0,000000000e+00    0,000000000e+00
     1304000000    8,669121563e-02   -3,603072464e-01    7,792011648e-02    6,241577677e-03    0,000000000e+00    0,000000000e+00    0,000000000e+00    0,000000000e+00
     1318000000   -1,057003066e-01   -4,436939359e-01    8,037368208e-02   -7,046057377e-03    0,000000000e+00    0,000000000e+00    0,000000000e+00    0,000000000e+00
     1332000000   -3,540669382e-01   -4,359589815e-01    9,116419405e-02   -7,982718758e-03    0,000000000e+00    0,000000000e+00    0,000000000e+00    0,000000000e+00
     1346000000   -5,876783729e-01   -2,462267727e-01    1,107064411e-01   -8,237292059e-03    0,000000000e+00    0,000000000e+00    0,000000000e+00    0,000000000e+00
     1360000000   -6,508791447e-01    6,490979344e-02    1,445014030e-01   -1,758391783e-02    0,000000000e+00    0,000000000e+00    0,000000000e+00    0,000000000e+00
     1374000000   -4,931916893e-01    3,278522193e-01    1,713524759e-01   -5,002526194e-02    0,000000000e+00    0,000000000e+00    0,000000000e+00    0,000000000e+00
     1388000000   -2,518157363e-01    4,292457104e-01    1,648259163e-01   -8,313014358e-02    0,000000000e+00    0,000000000e+00    0,000000000e+00    0,000000000e+00
     1402000000   -4,542006925e-02    3,897437453e-01    1,421905756e-01   -9,919868410e-02    0,000000000e+00    0,000000000e+00    0,000000000e+00    0,000000000e+00
     1416000000    9,724816680e-02    2,865279019e-01    1,190412119e-01   -9,255079925e-02    0,000000000e+00    0,000000000e+00    0,000000000e+00    0,000000000e+00
     1430000000    1,892202944e-01    1,485727131e-01    1,063001901e-01   -5,463435873e-02    0,000000000e+00    0,000000000e+00    0,000000000e+00    0,000000000e+00
     1444000000    2,198635340e-01   -1,251588855e-02    1,275128424e-01   -2,621404827e-02    0,000000000e+00    0,000000000e+00    0,000000000e+00    0,000000000e+00
     1458000000    1,870932281e-01   -1,801875532e-01    1,499537975e-01    2,103168517e-02    0,000000000e+00    0,000000000e+00    0,000000000e+00    0,000000000e+00
     1472000000    6,908986717e-02   -3,518714607e-01    1,958985478e-01    7,451628894e-02    0,000000000e+00    0,000000000e+00    0,000000000e+00    0,000000000e+00
     1486000000   -1,387359351e-01   -4,727545083e-01    2,953290045e-01    8,413729817e-02    0,000000000e+00    0,000000000e+00    0,000000000e+00    0,000000000e+00
     1500000000   -4,380045831e-01   -4,693474472e-01    4,082258344e-01    5,788689852e-02    0,000000000e+00    0,000000000e+00    0,000000000e+00    0,000000000e+00
