! NanoVNA-App
! Date: 2025-09-25 15:55:55
! Start: 100MHz Stop: 1,5GHz Points: 101
! S-Parameter data: F S11 S21 S12 S22
# Hz S RI R 50
!     Frequency           S11_Real           S11_Imag           S21_Real           S21_Imag           S12_Real           S12_Imag           S22_Real           S22_Imag
      100000000   -2,818889543e-02   -2,819548361e-03    3,722686172e-01   -7,224276066e-01    0,000000000e+00    0,000000000e+00    0,000000000e+00    0,000000000e+00
      114000000   -1,559958979e-02    1,288555935e-02   -9,142002463e-02   -8,047349453e-01    0,000000000e+00    0,000000000e+00    0,000000000e+00    0,000000000e+00
      128000000    4,383426625e-03    1,183362864e-02   -5,158352256e-01   -6,186776757e-01    0,000000000e+00    0,000000000e+00    0,000000000e+00    0,000000000e+00
      142000000    1,549953874e-02   -1,855889568e-03   -7,675090432e-01   -2,342336029e-01    0,000000000e+00    0,000000000e+00    0,000000000e+00    0,000000000e+00
      156000000    1,742025279e-02   -1,395058166e-02   -7,674536109e-01    2,272934616e-01    0,000000000e+00    0,000000000e+00    0,000000000e+00    0,000000000e+00
      170000000    1,764933579e-02   -2,101647295e-02   -5,154239535e-01    6,060823202e-01    0,000000000e+00    0,000000000e+00    0,000000000e+00    0,000000000e+00
      184000000    2,201326191e-02   -3,555340692e-02   -9,829804301e-02    7,859073281e-01    0,000000000e+00    0,000000000e+00    0,000000000e+00    0,000000000e+00
      198000000    1,402921509e-02   -6,067809463e-02    3,459683061e-01    7,108878493e-01    0,000000000e+00    0,000000000e+00    0,000000000e+00    0,000000000e+00
      212000000   -1,770867780e-02   -7,918462902e-02    6,805647612e-01    4,062867463e-01    0,000000000e+00    0,000000000e+00    0,000000000e+00    0,000000000e+00
      226000000   -6,035350636e-02   -6,667722762e-02    7,957060337e-01   -3,551258892e-02    0,000000000e+00    0,000000000e+00    0,000000000e+00    0,000000000e+00
      240000000   -8,059139550e-02   -2,286832966e-02    6,414023638e-01   -4,713647664e-01    0,000000000e+00    0,000000000e+00    0,000000000e+00    0,000000000e+00
      254000000   -6,080478430e-02    1,971896365e-02    2,711385190e-01   -7,417670488e-01    0,000000000e+00    0,000000000e+00    0,000000000e+00    0,000000000e+00
      268000000   -2,092164755e-02    3,082536720e-02   -1,812114269e-01   -7,610477209e-01    0,000000000e+00    0,000000000e+00    0,000000000e+00    0,000000000e+00
      282000000    6,865744013e-03    1,373063400e-02   -5,632576346e-01   -5,325874686e-01    0,000000000e+00    0,000000000e+00    0,000000000e+00    0,000000000e+00
      296000000    1,234676130e-02   -6,379718892e-03   -7,604126930e-01   -1,342496425e-01    0,000000000e+00    0,000000000e+00    0,000000000e+00    0,000000000e+00
      310000000    1,356717013e-02   -1,463650260e-02   -7,094411850e-01    3,034237623e-01    0,000000000e+00    0,000000000e+00    0,000000000e+00    0,000000000e+00
      324000000    2,239050530e-02   -2,481749468e-02   -4,215501547e-01    6,390153170e-01    0,000000000e+00    0,000000000e+00    0,000000000e+00    0,000000000e+00
      338000000    2,862223797e-02   -5,081234127e-02   -2,201863797e-03    7,607093453e-01    0,000000000e+00    0,000000000e+00    0,000000000e+00    0,000000000e+00
      352000000    1,004991867e-02   -8,272629231e-02    4,120987058e-01    6,358881593e-01    0,000000000e+00    0,000000000e+00    0,000000000e+00    0,000000000e+00
      366000000   -3,169370815e-02   -9,391583502e-02    6,934104562e-01    3,039882481e-01    0,000000000e+00    0,000000000e+00    0,000000000e+00    0,000000000e+00
      380000000   -6,754330546e-02   -6,871284544e-02    7,456756830e-01   -1,336193532e-01    0,000000000e+00    0,000000000e+00    0,000000000e+00    0,000000000e+00
      394000000   -6,869225949e-02   -3,043471649e-02    5,401584506e-01   -5,281176567e-01    0,000000000e+00    0,000000000e+00    0,000000000e+00    0,000000000e+00
      408000000   -4,286798462e-02   -1,560614817e-02    1,493709385e-01   -7,336432934e-01    0,000000000e+00    0,000000000e+00    0,000000000e+00    0,000000000e+00
      422000000   -2,605538443e-02   -3,137794510e-02   -2,792572081e-01   -6,894717216e-01    0,000000000e+00    0,000000000e+00    0,000000000e+00    0,000000000e+00
      436000000   -3,935121372e-02   -4,894643277e-02   -6,102756262e-01   -4,194525480e-01    0,000000000e+00    0,000000000e+00    0,000000000e+00    0,000000000e+00
      450000000   -6,463242322e-02   -3,922649845e-02   -7,368824482e-01   -7,403433789e-03    0,000000000e+00    0,000000000e+00    0,000000000e+00    0,000000000e+00
      464000000   -6,778489053e-02   -6,003275979e-03   -6,082638502e-01    4,067459404e-01    0,000000000e+00    0,000000000e+00    0,000000000e+00    0,000000000e+00
      478000000   -3,892455623e-02    1,607594639e-02   -2,679372430e-01    6,705366373e-01    0,000000000e+00    0,000000000e+00    0,000000000e+00    0,000000000e+00
      492000000   -5,201748107e-03    6,139162462e-03    1,507913470e-01    6,948984265e-01    0,000000000e+00    0,000000000e+00    0,000000000e+00    0,000000000e+00
      506000000    6,630857009e-03   -2,020962723e-02    5,076249838e-01    4,884060025e-01    0,000000000e+00    0,000000000e+00    0,000000000e+00    0,000000000e+00
      520000000    4,226783640e-04   -3,881720454e-02    6,897121668e-01    1,202510372e-01    0,000000000e+00    0,000000000e+00    0,000000000e+00    0,000000000e+00
      534000000   -3,276681760e-03   -4,568880424e-02    6,325972676e-01   -2,823235393e-01    0,000000000e+00    0,000000000e+00    0,000000000e+00    0,000000000e+00
      548000000    7,999365916e-04   -5,977436155e-02    3,597675562e-01   -5,794548392e-01    0,000000000e+00    0,000000000e+00    0,000000000e+00    0,000000000e+00
      562000000   -7,706246804e-03   -8,863814175e-02   -2,613957413e-02   -6,725755334e-01    0,000000000e+00    0,000000000e+00    0,000000000e+00    0,000000000e+00
      576000000   -4,555236548e-02   -1,094314829e-01   -4,010590613e-01   -5,387181640e-01    0,000000000e+00    0,000000000e+00    0,000000000e+00    0,000000000e+00
      590000000   -9,473090619e-02   -9,323843569e-02   -6,407652497e-01   -2,173232138e-01    0,000000000e+00    0,000000000e+00    0,000000000e+00    0,000000000e+00
      604000000   -1,120105162e-01   -4,117683694e-02   -6,477749348e-01    1,982131749e-01    0,000000000e+00    0,000000000e+00    0,000000000e+00    0,000000000e+00
      618000000   -7,562008500e-02   -2,843893366e-03   -4,016453326e-01    5,357546210e-01    0,000000000e+00    0,000000000e+00    0,000000000e+00    0,000000000e+00
      632000000   -3,035651892e-02   -2,114019170e-02   -1,275364775e-02    6,554568410e-01    0,000000000e+00    0,000000000e+00    0,000000000e+00    0,000000000e+00
      646000000   -3,654215485e-02   -7,739897072e-02    3,650555909e-01    5,273134708e-01    0,000000000e+00    0,000000000e+00    0,000000000e+00    0,000000000e+00
      660000000   -1,113749072e-01   -1,003212482e-01    6,009333730e-01    1,934059560e-01    0,000000000e+00    0,000000000e+00    0,000000000e+00    0,000000000e+00
      674000000   -2,004130185e-01   -2,419226989e-02    5,647628903e-01   -2,398945242e-01    0,000000000e+00    0,000000000e+00    0,000000000e+00    0,000000000e+00
      688000000   -1,786390096e-01    1,439597905e-01    2,093311399e-01   -5,217166543e-01    0,000000000e+00    0,000000000e+00    0,000000000e+00    0,000000000e+00
      702000000    2,610758692e-02    2,457835525e-01   -1,973930150e-01   -4,032147229e-01    0,000000000e+00    0,000000000e+00    0,000000000e+00    0,000000000e+00
      716000000    2,633068860e-01    1,103389859e-01   -2,723387182e-01   -8,335939795e-02    0,000000000e+00    0,000000000e+00    0,000000000e+00    0,000000000e+00
      730000000    3,029764593e-01   -1,861272901e-01   -1,064582840e-01    3,186068684e-02    0,000000000e+00    0,000000000e+00    0,000000000e+00    0,000000000e+00
      744000000    9,391485155e-02   -4,268542230e-01   -4,238710180e-02   -6,597171724e-02    0,000000000e+00    0,000000000e+00    0,000000000e+00    0,000000000e+00
      758000000   -2,582553327e-01   -4,283772707e-01   -1,761909127e-01   -1,260056645e-01    0,000000000e+00    0,000000000e+00    0,000000000e+00    0,000000000e+00
      772000000   -4,857874811e-01   -1,195140481e-01   -3,363077044e-01    3,815936297e-02    0,000000000e+00    0,000000000e+00    0,000000000e+00    0,000000000e+00
      786000000   -3,422343433e-01    2,208110392e-01   -2,624703050e-01    3,169677556e-01    0,000000000e+00    0,000000000e+00    0,000000000e+00    0,000000000e+00
      800000000   -4,076957703e-02    2,768071592e-01    3,139007371e-03    4,367083013e-01    0,000000000e+00    0,000000000e+00    0,000000000e+00    0,000000000e+00
      814000000    1,438856572e-01    1,254716665e-01    2,646115422e-01    3,592600524e-01    0,000000000e+00    0,000000000e+00    0,000000000e+00    0,000000000e+00
      828000000    1,677930504e-01   -6,995009631e-02    4,332903028e-01    1,572948098e-01    0,000000000e+00    0,000000000e+00    0,000000000e+00    0,000000000e+00
      842000000    6,759354472e-02   -2,186289132e-01    4,671430588e-01   -1,202806085e-01    0,000000000e+00    0,000000000e+00    0,000000000e+00    0,000000000e+00
      856000000   -1,068663523e-01   -2,632870972e-01    3,205266297e-01   -3,950328827e-01    0,000000000e+00    0,000000000e+00    0,000000000e+00    0,000000000e+00
      870000000   -2,739523351e-01   -1,676055342e-01   -2,216812689e-03   -5,266981125e-01    0,000000000e+00    0,000000000e+00    0,000000000e+00    0,000000000e+00
      884000000   -3,209357262e-01    3,545401245e-02   -3,490957618e-01   -3,922707736e-01    0,000000000e+00    0,000000000e+00    0,000000000e+00    0,000000000e+00
      898000000   -1,923967600e-01    2,061100900e-01   -4,897394776e-01   -6,291589141e-02    0,000000000e+00    0,000000000e+00    0,000000000e+00    0,000000000e+00
      912000000    7,482592016e-03    2,190942019e-01   -4,005500972e-01    2,808715403e-01    0,000000000e+00    0,000000000e+00    0,000000000e+00    0,000000000e+00
      926000000    1,502934396e-01    1,117909700e-01   -1,664368659e-01    4,150924683e-01    0,000000000e+00    0,000000000e+00    0,000000000e+00    0,000000000e+00
      940000000    1,964835376e-01   -4,512934759e-02    6,369064003e-02    4,251525998e-01    0,000000000e+00    0,000000000e+00    0,000000000e+00    0,000000000e+00
      954000000    1,509341449e-01   -2,023427784e-01    2,613677680e-01    3,425216973e-01    0,000000000e+00    0,000000000e+00    0,000000000e+00    0,000000000e+00
      968000000    2,536590211e-02   -3,124239147e-01    4,109166563e-01    1,793497801e-01    0,000000000e+00    0,000000000e+00    0,000000000e+00    0,000000000e+00
      982000000   -1,612817943e-01   -3,336366415e-01    4,738730490e-01   -6,579903513e-02    0,000000000e+00    0,000000000e+00    0,000000000e+00    0,000000000e+00
      996000000   -3,260664344e-01   -2,072871774e-01    3,676143289e-01   -3,556084037e-01    0,000000000e+00    0,000000000e+00    0,000000000e+00    0,000000000e+00
     1010000000   -3,371087909e-01   -8,202851750e-03    4,355983436e-02   -5,231161118e-01    0,000000000e+00    0,000000000e+00    0,000000000e+00    0,000000000e+00
     1024000000   -2,068355829e-01    9,593689442e-02   -3,448710740e-01   -3,832650483e-01    0,000000000e+00    0,000000000e+00    0,000000000e+00    0,000000000e+00
     1038000000   -1,318811625e-01    8,622894995e-03   -4,837953150e-01    6,255721301e-02    0,000000000e+00    0,000000000e+00    0,000000000e+00    0,000000000e+00
     1052000000   -2,822048068e-01    5,203682929e-02   -9,830160439e-02    3,730904460e-01    0,000000000e+00    0,000000000e+00    0,000000000e+00    0,000000000e+00
     1066000000   -1,521957517e-01    2,929311395e-01    1,419797987e-01    1,365098506e-01    0,000000000e+00    0,000000000e+00    0,000000000e+00    0,000000000e+00
     1080000000    9,793046862e-02    2,469531149e-01    9,412482381e-02    2,284508198e-02    0,000000000e+00    0,000000000e+00    0,000000000e+00    0,000000000e+00
     1094000000    2,223037928e-01    8,599445224e-02    7,027811557e-02    1,099079102e-02    0,000000000e+00    0,000000000e+00    0,000000000e+00    0,000000000e+00
     1108000000    2,441838831e-01   -8,818250149e-02    8,243829012e-02   -6,175417802e-04    0,000000000e+00    0,000000000e+00    0,000000000e+00    0,000000000e+00
     1122000000    1,814527810e-01   -2,517580688e-01    1,032912880e-01   -2,731257118e-02    0,000000000e+00    0,000000000e+00    0,000000000e+00    0,000000000e+00
     1136000000    5,179381371e-02   -3,789620101e-01    1,255938411e-01   -7,205338031e-02    0,000000000e+00    0,000000000e+00    0,000000000e+00    0,000000000e+00
     1150000000   -1,554873437e-01   -4,260445535e-01    1,392086297e-01   -1,497630924e-01    0,000000000e+00    0,000000000e+00    0,000000000e+00    0,000000000e+00
     1164000000   -3,763608634e-01   -3,218753338e-01    9,719470143e-02   -2,755779326e-01    0,000000000e+00    0,000000000e+00    0,000000000e+00    0,000000000e+00
     1178000000   -4,669811726e-01   -9,167253226e-02   -1,025097519e-01   -4,067845345e-01    0,000000000e+00    0,000000000e+00    0,000000000e+00    0,000000000e+00
     1192000000   -3,778209388e-01    3,952307999e-02   -4,608635902e-01   -1,966552138e-01    0,000000000e+00    0,000000000e+00    0,000000000e+00    0,000000000e+00
     1206000000   -4,131946266e-01    1,299817562e-01   -2,749779522e-01    2,352737039e-01    0,000000000e+00    0,000000000e+00    0,000000000e+00    0,000000000e+00
     1220000000   -2,825179994e-01    3,307346106e-01   -8,799962699e-03    1,622638553e-01    0,000000000e+00    0,000000000e+00    0,000000000e+00    0,000000000e+00
     1234000000   -4,860919714e-02    3,480558991e-01    2,236969024e-02    5,303498730e-02    0,000000000e+00    0,000000000e+00    0,000000000e+00    0,000000000e+00
     1248000000    1,227276474e-01    2,480662912e-01    4,231837520e-04    2,336130105e-02    0,000000000e+00    0,000000000e+00    0,000000000e+00    0,000000000e+00
     1262000000    2,155046761e-01    1,035133824e-01    7,909681648e-03    3,179565072e-02    0,000000000e+00    0,000000000e+00    0,000000000e+00    0,000000000e+00
     1276000000    2,337602973e-01   -5,253738165e-02    2,589130588e-02    3,922571614e-02    0,000000000e+00    0,000000000e+00    0,000000000e+00    0,000000000e+00
     1290000000    1,881864667e-01   -2,136553973e-01    5,269293860e-02    2,834658325e-02    0,000000000e+00    0,000000000e+00    0,000000000e+00    0,000000000e+00
     1304000000    8,762662113e-02   -3,567557335e-01    8,108066767e-02    9,147971869e-03    0,000000000e+00    0,000000000e+00    0,000000000e+00    0,000000000e+00
     1318000000   -1,017537862e-01   -4,436317086e-01    8,733389527e-02   -2,852367237e-03    0,000000000e+00    0,000000000e+00    0,000000000e+00    0,000000000e+00
     1332000000   -3,595189154e-01   -4,337044656e-01    8,644510806e-02   -1,456521358e-02    0,000000000e+00    0,000000000e+00    0,000000000e+00    0,000000000e+00
     1346000000   -5,942469239e-01   -2,521601617e-01    1,003111899e-01   -7,960439660e-03    0,000000000e+00    0,000000000e+00    0,000000000e+00    0,000000000e+00
     1360000000   -6,546128392e-01    7,205100358e-02    1,316428632e-01   -1,990592852e-02    0,000000000e+00    0,000000000e+00    0,000000000e+00    0,000000000e+00
     1374000000   -4,926321507e-01    3,287948668e-01    1,703282595e-01   -4,608300328e-02    0,000000000e+00    0,000000000e+00    0,000000000e+00    0,000000000e+00
     1388000000   -2,524400353e-01    4,319733977e-01    1,669129431e-01   -7,305791229e-02    0,000000000e+00    0,000000000e+00    0,000000000e+00    0,000000000e+00
     1402000000   -3,811163083e-02    3,894037306e-01    1,496921629e-01   -9,389313310e-02    0,000000000e+00    0,000000000e+00    0,000000000e+00    0,000000000e+00
     1416000000    1,012022495e-01    2,836373746e-01    1,282589883e-01   -9,157805890e-02    0,000000000e+00    0,000000000e+00    0,000000000e+00    0,000000000e+00
     1430000000    1,822264642e-01    1,507412642e-01    1,216947660e-01   -4,678532481e-02    0,000000000e+00    0,000000000e+00    0,000000000e+00    0,000000000e+00
     1444000000    2,133164853e-01   -7,628608029e-03    1,280170530e-01   -2,716624178e-02    0,000000000e+00    0,000000000e+00    0,000000000e+00    0,000000000e+00
     1458000000    1,827829331e-01   -1,818829030e-01    1,504730284e-01    2,166831680e-02    0,000000000e+00    0,000000000e+00    0,000000000e+00    0,000000000e+00
     1472000000    6,527335942e-02   -3,449338973e-01    1,899736673e-01    7,736152411e-02    0,000000000e+00    0,000000000e+00    0,000000000e+00    0,000000000e+00
     1486000000   -1,348833293e-01   -4,719816744e-01    3,039444089e-01    9,113969654e-02    0,000000000e+00    0,000000000e+00    0,000000000e+00    0,000000000e+00
     1500000000   -4,495912194e-01   -4,744794071e-01    4,081035554e-01    4,344349727e-02    0,000000000e+00    0,000000000e+00    0,000000000e+00    0,000000000e+00
