! NanoVNA-App
! Date: 2025-09-25 16:03:10
! Start: 100MHz Stop: 1,5GHz Points: 101
! S-Parameter data: F S11 S21 S12 S22
# Hz S RI R 50
!     Frequency           S11_Real           S11_Imag           S21_Real           S21_Imag           S12_Real           S12_Imag           S22_Real           S22_Imag
      100000000   -2,831256576e-02   -2,884783549e-03    3,723016679e-01   -7,224860191e-01    0,000000000e+00    0,000000000e+00    0,000000000e+00    0,000000000e+00
      114000000   -1,578368433e-02    1,293188799e-02   -9,127374738e-02   -8,048689365e-01    0,000000000e+00    0,000000000e+00    0,000000000e+00    0,000000000e+00
      128000000    4,348043352e-03    1,200630702e-02   -5,159188509e-01   -6,186227798e-01    0,000000000e+00    0,000000000e+00    0,000000000e+00    0,000000000e+00
      142000000    1,547284052e-02   -1,692501013e-03   -7,675817013e-01   -2,340828180e-01    0,000000000e+00    0,000000000e+00    0,000000000e+00    0,000000000e+00
      156000000    1,702343859e-02   -1,332779508e-02   -7,656685114e-01    2,260719240e-01    0,000000000e+00    0,000000000e+00    0,000000000e+00    0,000000000e+00
      170000000    1,767402329e-02   -2,102632448e-02   -5,155521631e-01    6,064226627e-01    0,000000000e+00    0,000000000e+00    0,000000000e+00    0,000000000e+00
      184000000    2,201452293e-02   -3,552671522e-02   -9,826849401e-02    7,865635157e-01    0,000000000e+00    0,000000000e+00    0,000000000e+00    0,000000000e+00
      198000000    1,399941929e-02   -6,066552550e-02    3,462024927e-01    7,107195258e-01    0,000000000e+00    0,000000000e+00    0,000000000e+00    0,000000000e+00
      212000000   -1,769038662e-02   -7,914696634e-02    6,807553172e-01    4,061324596e-01    0,000000000e+00    0,000000000e+00    0,000000000e+00    0,000000000e+00
      226000000   -6,026947498e-02   -6,664687395e-02    7,957777381e-01   -3,560151532e-02    0,000000000e+00    0,000000000e+00    0,000000000e+00    0,000000000e+00
      240000000   -8,056460321e-02   -2,268993296e-02    6,415420771e-01   -4,717219472e-01    0,000000000e+00    0,000000000e+00    0,000000000e+00    0,000000000e+00
      254000000   -6,078901514e-02    1,978757791e-02    2,712471485e-01   -7,424055934e-01    0,000000000e+00    0,000000000e+00    0,000000000e+00    0,000000000e+00
      268000000   -2,092376724e-02    3,089441359e-02   -1,813596487e-01   -7,608244419e-01    0,000000000e+00    0,000000000e+00    0,000000000e+00    0,000000000e+00
      282000000    6,972155999e-03    1,379255950e-02   -5,634980202e-01   -5,325450301e-01    0,000000000e+00    0,000000000e+00    0,000000000e+00    0,000000000e+00
      296000000    1,236329135e-02   -6,173443515e-03   -7,603819370e-01   -1,343853623e-01    0,000000000e+00    0,000000000e+00    0,000000000e+00    0,000000000e+00
      310000000    1,364793815e-02   -1,457196381e-02   -7,081163526e-01    3,050020337e-01    0,000000000e+00    0,000000000e+00    0,000000000e+00    0,000000000e+00
      324000000    2,239708789e-02   -2,468092181e-02   -4,224334657e-01    6,387458444e-01    0,000000000e+00    0,000000000e+00    0,000000000e+00    0,000000000e+00
      338000000    2,842490003e-02   -5,057911202e-02   -4,769140389e-03    7,620555162e-01    0,000000000e+00    0,000000000e+00    0,000000000e+00    0,000000000e+00
      352000000    1,018325053e-02   -8,277139068e-02    4,116472900e-01    6,357459426e-01    0,000000000e+00    0,000000000e+00    0,000000000e+00    0,000000000e+00
      366000000   -3,194339946e-02   -9,382856637e-02    6,938309669e-01    3,036816418e-01    0,000000000e+00    0,000000000e+00    0,000000000e+00    0,000000000e+00
      380000000   -6,754319370e-02   -6,891905516e-02    7,459654212e-01   -1,342622638e-01    0,000000000e+00    0,000000000e+00    0,000000000e+00    0,000000000e+00
      394000000   -6,838933378e-02   -3,056379221e-02    5,397962332e-01   -5,280651450e-01    0,000000000e+00    0,000000000e+00    0,000000000e+00    0,000000000e+00
      408000000   -4,243613034e-02   -1,551093347e-02    1,509467810e-01   -7,340227962e-01    0,000000000e+00    0,000000000e+00    0,000000000e+00    0,000000000e+00
      422000000   -2,611885220e-02   -3,128607199e-02   -2,790957689e-01   -6,906788945e-01    0,000000000e+00    0,000000000e+00    0,000000000e+00    0,000000000e+00
      436000000   -3,916119039e-02   -4,928347468e-02   -6,108144522e-01   -4,196085334e-01    0,000000000e+00    0,000000000e+00    0,000000000e+00    0,000000000e+00
      450000000   -6,471876055e-02   -3,885154426e-02   -7,372779250e-01   -7,493247278e-03    0,000000000e+00    0,000000000e+00    0,000000000e+00    0,000000000e+00
      464000000   -6,785685569e-02   -5,854361691e-03   -6,079940796e-01    4,064535499e-01    0,000000000e+00    0,000000000e+00    0,000000000e+00    0,000000000e+00
      478000000   -3,890375048e-02    1,604492962e-02   -2,676097155e-01    6,700198054e-01    0,000000000e+00    0,000000000e+00    0,000000000e+00    0,000000000e+00
      492000000   -4,985422827e-03    6,286631338e-03    1,518756151e-01    6,950547099e-01    0,000000000e+00    0,000000000e+00    0,000000000e+00    0,000000000e+00
      506000000    6,713300478e-03   -2,025780082e-02    5,079731345e-01    4,884691834e-01    0,000000000e+00    0,000000000e+00    0,000000000e+00    0,000000000e+00
      520000000    7,684453740e-04   -3,825984895e-02    6,900900006e-01    1,215833426e-01    0,000000000e+00    0,000000000e+00    0,000000000e+00    0,000000000e+00
      534000000   -3,141695168e-03   -4,564887285e-02    6,325691342e-01   -2,826185524e-01    0,000000000e+00    0,000000000e+00    0,000000000e+00    0,000000000e+00
      548000000    1,085597672e-03   -5,997188389e-02    3,602766693e-01   -5,796845555e-01    0,000000000e+00    0,000000000e+00    0,000000000e+00    0,000000000e+00
      562000000   -7,865870371e-03   -8,835484087e-02   -2,671610005e-02   -6,731210351e-01    0,000000000e+00    0,000000000e+00    0,000000000e+00    0,000000000e+00
      576000000   -4,541783780e-02   -1,099176928e-01   -4,020475447e-01   -5,387344360e-01    0,000000000e+00    0,000000000e+00    0,000000000e+00    0,000000000e+00
      590000000   -9,483344108e-02   -9,355557710e-02   -6,419969797e-01   -2,177322656e-01    0,000000000e+00    0,000000000e+00    0,000000000e+00    0,000000000e+00
      604000000   -1,114850938e-01   -4,114762321e-02   -6,471588016e-01    1,982795298e-01    0,000000000e+00    0,000000000e+00    0,000000000e+00    0,000000000e+00
      618000000   -7,634726167e-02   -2,857899060e-03   -4,021565020e-01    5,363247991e-01    0,000000000e+00    0,000000000e+00    0,000000000e+00    0,000000000e+00
      632000000   -3,018148243e-02   -2,143075131e-02   -1,240182668e-02    6,557811499e-01    0,000000000e+00    0,000000000e+00    0,000000000e+00    0,000000000e+00
      646000000   -3,684592247e-02   -7,619577646e-02    3,652257919e-01    5,283741355e-01    0,000000000e+00    0,000000000e+00    0,000000000e+00    0,000000000e+00
      660000000   -1,117933765e-01   -9,990172088e-02    6,003992558e-01    1,933519840e-01    0,000000000e+00    0,000000000e+00    0,000000000e+00    0,000000000e+00
      674000000   -1,992490292e-01   -2,320027910e-02    5,654788017e-01   -2,398607582e-01    0,000000000e+00    0,000000000e+00    0,000000000e+00    0,000000000e+00
      688000000   -1,786323339e-01    1,433743834e-01    2,100281715e-01   -5,227255821e-01    0,000000000e+00    0,000000000e+00    0,000000000e+00    0,000000000e+00
      702000000    2,316560969e-02    2,467952669e-01   -2,000716180e-01   -4,117603898e-01    0,000000000e+00    0,000000000e+00    0,000000000e+00    0,000000000e+00
      716000000    2,632831335e-01    1,109561101e-01   -2,745465338e-01   -8,420833200e-02    0,000000000e+00    0,000000000e+00    0,000000000e+00    0,000000000e+00
      730000000    3,033145964e-01   -1,854696274e-01   -1,085005477e-01    3,321643546e-02    0,000000000e+00    0,000000000e+00    0,000000000e+00    0,000000000e+00
      744000000    9,527949244e-02   -4,281196296e-01   -4,191365466e-02   -6,391709298e-02    0,000000000e+00    0,000000000e+00    0,000000000e+00    0,000000000e+00
      758000000   -2,584404647e-01   -4,295586348e-01   -1,744999290e-01   -1,253368855e-01    0,000000000e+00    0,000000000e+00    0,000000000e+00    0,000000000e+00
      772000000   -4,865432680e-01   -1,197349653e-01   -3,352749944e-01    3,746288642e-02    0,000000000e+00    0,000000000e+00    0,000000000e+00    0,000000000e+00
      786000000   -3,416884542e-01    2,211258262e-01   -2,629858255e-01    3,159359396e-01    0,000000000e+00    0,000000000e+00    0,000000000e+00    0,000000000e+00
      800000000   -4,104626924e-02    2,768876255e-01    2,982762177e-03    4,362775087e-01    0,000000000e+00    0,000000000e+00    0,000000000e+00    0,000000000e+00
      814000000    1,448661983e-01    1,255908459e-01    2,632118762e-01    3,591699004e-01    0,000000000e+00    0,000000000e+00    0,000000000e+00    0,000000000e+00
      828000000    1,680164337e-01   -6,992404163e-02    4,320067167e-01    1,575411260e-01    0,000000000e+00    0,000000000e+00    0,000000000e+00    0,000000000e+00
      842000000    6,790175289e-02   -2,180556953e-01    4,660891891e-01   -1,195086464e-01    0,000000000e+00    0,000000000e+00    0,000000000e+00    0,000000000e+00
      856000000   -1,069463789e-01   -2,636974156e-01    3,200083077e-01   -3,952502310e-01    0,000000000e+00    0,000000000e+00    0,000000000e+00    0,000000000e+00
      870000000   -2,744022906e-01   -1,690153629e-01   -1,306372345e-03   -5,277718902e-01    0,000000000e+00    0,000000000e+00    0,000000000e+00    0,000000000e+00
      884000000   -3,217726648e-01    3,590601310e-02   -3,484476209e-01   -3,936129212e-01    0,000000000e+00    0,000000000e+00    0,000000000e+00    0,000000000e+00
      898000000   -1,918126196e-01    2,069451213e-01   -4,883367419e-01   -6,223871931e-02    0,000000000e+00    0,000000000e+00    0,000000000e+00    0,000000000e+00
      912000000    6,705578882e-03    2,187029570e-01   -4,103047848e-01    2,733288407e-01    0,000000000e+00    0,000000000e+00    0,000000000e+00    0,000000000e+00
      926000000    1,493682712e-01    1,115445197e-01   -1,700405926e-01    4,159175158e-01    0,000000000e+00    0,000000000e+00    0,000000000e+00    0,000000000e+00
      940000000    1,998762488e-01   -4,708469287e-02    6,274249405e-02    4,246180356e-01    0,000000000e+00    0,000000000e+00    0,000000000e+00    0,000000000e+00
      954000000    1,544039249e-01   -2,051000446e-01    2,611191273e-01    3,408393860e-01    0,000000000e+00    0,000000000e+00    0,000000000e+00    0,000000000e+00
      968000000    2,704643458e-02   -3,161186874e-01    4,098229706e-01    1,783777773e-01    0,000000000e+00    0,000000000e+00    0,000000000e+00    0,000000000e+00
      982000000   -1,585244089e-01   -3,325232267e-01    4,741831422e-01   -6,781537086e-02    0,000000000e+00    0,000000000e+00    0,000000000e+00    0,000000000e+00
      996000000   -3,227217793e-01   -2,064164877e-01    3,674169481e-01   -3,545584381e-01    0,000000000e+00    0,000000000e+00    0,000000000e+00    0,000000000e+00
     1010000000   -3,419683874e-01   -3,515397431e-03    4,339364171e-02   -5,252799988e-01    0,000000000e+00    0,000000000e+00    0,000000000e+00    0,000000000e+00
     1024000000   -2,042364776e-01    9,151767194e-02   -3,444227874e-01   -3,814688921e-01    0,000000000e+00    0,000000000e+00    0,000000000e+00    0,000000000e+00
     1038000000   -1,369102150e-01    9,657230228e-03   -4,825338125e-01    6,205947697e-02    0,000000000e+00    0,000000000e+00    0,000000000e+00    0,000000000e+00
     1052000000   -2,864200473e-01    5,673898757e-02   -9,606301785e-02    3,725011051e-01    0,000000000e+00    0,000000000e+00    0,000000000e+00    0,000000000e+00
     1066000000   -1,502708346e-01    2,972466648e-01    1,441219747e-01    1,348314136e-01    0,000000000e+00    0,000000000e+00    0,000000000e+00    0,000000000e+00
     1080000000    1,034440547e-01    2,485043406e-01    8,915889263e-02    2,241636068e-02    0,000000000e+00    0,000000000e+00    0,000000000e+00    0,000000000e+00
     1094000000    2,243809402e-01    8,912620693e-02    6,718265265e-02    1,034874283e-02    0,000000000e+00    0,000000000e+00    0,000000000e+00    0,000000000e+00
     1108000000    2,436299622e-01   -8,468772471e-02    8,021853864e-02    5,232462427e-04    0,000000000e+00    0,000000000e+00    0,000000000e+00    0,000000000e+00
     1122000000    1,860498935e-01   -2,524619699e-01    1,043049246e-01   -2,629584074e-02    0,000000000e+00    0,000000000e+00    0,000000000e+00    0,000000000e+00
     1136000000    5,236374587e-02   -3,781392574e-01    1,256716400e-01   -7,285276055e-02    0,000000000e+00    0,000000000e+00    0,000000000e+00    0,000000000e+00
     1150000000   -1,548421383e-01   -4,202275872e-01    1,377215385e-01   -1,523906291e-01    0,000000000e+00    0,000000000e+00    0,000000000e+00    0,000000000e+00
     1164000000   -3,791608810e-01   -3,266833723e-01    1,023482084e-01   -2,804343402e-01    0,000000000e+00    0,000000000e+00    0,000000000e+00    0,000000000e+00
     1178000000   -4,676546752e-01   -8,434434980e-02   -1,028800681e-01   -4,001625776e-01    0,000000000e+00    0,000000000e+00    0,000000000e+00    0,000000000e+00
     1192000000   -3,771525323e-01    4,095173255e-02   -4,623544216e-01   -1,930315346e-01    0,000000000e+00    0,000000000e+00    0,000000000e+00    0,000000000e+00
     1206000000   -4,105874896e-01    1,363081336e-01   -2,744131088e-01    2,373648137e-01    0,000000000e+00    0,000000000e+00    0,000000000e+00    0,000000000e+00
     1220000000   -2,740138471e-01    3,352472782e-01   -1,760328887e-03    1,693224758e-01    0,000000000e+00    0,000000000e+00    0,000000000e+00    0,000000000e+00
     1234000000   -4,648429528e-02    3,490338922e-01    2,939030714e-02    5,159777775e-02    0,000000000e+00    0,000000000e+00    0,000000000e+00    0,000000000e+00
     1248000000    1,227060556e-01    2,474092990e-01    4,039369989e-03    2,504765056e-02    0,000000000e+00    0,000000000e+00    0,000000000e+00    0,000000000e+00
     1262000000    2,094963193e-01    1,049269363e-01    1,393124548e-04    2,984332480e-02    0,000000000e+00    0,000000000e+00    0,000000000e+00    0,000000000e+00
     1276000000    2,379650325e-01   -5,753858015e-02    3,097923845e-02    3,559391573e-02    0,000000000e+00    0,000000000e+00    0,000000000e+00    0,000000000e+00
     1290000000    1,976701915e-01   -2,137704492e-01    5,345543474e-02    2,921574563e-02    0,000000000e+00    0,000000000e+00    0,000000000e+00    0,000000000e+00
     1304000000    8,417887986e-02   -3,542627692e-01    7,474482805e-02    8,675476536e-03    0,000000000e+00    0,000000000e+00    0,000000000e+00    0,000000000e+00
     1318000000   -1,031824052e-01   -4,466206133e-01    8,377907425e-02   -7,982310839e-03    0,000000000e+00    0,000000000e+00    0,000000000e+00    0,000000000e+00
     1332000000   -3,508859873e-01   -4,329181910e-01    9,071192890e-02   -1,044739876e-02    0,000000000e+00    0,000000000e+00    0,000000000e+00    0,000000000e+00
     1346000000   -5,918409228e-01   -2,524660528e-01    1,042186618e-01   -1,684860885e-02    0,000000000e+00    0,000000000e+00    0,000000000e+00    0,000000000e+00
     1360000000   -6,473188400e-01    7,629448175e-02    1,421715021e-01   -2,394859679e-02    0,000000000e+00    0,000000000e+00    0,000000000e+00    0,000000000e+00
     1374000000   -4,858795404e-01    3,294209540e-01    1,705120653e-01   -4,973530024e-02    0,000000000e+00    0,000000000e+00    0,000000000e+00    0,000000000e+00
     1388000000   -2,521162629e-01    4,251393676e-01    1,622862816e-01   -8,036808670e-02    0,000000000e+00    0,000000000e+00    0,000000000e+00    0,000000000e+00
     1402000000   -4,595865309e-02    3,895895481e-01    1,397985965e-01   -9,589707106e-02    0,000000000e+00    0,000000000e+00    0,000000000e+00    0,000000000e+00
     1416000000    1,027861685e-01    2,796855867e-01    1,266937852e-01   -9,094787389e-02    0,000000000e+00    0,000000000e+00    0,000000000e+00    0,000000000e+00
     1430000000    1,868332326e-01    1,420259178e-01    9,679264575e-02   -9,330295771e-02    0,000000000e+00    0,000000000e+00    0,000000000e+00    0,000000000e+00
     1444000000    2,120754272e-01   -1,130849496e-02    1,191678122e-01   -1,852537692e-02    0,000000000e+00    0,000000000e+00    0,000000000e+00    0,000000000e+00
     1458000000    1,817427427e-01   -1,842959821e-01    1,405728310e-01    8,863948286e-03    0,000000000e+00    0,000000000e+00    0,000000000e+00    0,000000000e+00
     1472000000    7,246838510e-02   -3,497777581e-01    2,026965618e-01    6,511919945e-02    0,000000000e+00    0,000000000e+00    0,000000000e+00    0,000000000e+00
     1486000000   -1,417063028e-01   -4,726068377e-01    2,835943401e-01    9,051620215e-02    0,000000000e+00    0,000000000e+00    0,000000000e+00    0,000000000e+00
     1500000000   -4,458459318e-01   -4,810681343e-01    4,070704579e-01    3,246238455e-02    0,000000000e+00    0,000000000e+00    0,000000000e+00    0,000000000e+00
