! NanoVNA-App
! Date: 2025-09-25 15:56:08
! Start: 100MHz Stop: 1,5GHz Points: 101
! S-Parameter data: F S11 S21 S12 S22
# Hz S RI R 50
!     Frequency           S11_Real           S11_Imag           S21_Real           S21_Imag           S12_Real           S12_Imag           S22_Real           S22_Imag
      100000000   -2,818857133e-02   -2,835050458e-03    3,722251654e-01   -7,224602103e-01    0,000000000e+00    0,000000000e+00    0,000000000e+00    0,000000000e+00
      114000000   -1,562865637e-02    1,289962046e-02   -9,135773778e-02   -8,048443794e-01    0,000000000e+00    0,000000000e+00    0,000000000e+00    0,000000000e+00
      128000000    4,465179052e-03    1,188088395e-02   -5,158208609e-01   -6,185676455e-01    0,000000000e+00    0,000000000e+00    0,000000000e+00    0,000000000e+00
      142000000    1,550275087e-02   -1,841259887e-03   -7,672573924e-01   -2,341858000e-01    0,000000000e+00    0,000000000e+00    0,000000000e+00    0,000000000e+00
      156000000    1,574304514e-02   -1,280962024e-02   -7,632604837e-01    2,218568027e-01    0,000000000e+00    0,000000000e+00    0,000000000e+00    0,000000000e+00
      170000000    1,763680764e-02   -2,100675181e-02   -5,157427192e-01    6,063321829e-01    0,000000000e+00    0,000000000e+00    0,000000000e+00    0,000000000e+00
      184000000    2,194239944e-02   -3,557232395e-02   -9,836626798e-02    7,857361436e-01    0,000000000e+00    0,000000000e+00    0,000000000e+00    0,000000000e+00
      198000000    1,401450206e-02   -6,070466340e-02    3,459781706e-01    7,108105421e-01    0,000000000e+00    0,000000000e+00    0,000000000e+00    0,000000000e+00
      212000000   -1,768888347e-02   -7,913898677e-02    6,806766987e-01    4,062635899e-01    0,000000000e+00    0,000000000e+00    0,000000000e+00    0,000000000e+00
      226000000   -6,037404016e-02   -6,665685773e-02    7,957941890e-01   -3,553844988e-02    0,000000000e+00    0,000000000e+00    0,000000000e+00    0,000000000e+00
      240000000   -8,059316874e-02   -2,284468710e-02    6,415711045e-01   -4,714327455e-01    0,000000000e+00    0,000000000e+00    0,000000000e+00    0,000000000e+00
      254000000   -6,082587689e-02    1,972777210e-02    2,711673677e-01   -7,419396639e-01    0,000000000e+00    0,000000000e+00    0,000000000e+00    0,000000000e+00
      268000000   -2,099046484e-02    3,084091656e-02   -1,812402159e-01   -7,606682777e-01    0,000000000e+00    0,000000000e+00    0,000000000e+00    0,000000000e+00
      282000000    6,865096278e-03    1,376700960e-02   -5,632736683e-01   -5,324624181e-01    0,000000000e+00    0,000000000e+00    0,000000000e+00    0,000000000e+00
      296000000    1,226634532e-02   -6,292203907e-03   -7,602982521e-01   -1,342432201e-01    0,000000000e+00    0,000000000e+00    0,000000000e+00    0,000000000e+00
      310000000    1,344782580e-02   -1,473563537e-02   -7,099852562e-01    3,037374914e-01    0,000000000e+00    0,000000000e+00    0,000000000e+00    0,000000000e+00
      324000000    2,245603874e-02   -2,460741624e-02   -4,216522574e-01    6,390341520e-01    0,000000000e+00    0,000000000e+00    0,000000000e+00    0,000000000e+00
      338000000    2,858225070e-02   -5,061883852e-02   -2,329917857e-03    7,612620592e-01    0,000000000e+00    0,000000000e+00    0,000000000e+00    0,000000000e+00
      352000000    1,029958017e-02   -8,281881362e-02    4,112047255e-01    6,352084279e-01    0,000000000e+00    0,000000000e+00    0,000000000e+00    0,000000000e+00
      366000000   -3,175901994e-02   -9,419216216e-02    6,925501823e-01    3,038301468e-01    0,000000000e+00    0,000000000e+00    0,000000000e+00    0,000000000e+00
      380000000   -6,754639000e-02   -6,892646849e-02    7,457469106e-01   -1,338393688e-01    0,000000000e+00    0,000000000e+00    0,000000000e+00    0,000000000e+00
      394000000   -6,867279857e-02   -3,062731586e-02    5,398244858e-01   -5,282208920e-01    0,000000000e+00    0,000000000e+00    0,000000000e+00    0,000000000e+00
      408000000   -4,295380041e-02   -1,545856614e-02    1,494752914e-01   -7,341628075e-01    0,000000000e+00    0,000000000e+00    0,000000000e+00    0,000000000e+00
      422000000   -2,621066198e-02   -3,119110130e-02   -2,794528008e-01   -6,909787655e-01    0,000000000e+00    0,000000000e+00    0,000000000e+00    0,000000000e+00
      436000000   -3,922730312e-02   -4,881580174e-02   -6,104724407e-01   -4,195343256e-01    0,000000000e+00    0,000000000e+00    0,000000000e+00    0,000000000e+00
      450000000   -6,498117000e-02   -3,888320550e-02   -7,371072769e-01   -7,732019294e-03    0,000000000e+00    0,000000000e+00    0,000000000e+00    0,000000000e+00
      464000000   -6,792358309e-02   -6,293017417e-03   -6,078481078e-01    4,062089026e-01    0,000000000e+00    0,000000000e+00    0,000000000e+00    0,000000000e+00
      478000000   -3,898185492e-02    1,597517543e-02   -2,673534453e-01    6,694985628e-01    0,000000000e+00    0,000000000e+00    0,000000000e+00    0,000000000e+00
      492000000   -5,172367673e-03    6,159826182e-03    1,517172009e-01    6,953010559e-01    0,000000000e+00    0,000000000e+00    0,000000000e+00    0,000000000e+00
      506000000    6,953475997e-03   -2,040584572e-02    5,077652335e-01    4,887955785e-01    0,000000000e+00    0,000000000e+00    0,000000000e+00    0,000000000e+00
      520000000    4,051504366e-04   -3,869521245e-02    6,891473532e-01    1,206986234e-01    0,000000000e+00    0,000000000e+00    0,000000000e+00    0,000000000e+00
      534000000   -2,729952103e-03   -4,524296522e-02    6,326927543e-01   -2,821086347e-01    0,000000000e+00    0,000000000e+00    0,000000000e+00    0,000000000e+00
      548000000    1,165311784e-03   -5,938922614e-02    3,603068590e-01   -5,788447261e-01    0,000000000e+00    0,000000000e+00    0,000000000e+00    0,000000000e+00
      562000000   -8,101521060e-03   -8,857495338e-02   -2,662799880e-02   -6,722837687e-01    0,000000000e+00    0,000000000e+00    0,000000000e+00    0,000000000e+00
      576000000   -4,494011775e-02   -1,094942465e-01   -4,008359313e-01   -5,386709571e-01    0,000000000e+00    0,000000000e+00    0,000000000e+00    0,000000000e+00
      590000000   -9,470477700e-02   -9,350746125e-02   -6,408084631e-01   -2,164230943e-01    0,000000000e+00    0,000000000e+00    0,000000000e+00    0,000000000e+00
      604000000   -1,116428673e-01   -4,103357345e-02   -6,473321319e-01    1,982716620e-01    0,000000000e+00    0,000000000e+00    0,000000000e+00    0,000000000e+00
      618000000   -7,549714297e-02   -2,557105152e-03   -4,024348855e-01    5,360527039e-01    0,000000000e+00    0,000000000e+00    0,000000000e+00    0,000000000e+00
      632000000   -2,967102453e-02   -2,096076310e-02   -1,168595627e-02    6,548873186e-01    0,000000000e+00    0,000000000e+00    0,000000000e+00    0,000000000e+00
      646000000   -3,588911146e-02   -7,643160224e-02    3,656809628e-01    5,261734724e-01    0,000000000e+00    0,000000000e+00    0,000000000e+00    0,000000000e+00
      660000000   -1,119591743e-01   -9,934930503e-02    6,009022593e-01    1,932241321e-01    0,000000000e+00    0,000000000e+00    0,000000000e+00    0,000000000e+00
      674000000   -2,000388205e-01   -2,315376699e-02    5,648342967e-01   -2,394657135e-01    0,000000000e+00    0,000000000e+00    0,000000000e+00    0,000000000e+00
      688000000   -1,782773435e-01    1,443260312e-01    2,088776529e-01   -5,223866105e-01    0,000000000e+00    0,000000000e+00    0,000000000e+00    0,000000000e+00
      702000000    2,396096848e-02    2,471258491e-01   -2,010250688e-01   -4,062008262e-01    0,000000000e+00    0,000000000e+00    0,000000000e+00    0,000000000e+00
      716000000    2,633427978e-01    1,100809947e-01   -2,721316218e-01   -8,329845965e-02    0,000000000e+00    0,000000000e+00    0,000000000e+00    0,000000000e+00
      730000000    3,033151925e-01   -1,864932328e-01   -1,066028029e-01    3,201907128e-02    0,000000000e+00    0,000000000e+00    0,000000000e+00    0,000000000e+00
      744000000    9,352726489e-02   -4,268313050e-01   -4,259017855e-02   -6,592740119e-02    0,000000000e+00    0,000000000e+00    0,000000000e+00    0,000000000e+00
      758000000   -2,581432462e-01   -4,288181067e-01   -1,762858033e-01   -1,256982684e-01    0,000000000e+00    0,000000000e+00    0,000000000e+00    0,000000000e+00
      772000000   -4,840197563e-01   -1,183955967e-01   -3,368130624e-01    3,835293651e-02    0,000000000e+00    0,000000000e+00    0,000000000e+00    0,000000000e+00
      786000000   -3,412298560e-01    2,204866260e-01   -2,630814910e-01    3,170043230e-01    0,000000000e+00    0,000000000e+00    0,000000000e+00    0,000000000e+00
      800000000   -4,157066718e-02    2,768661082e-01    3,511892632e-03    4,368708134e-01    0,000000000e+00    0,000000000e+00    0,000000000e+00    0,000000000e+00
      814000000    1,445527822e-01    1,251293570e-01    2,643043697e-01    3,590475321e-01    0,000000000e+00    0,000000000e+00    0,000000000e+00    0,000000000e+00
      828000000    1,678336412e-01   -7,062883675e-02    4,331375062e-01    1,570647061e-01    0,000000000e+00    0,000000000e+00    0,000000000e+00    0,000000000e+00
      842000000    6,766893715e-02   -2,185712457e-01    4,670370817e-01   -1,199857891e-01    0,000000000e+00    0,000000000e+00    0,000000000e+00    0,000000000e+00
      856000000   -1,071098298e-01   -2,633233070e-01    3,203870952e-01   -3,946143985e-01    0,000000000e+00    0,000000000e+00    0,000000000e+00    0,000000000e+00
      870000000   -2,739841342e-01   -1,677147299e-01   -1,734294463e-03   -5,264921188e-01    0,000000000e+00    0,000000000e+00    0,000000000e+00    0,000000000e+00
      884000000   -3,203493059e-01    3,482925147e-02   -3,471886218e-01   -3,930731118e-01    0,000000000e+00    0,000000000e+00    0,000000000e+00    0,000000000e+00
      898000000   -1,913431734e-01    2,059376091e-01   -4,887717068e-01   -6,362371147e-02    0,000000000e+00    0,000000000e+00    0,000000000e+00    0,000000000e+00
      912000000    6,851719692e-03    2,188654989e-01   -4,102988839e-01    2,783172727e-01    0,000000000e+00    0,000000000e+00    0,000000000e+00    0,000000000e+00
      926000000    1,481766254e-01    1,134940013e-01   -1,723878682e-01    4,171920121e-01    0,000000000e+00    0,000000000e+00    0,000000000e+00    0,000000000e+00
      940000000    1,998024881e-01   -4,379363358e-02    6,255652010e-02    4,253594875e-01    0,000000000e+00    0,000000000e+00    0,000000000e+00    0,000000000e+00
      954000000    1,546023190e-01   -1,997835785e-01    2,612579167e-01    3,428043425e-01    0,000000000e+00    0,000000000e+00    0,000000000e+00    0,000000000e+00
      968000000    2,699719556e-02   -3,156144619e-01    4,116123021e-01    1,795331985e-01    0,000000000e+00    0,000000000e+00    0,000000000e+00    0,000000000e+00
      982000000   -1,637603492e-01   -3,330406547e-01    4,742642045e-01   -6,801421195e-02    0,000000000e+00    0,000000000e+00    0,000000000e+00    0,000000000e+00
      996000000   -3,260744512e-01   -2,103252858e-01    3,691810966e-01   -3,560930490e-01    0,000000000e+00    0,000000000e+00    0,000000000e+00    0,000000000e+00
     1010000000   -3,379127383e-01   -8,171245456e-03    4,401225224e-02   -5,241103768e-01    0,000000000e+00    0,000000000e+00    0,000000000e+00    0,000000000e+00
     1024000000   -2,043267787e-01    9,357887506e-02   -3,457974792e-01   -3,828061521e-01    0,000000000e+00    0,000000000e+00    0,000000000e+00    0,000000000e+00
     1038000000   -1,326764077e-01    1,340466924e-02   -4,815196395e-01    6,193362549e-02    0,000000000e+00    0,000000000e+00    0,000000000e+00    0,000000000e+00
     1052000000   -2,843088806e-01    4,913252220e-02   -9,574243426e-02    3,730389476e-01    0,000000000e+00    0,000000000e+00    0,000000000e+00    0,000000000e+00
     1066000000   -1,520874202e-01    2,949430943e-01    1,455167532e-01    1,354755610e-01    0,000000000e+00    0,000000000e+00    0,000000000e+00    0,000000000e+00
     1080000000    1,021666303e-01    2,498665750e-01    9,252476692e-02    2,064432763e-02    0,000000000e+00    0,000000000e+00    0,000000000e+00    0,000000000e+00
     1094000000    2,226707786e-01    9,230735898e-02    6,771305948e-02    8,396005258e-03    0,000000000e+00    0,000000000e+00    0,000000000e+00    0,000000000e+00
     1108000000    2,403641790e-01   -8,516852558e-02    8,253955841e-02   -2,423215890e-03    0,000000000e+00    0,000000000e+00    0,000000000e+00    0,000000000e+00
     1122000000    1,869001836e-01   -2,498673201e-01    1,036055461e-01   -2,591250092e-02    0,000000000e+00    0,000000000e+00    0,000000000e+00    0,000000000e+00
     1136000000    5,020450428e-02   -3,741640151e-01    1,254375875e-01   -7,492148131e-02    0,000000000e+00    0,000000000e+00    0,000000000e+00    0,000000000e+00
     1150000000   -1,575077921e-01   -4,216423631e-01    1,363996416e-01   -1,529971659e-01    0,000000000e+00    0,000000000e+00    0,000000000e+00    0,000000000e+00
     1164000000   -3,767007291e-01   -3,213793039e-01    9,581174701e-02   -2,764466405e-01    0,000000000e+00    0,000000000e+00    0,000000000e+00    0,000000000e+00
     1178000000   -4,642423391e-01   -9,033524245e-02   -1,059069037e-01   -4,032163322e-01    0,000000000e+00    0,000000000e+00    0,000000000e+00    0,000000000e+00
     1192000000   -3,700010180e-01    3,562357649e-02   -4,599497020e-01   -1,975370198e-01    0,000000000e+00    0,000000000e+00    0,000000000e+00    0,000000000e+00
     1206000000   -4,162829816e-01    1,321549565e-01   -2,777318954e-01    2,289045453e-01    0,000000000e+00    0,000000000e+00    0,000000000e+00    0,000000000e+00
     1220000000   -2,717691660e-01    3,258379400e-01    4,142972757e-04    1,646986902e-01    0,000000000e+00    0,000000000e+00    0,000000000e+00    0,000000000e+00
     1234000000   -4,991535842e-02    3,450814486e-01    1,888046786e-02    5,153134465e-02    0,000000000e+00    0,000000000e+00    0,000000000e+00    0,000000000e+00
     1248000000    1,199485958e-01    2,534607649e-01    5,996115040e-03    2,793642133e-02    0,000000000e+00    0,000000000e+00    0,000000000e+00    0,000000000e+00
     1262000000    2,174866647e-01    1,014598608e-01    3,650246887e-03    2,813217789e-02    0,000000000e+00    0,000000000e+00    0,000000000e+00    0,000000000e+00
     1276000000    2,312862724e-01   -6,185824797e-02    2,358325943e-02    2,897900343e-02    0,000000000e+00    0,000000000e+00    0,000000000e+00    0,000000000e+00
     1290000000    1,914291084e-01   -2,144732475e-01    5,646743625e-02    2,727993764e-02    0,000000000e+00    0,000000000e+00    0,000000000e+00    0,000000000e+00
     1304000000    8,727756888e-02   -3,531376421e-01    8,117320389e-02    6,998436525e-03    0,000000000e+00    0,000000000e+00    0,000000000e+00    0,000000000e+00
     1318000000   -1,034701020e-01   -4,493609965e-01    8,784712851e-02   -1,354771666e-02    0,000000000e+00    0,000000000e+00    0,000000000e+00    0,000000000e+00
     1332000000   -3,550036848e-01   -4,335306287e-01    8,625181019e-02   -1,343163010e-02    0,000000000e+00    0,000000000e+00    0,000000000e+00    0,000000000e+00
     1346000000   -5,842180848e-01   -2,482353747e-01    1,046268791e-01   -1,044318895e-03    0,000000000e+00    0,000000000e+00    0,000000000e+00    0,000000000e+00
     1360000000   -6,499419808e-01    6,937174499e-02    1,396701634e-01   -1,555998158e-02    0,000000000e+00    0,000000000e+00    0,000000000e+00    0,000000000e+00
     1374000000   -4,926845133e-01    3,319312930e-01    1,618235409e-01   -5,604420602e-02    0,000000000e+00    0,000000000e+00    0,000000000e+00    0,000000000e+00
     1388000000   -2,540383041e-01    4,244104028e-01    1,691931933e-01   -8,679716289e-02    0,000000000e+00    0,000000000e+00    0,000000000e+00    0,000000000e+00
     1402000000   -4,897757247e-02    3,909672201e-01    1,390628070e-01   -9,145003557e-02    0,000000000e+00    0,000000000e+00    0,000000000e+00    0,000000000e+00
     1416000000    1,060257033e-01    2,791509628e-01    1,244578958e-01   -9,278672189e-02    0,000000000e+00    0,000000000e+00    0,000000000e+00    0,000000000e+00
     1430000000    1,840442866e-01    1,448042393e-01    1,187862679e-01   -5,656050891e-02    0,000000000e+00    0,000000000e+00    0,000000000e+00    0,000000000e+00
     1444000000    2,193411440e-01   -1,152945776e-02    1,282529384e-01   -1,497850008e-02    0,000000000e+00    0,000000000e+00    0,000000000e+00    0,000000000e+00
     1458000000    1,828773767e-01   -1,872001737e-01    1,488822103e-01    1,365638897e-02    0,000000000e+00    0,000000000e+00    0,000000000e+00    0,000000000e+00
     1472000000    7,425793260e-02   -3,457762599e-01    2,038612813e-01    6,460884213e-02    0,000000000e+00    0,000000000e+00    0,000000000e+00    0,000000000e+00
     1486000000   -1,393145025e-01   -4,784514904e-01    2,940800190e-01    8,229096979e-02    0,000000000e+00    0,000000000e+00    0,000000000e+00    0,000000000e+00
     1500000000   -4,399951100e-01   -4,719313979e-01    4,247010946e-01    5,346272513e-02    0,000000000e+00    0,000000000e+00    0,000000000e+00    0,000000000e+00
