! NanoVNA-App
! Date: 2025-09-25 15:59:03
! Start: 100MHz Stop: 1,5GHz Points: 101
! S-Parameter data: F S11 S21 S12 S22
# Hz S RI R 50
!     Frequency           S11_Real           S11_Imag           S21_Real           S21_Imag           S12_Real           S12_Imag           S22_Real           S22_Imag
      100000000   -2,825651877e-02   -2,851909958e-03    3,722490370e-01   -7,224759459e-01    0,000000000e+00    0,000000000e+00    0,000000000e+00    0,000000000e+00
      114000000   -1,569588669e-02    1,287096273e-02   -9,129320830e-02   -8,046074510e-01    0,000000000e+00    0,000000000e+00    0,000000000e+00    0,000000000e+00
      128000000    4,375071265e-03    1,196883246e-02   -5,160368085e-01   -6,188887954e-01    0,000000000e+00    0,000000000e+00    0,000000000e+00    0,000000000e+00
      142000000    1,547570247e-02   -1,783593907e-03   -7,674469948e-01   -2,341609597e-01    0,000000000e+00    0,000000000e+00    0,000000000e+00    0,000000000e+00
      156000000    1,615457796e-02   -1,389581896e-02   -7,705881596e-01    2,250080705e-01    0,000000000e+00    0,000000000e+00    0,000000000e+00    0,000000000e+00
      170000000    1,767604239e-02   -2,096780203e-02   -5,154382586e-01    6,061909199e-01    0,000000000e+00    0,000000000e+00    0,000000000e+00    0,000000000e+00
      184000000    2,201844566e-02   -3,551669791e-02   -9,826809168e-02    7,860239148e-01    0,000000000e+00    0,000000000e+00    0,000000000e+00    0,000000000e+00
      198000000    1,402547769e-02   -6,063173711e-02    3,459405005e-01    7,105777264e-01    0,000000000e+00    0,000000000e+00    0,000000000e+00    0,000000000e+00
      212000000   -1,766132377e-02   -7,915517688e-02    6,808130741e-01    4,062823355e-01    0,000000000e+00    0,000000000e+00    0,000000000e+00    0,000000000e+00
      226000000   -6,030752510e-02   -6,663904339e-02    7,957016230e-01   -3,558960184e-02    0,000000000e+00    0,000000000e+00    0,000000000e+00    0,000000000e+00
      240000000   -8,047948778e-02   -2,274678089e-02    6,413637400e-01   -4,717544317e-01    0,000000000e+00    0,000000000e+00    0,000000000e+00    0,000000000e+00
      254000000   -6,085361540e-02    1,978979632e-02    2,709254622e-01   -7,418473363e-01    0,000000000e+00    0,000000000e+00    0,000000000e+00    0,000000000e+00
      268000000   -2,091656439e-02    3,091601841e-02   -1,812123209e-01   -7,609925270e-01    0,000000000e+00    0,000000000e+00    0,000000000e+00    0,000000000e+00
      282000000    6,946233101e-03    1,376810670e-02   -5,632243156e-01   -5,321709514e-01    0,000000000e+00    0,000000000e+00    0,000000000e+00    0,000000000e+00
      296000000    1,241546869e-02   -6,174813490e-03   -7,605785728e-01   -1,344093829e-01    0,000000000e+00    0,000000000e+00    0,000000000e+00    0,000000000e+00
      310000000    1,354302745e-02   -1,475925185e-02   -7,087625861e-01    3,032250404e-01    0,000000000e+00    0,000000000e+00    0,000000000e+00    0,000000000e+00
      324000000    2,249628492e-02   -2,479067817e-02   -4,211636782e-01    6,386353970e-01    0,000000000e+00    0,000000000e+00    0,000000000e+00    0,000000000e+00
      338000000    2,842201479e-02   -5,056265369e-02   -4,108232912e-03    7,583420277e-01    0,000000000e+00    0,000000000e+00    0,000000000e+00    0,000000000e+00
      352000000    1,015237253e-02   -8,286589384e-02    4,100346565e-01    6,342845559e-01    0,000000000e+00    0,000000000e+00    0,000000000e+00    0,000000000e+00
      366000000   -3,183233738e-02   -9,383396059e-02    6,926360726e-01    3,038161695e-01    0,000000000e+00    0,000000000e+00    0,000000000e+00    0,000000000e+00
      380000000   -6,763241440e-02   -6,881461293e-02    7,456726432e-01   -1,347608417e-01    0,000000000e+00    0,000000000e+00    0,000000000e+00    0,000000000e+00
      394000000   -6,873551011e-02   -3,044001386e-02    5,380017161e-01   -5,279509425e-01    0,000000000e+00    0,000000000e+00    0,000000000e+00    0,000000000e+00
      408000000   -4,262209684e-02   -1,538713370e-02    1,489380747e-01   -7,344888449e-01    0,000000000e+00    0,000000000e+00    0,000000000e+00    0,000000000e+00
      422000000   -2,632482722e-02   -3,112397157e-02   -2,796064019e-01   -6,894234419e-01    0,000000000e+00    0,000000000e+00    0,000000000e+00    0,000000000e+00
      436000000   -3,913053498e-02   -4,909596592e-02   -6,103727818e-01   -4,195913672e-01    0,000000000e+00    0,000000000e+00    0,000000000e+00    0,000000000e+00
      450000000   -6,477671862e-02   -3,924693540e-02   -7,371843457e-01   -7,624588907e-03    0,000000000e+00    0,000000000e+00    0,000000000e+00    0,000000000e+00
      464000000   -6,746596098e-02   -6,583318580e-03   -6,077177525e-01    4,063211679e-01    0,000000000e+00    0,000000000e+00    0,000000000e+00    0,000000000e+00
      478000000   -3,830282390e-02    1,628801227e-02   -2,679914534e-01    6,693606973e-01    0,000000000e+00    0,000000000e+00    0,000000000e+00    0,000000000e+00
      492000000   -5,073433742e-03    6,426945794e-03    1,520626992e-01    6,950532794e-01    0,000000000e+00    0,000000000e+00    0,000000000e+00    0,000000000e+00
      506000000    7,148786914e-03   -2,017229795e-02    5,082526207e-01    4,886958599e-01    0,000000000e+00    0,000000000e+00    0,000000000e+00    0,000000000e+00
      520000000    4,429717083e-04   -3,866195679e-02    6,878460050e-01    1,216206178e-01    0,000000000e+00    0,000000000e+00    0,000000000e+00    0,000000000e+00
      534000000   -3,361083101e-03   -4,559023678e-02    6,326901317e-01   -2,820352912e-01    0,000000000e+00    0,000000000e+00    0,000000000e+00    0,000000000e+00
      548000000    1,298233052e-03   -5,939759687e-02    3,604209423e-01   -5,786942840e-01    0,000000000e+00    0,000000000e+00    0,000000000e+00    0,000000000e+00
      562000000   -7,981700823e-03   -8,828422427e-02   -2,738307416e-02   -6,727671623e-01    0,000000000e+00    0,000000000e+00    0,000000000e+00    0,000000000e+00
      576000000   -4,528357834e-02   -1,097886115e-01   -4,012297392e-01   -5,377374291e-01    0,000000000e+00    0,000000000e+00    0,000000000e+00    0,000000000e+00
      590000000   -9,476091713e-02   -9,378628433e-02   -6,415351033e-01   -2,170848250e-01    0,000000000e+00    0,000000000e+00    0,000000000e+00    0,000000000e+00
      604000000   -1,112466380e-01   -4,111024737e-02   -6,474938989e-01    1,984952539e-01    0,000000000e+00    0,000000000e+00    0,000000000e+00    0,000000000e+00
      618000000   -7,559593022e-02   -1,916131587e-03   -4,016706049e-01    5,355600119e-01    0,000000000e+00    0,000000000e+00    0,000000000e+00    0,000000000e+00
      632000000   -3,039870039e-02   -2,084484138e-02   -1,137402840e-02    6,552315354e-01    0,000000000e+00    0,000000000e+00    0,000000000e+00    0,000000000e+00
      646000000   -3,684988245e-02   -7,680758089e-02    3,659096360e-01    5,263381004e-01    0,000000000e+00    0,000000000e+00    0,000000000e+00    0,000000000e+00
      660000000   -1,112684384e-01   -9,925115854e-02    6,009890437e-01    1,934882998e-01    0,000000000e+00    0,000000000e+00    0,000000000e+00    0,000000000e+00
      674000000   -2,002736181e-01   -2,437304333e-02    5,656126738e-01   -2,399463505e-01    0,000000000e+00    0,000000000e+00    0,000000000e+00    0,000000000e+00
      688000000   -1,795161515e-01    1,453482509e-01    2,085680962e-01   -5,215992332e-01    0,000000000e+00    0,000000000e+00    0,000000000e+00    0,000000000e+00
      702000000    2,754743211e-02    2,473560721e-01   -2,013277709e-01   -4,019866586e-01    0,000000000e+00    0,000000000e+00    0,000000000e+00    0,000000000e+00
      716000000    2,642236054e-01    1,110637188e-01   -2,723867595e-01   -8,319978416e-02    0,000000000e+00    0,000000000e+00    0,000000000e+00    0,000000000e+00
      730000000    3,033963144e-01   -1,872193962e-01   -1,065440625e-01    3,173367307e-02    0,000000000e+00    0,000000000e+00    0,000000000e+00    0,000000000e+00
      744000000    9,283909202e-02   -4,271959960e-01   -4,226700589e-02   -6,582432240e-02    0,000000000e+00    0,000000000e+00    0,000000000e+00    0,000000000e+00
      758000000   -2,583409548e-01   -4,294941127e-01   -1,762287319e-01   -1,255784333e-01    0,000000000e+00    0,000000000e+00    0,000000000e+00    0,000000000e+00
      772000000   -4,863612056e-01   -1,186336577e-01   -3,366716206e-01    3,834054992e-02    0,000000000e+00    0,000000000e+00    0,000000000e+00    0,000000000e+00
      786000000   -3,405572176e-01    2,221600562e-01   -2,635499537e-01    3,165102601e-01    0,000000000e+00    0,000000000e+00    0,000000000e+00    0,000000000e+00
      800000000   -4,045270383e-02    2,764524519e-01    3,588187043e-03    4,366124272e-01    0,000000000e+00    0,000000000e+00    0,000000000e+00    0,000000000e+00
      814000000    1,442822665e-01    1,254487038e-01    2,643038034e-01    3,589732051e-01    0,000000000e+00    0,000000000e+00    0,000000000e+00    0,000000000e+00
      828000000    1,677880585e-01   -7,017129660e-02    4,328109920e-01    1,564505398e-01    0,000000000e+00    0,000000000e+00    0,000000000e+00    0,000000000e+00
      842000000    6,727226824e-02   -2,185684592e-01    4,666756392e-01   -1,202138886e-01    0,000000000e+00    0,000000000e+00    0,000000000e+00    0,000000000e+00
      856000000   -1,071808487e-01   -2,634247243e-01    3,197578192e-01   -3,948207498e-01    0,000000000e+00    0,000000000e+00    0,000000000e+00    0,000000000e+00
      870000000   -2,738814950e-01   -1,683434099e-01   -1,783258864e-03   -5,262338519e-01    0,000000000e+00    0,000000000e+00    0,000000000e+00    0,000000000e+00
      884000000   -3,206468821e-01    3,526225314e-02   -3,468169272e-01   -3,918169439e-01    0,000000000e+00    0,000000000e+00    0,000000000e+00    0,000000000e+00
      898000000   -1,918471307e-01    2,073020041e-01   -4,887950420e-01   -6,246611848e-02    0,000000000e+00    0,000000000e+00    0,000000000e+00    0,000000000e+00
      912000000    7,339324802e-03    2,192807496e-01   -3,960976899e-01    2,687222660e-01    0,000000000e+00    0,000000000e+00    0,000000000e+00    0,000000000e+00
      926000000    1,514515132e-01    1,138854623e-01   -1,676588058e-01    4,180386364e-01    0,000000000e+00    0,000000000e+00    0,000000000e+00    0,000000000e+00
      940000000    1,993333101e-01   -4,412690923e-02    6,353715807e-02    4,249203503e-01    0,000000000e+00    0,000000000e+00    0,000000000e+00    0,000000000e+00
      954000000    1,550942808e-01   -2,044987828e-01    2,607746422e-01    3,416014314e-01    0,000000000e+00    0,000000000e+00    0,000000000e+00    0,000000000e+00
      968000000    2,629061230e-02   -3,149986267e-01    4,123519957e-01    1,796335727e-01    0,000000000e+00    0,000000000e+00    0,000000000e+00    0,000000000e+00
      982000000   -1,588086635e-01   -3,299453557e-01    4,725814462e-01   -6,812141836e-02    0,000000000e+00    0,000000000e+00    0,000000000e+00    0,000000000e+00
      996000000   -3,229581416e-01   -2,064504176e-01    3,690564930e-01   -3,564655781e-01    0,000000000e+00    0,000000000e+00    0,000000000e+00    0,000000000e+00
     1010000000   -3,417406380e-01   -4,875204060e-03    4,057001323e-02   -5,222893357e-01    0,000000000e+00    0,000000000e+00    0,000000000e+00    0,000000000e+00
     1024000000   -2,082208395e-01    9,557062387e-02   -3,461593986e-01   -3,822897375e-01    0,000000000e+00    0,000000000e+00    0,000000000e+00    0,000000000e+00
     1038000000   -1,393750906e-01    7,313594688e-03   -4,819108546e-01    6,459926814e-02    0,000000000e+00    0,000000000e+00    0,000000000e+00    0,000000000e+00
     1052000000   -2,890186608e-01    5,188438296e-02   -9,327750653e-02    3,725880980e-01    0,000000000e+00    0,000000000e+00    0,000000000e+00    0,000000000e+00
     1066000000   -1,473305225e-01    2,915025353e-01    1,424299031e-01    1,315201074e-01    0,000000000e+00    0,000000000e+00    0,000000000e+00    0,000000000e+00
     1080000000    1,036158800e-01    2,468705177e-01    9,123721719e-02    2,202975005e-02    0,000000000e+00    0,000000000e+00    0,000000000e+00    0,000000000e+00
     1094000000    2,175742686e-01    8,925010264e-02    7,126700878e-02    1,044964418e-02    0,000000000e+00    0,000000000e+00    0,000000000e+00    0,000000000e+00
     1108000000    2,419915795e-01   -8,993671089e-02    8,057490736e-02    1,018332783e-03    0,000000000e+00    0,000000000e+00    0,000000000e+00    0,000000000e+00
     1122000000    1,859073043e-01   -2,531931400e-01    1,042885855e-01   -2,370554768e-02    0,000000000e+00    0,000000000e+00    0,000000000e+00    0,000000000e+00
     1136000000    5,073846504e-02   -3,776960671e-01    1,262891740e-01   -7,412100583e-02    0,000000000e+00    0,000000000e+00    0,000000000e+00    0,000000000e+00
     1150000000   -1,579090655e-01   -4,259194434e-01    1,370749027e-01   -1,505959034e-01    0,000000000e+00    0,000000000e+00    0,000000000e+00    0,000000000e+00
     1164000000   -3,775112033e-01   -3,266915381e-01    9,903354943e-02   -2,803088427e-01    0,000000000e+00    0,000000000e+00    0,000000000e+00    0,000000000e+00
     1178000000   -4,665254354e-01   -8,626840264e-02   -1,091450155e-01   -4,051650763e-01    0,000000000e+00    0,000000000e+00    0,000000000e+00    0,000000000e+00
     1192000000   -3,700132072e-01    3,614168614e-02   -4,610747099e-01   -1,954732537e-01    0,000000000e+00    0,000000000e+00    0,000000000e+00    0,000000000e+00
     1206000000   -4,190157652e-01    1,291418523e-01   -2,795026600e-01    2,374285012e-01    0,000000000e+00    0,000000000e+00    0,000000000e+00    0,000000000e+00
     1220000000   -2,731074691e-01    3,364625573e-01   -4,968350753e-03    1,666571945e-01    0,000000000e+00    0,000000000e+00    0,000000000e+00    0,000000000e+00
     1234000000   -4,776555672e-02    3,459751606e-01    2,396253683e-02    5,322764814e-02    0,000000000e+00    0,000000000e+00    0,000000000e+00    0,000000000e+00
     1248000000    1,172821373e-01    2,505660057e-01    5,682433257e-04    2,682741545e-02    0,000000000e+00    0,000000000e+00    0,000000000e+00    0,000000000e+00
     1262000000    2,182707936e-01    1,047849730e-01    5,389720201e-03    3,365137428e-02    0,000000000e+00    0,000000000e+00    0,000000000e+00    0,000000000e+00
     1276000000    2,362785488e-01   -5,616239458e-02    2,443470247e-02    3,873206303e-02    0,000000000e+00    0,000000000e+00    0,000000000e+00    0,000000000e+00
     1290000000    1,934055239e-01   -2,133385092e-01    5,192372203e-02    2,697493881e-02    0,000000000e+00    0,000000000e+00    0,000000000e+00    0,000000000e+00
     1304000000    8,677887917e-02   -3,555112779e-01    8,025801182e-02    5,537171382e-03    0,000000000e+00    0,000000000e+00    0,000000000e+00    0,000000000e+00
     1318000000   -1,040682346e-01   -4,549295604e-01    7,879048586e-02   -1,626725122e-02    0,000000000e+00    0,000000000e+00    0,000000000e+00    0,000000000e+00
     1332000000   -3,529064059e-01   -4,380995035e-01    8,933986723e-02   -1,991292834e-02    0,000000000e+00    0,000000000e+00    0,000000000e+00    0,000000000e+00
     1346000000   -5,927793980e-01   -2,431264073e-01    1,102027595e-01   -1,907768310e-03    0,000000000e+00    0,000000000e+00    0,000000000e+00    0,000000000e+00
     1360000000   -6,488321424e-01    7,513543218e-02    1,460807025e-01   -1,806976274e-02    0,000000000e+00    0,000000000e+00    0,000000000e+00    0,000000000e+00
     1374000000   -4,876135290e-01    3,309026062e-01    1,695031524e-01   -5,610833690e-02    0,000000000e+00    0,000000000e+00    0,000000000e+00    0,000000000e+00
     1388000000   -2,506790161e-01    4,274604917e-01    1,678704917e-01   -8,568034321e-02    0,000000000e+00    0,000000000e+00    0,000000000e+00    0,000000000e+00
     1402000000   -4,447663948e-02    3,886868656e-01    1,457701176e-01   -9,477138519e-02    0,000000000e+00    0,000000000e+00    0,000000000e+00    0,000000000e+00
     1416000000    1,040388271e-01    2,884676754e-01    1,287923604e-01   -8,141934872e-02    0,000000000e+00    0,000000000e+00    0,000000000e+00    0,000000000e+00
     1430000000    1,836201549e-01    1,558470875e-01    1,004341692e-01   -4,691212997e-02    0,000000000e+00    0,000000000e+00    0,000000000e+00    0,000000000e+00
     1444000000    2,162943333e-01   -9,847266600e-03    1,210013926e-01   -3,410335258e-02    0,000000000e+00    0,000000000e+00    0,000000000e+00    0,000000000e+00
     1458000000    1,832249314e-01   -1,850685030e-01    1,476023793e-01    1,584141888e-02    0,000000000e+00    0,000000000e+00    0,000000000e+00    0,000000000e+00
     1472000000    7,009536028e-02   -3,466261923e-01    2,033890337e-01    7,217222452e-02    0,000000000e+00    0,000000000e+00    0,000000000e+00    0,000000000e+00
     1486000000   -1,334526688e-01   -4,778898358e-01    2,924755216e-01    8,467462659e-02    0,000000000e+00    0,000000000e+00    0,000000000e+00    0,000000000e+00
     1500000000   -4,456721842e-01   -4,747736752e-01    4,021717608e-01    4,333528504e-02    0,000000000e+00    0,000000000e+00    0,000000000e+00    0,000000000e+00
