! NanoVNA-App
! Date: 2025-09-25 16:03:14
! Start: 100MHz Stop: 1,5GHz Points: 101
! S-Parameter data: F S11 S21 S12 S22
# Hz S RI R 50
!     Frequency           S11_Real           S11_Imag           S21_Real           S21_Imag           S12_Real           S12_Imag           S22_Real           S22_Imag
      100000000   -2,830506116e-02   -2,896749880e-03    3,722967207e-01   -7,224780321e-01    0,000000000e+00    0,000000000e+00    0,000000000e+00    0,000000000e+00
      114000000   -1,575497724e-02    1,290884335e-02   -9,122514725e-02   -8,047582507e-01    0,000000000e+00    0,000000000e+00    0,000000000e+00    0,000000000e+00
      128000000    4,306126852e-03    1,198279671e-02   -5,158466101e-01   -6,187987924e-01    0,000000000e+00    0,000000000e+00    0,000000000e+00    0,000000000e+00
      142000000    1,546830870e-02   -1,708735246e-03   -7,676182985e-01   -2,341813445e-01    0,000000000e+00    0,000000000e+00    0,000000000e+00    0,000000000e+00
      156000000    1,533371117e-02   -1,291937102e-02   -7,642515302e-01    2,207060009e-01    0,000000000e+00    0,000000000e+00    0,000000000e+00    0,000000000e+00
      170000000    1,770239696e-02   -2,095705085e-02   -5,153918862e-01    6,061912775e-01    0,000000000e+00    0,000000000e+00    0,000000000e+00    0,000000000e+00
      184000000    2,205064520e-02   -3,553100303e-02   -9,800685942e-02    7,862134576e-01    0,000000000e+00    0,000000000e+00    0,000000000e+00    0,000000000e+00
      198000000    1,405328326e-02   -6,062598899e-02    3,459433019e-01    7,109677196e-01    0,000000000e+00    0,000000000e+00    0,000000000e+00    0,000000000e+00
      212000000   -1,766785420e-02   -7,913883030e-02    6,809075475e-01    4,064472318e-01    0,000000000e+00    0,000000000e+00    0,000000000e+00    0,000000000e+00
      226000000   -6,033037230e-02   -6,658219546e-02    7,958199382e-01   -3,568291292e-02    0,000000000e+00    0,000000000e+00    0,000000000e+00    0,000000000e+00
      240000000   -8,053565770e-02   -2,272276022e-02    6,414837241e-01   -4,716939628e-01    0,000000000e+00    0,000000000e+00    0,000000000e+00    0,000000000e+00
      254000000   -6,079005450e-02    1,978875324e-02    2,709757984e-01   -7,420712113e-01    0,000000000e+00    0,000000000e+00    0,000000000e+00    0,000000000e+00
      268000000   -2,099611983e-02    3,091283701e-02   -1,808523983e-01   -7,608342767e-01    0,000000000e+00    0,000000000e+00    0,000000000e+00    0,000000000e+00
      282000000    7,007888518e-03    1,374761946e-02   -5,636832714e-01   -5,329970717e-01    0,000000000e+00    0,000000000e+00    0,000000000e+00    0,000000000e+00
      296000000    1,236321963e-02   -6,165154744e-03   -7,607502341e-01   -1,344967932e-01    0,000000000e+00    0,000000000e+00    0,000000000e+00    0,000000000e+00
      310000000    1,335799042e-02   -1,461401395e-02   -7,092689872e-01    3,039970398e-01    0,000000000e+00    0,000000000e+00    0,000000000e+00    0,000000000e+00
      324000000    2,264979482e-02   -2,473607846e-02   -4,216349423e-01    6,387045383e-01    0,000000000e+00    0,000000000e+00    0,000000000e+00    0,000000000e+00
      338000000    2,872854471e-02   -5,077650771e-02   -2,817140892e-03    7,592038512e-01    0,000000000e+00    0,000000000e+00    0,000000000e+00    0,000000000e+00
      352000000    9,994190186e-03   -8,282109350e-02    4,110049009e-01    6,347360015e-01    0,000000000e+00    0,000000000e+00    0,000000000e+00    0,000000000e+00
      366000000   -3,165943176e-02   -9,381913394e-02    6,934199929e-01    3,036325872e-01    0,000000000e+00    0,000000000e+00    0,000000000e+00    0,000000000e+00
      380000000   -6,776994467e-02   -6,878346205e-02    7,454981804e-01   -1,341304332e-01    0,000000000e+00    0,000000000e+00    0,000000000e+00    0,000000000e+00
      394000000   -6,876740605e-02   -3,051654622e-02    5,389575958e-01   -5,282875299e-01    0,000000000e+00    0,000000000e+00    0,000000000e+00    0,000000000e+00
      408000000   -4,280654341e-02   -1,559477206e-02    1,504731178e-01   -7,352275848e-01    0,000000000e+00    0,000000000e+00    0,000000000e+00    0,000000000e+00
      422000000   -2,616895176e-02   -3,148133308e-02   -2,789963484e-01   -6,900861263e-01    0,000000000e+00    0,000000000e+00    0,000000000e+00    0,000000000e+00
      436000000   -3,910871968e-02   -4,911609739e-02   -6,107528210e-01   -4,199893773e-01    0,000000000e+00    0,000000000e+00    0,000000000e+00    0,000000000e+00
      450000000   -6,450834125e-02   -3,920434788e-02   -7,371742129e-01   -7,768491749e-03    0,000000000e+00    0,000000000e+00    0,000000000e+00    0,000000000e+00
      464000000   -6,733668596e-02   -6,065234076e-03   -6,079245806e-01    4,060495496e-01    0,000000000e+00    0,000000000e+00    0,000000000e+00    0,000000000e+00
      478000000   -3,861825168e-02    1,625242643e-02   -2,677181065e-01    6,706824899e-01    0,000000000e+00    0,000000000e+00    0,000000000e+00    0,000000000e+00
      492000000   -5,372944754e-03    6,546136457e-03    1,522959024e-01    6,950058341e-01    0,000000000e+00    0,000000000e+00    0,000000000e+00    0,000000000e+00
      506000000    7,164145354e-03   -2,000803500e-02    5,081886649e-01    4,886770844e-01    0,000000000e+00    0,000000000e+00    0,000000000e+00    0,000000000e+00
      520000000    2,250049874e-04   -3,906857967e-02    6,899907589e-01    1,208399832e-01    0,000000000e+00    0,000000000e+00    0,000000000e+00    0,000000000e+00
      534000000   -2,734317677e-03   -4,534871131e-02    6,328951716e-01   -2,818799913e-01    0,000000000e+00    0,000000000e+00    0,000000000e+00    0,000000000e+00
      548000000    1,173911965e-03   -6,001809612e-02    3,603706360e-01   -5,799008012e-01    0,000000000e+00    0,000000000e+00    0,000000000e+00    0,000000000e+00
      562000000   -7,494630292e-03   -8,894978464e-02   -2,578505874e-02   -6,736526489e-01    0,000000000e+00    0,000000000e+00    0,000000000e+00    0,000000000e+00
      576000000   -4,544837400e-02   -1,098204032e-01   -4,012850225e-01   -5,384693742e-01    0,000000000e+00    0,000000000e+00    0,000000000e+00    0,000000000e+00
      590000000   -9,481439739e-02   -9,366653860e-02   -6,423743367e-01   -2,181418687e-01    0,000000000e+00    0,000000000e+00    0,000000000e+00    0,000000000e+00
      604000000   -1,112734750e-01   -4,131492227e-02   -6,478205323e-01    1,983356625e-01    0,000000000e+00    0,000000000e+00    0,000000000e+00    0,000000000e+00
      618000000   -7,537141442e-02   -2,306900220e-03   -4,020784795e-01    5,358668566e-01    0,000000000e+00    0,000000000e+00    0,000000000e+00    0,000000000e+00
      632000000   -2,959970944e-02   -2,067764290e-02   -1,215447765e-02    6,560334563e-01    0,000000000e+00    0,000000000e+00    0,000000000e+00    0,000000000e+00
      646000000   -3,620030358e-02   -7,706061751e-02    3,661114573e-01    5,277240276e-01    0,000000000e+00    0,000000000e+00    0,000000000e+00    0,000000000e+00
      660000000   -1,121313348e-01   -9,912412614e-02    6,013345718e-01    1,944291294e-01    0,000000000e+00    0,000000000e+00    0,000000000e+00    0,000000000e+00
      674000000   -1,998933256e-01   -2,368065715e-02    5,659067631e-01   -2,401881963e-01    0,000000000e+00    0,000000000e+00    0,000000000e+00    0,000000000e+00
      688000000   -1,781098098e-01    1,439613253e-01    2,102545649e-01   -5,216827989e-01    0,000000000e+00    0,000000000e+00    0,000000000e+00    0,000000000e+00
      702000000    2,300058678e-02    2,467391342e-01   -1,966608614e-01   -4,137590230e-01    0,000000000e+00    0,000000000e+00    0,000000000e+00    0,000000000e+00
      716000000    2,629259825e-01    1,116516516e-01   -2,747023404e-01   -8,439996839e-02    0,000000000e+00    0,000000000e+00    0,000000000e+00    0,000000000e+00
      730000000    3,033537865e-01   -1,850828081e-01   -1,084932834e-01    3,317509592e-02    0,000000000e+00    0,000000000e+00    0,000000000e+00    0,000000000e+00
      744000000    9,479038417e-02   -4,276269376e-01   -4,243530333e-02   -6,362396479e-02    0,000000000e+00    0,000000000e+00    0,000000000e+00    0,000000000e+00
      758000000   -2,584363222e-01   -4,317955971e-01   -1,741168052e-01   -1,246332154e-01    0,000000000e+00    0,000000000e+00    0,000000000e+00    0,000000000e+00
      772000000   -4,867478609e-01   -1,208569780e-01   -3,354883492e-01    3,777123615e-02    0,000000000e+00    0,000000000e+00    0,000000000e+00    0,000000000e+00
      786000000   -3,419037163e-01    2,224526852e-01   -2,624307275e-01    3,159237504e-01    0,000000000e+00    0,000000000e+00    0,000000000e+00    0,000000000e+00
      800000000   -4,143794626e-02    2,782337964e-01    2,219791990e-03    4,367309511e-01    0,000000000e+00    0,000000000e+00    0,000000000e+00    0,000000000e+00
      814000000    1,449444443e-01    1,261376143e-01    2,632096112e-01    3,587349355e-01    0,000000000e+00    0,000000000e+00    0,000000000e+00    0,000000000e+00
      828000000    1,681692153e-01   -6,979729235e-02    4,325916767e-01    1,569520831e-01    0,000000000e+00    0,000000000e+00    0,000000000e+00    0,000000000e+00
      842000000    6,835839152e-02   -2,186105400e-01    4,661554098e-01   -1,196041480e-01    0,000000000e+00    0,000000000e+00    0,000000000e+00    0,000000000e+00
      856000000   -1,072326824e-01   -2,644551694e-01    3,193047047e-01   -3,950674236e-01    0,000000000e+00    0,000000000e+00    0,000000000e+00    0,000000000e+00
      870000000   -2,751824856e-01   -1,680440158e-01   -2,182515338e-03   -5,270406604e-01    0,000000000e+00    0,000000000e+00    0,000000000e+00    0,000000000e+00
      884000000   -3,211557865e-01    3,546189889e-02   -3,479638696e-01   -3,927730024e-01    0,000000000e+00    0,000000000e+00    0,000000000e+00    0,000000000e+00
      898000000   -1,922329068e-01    2,063115984e-01   -4,885430634e-01   -6,336671114e-02    0,000000000e+00    0,000000000e+00    0,000000000e+00    0,000000000e+00
      912000000    7,792973891e-03    2,186324149e-01   -4,036791325e-01    2,797878683e-01    0,000000000e+00    0,000000000e+00    0,000000000e+00    0,000000000e+00
      926000000    1,495447904e-01    1,144474223e-01   -1,707844138e-01    4,174066186e-01    0,000000000e+00    0,000000000e+00    0,000000000e+00    0,000000000e+00
      940000000    2,002874464e-01   -4,749109223e-02    6,456808001e-02    4,238762259e-01    0,000000000e+00    0,000000000e+00    0,000000000e+00    0,000000000e+00
      954000000    1,564788967e-01   -2,019163966e-01    2,610567510e-01    3,424797356e-01    0,000000000e+00    0,000000000e+00    0,000000000e+00    0,000000000e+00
      968000000    2,695802972e-02   -3,164823949e-01    4,114688933e-01    1,774306446e-01    0,000000000e+00    0,000000000e+00    0,000000000e+00    0,000000000e+00
      982000000   -1,601578891e-01   -3,315238953e-01    4,750248790e-01   -6,491318345e-02    0,000000000e+00    0,000000000e+00    0,000000000e+00    0,000000000e+00
      996000000   -3,267763257e-01   -2,126632035e-01    3,676558137e-01   -3,550328016e-01    0,000000000e+00    0,000000000e+00    0,000000000e+00    0,000000000e+00
     1010000000   -3,435558677e-01   -3,741991939e-03    4,336013645e-02   -5,258865952e-01    0,000000000e+00    0,000000000e+00    0,000000000e+00    0,000000000e+00
     1024000000   -2,086902261e-01    9,199186414e-02   -3,458793163e-01   -3,801166415e-01    0,000000000e+00    0,000000000e+00    0,000000000e+00    0,000000000e+00
     1038000000   -1,345234662e-01    1,250085887e-02   -4,826517999e-01    6,281307340e-02    0,000000000e+00    0,000000000e+00    0,000000000e+00    0,000000000e+00
     1052000000   -2,847766280e-01    5,021826550e-02   -9,554563463e-02    3,745000660e-01    0,000000000e+00    0,000000000e+00    0,000000000e+00    0,000000000e+00
     1066000000   -1,520772278e-01    2,942000628e-01    1,452183276e-01    1,349716336e-01    0,000000000e+00    0,000000000e+00    0,000000000e+00    0,000000000e+00
     1080000000    1,027530655e-01    2,504203618e-01    8,867199719e-02    2,199975401e-02    0,000000000e+00    0,000000000e+00    0,000000000e+00    0,000000000e+00
     1094000000    2,205926180e-01    8,664454520e-02    6,950308383e-02    8,302615024e-03    0,000000000e+00    0,000000000e+00    0,000000000e+00    0,000000000e+00
     1108000000    2,412671149e-01   -8,431290835e-02    7,989405096e-02    6,191657158e-04    0,000000000e+00    0,000000000e+00    0,000000000e+00    0,000000000e+00
     1122000000    1,871028244e-01   -2,509338856e-01    1,023257077e-01   -2,744113281e-02    0,000000000e+00    0,000000000e+00    0,000000000e+00    0,000000000e+00
     1136000000    4,825052619e-02   -3,795497417e-01    1,262681782e-01   -7,360627502e-02    0,000000000e+00    0,000000000e+00    0,000000000e+00    0,000000000e+00
     1150000000   -1,550993323e-01   -4,252271652e-01    1,383829713e-01   -1,504982859e-01    0,000000000e+00    0,000000000e+00    0,000000000e+00    0,000000000e+00
     1164000000   -3,799376190e-01   -3,205059171e-01    1,007878557e-01   -2,740727961e-01    0,000000000e+00    0,000000000e+00    0,000000000e+00    0,000000000e+00
     1178000000   -4,685463607e-01   -8,428898454e-02   -1,081357747e-01   -4,040047228e-01    0,000000000e+00    0,000000000e+00    0,000000000e+00    0,000000000e+00
     1192000000   -3,764429390e-01    3,810627013e-02   -4,652172327e-01   -1,964989305e-01    0,000000000e+00    0,000000000e+00    0,000000000e+00    0,000000000e+00
     1206000000   -4,168474674e-01    1,308069825e-01   -2,722176611e-01    2,350060344e-01    0,000000000e+00    0,000000000e+00    0,000000000e+00    0,000000000e+00
     1220000000   -2,729035914e-01    3,285793960e-01   -1,438429113e-03    1,635032594e-01    0,000000000e+00    0,000000000e+00    0,000000000e+00    0,000000000e+00
     1234000000   -5,135157704e-02    3,507685363e-01    2,235670574e-02    5,379318073e-02    0,000000000e+00    0,000000000e+00    0,000000000e+00    0,000000000e+00
     1248000000    1,244464219e-01    2,521193326e-01    4,681323189e-03    2,758034319e-02    0,000000000e+00    0,000000000e+00    0,000000000e+00    0,000000000e+00
     1262000000    2,133449018e-01    1,048586592e-01    5,230708979e-03    3,621343151e-02    0,000000000e+00    0,000000000e+00    0,000000000e+00    0,000000000e+00
     1276000000    2,359048277e-01   -6,043010205e-02    2,882934175e-02    3,235029802e-02    0,000000000e+00    0,000000000e+00    0,000000000e+00    0,000000000e+00
     1290000000    1,907671243e-01   -2,182016820e-01    5,455392599e-02    2,446547896e-02    0,000000000e+00    0,000000000e+00    0,000000000e+00    0,000000000e+00
     1304000000    8,205302060e-02   -3,588343859e-01    7,640396804e-02    3,507023910e-03    0,000000000e+00    0,000000000e+00    0,000000000e+00    0,000000000e+00
     1318000000   -1,049666405e-01   -4,473877847e-01    8,395204693e-02   -5,457320251e-03    0,000000000e+00    0,000000000e+00    0,000000000e+00    0,000000000e+00
     1332000000   -3,571904004e-01   -4,321028888e-01    8,453422785e-02   -9,402240627e-03    0,000000000e+00    0,000000000e+00    0,000000000e+00    0,000000000e+00
     1346000000   -5,919831991e-01   -2,462842166e-01    1,007366776e-01   -1,079187449e-02    0,000000000e+00    0,000000000e+00    0,000000000e+00    0,000000000e+00
     1360000000   -6,470947266e-01    7,501474023e-02    1,362545341e-01   -1,744022965e-02    0,000000000e+00    0,000000000e+00    0,000000000e+00    0,000000000e+00
     1374000000   -4,947460294e-01    3,372168541e-01    1,607384384e-01   -5,084279925e-02    0,000000000e+00    0,000000000e+00    0,000000000e+00    0,000000000e+00
     1388000000   -2,553075552e-01    4,254099131e-01    1,540045142e-01   -8,091674000e-02    0,000000000e+00    0,000000000e+00    0,000000000e+00    0,000000000e+00
     1402000000   -4,433575273e-02    3,939144909e-01    1,424078494e-01   -9,202808142e-02    0,000000000e+00    0,000000000e+00    0,000000000e+00    0,000000000e+00
     1416000000    1,016623154e-01    2,836030424e-01    1,293996871e-01   -8,875314146e-02    0,000000000e+00    0,000000000e+00    0,000000000e+00    0,000000000e+00
     1430000000    1,920341104e-01    1,477556527e-01    1,346498132e-01   -7,148160785e-02    0,000000000e+00    0,000000000e+00    0,000000000e+00    0,000000000e+00
     1444000000    2,157823145e-01   -9,640579112e-03    1,230487451e-01   -2,041571029e-02    0,000000000e+00    0,000000000e+00    0,000000000e+00    0,000000000e+00
     1458000000    1,766778827e-01   -1,810228676e-01    1,342659146e-01    2,238321677e-02    0,000000000e+00    0,000000000e+00    0,000000000e+00    0,000000000e+00
     1472000000    6,878753006e-02   -3,515121043e-01    2,008449137e-01    5,228501558e-02    0,000000000e+00    0,000000000e+00    0,000000000e+00    0,000000000e+00
     1486000000   -1,338599324e-01   -4,778365195e-01    2,961411476e-01    9,006401151e-02    0,000000000e+00    0,000000000e+00    0,000000000e+00    0,000000000e+00
     1500000000   -4,377249181e-01   -4,686027765e-01    4,194845259e-01    4,929246008e-02    0,000000000e+00    0,000000000e+00    0,000000000e+00    0,000000000e+00
