! NanoVNA-App
! Date: 2025-09-25 16:00:18
! Start: 100MHz Stop: 1,5GHz Points: 101
! S-Parameter data: F S11 S21 S12 S22
# Hz S RI R 50
!     Frequency           S11_Real           S11_Imag           S21_Real           S21_Imag           S12_Real           S12_Imag           S22_Real           S22_Imag
      100000000   -2,827535197e-02   -2,879825421e-03    3,722854257e-01   -7,224212885e-01    0,000000000e+00    0,000000000e+00    0,000000000e+00    0,000000000e+00
      114000000   -1,571319997e-02    1,289572101e-02   -9,123871475e-02   -8,046935201e-01    0,000000000e+00    0,000000000e+00    0,000000000e+00    0,000000000e+00
      128000000    4,319024272e-03    1,192438509e-02   -5,159783363e-01   -6,188162565e-01    0,000000000e+00    0,000000000e+00    0,000000000e+00    0,000000000e+00
      142000000    1,546934247e-02   -1,733877114e-03   -7,674502134e-01   -2,341856807e-01    0,000000000e+00    0,000000000e+00    0,000000000e+00    0,000000000e+00
      156000000    1,540555619e-02   -1,287357789e-02   -7,642437816e-01    2,206876874e-01    0,000000000e+00    0,000000000e+00    0,000000000e+00    0,000000000e+00
      170000000    1,768863574e-02   -2,100623772e-02   -5,155572891e-01    6,065279245e-01    0,000000000e+00    0,000000000e+00    0,000000000e+00    0,000000000e+00
      184000000    2,203376405e-02   -3,555883467e-02   -9,819177538e-02    7,860731483e-01    0,000000000e+00    0,000000000e+00    0,000000000e+00    0,000000000e+00
      198000000    1,403858233e-02   -6,066795066e-02    3,459930122e-01    7,111248970e-01    0,000000000e+00    0,000000000e+00    0,000000000e+00    0,000000000e+00
      212000000   -1,768701151e-02   -7,914953679e-02    6,806668043e-01    4,063223600e-01    0,000000000e+00    0,000000000e+00    0,000000000e+00    0,000000000e+00
      226000000   -6,034931540e-02   -6,658881903e-02    7,957236767e-01   -3,560577333e-02    0,000000000e+00    0,000000000e+00    0,000000000e+00    0,000000000e+00
      240000000   -8,056019992e-02   -2,278405614e-02    6,414610147e-01   -4,716654420e-01    0,000000000e+00    0,000000000e+00    0,000000000e+00    0,000000000e+00
      254000000   -6,080742553e-02    1,980321482e-02    2,708687782e-01   -7,419028282e-01    0,000000000e+00    0,000000000e+00    0,000000000e+00    0,000000000e+00
      268000000   -2,087528445e-02    3,084803931e-02   -1,808279306e-01   -7,607399225e-01    0,000000000e+00    0,000000000e+00    0,000000000e+00    0,000000000e+00
      282000000    6,945773493e-03    1,374859735e-02   -5,630766153e-01   -5,322111845e-01    0,000000000e+00    0,000000000e+00    0,000000000e+00    0,000000000e+00
      296000000    1,234940439e-02   -6,272839848e-03   -7,603241801e-01   -1,343119144e-01    0,000000000e+00    0,000000000e+00    0,000000000e+00    0,000000000e+00
      310000000    1,354874298e-02   -1,473252103e-02   -7,091754675e-01    3,050964773e-01    0,000000000e+00    0,000000000e+00    0,000000000e+00    0,000000000e+00
      324000000    2,224930190e-02   -2,464231662e-02   -4,215531349e-01    6,393641233e-01    0,000000000e+00    0,000000000e+00    0,000000000e+00    0,000000000e+00
      338000000    2,830894291e-02   -5,069041625e-02   -7,481029024e-04    7,597168088e-01    0,000000000e+00    0,000000000e+00    0,000000000e+00    0,000000000e+00
      352000000    1,023455430e-02   -8,306654543e-02    4,114683568e-01    6,345803142e-01    0,000000000e+00    0,000000000e+00    0,000000000e+00    0,000000000e+00
      366000000   -3,161088377e-02   -9,374134988e-02    6,935976744e-01    3,034176528e-01    0,000000000e+00    0,000000000e+00    0,000000000e+00    0,000000000e+00
      380000000   -6,773815304e-02   -6,902737916e-02    7,456946969e-01   -1,346502155e-01    0,000000000e+00    0,000000000e+00    0,000000000e+00    0,000000000e+00
      394000000   -6,857327372e-02   -3,043427691e-02    5,400645733e-01   -5,288925767e-01    0,000000000e+00    0,000000000e+00    0,000000000e+00    0,000000000e+00
      408000000   -4,271365330e-02   -1,545018144e-02    1,500276476e-01   -7,340811491e-01    0,000000000e+00    0,000000000e+00    0,000000000e+00    0,000000000e+00
      422000000   -2,622671984e-02   -3,136096522e-02   -2,795213759e-01   -6,894358397e-01    0,000000000e+00    0,000000000e+00    0,000000000e+00    0,000000000e+00
      436000000   -3,922247887e-02   -4,918276519e-02   -6,106479168e-01   -4,200628400e-01    0,000000000e+00    0,000000000e+00    0,000000000e+00    0,000000000e+00
      450000000   -6,475245208e-02   -3,888502344e-02   -7,369253039e-01   -7,769977208e-03    0,000000000e+00    0,000000000e+00    0,000000000e+00    0,000000000e+00
      464000000   -6,774729490e-02   -6,626797374e-03   -6,078305244e-01    4,063636959e-01    0,000000000e+00    0,000000000e+00    0,000000000e+00    0,000000000e+00
      478000000   -3,839147463e-02    1,595126279e-02   -2,674562037e-01    6,709540486e-01    0,000000000e+00    0,000000000e+00    0,000000000e+00    0,000000000e+00
      492000000   -5,410305224e-03    6,186411250e-03    1,514592320e-01    6,949257255e-01    0,000000000e+00    0,000000000e+00    0,000000000e+00    0,000000000e+00
      506000000    6,676716264e-03   -2,007362433e-02    5,076168776e-01    4,890699983e-01    0,000000000e+00    0,000000000e+00    0,000000000e+00    0,000000000e+00
      520000000    7,571799215e-04   -3,889926523e-02    6,902981997e-01    1,216422468e-01    0,000000000e+00    0,000000000e+00    0,000000000e+00    0,000000000e+00
      534000000   -2,696968615e-03   -4,540295526e-02    6,328700185e-01   -2,821282148e-01    0,000000000e+00    0,000000000e+00    0,000000000e+00    0,000000000e+00
      548000000    7,696051616e-04   -6,019059196e-02    3,599541783e-01   -5,796136856e-01    0,000000000e+00    0,000000000e+00    0,000000000e+00    0,000000000e+00
      562000000   -7,784595247e-03   -8,901837468e-02   -2,601132728e-02   -6,729509830e-01    0,000000000e+00    0,000000000e+00    0,000000000e+00    0,000000000e+00
      576000000   -4,528712109e-02   -1,097479090e-01   -4,008270204e-01   -5,383889675e-01    0,000000000e+00    0,000000000e+00    0,000000000e+00    0,000000000e+00
      590000000   -9,480550140e-02   -9,354899079e-02   -6,394172311e-01   -2,167725414e-01    0,000000000e+00    0,000000000e+00    0,000000000e+00    0,000000000e+00
      604000000   -1,115215421e-01   -4,144299030e-02   -6,477835774e-01    1,980960816e-01    0,000000000e+00    0,000000000e+00    0,000000000e+00    0,000000000e+00
      618000000   -7,530783117e-02   -2,475535031e-03   -4,021082819e-01    5,351519585e-01    0,000000000e+00    0,000000000e+00    0,000000000e+00    0,000000000e+00
      632000000   -2,959039807e-02   -2,092291601e-02   -1,181576308e-02    6,552546620e-01    0,000000000e+00    0,000000000e+00    0,000000000e+00    0,000000000e+00
      646000000   -3,623634949e-02   -7,649630308e-02    3,656698465e-01    5,271257162e-01    0,000000000e+00    0,000000000e+00    0,000000000e+00    0,000000000e+00
      660000000   -1,119855717e-01   -9,933642298e-02    6,009755135e-01    1,931000948e-01    0,000000000e+00    0,000000000e+00    0,000000000e+00    0,000000000e+00
      674000000   -1,990669519e-01   -2,383715287e-02    5,651896000e-01   -2,402227223e-01    0,000000000e+00    0,000000000e+00    0,000000000e+00    0,000000000e+00
      688000000   -1,786186546e-01    1,454252601e-01    2,090794742e-01   -5,222459435e-01    0,000000000e+00    0,000000000e+00    0,000000000e+00    0,000000000e+00
      702000000    2,661212347e-02    2,476525158e-01   -2,048690468e-01   -4,054623544e-01    0,000000000e+00    0,000000000e+00    0,000000000e+00    0,000000000e+00
      716000000    2,633159459e-01    1,104744971e-01   -2,725100815e-01   -8,288820088e-02    0,000000000e+00    0,000000000e+00    0,000000000e+00    0,000000000e+00
      730000000    3,037682772e-01   -1,863689870e-01   -1,069649458e-01    3,167346865e-02    0,000000000e+00    0,000000000e+00    0,000000000e+00    0,000000000e+00
      744000000    9,428280592e-02   -4,271168709e-01   -4,218060151e-02   -6,575168669e-02    0,000000000e+00    0,000000000e+00    0,000000000e+00    0,000000000e+00
      758000000   -2,596551776e-01   -4,283413887e-01   -1,761799306e-01   -1,259436756e-01    0,000000000e+00    0,000000000e+00    0,000000000e+00    0,000000000e+00
      772000000   -4,858251214e-01   -1,199631393e-01   -3,363830447e-01    3,837089241e-02    0,000000000e+00    0,000000000e+00    0,000000000e+00    0,000000000e+00
      786000000   -3,412278593e-01    2,226401269e-01   -2,634068131e-01    3,161971271e-01    0,000000000e+00    0,000000000e+00    0,000000000e+00    0,000000000e+00
      800000000   -4,094867408e-02    2,768716216e-01    3,491224255e-03    4,369353056e-01    0,000000000e+00    0,000000000e+00    0,000000000e+00    0,000000000e+00
      814000000    1,446624398e-01    1,252839267e-01    2,640987635e-01    3,595882356e-01    0,000000000e+00    0,000000000e+00    0,000000000e+00    0,000000000e+00
      828000000    1,679148525e-01   -7,028583437e-02    4,330838025e-01    1,565524042e-01    0,000000000e+00    0,000000000e+00    0,000000000e+00    0,000000000e+00
      842000000    6,721579283e-02   -2,177942246e-01    4,665145874e-01   -1,205813661e-01    0,000000000e+00    0,000000000e+00    0,000000000e+00    0,000000000e+00
      856000000   -1,074364111e-01   -2,636288702e-01    3,198097348e-01   -3,946734667e-01    0,000000000e+00    0,000000000e+00    0,000000000e+00    0,000000000e+00
      870000000   -2,747527957e-01   -1,675958335e-01   -2,384823747e-03   -5,267150998e-01    0,000000000e+00    0,000000000e+00    0,000000000e+00    0,000000000e+00
      884000000   -3,208532929e-01    3,530567512e-02   -3,483786285e-01   -3,935813308e-01    0,000000000e+00    0,000000000e+00    0,000000000e+00    0,000000000e+00
      898000000   -1,917350143e-01    2,067604363e-01   -4,888944626e-01   -6,215841696e-02    0,000000000e+00    0,000000000e+00    0,000000000e+00    0,000000000e+00
      912000000    6,723883562e-03    2,182466686e-01   -4,103862345e-01    2,696458697e-01    0,000000000e+00    0,000000000e+00    0,000000000e+00    0,000000000e+00
      926000000    1,492471993e-01    1,123536006e-01   -1,692470759e-01    4,137828350e-01    0,000000000e+00    0,000000000e+00    0,000000000e+00    0,000000000e+00
      940000000    1,979690939e-01   -4,380280897e-02    6,272829324e-02    4,255367219e-01    0,000000000e+00    0,000000000e+00    0,000000000e+00    0,000000000e+00
      954000000    1,551705599e-01   -2,018252760e-01    2,612577677e-01    3,413808048e-01    0,000000000e+00    0,000000000e+00    0,000000000e+00    0,000000000e+00
      968000000    2,615544945e-02   -3,133018017e-01    4,109680653e-01    1,779805720e-01    0,000000000e+00    0,000000000e+00    0,000000000e+00    0,000000000e+00
      982000000   -1,627931893e-01   -3,340697587e-01    4,757462740e-01   -6,656362116e-02    0,000000000e+00    0,000000000e+00    0,000000000e+00    0,000000000e+00
      996000000   -3,240795732e-01   -2,115670443e-01    3,678203225e-01   -3,568282127e-01    0,000000000e+00    0,000000000e+00    0,000000000e+00    0,000000000e+00
     1010000000   -3,421011567e-01   -6,088546943e-03    4,096012563e-02   -5,246871114e-01    0,000000000e+00    0,000000000e+00    0,000000000e+00    0,000000000e+00
     1024000000   -2,089061588e-01    9,153445065e-02   -3,450441062e-01   -3,799121082e-01    0,000000000e+00    0,000000000e+00    0,000000000e+00    0,000000000e+00
     1038000000   -1,348276734e-01    1,123793144e-02   -4,820499420e-01    6,374629587e-02    0,000000000e+00    0,000000000e+00    0,000000000e+00    0,000000000e+00
     1052000000   -2,891446054e-01    5,145011842e-02   -9,218106419e-02    3,748929203e-01    0,000000000e+00    0,000000000e+00    0,000000000e+00    0,000000000e+00
     1066000000   -1,441792101e-01    2,940576673e-01    1,402853578e-01    1,342293620e-01    0,000000000e+00    0,000000000e+00    0,000000000e+00    0,000000000e+00
     1080000000    9,802437574e-02    2,497699410e-01    9,069018811e-02    2,311828546e-02    0,000000000e+00    0,000000000e+00    0,000000000e+00    0,000000000e+00
     1094000000    2,170173675e-01    8,870544285e-02    7,015983015e-02    7,897733711e-03    0,000000000e+00    0,000000000e+00    0,000000000e+00    0,000000000e+00
     1108000000    2,400034815e-01   -8,723981678e-02    8,175954968e-02   -1,820341451e-03    0,000000000e+00    0,000000000e+00    0,000000000e+00    0,000000000e+00
     1122000000    1,813742071e-01   -2,531060576e-01    1,020458117e-01   -2,612393349e-02    0,000000000e+00    0,000000000e+00    0,000000000e+00    0,000000000e+00
     1136000000    4,916855320e-02   -3,798721433e-01    1,261183321e-01   -7,290137559e-02    0,000000000e+00    0,000000000e+00    0,000000000e+00    0,000000000e+00
     1150000000   -1,580081731e-01   -4,210282862e-01    1,390342116e-01   -1,505294591e-01    0,000000000e+00    0,000000000e+00    0,000000000e+00    0,000000000e+00
     1164000000   -3,775455654e-01   -3,250814974e-01    9,979973733e-02   -2,788759768e-01    0,000000000e+00    0,000000000e+00    0,000000000e+00    0,000000000e+00
     1178000000   -4,681090117e-01   -8,675345778e-02   -1,072899029e-01   -4,090380371e-01    0,000000000e+00    0,000000000e+00    0,000000000e+00    0,000000000e+00
     1192000000   -3,741206229e-01    3,533222899e-02   -4,635075033e-01   -1,978187263e-01    0,000000000e+00    0,000000000e+00    0,000000000e+00    0,000000000e+00
     1206000000   -4,150908887e-01    1,288866997e-01   -2,781302631e-01    2,371760756e-01    0,000000000e+00    0,000000000e+00    0,000000000e+00    0,000000000e+00
     1220000000   -2,721197307e-01    3,258175254e-01   -4,430911038e-03    1,653764844e-01    0,000000000e+00    0,000000000e+00    0,000000000e+00    0,000000000e+00
     1234000000   -5,018477514e-02    3,491007090e-01    2,398136072e-02    5,353923887e-02    0,000000000e+00    0,000000000e+00    0,000000000e+00    0,000000000e+00
     1248000000    1,237908974e-01    2,514499128e-01    7,194111124e-03    2,652951144e-02    0,000000000e+00    0,000000000e+00    0,000000000e+00    0,000000000e+00
     1262000000    2,155134231e-01    1,049594805e-01    5,852956790e-03    3,401472420e-02    0,000000000e+00    0,000000000e+00    0,000000000e+00    0,000000000e+00
     1276000000    2,369163334e-01   -6,026682258e-02    2,667704038e-02    3,297953680e-02    0,000000000e+00    0,000000000e+00    0,000000000e+00    0,000000000e+00
     1290000000    1,931887865e-01   -2,184880227e-01    5,653480068e-02    1,931632683e-02    0,000000000e+00    0,000000000e+00    0,000000000e+00    0,000000000e+00
     1304000000    8,183319122e-02   -3,573746979e-01    7,403443009e-02    3,348715371e-03    0,000000000e+00    0,000000000e+00    0,000000000e+00    0,000000000e+00
     1318000000   -9,997668117e-02   -4,446316957e-01    8,492507041e-02   -7,204293273e-03    0,000000000e+00    0,000000000e+00    0,000000000e+00    0,000000000e+00
     1332000000   -3,580663800e-01   -4,383580685e-01    9,325642139e-02   -1,750299521e-02    0,000000000e+00    0,000000000e+00    0,000000000e+00    0,000000000e+00
     1346000000   -5,933660269e-01   -2,458085716e-01    9,864191711e-02   -2,396314871e-03    0,000000000e+00    0,000000000e+00    0,000000000e+00    0,000000000e+00
     1360000000   -6,527047157e-01    6,711170822e-02    1,364715546e-01   -1,658223197e-02    0,000000000e+00    0,000000000e+00    0,000000000e+00    0,000000000e+00
     1374000000   -4,938903749e-01    3,350769281e-01    1,675210893e-01   -3,963250294e-02    0,000000000e+00    0,000000000e+00    0,000000000e+00    0,000000000e+00
     1388000000   -2,563702762e-01    4,293681979e-01    1,593721807e-01   -8,217869699e-02    0,000000000e+00    0,000000000e+00    0,000000000e+00    0,000000000e+00
     1402000000   -4,152695090e-02    3,883737028e-01    1,489466876e-01   -8,873780072e-02    0,000000000e+00    0,000000000e+00    0,000000000e+00    0,000000000e+00
     1416000000    1,026688963e-01    2,814482152e-01    1,239027902e-01   -9,108244628e-02    0,000000000e+00    0,000000000e+00    0,000000000e+00    0,000000000e+00
     1430000000    1,920135468e-01    1,480219662e-01    1,051197946e-01   -6,531085819e-02    0,000000000e+00    0,000000000e+00    0,000000000e+00    0,000000000e+00
     1444000000    2,163124233e-01   -9,595265612e-03    1,250372380e-01   -2,486289106e-02    0,000000000e+00    0,000000000e+00    0,000000000e+00    0,000000000e+00
     1458000000    1,819296628e-01   -1,818543226e-01    1,375995576e-01    1,780479029e-02    0,000000000e+00    0,000000000e+00    0,000000000e+00    0,000000000e+00
     1472000000    6,788742542e-02   -3,439517021e-01    1,939718723e-01    7,686846703e-02    0,000000000e+00    0,000000000e+00    0,000000000e+00    0,000000000e+00
     1486000000   -1,405143589e-01   -4,688636363e-01    3,027720749e-01    9,021576494e-02    0,000000000e+00    0,000000000e+00    0,000000000e+00    0,000000000e+00
     1500000000   -4,463290870e-01   -4,836524427e-01    3,952667415e-01    4,841034114e-02    0,000000000e+00    0,000000000e+00    0,000000000e+00    0,000000000e+00
