! NanoVNA-App
! Date: 2025-09-25 16:02:29
! Start: 100MHz Stop: 1,5GHz Points: 101
! S-Parameter data: F S11 S21 S12 S22
# Hz S RI R 50
!     Frequency           S11_Real           S11_Imag           S21_Real           S21_Imag           S12_Real           S12_Imag           S22_Real           S22_Imag
      100000000   -2,829934470e-02   -2,875208855e-03    3,723380268e-01   -7,224685550e-01    0,000000000e+00    0,000000000e+00    0,000000000e+00    0,000000000e+00
      114000000   -1,574304700e-02    1,287400723e-02   -9,135707468e-02   -8,048145175e-01    0,000000000e+00    0,000000000e+00    0,000000000e+00    0,000000000e+00
      128000000    4,349574447e-03    1,199171599e-02   -5,158907175e-01   -6,187884808e-01    0,000000000e+00    0,000000000e+00    0,000000000e+00    0,000000000e+00
      142000000    1,547784265e-02   -1,684319694e-03   -7,675251365e-01   -2,340759039e-01    0,000000000e+00    0,000000000e+00    0,000000000e+00    0,000000000e+00
      156000000    1,628201455e-02   -1,281847712e-02   -7,635537982e-01    2,234805226e-01    0,000000000e+00    0,000000000e+00    0,000000000e+00    0,000000000e+00
      170000000    1,762411371e-02   -2,094709314e-02   -5,156291127e-01    6,062835455e-01    0,000000000e+00    0,000000000e+00    0,000000000e+00    0,000000000e+00
      184000000    2,206352167e-02   -3,550167382e-02   -9,843491763e-02    7,859199643e-01    0,000000000e+00    0,000000000e+00    0,000000000e+00    0,000000000e+00
      198000000    1,405025739e-02   -6,064035743e-02    3,461311460e-01    7,107377648e-01    0,000000000e+00    0,000000000e+00    0,000000000e+00    0,000000000e+00
      212000000   -1,764359139e-02   -7,910995185e-02    6,806829572e-01    4,062097669e-01    0,000000000e+00    0,000000000e+00    0,000000000e+00    0,000000000e+00
      226000000   -6,030778959e-02   -6,663770229e-02    7,957348228e-01   -3,552572802e-02    0,000000000e+00    0,000000000e+00    0,000000000e+00    0,000000000e+00
      240000000   -8,059344441e-02   -2,267643437e-02    6,416229010e-01   -4,720229506e-01    0,000000000e+00    0,000000000e+00    0,000000000e+00    0,000000000e+00
      254000000   -6,083382294e-02    1,977587119e-02    2,710903585e-01   -7,420387864e-01    0,000000000e+00    0,000000000e+00    0,000000000e+00    0,000000000e+00
      268000000   -2,097727358e-02    3,087314777e-02   -1,813336313e-01   -7,605740428e-01    0,000000000e+00    0,000000000e+00    0,000000000e+00    0,000000000e+00
      282000000    6,977176759e-03    1,379874814e-02   -5,634228587e-01   -5,329404473e-01    0,000000000e+00    0,000000000e+00    0,000000000e+00    0,000000000e+00
      296000000    1,247962657e-02   -6,195187569e-03   -7,606970668e-01   -1,343327910e-01    0,000000000e+00    0,000000000e+00    0,000000000e+00    0,000000000e+00
      310000000    1,348428149e-02   -1,470465027e-02   -7,094099522e-01    3,044310808e-01    0,000000000e+00    0,000000000e+00    0,000000000e+00    0,000000000e+00
      324000000    2,264081873e-02   -2,475012653e-02   -4,214257896e-01    6,386087537e-01    0,000000000e+00    0,000000000e+00    0,000000000e+00    0,000000000e+00
      338000000    2,847314626e-02   -5,044868961e-02   -3,363307565e-03    7,581715584e-01    0,000000000e+00    0,000000000e+00    0,000000000e+00    0,000000000e+00
      352000000    1,009219605e-02   -8,287975192e-02    4,109279215e-01    6,355707049e-01    0,000000000e+00    0,000000000e+00    0,000000000e+00    0,000000000e+00
      366000000   -3,157695383e-02   -9,394505620e-02    6,932415366e-01    3,040503561e-01    0,000000000e+00    0,000000000e+00    0,000000000e+00    0,000000000e+00
      380000000   -6,774541736e-02   -6,861902773e-02    7,457672954e-01   -1,343533695e-01    0,000000000e+00    0,000000000e+00    0,000000000e+00    0,000000000e+00
      394000000   -6,857759506e-02   -3,040781431e-02    5,383343101e-01   -5,290331841e-01    0,000000000e+00    0,000000000e+00    0,000000000e+00    0,000000000e+00
      408000000   -4,280111194e-02   -1,554844715e-02    1,488170326e-01   -7,353757024e-01    0,000000000e+00    0,000000000e+00    0,000000000e+00    0,000000000e+00
      422000000   -2,593774907e-02   -3,105930425e-02   -2,788197100e-01   -6,891312003e-01    0,000000000e+00    0,000000000e+00    0,000000000e+00    0,000000000e+00
      436000000   -3,939256445e-02   -4,891216755e-02   -6,107629538e-01   -4,195393324e-01    0,000000000e+00    0,000000000e+00    0,000000000e+00    0,000000000e+00
      450000000   -6,458847225e-02   -3,900164366e-02   -7,374063134e-01   -7,378257811e-03    0,000000000e+00    0,000000000e+00    0,000000000e+00    0,000000000e+00
      464000000   -6,767478585e-02   -5,899648648e-03   -6,081198454e-01    4,065601826e-01    0,000000000e+00    0,000000000e+00    0,000000000e+00    0,000000000e+00
      478000000   -3,860221431e-02    1,640504599e-02   -2,676819861e-01    6,703432202e-01    0,000000000e+00    0,000000000e+00    0,000000000e+00    0,000000000e+00
      492000000   -4,754854832e-03    6,243859418e-03    1,520375609e-01    6,953057051e-01    0,000000000e+00    0,000000000e+00    0,000000000e+00    0,000000000e+00
      506000000    6,674953271e-03   -2,021113783e-02    5,086942315e-01    4,887320697e-01    0,000000000e+00    0,000000000e+00    0,000000000e+00    0,000000000e+00
      520000000    3,028181673e-04   -3,891152516e-02    6,905745864e-01    1,213199124e-01    0,000000000e+00    0,000000000e+00    0,000000000e+00    0,000000000e+00
      534000000   -2,931973431e-03   -4,573227093e-02    6,329076886e-01   -2,822957039e-01    0,000000000e+00    0,000000000e+00    0,000000000e+00    0,000000000e+00
      548000000    8,320374181e-04   -6,018177420e-02    3,600464165e-01   -5,802371502e-01    0,000000000e+00    0,000000000e+00    0,000000000e+00    0,000000000e+00
      562000000   -7,659928408e-03   -8,881869167e-02   -2,582463995e-02   -6,727590561e-01    0,000000000e+00    0,000000000e+00    0,000000000e+00    0,000000000e+00
      576000000   -4,558648169e-02   -1,099435538e-01   -4,011490345e-01   -5,383601785e-01    0,000000000e+00    0,000000000e+00    0,000000000e+00    0,000000000e+00
      590000000   -9,489069134e-02   -9,359785914e-02   -6,390585899e-01   -2,187231183e-01    0,000000000e+00    0,000000000e+00    0,000000000e+00    0,000000000e+00
      604000000   -1,118694991e-01   -4,128067568e-02   -6,479688287e-01    1,984446794e-01    0,000000000e+00    0,000000000e+00    0,000000000e+00    0,000000000e+00
      618000000   -7,560252398e-02   -1,980477478e-03   -4,025946259e-01    5,357021689e-01    0,000000000e+00    0,000000000e+00    0,000000000e+00    0,000000000e+00
      632000000   -2,953805402e-02   -2,151096985e-02   -1,182955038e-02    6,539221406e-01    0,000000000e+00    0,000000000e+00    0,000000000e+00    0,000000000e+00
      646000000   -3,604237735e-02   -7,674319297e-02    3,663919270e-01    5,274013877e-01    0,000000000e+00    0,000000000e+00    0,000000000e+00    0,000000000e+00
      660000000   -1,118680537e-01   -9,953368455e-02    6,001174450e-01    1,932085901e-01    0,000000000e+00    0,000000000e+00    0,000000000e+00    0,000000000e+00
      674000000   -1,986663491e-01   -2,346843854e-02    5,661872625e-01   -2,395989299e-01    0,000000000e+00    0,000000000e+00    0,000000000e+00    0,000000000e+00
      688000000   -1,781345159e-01    1,447755843e-01    2,101560831e-01   -5,220202208e-01    0,000000000e+00    0,000000000e+00    0,000000000e+00    0,000000000e+00
      702000000    2,458318323e-02    2,474268526e-01   -2,027318627e-01   -4,111219049e-01    0,000000000e+00    0,000000000e+00    0,000000000e+00    0,000000000e+00
      716000000    2,633611858e-01    1,114642024e-01   -2,739201784e-01   -8,419087529e-02    0,000000000e+00    0,000000000e+00    0,000000000e+00    0,000000000e+00
      730000000    3,037002385e-01   -1,859740764e-01   -1,078037396e-01    3,300346062e-02    0,000000000e+00    0,000000000e+00    0,000000000e+00    0,000000000e+00
      744000000    9,490279853e-02   -4,281708896e-01   -4,230938107e-02   -6,379079819e-02    0,000000000e+00    0,000000000e+00    0,000000000e+00    0,000000000e+00
      758000000   -2,575747967e-01   -4,292187393e-01   -1,749535948e-01   -1,256338209e-01    0,000000000e+00    0,000000000e+00    0,000000000e+00    0,000000000e+00
      772000000   -4,853392839e-01   -1,187608540e-01   -3,358522356e-01    3,748128563e-02    0,000000000e+00    0,000000000e+00    0,000000000e+00    0,000000000e+00
      786000000   -3,422272503e-01    2,225859016e-01   -2,624653280e-01    3,158697784e-01    0,000000000e+00    0,000000000e+00    0,000000000e+00    0,000000000e+00
      800000000   -4,123508558e-02    2,774662971e-01    2,013457706e-03    4,361360669e-01    0,000000000e+00    0,000000000e+00    0,000000000e+00    0,000000000e+00
      814000000    1,440877467e-01    1,257361472e-01    2,646091580e-01    3,595444858e-01    0,000000000e+00    0,000000000e+00    0,000000000e+00    0,000000000e+00
      828000000    1,681931168e-01   -7,031449676e-02    4,321909845e-01    1,572047323e-01    0,000000000e+00    0,000000000e+00    0,000000000e+00    0,000000000e+00
      842000000    6,748199463e-02   -2,185384780e-01    4,663806260e-01   -1,199566349e-01    0,000000000e+00    0,000000000e+00    0,000000000e+00    0,000000000e+00
      856000000   -1,068307832e-01   -2,637473047e-01    3,204679191e-01   -3,950621188e-01    0,000000000e+00    0,000000000e+00    0,000000000e+00    0,000000000e+00
      870000000   -2,743430436e-01   -1,682517976e-01   -2,782371128e-03   -5,270833969e-01    0,000000000e+00    0,000000000e+00    0,000000000e+00    0,000000000e+00
      884000000   -3,213043809e-01    3,512500226e-02   -3,471629918e-01   -3,928697407e-01    0,000000000e+00    0,000000000e+00    0,000000000e+00    0,000000000e+00
      898000000   -1,930201799e-01    2,075334340e-01   -4,890630245e-01   -6,189755723e-02    0,000000000e+00    0,000000000e+00    0,000000000e+00    0,000000000e+00
      912000000    7,100488525e-03    2,197621316e-01   -3,991027474e-01    2,821887434e-01    0,000000000e+00    0,000000000e+00    0,000000000e+00    0,000000000e+00
      926000000    1,507678479e-01    1,116622835e-01   -1,689758003e-01    4,141702354e-01    0,000000000e+00    0,000000000e+00    0,000000000e+00    0,000000000e+00
      940000000    2,016327083e-01   -4,566818476e-02    6,387772411e-02    4,247663617e-01    0,000000000e+00    0,000000000e+00    0,000000000e+00    0,000000000e+00
      954000000    1,531206816e-01   -2,038532048e-01    2,600988448e-01    3,423346579e-01    0,000000000e+00    0,000000000e+00    0,000000000e+00    0,000000000e+00
      968000000    2,608130500e-02   -3,166842163e-01    4,108146131e-01    1,777405143e-01    0,000000000e+00    0,000000000e+00    0,000000000e+00    0,000000000e+00
      982000000   -1,635855883e-01   -3,296457827e-01    4,749711454e-01   -6,641566753e-02    0,000000000e+00    0,000000000e+00    0,000000000e+00    0,000000000e+00
      996000000   -3,282783926e-01   -2,094281167e-01    3,682361245e-01   -3,564088941e-01    0,000000000e+00    0,000000000e+00    0,000000000e+00    0,000000000e+00
     1010000000   -3,381087780e-01   -7,192080375e-03    4,292728007e-02   -5,257332325e-01    0,000000000e+00    0,000000000e+00    0,000000000e+00    0,000000000e+00
     1024000000   -2,030149102e-01    9,411594272e-02   -3,468199372e-01   -3,800021410e-01    0,000000000e+00    0,000000000e+00    0,000000000e+00    0,000000000e+00
     1038000000   -1,381862015e-01    8,692605421e-03   -4,827407897e-01    6,574337929e-02    0,000000000e+00    0,000000000e+00    0,000000000e+00    0,000000000e+00
     1052000000   -2,856619060e-01    5,734419450e-02   -9,364248067e-02    3,725049198e-01    0,000000000e+00    0,000000000e+00    0,000000000e+00    0,000000000e+00
     1066000000   -1,520541757e-01    2,909386456e-01    1,473806053e-01    1,342685819e-01    0,000000000e+00    0,000000000e+00    0,000000000e+00    0,000000000e+00
     1080000000    1,015963554e-01    2,461816669e-01    9,078276902e-02    2,217379585e-02    0,000000000e+00    0,000000000e+00    0,000000000e+00    0,000000000e+00
     1094000000    2,249920368e-01    8,709092438e-02    6,867520511e-02    9,782237001e-03    0,000000000e+00    0,000000000e+00    0,000000000e+00    0,000000000e+00
     1108000000    2,441850007e-01   -8,712053299e-02    7,980380207e-02    9,433150990e-04    0,000000000e+00    0,000000000e+00    0,000000000e+00    0,000000000e+00
     1122000000    1,853251755e-01   -2,490110248e-01    1,033289582e-01   -2,515882812e-02    0,000000000e+00    0,000000000e+00    0,000000000e+00    0,000000000e+00
     1136000000    4,910522699e-02   -3,735302985e-01    1,276636273e-01   -7,176823169e-02    0,000000000e+00    0,000000000e+00    0,000000000e+00    0,000000000e+00
     1150000000   -1,567140371e-01   -4,217946529e-01    1,394073963e-01   -1,510926038e-01    0,000000000e+00    0,000000000e+00    0,000000000e+00    0,000000000e+00
     1164000000   -3,825663924e-01   -3,260364830e-01    9,610563517e-02   -2,776312232e-01    0,000000000e+00    0,000000000e+00    0,000000000e+00    0,000000000e+00
     1178000000   -4,680294991e-01   -8,487874269e-02   -1,023352072e-01   -4,057735503e-01    0,000000000e+00    0,000000000e+00    0,000000000e+00    0,000000000e+00
     1192000000   -3,706274927e-01    3,976679966e-02   -4,631126225e-01   -1,930438280e-01    0,000000000e+00    0,000000000e+00    0,000000000e+00    0,000000000e+00
     1206000000   -4,190175533e-01    1,312558651e-01   -2,749005854e-01    2,403423786e-01    0,000000000e+00    0,000000000e+00    0,000000000e+00    0,000000000e+00
     1220000000   -2,741247416e-01    3,276296258e-01   -5,057508126e-03    1,581947654e-01    0,000000000e+00    0,000000000e+00    0,000000000e+00    0,000000000e+00
     1234000000   -4,271769151e-02    3,450307548e-01    2,598893084e-02    5,110112205e-02    0,000000000e+00    0,000000000e+00    0,000000000e+00    0,000000000e+00
     1248000000    1,190846488e-01    2,502757609e-01   -1,848200453e-03    2,745746635e-02    0,000000000e+00    0,000000000e+00    0,000000000e+00    0,000000000e+00
     1262000000    2,150992304e-01    1,004491672e-01    3,811398754e-03    3,247939050e-02    0,000000000e+00    0,000000000e+00    0,000000000e+00    0,000000000e+00
     1276000000    2,337660491e-01   -6,178622693e-02    2,749852650e-02    3,352213278e-02    0,000000000e+00    0,000000000e+00    0,000000000e+00    0,000000000e+00
     1290000000    1,930740923e-01   -2,130783945e-01    5,765312538e-02    2,882128581e-02    0,000000000e+00    0,000000000e+00    0,000000000e+00    0,000000000e+00
     1304000000    8,492084593e-02   -3,549470603e-01    7,115380466e-02    4,145255312e-03    0,000000000e+00    0,000000000e+00    0,000000000e+00    0,000000000e+00
     1318000000   -1,000717729e-01   -4,470595419e-01    8,463999629e-02   -7,368555758e-03    0,000000000e+00    0,000000000e+00    0,000000000e+00    0,000000000e+00
     1332000000   -3,573287129e-01   -4,365120530e-01    8,645905554e-02   -1,897473261e-02    0,000000000e+00    0,000000000e+00    0,000000000e+00    0,000000000e+00
     1346000000   -5,899910927e-01   -2,507030964e-01    1,129591167e-01   -1,083761547e-02    0,000000000e+00    0,000000000e+00    0,000000000e+00    0,000000000e+00
     1360000000   -6,457631588e-01    7,404088974e-02    1,418319345e-01   -1,535672788e-02    0,000000000e+00    0,000000000e+00    0,000000000e+00    0,000000000e+00
     1374000000   -4,867832959e-01    3,340764940e-01    1,688552052e-01   -4,489645362e-02    0,000000000e+00    0,000000000e+00    0,000000000e+00    0,000000000e+00
     1388000000   -2,544414699e-01    4,219239354e-01    1,615156382e-01   -8,698400110e-02    0,000000000e+00    0,000000000e+00    0,000000000e+00    0,000000000e+00
     1402000000   -4,064683989e-02    3,903990686e-01    1,419215202e-01   -1,012187377e-01    0,000000000e+00    0,000000000e+00    0,000000000e+00    0,000000000e+00
     1416000000    1,039840207e-01    2,895740569e-01    1,277317256e-01   -8,400038630e-02    0,000000000e+00    0,000000000e+00    0,000000000e+00    0,000000000e+00
     1430000000    1,940180808e-01    1,489334255e-01    1,440420002e-01   -7,478003204e-02    0,000000000e+00    0,000000000e+00    0,000000000e+00    0,000000000e+00
     1444000000    2,152995318e-01   -6,867841352e-03    1,176137105e-01   -1,860107295e-02    0,000000000e+00    0,000000000e+00    0,000000000e+00    0,000000000e+00
     1458000000    1,764484942e-01   -1,839506179e-01    1,346067041e-01    1,780590042e-02    0,000000000e+00    0,000000000e+00    0,000000000e+00    0,000000000e+00
     1472000000    6,558296084e-02   -3,477694392e-01    1,908795685e-01    5,864751339e-02    0,000000000e+00    0,000000000e+00    0,000000000e+00    0,000000000e+00
     1486000000   -1,387201399e-01   -4,787142873e-01    2,971808314e-01    7,839069515e-02    0,000000000e+00    0,000000000e+00    0,000000000e+00    0,000000000e+00
     1500000000   -4,357549846e-01   -4,732140899e-01    4,267002940e-01    6,389299780e-02    0,000000000e+00    0,000000000e+00    0,000000000e+00    0,000000000e+00
