! NanoVNA-App
! Date: 2025-09-25 15:58:43
! Start: 100MHz Stop: 1,5GHz Points: 101
! S-Parameter data: F S11 S21 S12 S22
# Hz S RI R 50
!     Frequency           S11_Real           S11_Imag           S21_Real           S21_Imag           S12_Real           S12_Imag           S22_Real           S22_Imag
      100000000   -2,823784202e-02   -2,853313228e-03    3,722284734e-01   -7,223830223e-01    0,000000000e+00    0,000000000e+00    0,000000000e+00    0,000000000e+00
      114000000   -1,567189768e-02    1,285981759e-02   -9,137360007e-02   -8,047488928e-01    0,000000000e+00    0,000000000e+00    0,000000000e+00    0,000000000e+00
      128000000    4,411933944e-03    1,192165818e-02   -5,159404278e-01   -6,188170910e-01    0,000000000e+00    0,000000000e+00    0,000000000e+00    0,000000000e+00
      142000000    1,546694618e-02   -1,788388821e-03   -7,674725652e-01   -2,340804785e-01    0,000000000e+00    0,000000000e+00    0,000000000e+00    0,000000000e+00
      156000000    1,512726955e-02   -1,324901078e-02   -7,660060525e-01    2,204797864e-01    0,000000000e+00    0,000000000e+00    0,000000000e+00    0,000000000e+00
      170000000    1,767115854e-02   -2,097982541e-02   -5,154422522e-01    6,060528755e-01    0,000000000e+00    0,000000000e+00    0,000000000e+00    0,000000000e+00
      184000000    2,205015533e-02   -3,553348407e-02   -9,837467968e-02    7,860414386e-01    0,000000000e+00    0,000000000e+00    0,000000000e+00    0,000000000e+00
      198000000    1,402361412e-02   -6,065249816e-02    3,458906412e-01    7,104908824e-01    0,000000000e+00    0,000000000e+00    0,000000000e+00    0,000000000e+00
      212000000   -1,767682284e-02   -7,916324586e-02    6,807993650e-01    4,062822163e-01    0,000000000e+00    0,000000000e+00    0,000000000e+00    0,000000000e+00
      226000000   -6,035054475e-02   -6,663328409e-02    7,957378626e-01   -3,545089811e-02    0,000000000e+00    0,000000000e+00    0,000000000e+00    0,000000000e+00
      240000000   -8,058407158e-02   -2,272077091e-02    6,415981650e-01   -4,717804790e-01    0,000000000e+00    0,000000000e+00    0,000000000e+00    0,000000000e+00
      254000000   -6,081112102e-02    1,974660903e-02    2,710808516e-01   -7,419062257e-01    0,000000000e+00    0,000000000e+00    0,000000000e+00    0,000000000e+00
      268000000   -2,087608166e-02    3,088819236e-02   -1,811529547e-01   -7,612860203e-01    0,000000000e+00    0,000000000e+00    0,000000000e+00    0,000000000e+00
      282000000    6,929280236e-03    1,379727758e-02   -5,630526543e-01   -5,325063467e-01    0,000000000e+00    0,000000000e+00    0,000000000e+00    0,000000000e+00
      296000000    1,246713754e-02   -6,288858131e-03   -7,602490187e-01   -1,341421157e-01    0,000000000e+00    0,000000000e+00    0,000000000e+00    0,000000000e+00
      310000000    1,360585261e-02   -1,453620102e-02   -7,084822059e-01    3,049354851e-01    0,000000000e+00    0,000000000e+00    0,000000000e+00    0,000000000e+00
      324000000    2,248708159e-02   -2,472880110e-02   -4,209666848e-01    6,394284964e-01    0,000000000e+00    0,000000000e+00    0,000000000e+00    0,000000000e+00
      338000000    2,817691490e-02   -5,044160783e-02   -3,272745060e-03    7,587610483e-01    0,000000000e+00    0,000000000e+00    0,000000000e+00    0,000000000e+00
      352000000    1,039156877e-02   -8,289641142e-02    4,119490087e-01    6,341928840e-01    0,000000000e+00    0,000000000e+00    0,000000000e+00    0,000000000e+00
      366000000   -3,179681674e-02   -9,378378838e-02    6,933475733e-01    3,035480082e-01    0,000000000e+00    0,000000000e+00    0,000000000e+00    0,000000000e+00
      380000000   -6,742206961e-02   -6,882826239e-02    7,457770705e-01   -1,348928064e-01    0,000000000e+00    0,000000000e+00    0,000000000e+00    0,000000000e+00
      394000000   -6,865151227e-02   -3,035784699e-02    5,385317206e-01   -5,279128551e-01    0,000000000e+00    0,000000000e+00    0,000000000e+00    0,000000000e+00
      408000000   -4,259962589e-02   -1,551424153e-02    1,514839977e-01   -7,341786027e-01    0,000000000e+00    0,000000000e+00    0,000000000e+00    0,000000000e+00
      422000000   -2,604727075e-02   -3,098124452e-02   -2,781818211e-01   -6,895147562e-01    0,000000000e+00    0,000000000e+00    0,000000000e+00    0,000000000e+00
      436000000   -3,923302516e-02   -4,918761179e-02   -6,106494069e-01   -4,199648201e-01    0,000000000e+00    0,000000000e+00    0,000000000e+00    0,000000000e+00
      450000000   -6,447734684e-02   -3,919465467e-02   -7,365786433e-01   -8,008439094e-03    0,000000000e+00    0,000000000e+00    0,000000000e+00    0,000000000e+00
      464000000   -6,751764566e-02   -6,095089950e-03   -6,076576710e-01    4,065634310e-01    0,000000000e+00    0,000000000e+00    0,000000000e+00    0,000000000e+00
      478000000   -3,894933313e-02    1,589624770e-02   -2,674819827e-01    6,697534919e-01    0,000000000e+00    0,000000000e+00    0,000000000e+00    0,000000000e+00
      492000000   -5,281461403e-03    6,342611276e-03    1,515511870e-01    6,952750087e-01    0,000000000e+00    0,000000000e+00    0,000000000e+00    0,000000000e+00
      506000000    6,841730326e-03   -2,007654309e-02    5,071333647e-01    4,889621139e-01    0,000000000e+00    0,000000000e+00    0,000000000e+00    0,000000000e+00
      520000000    4,780912714e-04   -3,881542757e-02    6,907351613e-01    1,206210405e-01    0,000000000e+00    0,000000000e+00    0,000000000e+00    0,000000000e+00
      534000000   -3,328668652e-03   -4,564152285e-02    6,325024962e-01   -2,819104195e-01    0,000000000e+00    0,000000000e+00    0,000000000e+00    0,000000000e+00
      548000000    8,993986412e-04   -5,924304947e-02    3,598977923e-01   -5,792003870e-01    0,000000000e+00    0,000000000e+00    0,000000000e+00    0,000000000e+00
      562000000   -7,840475067e-03   -8,851582557e-02   -2,668284066e-02   -6,733373404e-01    0,000000000e+00    0,000000000e+00    0,000000000e+00    0,000000000e+00
      576000000   -4,527888447e-02   -1,096584722e-01   -4,014822543e-01   -5,380704999e-01    0,000000000e+00    0,000000000e+00    0,000000000e+00    0,000000000e+00
      590000000   -9,471407533e-02   -9,320505708e-02   -6,387913227e-01   -2,178866565e-01    0,000000000e+00    0,000000000e+00    0,000000000e+00    0,000000000e+00
      604000000   -1,116024330e-01   -4,125687107e-02   -6,477453113e-01    1,982567012e-01    0,000000000e+00    0,000000000e+00    0,000000000e+00    0,000000000e+00
      618000000   -7,607639581e-02   -1,964464784e-03   -4,019672871e-01    5,360326767e-01    0,000000000e+00    0,000000000e+00    0,000000000e+00    0,000000000e+00
      632000000   -3,050044551e-02   -2,101893350e-02   -1,141809206e-02    6,554533839e-01    0,000000000e+00    0,000000000e+00    0,000000000e+00    0,000000000e+00
      646000000   -3,674052283e-02   -7,698570192e-02    3,659040332e-01    5,262736678e-01    0,000000000e+00    0,000000000e+00    0,000000000e+00    0,000000000e+00
      660000000   -1,121628657e-01   -1,004451960e-01    6,006300449e-01    1,929839998e-01    0,000000000e+00    0,000000000e+00    0,000000000e+00    0,000000000e+00
      674000000   -2,001763731e-01   -2,432886139e-02    5,649389029e-01   -2,400357127e-01    0,000000000e+00    0,000000000e+00    0,000000000e+00    0,000000000e+00
      688000000   -1,790352911e-01    1,456578225e-01    2,090231627e-01   -5,216885805e-01    0,000000000e+00    0,000000000e+00    0,000000000e+00    0,000000000e+00
      702000000    2,480132319e-02    2,479348928e-01   -2,019899487e-01   -4,073918760e-01    0,000000000e+00    0,000000000e+00    0,000000000e+00    0,000000000e+00
      716000000    2,634187341e-01    1,099470109e-01   -2,721026540e-01   -8,331245929e-02    0,000000000e+00    0,000000000e+00    0,000000000e+00    0,000000000e+00
      730000000    3,033211231e-01   -1,861439794e-01   -1,062670723e-01    3,171785921e-02    0,000000000e+00    0,000000000e+00    0,000000000e+00    0,000000000e+00
      744000000    9,399701655e-02   -4,272004664e-01   -4,203169420e-02   -6,553357095e-02    0,000000000e+00    0,000000000e+00    0,000000000e+00    0,000000000e+00
      758000000   -2,588585913e-01   -4,287456274e-01   -1,762622148e-01   -1,258293837e-01    0,000000000e+00    0,000000000e+00    0,000000000e+00    0,000000000e+00
      772000000   -4,855229855e-01   -1,181496084e-01   -3,367879987e-01    3,830247745e-02    0,000000000e+00    0,000000000e+00    0,000000000e+00    0,000000000e+00
      786000000   -3,403660953e-01    2,217421085e-01   -2,630673945e-01    3,175109327e-01    0,000000000e+00    0,000000000e+00    0,000000000e+00    0,000000000e+00
      800000000   -4,092830047e-02    2,765314877e-01    2,908620983e-03    4,377427995e-01    0,000000000e+00    0,000000000e+00    0,000000000e+00    0,000000000e+00
      814000000    1,437109411e-01    1,252336949e-01    2,639732063e-01    3,588718772e-01    0,000000000e+00    0,000000000e+00    0,000000000e+00    0,000000000e+00
      828000000    1,677382290e-01   -7,022581995e-02    4,330529869e-01    1,569283009e-01    0,000000000e+00    0,000000000e+00    0,000000000e+00    0,000000000e+00
      842000000    6,710033864e-02   -2,183950245e-01    4,663426578e-01   -1,203175709e-01    0,000000000e+00    0,000000000e+00    0,000000000e+00    0,000000000e+00
      856000000   -1,063841507e-01   -2,633810043e-01    3,193064630e-01   -3,956752419e-01    0,000000000e+00    0,000000000e+00    0,000000000e+00    0,000000000e+00
      870000000   -2,743149698e-01   -1,675719023e-01   -1,988279866e-03   -5,269798636e-01    0,000000000e+00    0,000000000e+00    0,000000000e+00    0,000000000e+00
      884000000   -3,205583692e-01    3,687983379e-02   -3,476852775e-01   -3,922604024e-01    0,000000000e+00    0,000000000e+00    0,000000000e+00    0,000000000e+00
      898000000   -1,919981986e-01    2,058897913e-01   -4,887164831e-01   -6,312032044e-02    0,000000000e+00    0,000000000e+00    0,000000000e+00    0,000000000e+00
      912000000    8,008335717e-03    2,184732556e-01   -4,107840955e-01    2,662433684e-01    0,000000000e+00    0,000000000e+00    0,000000000e+00    0,000000000e+00
      926000000    1,506316513e-01    1,144759282e-01   -1,674791574e-01    4,170919955e-01    0,000000000e+00    0,000000000e+00    0,000000000e+00    0,000000000e+00
      940000000    1,971841455e-01   -4,492601007e-02    6,427539885e-02    4,250089526e-01    0,000000000e+00    0,000000000e+00    0,000000000e+00    0,000000000e+00
      954000000    1,515506357e-01   -2,019653916e-01    2,619570494e-01    3,424635231e-01    0,000000000e+00    0,000000000e+00    0,000000000e+00    0,000000000e+00
      968000000    2,531656064e-02   -3,121376038e-01    4,110530019e-01    1,801221818e-01    0,000000000e+00    0,000000000e+00    0,000000000e+00    0,000000000e+00
      982000000   -1,609660834e-01   -3,297917247e-01    4,737688601e-01   -6,643618643e-02    0,000000000e+00    0,000000000e+00    0,000000000e+00    0,000000000e+00
      996000000   -3,279490173e-01   -2,078322023e-01    3,678513765e-01   -3,564878702e-01    0,000000000e+00    0,000000000e+00    0,000000000e+00    0,000000000e+00
     1010000000   -3,421317637e-01   -6,267974619e-03    4,180595279e-02   -5,240858197e-01    0,000000000e+00    0,000000000e+00    0,000000000e+00    0,000000000e+00
     1024000000   -2,046220154e-01    9,663915634e-02   -3,456763923e-01   -3,811198771e-01    0,000000000e+00    0,000000000e+00    0,000000000e+00    0,000000000e+00
     1038000000   -1,376352161e-01    1,131708641e-02   -4,811730981e-01    6,264884770e-02    0,000000000e+00    0,000000000e+00    0,000000000e+00    0,000000000e+00
     1052000000   -2,908719182e-01    5,420602486e-02   -9,245871753e-02    3,740124106e-01    0,000000000e+00    0,000000000e+00    0,000000000e+00    0,000000000e+00
     1066000000   -1,503348649e-01    2,935254574e-01    1,430456787e-01    1,328333765e-01    0,000000000e+00    0,000000000e+00    0,000000000e+00    0,000000000e+00
     1080000000    1,010363773e-01    2,447031885e-01    9,013387561e-02    2,248693630e-02    0,000000000e+00    0,000000000e+00    0,000000000e+00    0,000000000e+00
     1094000000    2,229537517e-01    8,647971600e-02    7,141193748e-02    9,279746562e-03    0,000000000e+00    0,000000000e+00    0,000000000e+00    0,000000000e+00
     1108000000    2,446499765e-01   -8,645109087e-02    8,197148889e-02    1,196595258e-03    0,000000000e+00    0,000000000e+00    0,000000000e+00    0,000000000e+00
     1122000000    1,842754781e-01   -2,488976121e-01    1,046274751e-01   -2,522989921e-02    0,000000000e+00    0,000000000e+00    0,000000000e+00    0,000000000e+00
     1136000000    4,808473587e-02   -3,768990040e-01    1,270763576e-01   -7,296948880e-02    0,000000000e+00    0,000000000e+00    0,000000000e+00    0,000000000e+00
     1150000000   -1,584624797e-01   -4,232764840e-01    1,389132589e-01   -1,503638178e-01    0,000000000e+00    0,000000000e+00    0,000000000e+00    0,000000000e+00
     1164000000   -3,805438280e-01   -3,260903060e-01    9,914954752e-02   -2,734023631e-01    0,000000000e+00    0,000000000e+00    0,000000000e+00    0,000000000e+00
     1178000000   -4,639483690e-01   -8,912125975e-02   -1,055449396e-01   -4,068295658e-01    0,000000000e+00    0,000000000e+00    0,000000000e+00    0,000000000e+00
     1192000000   -3,743585348e-01    4,172486812e-02   -4,628921151e-01   -1,944354177e-01    0,000000000e+00    0,000000000e+00    0,000000000e+00    0,000000000e+00
     1206000000   -4,108749032e-01    1,302253455e-01   -2,735239267e-01    2,342793047e-01    0,000000000e+00    0,000000000e+00    0,000000000e+00    0,000000000e+00
     1220000000   -2,783885896e-01    3,273825347e-01   -8,135689422e-03    1,599323601e-01    0,000000000e+00    0,000000000e+00    0,000000000e+00    0,000000000e+00
     1234000000   -4,517819360e-02    3,443420827e-01    2,473729290e-02    5,369116366e-02    0,000000000e+00    0,000000000e+00    0,000000000e+00    0,000000000e+00
     1248000000    1,181198061e-01    2,510364950e-01    7,163340342e-04    2,864666097e-02    0,000000000e+00    0,000000000e+00    0,000000000e+00    0,000000000e+00
     1262000000    2,165293396e-01    1,030420288e-01    5,677347071e-03    2,913968824e-02    0,000000000e+00    0,000000000e+00    0,000000000e+00    0,000000000e+00
     1276000000    2,330628932e-01   -6,082968414e-02    2,568531409e-02    3,310640529e-02    0,000000000e+00    0,000000000e+00    0,000000000e+00    0,000000000e+00
     1290000000    1,975263059e-01   -2,168416977e-01    5,918298662e-02    2,265169658e-02    0,000000000e+00    0,000000000e+00    0,000000000e+00    0,000000000e+00
     1304000000    8,094592392e-02   -3,615603447e-01    7,406111807e-02    1,213373849e-03    0,000000000e+00    0,000000000e+00    0,000000000e+00    0,000000000e+00
     1318000000   -9,809188545e-02   -4,482906759e-01    8,363390714e-02   -1,079941913e-02    0,000000000e+00    0,000000000e+00    0,000000000e+00    0,000000000e+00
     1332000000   -3,543926179e-01   -4,361397326e-01    8,704350889e-02   -1,654501259e-02    0,000000000e+00    0,000000000e+00    0,000000000e+00    0,000000000e+00
     1346000000   -5,901678801e-01   -2,459903359e-01    1,068894416e-01   -1,339363772e-02    0,000000000e+00    0,000000000e+00    0,000000000e+00    0,000000000e+00
     1360000000   -6,548588872e-01    7,435089350e-02    1,370774657e-01   -9,928258136e-03    0,000000000e+00    0,000000000e+00    0,000000000e+00    0,000000000e+00
     1374000000   -4,888614118e-01    3,274958730e-01    1,652133167e-01   -5,700984597e-02    0,000000000e+00    0,000000000e+00    0,000000000e+00    0,000000000e+00
     1388000000   -2,506459653e-01    4,213494956e-01    1,719992012e-01   -8,876629919e-02    0,000000000e+00    0,000000000e+00    0,000000000e+00    0,000000000e+00
     1402000000   -3,606672958e-02    3,863342106e-01    1,487632990e-01   -1,020222455e-01    0,000000000e+00    0,000000000e+00    0,000000000e+00    0,000000000e+00
     1416000000    1,010774449e-01    2,878665626e-01    1,204210296e-01   -8,758087456e-02    0,000000000e+00    0,000000000e+00    0,000000000e+00    0,000000000e+00
     1430000000    1,962309927e-01    1,481612623e-01    1,252826154e-01   -8,026595414e-02    0,000000000e+00    0,000000000e+00    0,000000000e+00    0,000000000e+00
     1444000000    2,163045555e-01   -1,486125030e-02    1,295228899e-01   -2,061646618e-02    0,000000000e+00    0,000000000e+00    0,000000000e+00    0,000000000e+00
     1458000000    1,761103421e-01   -1,820089519e-01    1,340222657e-01    1,258299500e-02    0,000000000e+00    0,000000000e+00    0,000000000e+00    0,000000000e+00
     1472000000    7,312900573e-02   -3,470316827e-01    2,019454390e-01    4,936730489e-02    0,000000000e+00    0,000000000e+00    0,000000000e+00    0,000000000e+00
     1486000000   -1,425422877e-01   -4,686044157e-01    2,792514861e-01    9,096156806e-02    0,000000000e+00    0,000000000e+00    0,000000000e+00    0,000000000e+00
     1500000000   -4,460305274e-01   -4,659628272e-01    4,013665617e-01    6,783387810e-02    0,000000000e+00    0,000000000e+00    0,000000000e+00    0,000000000e+00
