! NanoVNA-App
! Date: 2025-09-25 16:01:00
! Start: 100MHz Stop: 1,5GHz Points: 101
! S-Parameter data: F S11 S21 S12 S22
# Hz S RI R 50
!     Frequency           S11_Real           S11_Imag           S21_Real           S21_Imag           S12_Real           S12_Imag           S22_Real           S22_Imag
      100000000   -2,828094922e-02   -2,867395058e-03    3,722767234e-01   -7,223818898e-01    0,000000000e+00    0,000000000e+00    0,000000000e+00    0,000000000e+00
      114000000   -1,571641304e-02    1,289355103e-02   -9,120643884e-02   -8,045445085e-01    0,000000000e+00    0,000000000e+00    0,000000000e+00    0,000000000e+00
      128000000    4,328028299e-03    1,198696066e-02   -5,159053206e-01   -6,187188029e-01    0,000000000e+00    0,000000000e+00    0,000000000e+00    0,000000000e+00
      142000000    1,547741424e-02   -1,730737858e-03   -7,673488855e-01   -2,341606915e-01    0,000000000e+00    0,000000000e+00    0,000000000e+00    0,000000000e+00
      156000000    1,573156007e-02   -1,278338768e-02   -7,633634210e-01    2,219489217e-01    0,000000000e+00    0,000000000e+00    0,000000000e+00    0,000000000e+00
      170000000    1,766169071e-02   -2,098623291e-02   -5,155351758e-01    6,062471271e-01    0,000000000e+00    0,000000000e+00    0,000000000e+00    0,000000000e+00
      184000000    2,204485238e-02   -3,555202857e-02   -9,830347449e-02    7,859443426e-01    0,000000000e+00    0,000000000e+00    0,000000000e+00    0,000000000e+00
      198000000    1,404556539e-02   -6,066301465e-02    3,461985886e-01    7,107077837e-01    0,000000000e+00    0,000000000e+00    0,000000000e+00    0,000000000e+00
      212000000   -1,766653359e-02   -7,912931591e-02    6,805547476e-01    4,062427282e-01    0,000000000e+00    0,000000000e+00    0,000000000e+00    0,000000000e+00
      226000000   -6,034412608e-02   -6,664872169e-02    7,956983447e-01   -3,551886231e-02    0,000000000e+00    0,000000000e+00    0,000000000e+00    0,000000000e+00
      240000000   -8,050101250e-02   -2,277349494e-02    6,414831281e-01   -4,716718793e-01    0,000000000e+00    0,000000000e+00    0,000000000e+00    0,000000000e+00
      254000000   -6,075785309e-02    1,978826895e-02    2,710113227e-01   -7,422700524e-01    0,000000000e+00    0,000000000e+00    0,000000000e+00    0,000000000e+00
      268000000   -2,096078917e-02    3,086475842e-02   -1,811781228e-01   -7,610186338e-01    0,000000000e+00    0,000000000e+00    0,000000000e+00    0,000000000e+00
      282000000    6,975834258e-03    1,375602838e-02   -5,632289648e-01   -5,326427221e-01    0,000000000e+00    0,000000000e+00    0,000000000e+00    0,000000000e+00
      296000000    1,238779724e-02   -6,207184400e-03   -7,604395151e-01   -1,343084425e-01    0,000000000e+00    0,000000000e+00    0,000000000e+00    0,000000000e+00
      310000000    1,362530794e-02   -1,443751808e-02   -7,085183263e-01    3,032388091e-01    0,000000000e+00    0,000000000e+00    0,000000000e+00    0,000000000e+00
      324000000    2,254183777e-02   -2,467999980e-02   -4,214948714e-01    6,393980384e-01    0,000000000e+00    0,000000000e+00    0,000000000e+00    0,000000000e+00
      338000000    2,857918665e-02   -5,072156340e-02   -3,867542837e-03    7,605496049e-01    0,000000000e+00    0,000000000e+00    0,000000000e+00    0,000000000e+00
      352000000    1,030507497e-02   -8,308514208e-02    4,121229053e-01    6,346282959e-01    0,000000000e+00    0,000000000e+00    0,000000000e+00    0,000000000e+00
      366000000   -3,195387870e-02   -9,378419816e-02    6,932763457e-01    3,035412729e-01    0,000000000e+00    0,000000000e+00    0,000000000e+00    0,000000000e+00
      380000000   -6,758455932e-02   -6,912789494e-02    7,459605336e-01   -1,349376291e-01    0,000000000e+00    0,000000000e+00    0,000000000e+00    0,000000000e+00
      394000000   -6,851466745e-02   -3,040857054e-02    5,392701030e-01   -5,277398229e-01    0,000000000e+00    0,000000000e+00    0,000000000e+00    0,000000000e+00
      408000000   -4,271619394e-02   -1,576618478e-02    1,505367458e-01   -7,353320122e-01    0,000000000e+00    0,000000000e+00    0,000000000e+00    0,000000000e+00
      422000000   -2,609094232e-02   -3,108884767e-02   -2,782799304e-01   -6,892537475e-01    0,000000000e+00    0,000000000e+00    0,000000000e+00    0,000000000e+00
      436000000   -3,956789151e-02   -4,883380234e-02   -6,103745103e-01   -4,198579788e-01    0,000000000e+00    0,000000000e+00    0,000000000e+00    0,000000000e+00
      450000000   -6,509376317e-02   -3,915578499e-02   -7,375602126e-01   -7,547513582e-03    0,000000000e+00    0,000000000e+00    0,000000000e+00    0,000000000e+00
      464000000   -6,790446490e-02   -6,261351984e-03   -6,081985831e-01    4,060531855e-01    0,000000000e+00    0,000000000e+00    0,000000000e+00    0,000000000e+00
      478000000   -3,832411394e-02    1,591000147e-02   -2,673935592e-01    6,700169444e-01    0,000000000e+00    0,000000000e+00    0,000000000e+00    0,000000000e+00
      492000000   -5,288788117e-03    6,133177318e-03    1,512166709e-01    6,947239637e-01    0,000000000e+00    0,000000000e+00    0,000000000e+00    0,000000000e+00
      506000000    6,857153028e-03   -2,012556791e-02    5,083508492e-01    4,882329702e-01    0,000000000e+00    0,000000000e+00    0,000000000e+00    0,000000000e+00
      520000000    8,728771354e-04   -3,826215118e-02    6,902508140e-01    1,220283434e-01    0,000000000e+00    0,000000000e+00    0,000000000e+00    0,000000000e+00
      534000000   -3,072928404e-03   -4,565645754e-02    6,326764226e-01   -2,821697891e-01    0,000000000e+00    0,000000000e+00    0,000000000e+00    0,000000000e+00
      548000000    9,291823371e-04   -5,974758044e-02    3,606745899e-01   -5,792651772e-01    0,000000000e+00    0,000000000e+00    0,000000000e+00    0,000000000e+00
      562000000   -7,583891973e-03   -8,879136294e-02   -2,670874633e-02   -6,730650067e-01    0,000000000e+00    0,000000000e+00    0,000000000e+00    0,000000000e+00
      576000000   -4,536437243e-02   -1,096284539e-01   -4,006775022e-01   -5,379112959e-01    0,000000000e+00    0,000000000e+00    0,000000000e+00    0,000000000e+00
      590000000   -9,464991093e-02   -9,357348084e-02   -6,404523253e-01   -2,165281326e-01    0,000000000e+00    0,000000000e+00    0,000000000e+00    0,000000000e+00
      604000000   -1,117440835e-01   -4,086595401e-02   -6,480264664e-01    1,990858167e-01    0,000000000e+00    0,000000000e+00    0,000000000e+00    0,000000000e+00
      618000000   -7,617198676e-02   -2,044047462e-03   -4,022000432e-01    5,364001393e-01    0,000000000e+00    0,000000000e+00    0,000000000e+00    0,000000000e+00
      632000000   -3,059571050e-02   -2,112215944e-02   -1,202798542e-02    6,560511589e-01    0,000000000e+00    0,000000000e+00    0,000000000e+00    0,000000000e+00
      646000000   -3,673765808e-02   -7,693292946e-02    3,661134839e-01    5,274072886e-01    0,000000000e+00    0,000000000e+00    0,000000000e+00    0,000000000e+00
      660000000   -1,113025621e-01   -9,964262694e-02    6,013221741e-01    1,934385002e-01    0,000000000e+00    0,000000000e+00    0,000000000e+00    0,000000000e+00
      674000000   -2,000700831e-01   -2,405228280e-02    5,656219721e-01   -2,398610413e-01    0,000000000e+00    0,000000000e+00    0,000000000e+00    0,000000000e+00
      688000000   -1,782884449e-01    1,452788264e-01    2,092426270e-01   -5,211090446e-01    0,000000000e+00    0,000000000e+00    0,000000000e+00    0,000000000e+00
      702000000    2,457801066e-02    2,465546280e-01   -2,023012489e-01   -4,078211784e-01    0,000000000e+00    0,000000000e+00    0,000000000e+00    0,000000000e+00
      716000000    2,634579837e-01    1,102930158e-01   -2,733036578e-01   -8,356433362e-02    0,000000000e+00    0,000000000e+00    0,000000000e+00    0,000000000e+00
      730000000    3,039635420e-01   -1,865458190e-01   -1,073510200e-01    3,242717683e-02    0,000000000e+00    0,000000000e+00    0,000000000e+00    0,000000000e+00
      744000000    9,316480160e-02   -4,267948270e-01   -4,252759740e-02   -6,502189487e-02    0,000000000e+00    0,000000000e+00    0,000000000e+00    0,000000000e+00
      758000000   -2,598162889e-01   -4,299558103e-01   -1,753195673e-01   -1,257238090e-01    0,000000000e+00    0,000000000e+00    0,000000000e+00    0,000000000e+00
      772000000   -4,844216704e-01   -1,194875762e-01   -3,366279602e-01    3,807979077e-02    0,000000000e+00    0,000000000e+00    0,000000000e+00    0,000000000e+00
      786000000   -3,425313830e-01    2,219314575e-01   -2,624568641e-01    3,165391386e-01    0,000000000e+00    0,000000000e+00    0,000000000e+00    0,000000000e+00
      800000000   -4,130865633e-02    2,769812047e-01    2,746899612e-03    4,363984168e-01    0,000000000e+00    0,000000000e+00    0,000000000e+00    0,000000000e+00
      814000000    1,445632875e-01    1,255075336e-01    2,638514936e-01    3,590285778e-01    0,000000000e+00    0,000000000e+00    0,000000000e+00    0,000000000e+00
      828000000    1,680422276e-01   -6,977151334e-02    4,327202141e-01    1,566726863e-01    0,000000000e+00    0,000000000e+00    0,000000000e+00    0,000000000e+00
      842000000    6,727592647e-02   -2,185288966e-01    4,665397108e-01   -1,203015968e-01    0,000000000e+00    0,000000000e+00    0,000000000e+00    0,000000000e+00
      856000000   -1,067115963e-01   -2,628577650e-01    3,202359974e-01   -3,950535357e-01    0,000000000e+00    0,000000000e+00    0,000000000e+00    0,000000000e+00
      870000000   -2,749880552e-01   -1,674377173e-01   -2,300473396e-03   -5,260664225e-01    0,000000000e+00    0,000000000e+00    0,000000000e+00    0,000000000e+00
      884000000   -3,202960789e-01    3,532836214e-02   -3,475965559e-01   -3,935049474e-01    0,000000000e+00    0,000000000e+00    0,000000000e+00    0,000000000e+00
      898000000   -1,915775985e-01    2,065747976e-01   -4,885523617e-01   -6,268161535e-02    0,000000000e+00    0,000000000e+00    0,000000000e+00    0,000000000e+00
      912000000    7,150553167e-03    2,194040120e-01   -4,007324874e-01    2,645176053e-01    0,000000000e+00    0,000000000e+00    0,000000000e+00    0,000000000e+00
      926000000    1,497647762e-01    1,138565391e-01   -1,706459820e-01    4,184047878e-01    0,000000000e+00    0,000000000e+00    0,000000000e+00    0,000000000e+00
      940000000    1,972391009e-01   -4,533356428e-02    6,251744181e-02    4,250127077e-01    0,000000000e+00    0,000000000e+00    0,000000000e+00    0,000000000e+00
      954000000    1,512849778e-01   -2,031221837e-01    2,599993646e-01    3,421027064e-01    0,000000000e+00    0,000000000e+00    0,000000000e+00    0,000000000e+00
      968000000    2,327502891e-02   -3,169473708e-01    4,109061062e-01    1,781748384e-01    0,000000000e+00    0,000000000e+00    0,000000000e+00    0,000000000e+00
      982000000   -1,617382765e-01   -3,334657848e-01    4,773262441e-01   -6,617517024e-02    0,000000000e+00    0,000000000e+00    0,000000000e+00    0,000000000e+00
      996000000   -3,241216838e-01   -2,117545605e-01    3,677150905e-01   -3,561941683e-01    0,000000000e+00    0,000000000e+00    0,000000000e+00    0,000000000e+00
     1010000000   -3,397715986e-01   -9,611701593e-03    4,045591131e-02   -5,232874155e-01    0,000000000e+00    0,000000000e+00    0,000000000e+00    0,000000000e+00
     1024000000   -2,043263316e-01    9,091388434e-02   -3,457506895e-01   -3,797594607e-01    0,000000000e+00    0,000000000e+00    0,000000000e+00    0,000000000e+00
     1038000000   -1,389274448e-01    9,011081420e-03   -4,808207452e-01    6,608141214e-02    0,000000000e+00    0,000000000e+00    0,000000000e+00    0,000000000e+00
     1052000000   -2,904638946e-01    5,055860803e-02   -9,320134670e-02    3,733847439e-01    0,000000000e+00    0,000000000e+00    0,000000000e+00    0,000000000e+00
     1066000000   -1,466187537e-01    2,985451221e-01    1,431474984e-01    1,291202158e-01    0,000000000e+00    0,000000000e+00    0,000000000e+00    0,000000000e+00
     1080000000    1,030290723e-01    2,474283278e-01    9,173205495e-02    2,198806778e-02    0,000000000e+00    0,000000000e+00    0,000000000e+00    0,000000000e+00
     1094000000    2,195490748e-01    8,766022325e-02    6,942295283e-02    9,912779555e-03    0,000000000e+00    0,000000000e+00    0,000000000e+00    0,000000000e+00
     1108000000    2,403755337e-01   -8,957798779e-02    8,177451789e-02   -1,438216714e-04    0,000000000e+00    0,000000000e+00    0,000000000e+00    0,000000000e+00
     1122000000    1,841329634e-01   -2,497998327e-01    1,032632366e-01   -2,666469105e-02    0,000000000e+00    0,000000000e+00    0,000000000e+00    0,000000000e+00
     1136000000    4,973018169e-02   -3,784372509e-01    1,255370229e-01   -7,097553462e-02    0,000000000e+00    0,000000000e+00    0,000000000e+00    0,000000000e+00
     1150000000   -1,517598480e-01   -4,220165312e-01    1,387606561e-01   -1,500304490e-01    0,000000000e+00    0,000000000e+00    0,000000000e+00    0,000000000e+00
     1164000000   -3,753127456e-01   -3,245196342e-01    1,031565741e-01   -2,768906355e-01    0,000000000e+00    0,000000000e+00    0,000000000e+00    0,000000000e+00
     1178000000   -4,628891647e-01   -8,134277910e-02   -1,065380126e-01   -4,073739052e-01    0,000000000e+00    0,000000000e+00    0,000000000e+00    0,000000000e+00
     1192000000   -3,721155524e-01    3,658970073e-02   -4,620591700e-01   -1,983930022e-01    0,000000000e+00    0,000000000e+00    0,000000000e+00    0,000000000e+00
     1206000000   -4,107671380e-01    1,296808273e-01   -2,706415057e-01    2,360085249e-01    0,000000000e+00    0,000000000e+00    0,000000000e+00    0,000000000e+00
     1220000000   -2,799213231e-01    3,293575644e-01   -6,412916351e-03    1,617733091e-01    0,000000000e+00    0,000000000e+00    0,000000000e+00    0,000000000e+00
     1234000000   -4,384766892e-02    3,504359424e-01    2,374466136e-02    5,512016639e-02    0,000000000e+00    0,000000000e+00    0,000000000e+00    0,000000000e+00
     1248000000    1,269964129e-01    2,532627285e-01    2,219566843e-03    2,694232948e-02    0,000000000e+00    0,000000000e+00    0,000000000e+00    0,000000000e+00
     1262000000    2,111413777e-01    1,001186818e-01    1,411582809e-03    2,975415811e-02    0,000000000e+00    0,000000000e+00    0,000000000e+00    0,000000000e+00
     1276000000    2,351233363e-01   -6,020065024e-02    2,351488546e-02    3,264217451e-02    0,000000000e+00    0,000000000e+00    0,000000000e+00    0,000000000e+00
     1290000000    1,912608594e-01   -2,102828175e-01    5,660313368e-02    2,874477580e-02    0,000000000e+00    0,000000000e+00    0,000000000e+00    0,000000000e+00
     1304000000    8,497162908e-02   -3,595461845e-01    7,457976788e-02    6,217520218e-03    0,000000000e+00    0,000000000e+00    0,000000000e+00    0,000000000e+00
     1318000000   -1,040116921e-01   -4,485737383e-01    8,294553310e-02   -1,128398627e-02    0,000000000e+00    0,000000000e+00    0,000000000e+00    0,000000000e+00
     1332000000   -3,537946343e-01   -4,324497283e-01    8,647550642e-02   -6,021332461e-03    0,000000000e+00    0,000000000e+00    0,000000000e+00    0,000000000e+00
     1346000000   -5,911785364e-01   -2,457577139e-01    1,003710777e-01   -3,385722812e-04    0,000000000e+00    0,000000000e+00    0,000000000e+00    0,000000000e+00
     1360000000   -6,510738730e-01    7,234938443e-02    1,457005441e-01   -1,866558194e-02    0,000000000e+00    0,000000000e+00    0,000000000e+00    0,000000000e+00
     1374000000   -4,933832884e-01    3,326682746e-01    1,673365384e-01   -4,605724290e-02    0,000000000e+00    0,000000000e+00    0,000000000e+00    0,000000000e+00
     1388000000   -2,442556173e-01    4,275032282e-01    1,659860015e-01   -8,894202858e-02    0,000000000e+00    0,000000000e+00    0,000000000e+00    0,000000000e+00
     1402000000   -4,726890102e-02    3,886818290e-01    1,334968209e-01   -9,877491742e-02    0,000000000e+00    0,000000000e+00    0,000000000e+00    0,000000000e+00
     1416000000    1,010833532e-01    2,835392356e-01    1,213703081e-01   -8,903637528e-02    0,000000000e+00    0,000000000e+00    0,000000000e+00    0,000000000e+00
     1430000000    1,901746392e-01    1,460422575e-01    1,058393791e-01   -8,854552358e-02    0,000000000e+00    0,000000000e+00    0,000000000e+00    0,000000000e+00
     1444000000    2,187839448e-01   -1,036100276e-02    1,334969252e-01   -2,912005968e-02    0,000000000e+00    0,000000000e+00    0,000000000e+00    0,000000000e+00
     1458000000    1,796083748e-01   -1,865802258e-01    1,395839304e-01    1,648006029e-02    0,000000000e+00    0,000000000e+00    0,000000000e+00    0,000000000e+00
     1472000000    7,040232420e-02   -3,459209502e-01    2,049028873e-01    7,123357803e-02    0,000000000e+00    0,000000000e+00    0,000000000e+00    0,000000000e+00
     1486000000   -1,365851909e-01   -4,702631235e-01    3,013274670e-01    9,109073132e-02    0,000000000e+00    0,000000000e+00    0,000000000e+00    0,000000000e+00
     1500000000   -4,590627849e-01   -4,766269624e-01    3,941633403e-01    5,948556587e-02    0,000000000e+00    0,000000000e+00    0,000000000e+00    0,000000000e+00
