! NanoVNA-App
! Date: 2025-09-25 16:00:04
! Start: 100MHz Stop: 1,5GHz Points: 101
! S-Parameter data: F S11 S21 S12 S22
# Hz S RI R 50
!     Frequency           S11_Real           S11_Imag           S21_Real           S21_Imag           S12_Real           S12_Imag           S22_Real           S22_Imag
      100000000   -2,826869115e-02   -2,866372932e-03    3,722549975e-01   -7,223787308e-01    0,000000000e+00    0,000000000e+00    0,000000000e+00    0,000000000e+00
      114000000   -1,568982750e-02    1,286020223e-02   -9,128473699e-02   -8,048291206e-01    0,000000000e+00    0,000000000e+00    0,000000000e+00    0,000000000e+00
      128000000    4,367505666e-03    1,189947780e-02   -5,160486102e-01   -6,187865734e-01    0,000000000e+00    0,000000000e+00    0,000000000e+00    0,000000000e+00
      142000000    1,548861805e-02   -1,747049973e-03   -7,673136592e-01   -2,341217399e-01    0,000000000e+00    0,000000000e+00    0,000000000e+00    0,000000000e+00
      156000000    1,751500554e-02   -1,382262725e-02   -7,674765587e-01    2,273026407e-01    0,000000000e+00    0,000000000e+00    0,000000000e+00    0,000000000e+00
      170000000    1,761514321e-02   -2,096424066e-02   -5,154519677e-01    6,060616970e-01    0,000000000e+00    0,000000000e+00    0,000000000e+00    0,000000000e+00
      184000000    2,205169015e-02   -3,554834425e-02   -9,815025330e-02    7,861133218e-01    0,000000000e+00    0,000000000e+00    0,000000000e+00    0,000000000e+00
      198000000    1,400057971e-02   -6,066390499e-02    3,460212350e-01    7,108395696e-01    0,000000000e+00    0,000000000e+00    0,000000000e+00    0,000000000e+00
      212000000   -1,770205237e-02   -7,910966873e-02    6,807791591e-01    4,062837958e-01    0,000000000e+00    0,000000000e+00    0,000000000e+00    0,000000000e+00
      226000000   -6,032292917e-02   -6,660903245e-02    7,957655191e-01   -3,568399698e-02    0,000000000e+00    0,000000000e+00    0,000000000e+00    0,000000000e+00
      240000000   -8,056493849e-02   -2,274927311e-02    6,414982677e-01   -4,717661142e-01    0,000000000e+00    0,000000000e+00    0,000000000e+00    0,000000000e+00
      254000000   -6,081000715e-02    1,980208047e-02    2,709518373e-01   -7,421085238e-01    0,000000000e+00    0,000000000e+00    0,000000000e+00    0,000000000e+00
      268000000   -2,089021355e-02    3,092461638e-02   -1,814256907e-01   -7,607601285e-01    0,000000000e+00    0,000000000e+00    0,000000000e+00    0,000000000e+00
      282000000    6,933479104e-03    1,370134857e-02   -5,632559657e-01   -5,326129794e-01    0,000000000e+00    0,000000000e+00    0,000000000e+00    0,000000000e+00
      296000000    1,237846166e-02   -6,364483386e-03   -7,604619265e-01   -1,343170851e-01    0,000000000e+00    0,000000000e+00    0,000000000e+00    0,000000000e+00
      310000000    1,374109276e-02   -1,469013002e-02   -7,075976133e-01    3,044299185e-01    0,000000000e+00    0,000000000e+00    0,000000000e+00    0,000000000e+00
      324000000    2,261367999e-02   -2,481990680e-02   -4,206059575e-01    6,396364570e-01    0,000000000e+00    0,000000000e+00    0,000000000e+00    0,000000000e+00
      338000000    2,834956348e-02   -5,080143362e-02   -3,156294581e-03    7,611605525e-01    0,000000000e+00    0,000000000e+00    0,000000000e+00    0,000000000e+00
      352000000    1,029926818e-02   -8,260295540e-02    4,112962186e-01    6,352490187e-01    0,000000000e+00    0,000000000e+00    0,000000000e+00    0,000000000e+00
      366000000   -3,174884245e-02   -9,380435944e-02    6,934691072e-01    3,043860793e-01    0,000000000e+00    0,000000000e+00    0,000000000e+00    0,000000000e+00
      380000000   -6,754456460e-02   -6,895728409e-02    7,455933690e-01   -1,346269548e-01    0,000000000e+00    0,000000000e+00    0,000000000e+00    0,000000000e+00
      394000000   -6,876210868e-02   -3,048944473e-02    5,393717885e-01   -5,285556912e-01    0,000000000e+00    0,000000000e+00    0,000000000e+00    0,000000000e+00
      408000000   -4,293133691e-02   -1,523305476e-02    1,499318480e-01   -7,333312035e-01    0,000000000e+00    0,000000000e+00    0,000000000e+00    0,000000000e+00
      422000000   -2,588070929e-02   -3,094104305e-02   -2,796641886e-01   -6,898567080e-01    0,000000000e+00    0,000000000e+00    0,000000000e+00    0,000000000e+00
      436000000   -3,939171135e-02   -4,907543585e-02   -6,103922129e-01   -4,198355675e-01    0,000000000e+00    0,000000000e+00    0,000000000e+00    0,000000000e+00
      450000000   -6,455601007e-02   -3,959936649e-02   -7,371258736e-01   -7,504233625e-03    0,000000000e+00    0,000000000e+00    0,000000000e+00    0,000000000e+00
      464000000   -6,784172356e-02   -6,181513891e-03   -6,079254746e-01    4,060769379e-01    0,000000000e+00    0,000000000e+00    0,000000000e+00    0,000000000e+00
      478000000   -3,823389485e-02    1,628644206e-02   -2,669233978e-01    6,703535914e-01    0,000000000e+00    0,000000000e+00    0,000000000e+00    0,000000000e+00
      492000000   -5,078504328e-03    6,460216362e-03    1,520285606e-01    6,955787539e-01    0,000000000e+00    0,000000000e+00    0,000000000e+00    0,000000000e+00
      506000000    7,175037172e-03   -1,994003356e-02    5,077129602e-01    4,888923168e-01    0,000000000e+00    0,000000000e+00    0,000000000e+00    0,000000000e+00
      520000000    5,374098546e-04   -3,857791424e-02    6,886641979e-01    1,217404604e-01    0,000000000e+00    0,000000000e+00    0,000000000e+00    0,000000000e+00
      534000000   -2,891337033e-03   -4,550503194e-02    6,330364943e-01   -2,820997238e-01    0,000000000e+00    0,000000000e+00    0,000000000e+00    0,000000000e+00
      548000000    1,349205617e-03   -5,961061269e-02    3,606097400e-01   -5,794597864e-01    0,000000000e+00    0,000000000e+00    0,000000000e+00    0,000000000e+00
      562000000   -7,801241241e-03   -8,878465742e-02   -2,704410441e-02   -6,724002361e-01    0,000000000e+00    0,000000000e+00    0,000000000e+00    0,000000000e+00
      576000000   -4,540183395e-02   -1,094470546e-01   -4,011886716e-01   -5,378087163e-01    0,000000000e+00    0,000000000e+00    0,000000000e+00    0,000000000e+00
      590000000   -9,488265216e-02   -9,342630953e-02   -6,421159506e-01   -2,191103101e-01    0,000000000e+00    0,000000000e+00    0,000000000e+00    0,000000000e+00
      604000000   -1,116509363e-01   -4,087124020e-02   -6,472731829e-01    1,988347769e-01    0,000000000e+00    0,000000000e+00    0,000000000e+00    0,000000000e+00
      618000000   -7,556092739e-02   -2,732737688e-03   -4,014991224e-01    5,351430178e-01    0,000000000e+00    0,000000000e+00    0,000000000e+00    0,000000000e+00
      632000000   -3,044318222e-02   -2,135448158e-02   -1,233881619e-02    6,551805139e-01    0,000000000e+00    0,000000000e+00    0,000000000e+00    0,000000000e+00
      646000000   -3,603798896e-02   -7,645326853e-02    3,666127324e-01    5,275404453e-01    0,000000000e+00    0,000000000e+00    0,000000000e+00    0,000000000e+00
      660000000   -1,115775406e-01   -1,003729180e-01    6,006561518e-01    1,937239021e-01    0,000000000e+00    0,000000000e+00    0,000000000e+00    0,000000000e+00
      674000000   -1,993322968e-01   -2,413198166e-02    5,647459030e-01   -2,403485328e-01    0,000000000e+00    0,000000000e+00    0,000000000e+00    0,000000000e+00
      688000000   -1,795266867e-01    1,452663988e-01    2,092090547e-01   -5,216015577e-01    0,000000000e+00    0,000000000e+00    0,000000000e+00    0,000000000e+00
      702000000    2,684749104e-02    2,447515875e-01   -1,982220411e-01   -3,987720907e-01    0,000000000e+00    0,000000000e+00    0,000000000e+00    0,000000000e+00
      716000000    2,638309002e-01    1,099918857e-01   -2,724538147e-01   -8,350811154e-02    0,000000000e+00    0,000000000e+00    0,000000000e+00    0,000000000e+00
      730000000    3,040872514e-01   -1,870120317e-01   -1,064023226e-01    3,207864240e-02    0,000000000e+00    0,000000000e+00    0,000000000e+00    0,000000000e+00
      744000000    9,360806644e-02   -4,279361069e-01   -4,215518385e-02   -6,550942361e-02    0,000000000e+00    0,000000000e+00    0,000000000e+00    0,000000000e+00
      758000000   -2,591018379e-01   -4,270575643e-01   -1,763583273e-01   -1,263868213e-01    0,000000000e+00    0,000000000e+00    0,000000000e+00    0,000000000e+00
      772000000   -4,851633310e-01   -1,201269478e-01   -3,366727829e-01    3,860529512e-02    0,000000000e+00    0,000000000e+00    0,000000000e+00    0,000000000e+00
      786000000   -3,405004740e-01    2,206899226e-01   -2,635765970e-01    3,175397217e-01    0,000000000e+00    0,000000000e+00    0,000000000e+00    0,000000000e+00
      800000000   -3,993725404e-02    2,767982483e-01    1,875300892e-03    4,365589023e-01    0,000000000e+00    0,000000000e+00    0,000000000e+00    0,000000000e+00
      814000000    1,443299502e-01    1,246512830e-01    2,638764977e-01    3,602094352e-01    0,000000000e+00    0,000000000e+00    0,000000000e+00    0,000000000e+00
      828000000    1,678203493e-01   -7,006900758e-02    4,329162538e-01    1,565845609e-01    0,000000000e+00    0,000000000e+00    0,000000000e+00    0,000000000e+00
      842000000    6,701025367e-02   -2,182165086e-01    4,670886397e-01   -1,204366684e-01    0,000000000e+00    0,000000000e+00    0,000000000e+00    0,000000000e+00
      856000000   -1,071009487e-01   -2,642924190e-01    3,200817406e-01   -3,947967291e-01    0,000000000e+00    0,000000000e+00    0,000000000e+00    0,000000000e+00
      870000000   -2,742074132e-01   -1,673374921e-01   -2,514481312e-03   -5,271637440e-01    0,000000000e+00    0,000000000e+00    0,000000000e+00    0,000000000e+00
      884000000   -3,208742142e-01    3,630103543e-02   -3,480931520e-01   -3,928264976e-01    0,000000000e+00    0,000000000e+00    0,000000000e+00    0,000000000e+00
      898000000   -1,916876137e-01    2,063290775e-01   -4,882333875e-01   -6,256920099e-02    0,000000000e+00    0,000000000e+00    0,000000000e+00    0,000000000e+00
      912000000    7,425934076e-03    2,181533873e-01   -4,091679454e-01    2,693262994e-01    0,000000000e+00    0,000000000e+00    0,000000000e+00    0,000000000e+00
      926000000    1,490056217e-01    1,142900959e-01   -1,686486453e-01    4,181147516e-01    0,000000000e+00    0,000000000e+00    0,000000000e+00    0,000000000e+00
      940000000    1,973674893e-01   -4,423405603e-02    6,242390722e-02    4,263619483e-01    0,000000000e+00    0,000000000e+00    0,000000000e+00    0,000000000e+00
      954000000    1,509701312e-01   -2,025640756e-01    2,602741420e-01    3,420937061e-01    0,000000000e+00    0,000000000e+00    0,000000000e+00    0,000000000e+00
      968000000    2,323337644e-02   -3,165822625e-01    4,122197926e-01    1,796149164e-01    0,000000000e+00    0,000000000e+00    0,000000000e+00    0,000000000e+00
      982000000   -1,602532864e-01   -3,341444731e-01    4,754683673e-01   -6,673017889e-02    0,000000000e+00    0,000000000e+00    0,000000000e+00    0,000000000e+00
      996000000   -3,282434046e-01   -2,087662965e-01    3,667198122e-01   -3,555698991e-01    0,000000000e+00    0,000000000e+00    0,000000000e+00    0,000000000e+00
     1010000000   -3,425045013e-01   -8,829412982e-03    4,235768318e-02   -5,250570774e-01    0,000000000e+00    0,000000000e+00    0,000000000e+00    0,000000000e+00
     1024000000   -2,094780505e-01    9,097321332e-02   -3,448961079e-01   -3,807252944e-01    0,000000000e+00    0,000000000e+00    0,000000000e+00    0,000000000e+00
     1038000000   -1,381308585e-01    5,915536545e-03   -4,813734293e-01    6,649551541e-02    0,000000000e+00    0,000000000e+00    0,000000000e+00    0,000000000e+00
     1052000000   -2,901478708e-01    5,181844905e-02   -9,220154583e-02    3,714597225e-01    0,000000000e+00    0,000000000e+00    0,000000000e+00    0,000000000e+00
     1066000000   -1,454423070e-01    2,932201624e-01    1,434419602e-01    1,294233501e-01    0,000000000e+00    0,000000000e+00    0,000000000e+00    0,000000000e+00
     1080000000    1,022449359e-01    2,470367700e-01    8,974660933e-02    2,269857563e-02    0,000000000e+00    0,000000000e+00    0,000000000e+00    0,000000000e+00
     1094000000    2,239189744e-01    8,665429801e-02    6,730292737e-02    1,103493478e-02    0,000000000e+00    0,000000000e+00    0,000000000e+00    0,000000000e+00
     1108000000    2,414587140e-01   -9,008394182e-02    8,099271357e-02   -8,528731996e-04    0,000000000e+00    0,000000000e+00    0,000000000e+00    0,000000000e+00
     1122000000    1,828474849e-01   -2,536530495e-01    1,048018262e-01   -2,430213988e-02    0,000000000e+00    0,000000000e+00    0,000000000e+00    0,000000000e+00
     1136000000    4,833057150e-02   -3,773979247e-01    1,256162375e-01   -7,247778773e-02    0,000000000e+00    0,000000000e+00    0,000000000e+00    0,000000000e+00
     1150000000   -1,558054835e-01   -4,265426695e-01    1,372287422e-01   -1,539077163e-01    0,000000000e+00    0,000000000e+00    0,000000000e+00    0,000000000e+00
     1164000000   -3,802920878e-01   -3,232575655e-01    9,816206992e-02   -2,798472047e-01    0,000000000e+00    0,000000000e+00    0,000000000e+00    0,000000000e+00
     1178000000   -4,659750760e-01   -9,002566338e-02   -1,044778004e-01   -4,058186412e-01    0,000000000e+00    0,000000000e+00    0,000000000e+00    0,000000000e+00
     1192000000   -3,730579615e-01    4,040230811e-02   -4,598564804e-01   -1,979404688e-01    0,000000000e+00    0,000000000e+00    0,000000000e+00    0,000000000e+00
     1206000000   -4,154495299e-01    1,359641701e-01   -2,752030194e-01    2,422374189e-01    0,000000000e+00    0,000000000e+00    0,000000000e+00    0,000000000e+00
     1220000000   -2,772471905e-01    3,313893676e-01   -7,269360591e-03    1,645669341e-01    0,000000000e+00    0,000000000e+00    0,000000000e+00    0,000000000e+00
     1234000000   -4,144678265e-02    3,515232801e-01    2,210376970e-02    5,536971614e-02    0,000000000e+00    0,000000000e+00    0,000000000e+00    0,000000000e+00
     1248000000    1,244226620e-01    2,509736121e-01    4,822660703e-03    2,340964042e-02    0,000000000e+00    0,000000000e+00    0,000000000e+00    0,000000000e+00
     1262000000    2,094203085e-01    1,044400260e-01    4,272494931e-03    3,346198052e-02    0,000000000e+00    0,000000000e+00    0,000000000e+00    0,000000000e+00
     1276000000    2,372588068e-01   -6,083258986e-02    2,597345039e-02    3,172929212e-02    0,000000000e+00    0,000000000e+00    0,000000000e+00    0,000000000e+00
     1290000000    1,973828822e-01   -2,151256502e-01    5,795938522e-02    2,389125712e-02    0,000000000e+00    0,000000000e+00    0,000000000e+00    0,000000000e+00
     1304000000    7,889293134e-02   -3,580645621e-01    7,206340134e-02    5,079799797e-03    0,000000000e+00    0,000000000e+00    0,000000000e+00    0,000000000e+00
     1318000000   -1,034788787e-01   -4,478054345e-01    8,743783832e-02   -8,935223334e-03    0,000000000e+00    0,000000000e+00    0,000000000e+00    0,000000000e+00
     1332000000   -3,545752168e-01   -4,347296059e-01    8,943577856e-02   -1,361657120e-02    0,000000000e+00    0,000000000e+00    0,000000000e+00    0,000000000e+00
     1346000000   -5,908614397e-01   -2,490686029e-01    1,074560732e-01   -1,162354928e-02    0,000000000e+00    0,000000000e+00    0,000000000e+00    0,000000000e+00
     1360000000   -6,506664157e-01    6,663662195e-02    1,458843350e-01   -2,067183144e-02    0,000000000e+00    0,000000000e+00    0,000000000e+00    0,000000000e+00
     1374000000   -4,879200757e-01    3,323551714e-01    1,749611497e-01   -5,096340179e-02    0,000000000e+00    0,000000000e+00    0,000000000e+00    0,000000000e+00
     1388000000   -2,484827489e-01    4,287169278e-01    1,662787795e-01   -7,841011882e-02    0,000000000e+00    0,000000000e+00    0,000000000e+00    0,000000000e+00
     1402000000   -4,369697720e-02    3,913914561e-01    1,478525400e-01   -9,461575747e-02    0,000000000e+00    0,000000000e+00    0,000000000e+00    0,000000000e+00
     1416000000    1,056233048e-01    2,829966545e-01    1,256183386e-01   -8,698399365e-02    0,000000000e+00    0,000000000e+00    0,000000000e+00    0,000000000e+00
     1430000000    1,892687082e-01    1,400171816e-01    1,012188494e-01   -8,042398840e-02    0,000000000e+00    0,000000000e+00    0,000000000e+00    0,000000000e+00
     1444000000    2,181067169e-01   -1,367965247e-02    1,252978444e-01   -2,486750484e-02    0,000000000e+00    0,000000000e+00    0,000000000e+00    0,000000000e+00
     1458000000    1,805355102e-01   -1,777505726e-01    1,467571557e-01    2,887097001e-02    0,000000000e+00    0,000000000e+00    0,000000000e+00    0,000000000e+00
     1472000000    7,720412314e-02   -3,501375020e-01    2,126165479e-01    5,885156244e-02    0,000000000e+00    0,000000000e+00    0,000000000e+00    0,000000000e+00
     1486000000   -1,340734661e-01   -4,645110667e-01    3,065898418e-01    1,044331193e-01    0,000000000e+00    0,000000000e+00    0,000000000e+00    0,000000000e+00
     1500000000   -4,451794326e-01   -4,805630445e-01    4,116348624e-01    3,714365140e-02    0,000000000e+00    0,000000000e+00    0,000000000e+00    0,000000000e+00
