! NanoVNA-App
! Date: 2025-09-25 15:59:10
! Start: 100MHz Stop: 1,5GHz Points: 101
! S-Parameter data: F S11 S21 S12 S22
# Hz S RI R 50
!     Frequency           S11_Real           S11_Imag           S21_Real           S21_Imag           S12_Real           S12_Imag           S22_Real           S22_Imag
      100000000   -2,824913897e-02   -2,850048244e-03    3,722850382e-01   -7,224377990e-01    0,000000000e+00    0,000000000e+00    0,000000000e+00    0,000000000e+00
      114000000   -1,568464562e-02    1,287239324e-02   -9,136352688e-02   -8,047630787e-01    0,000000000e+00    0,000000000e+00    0,000000000e+00    0,000000000e+00
      128000000    4,384939093e-03    1,193697751e-02   -5,159820914e-01   -6,188027263e-01    0,000000000e+00    0,000000000e+00    0,000000000e+00    0,000000000e+00
      142000000    1,547415741e-02   -1,793072326e-03   -7,674521208e-01   -2,341496795e-01    0,000000000e+00    0,000000000e+00    0,000000000e+00    0,000000000e+00
      156000000    1,614597812e-02   -1,283225603e-02   -7,634309530e-01    2,235138863e-01    0,000000000e+00    0,000000000e+00    0,000000000e+00    0,000000000e+00
      170000000    1,767847873e-02   -2,096850611e-02   -5,153927207e-01    6,061593890e-01    0,000000000e+00    0,000000000e+00    0,000000000e+00    0,000000000e+00
      184000000    2,203952335e-02   -3,554900363e-02   -9,833556414e-02    7,862309217e-01    0,000000000e+00    0,000000000e+00    0,000000000e+00    0,000000000e+00
      198000000    1,401776075e-02   -6,068494916e-02    3,461099267e-01    7,110643983e-01    0,000000000e+00    0,000000000e+00    0,000000000e+00    0,000000000e+00
      212000000   -1,767352782e-02   -7,914254814e-02    6,805961132e-01    4,062540233e-01    0,000000000e+00    0,000000000e+00    0,000000000e+00    0,000000000e+00
      226000000   -6,030961499e-02   -6,663645804e-02    7,956897020e-01   -3,549170122e-02    0,000000000e+00    0,000000000e+00    0,000000000e+00    0,000000000e+00
      240000000   -8,053869009e-02   -2,274647728e-02    6,414610744e-01   -4,714405239e-01    0,000000000e+00    0,000000000e+00    0,000000000e+00    0,000000000e+00
      254000000   -6,081315875e-02    1,981234550e-02    2,707280219e-01   -7,418131828e-01    0,000000000e+00    0,000000000e+00    0,000000000e+00    0,000000000e+00
      268000000   -2,100502513e-02    3,087900206e-02   -1,814919114e-01   -7,607933879e-01    0,000000000e+00    0,000000000e+00    0,000000000e+00    0,000000000e+00
      282000000    6,898099091e-03    1,374977082e-02   -5,633554459e-01   -5,326148272e-01    0,000000000e+00    0,000000000e+00    0,000000000e+00    0,000000000e+00
      296000000    1,229500026e-02   -6,331075449e-03   -7,604432106e-01   -1,342133135e-01    0,000000000e+00    0,000000000e+00    0,000000000e+00    0,000000000e+00
      310000000    1,352095790e-02   -1,467171777e-02   -7,072721720e-01    3,045279980e-01    0,000000000e+00    0,000000000e+00    0,000000000e+00    0,000000000e+00
      324000000    2,256997488e-02   -2,467908710e-02   -4,209883511e-01    6,395838857e-01    0,000000000e+00    0,000000000e+00    0,000000000e+00    0,000000000e+00
      338000000    2,832967974e-02   -5,043480173e-02   -4,591932986e-03    7,587542534e-01    0,000000000e+00    0,000000000e+00    0,000000000e+00    0,000000000e+00
      352000000    1,022301894e-02   -8,302300423e-02    4,113611281e-01    6,348587275e-01    0,000000000e+00    0,000000000e+00    0,000000000e+00    0,000000000e+00
      366000000   -3,162348270e-02   -9,365098923e-02    6,930017471e-01    3,039892018e-01    0,000000000e+00    0,000000000e+00    0,000000000e+00    0,000000000e+00
      380000000   -6,770236790e-02   -6,879040599e-02    7,456482649e-01   -1,344430745e-01    0,000000000e+00    0,000000000e+00    0,000000000e+00    0,000000000e+00
      394000000   -6,861218810e-02   -3,058012389e-02    5,383633971e-01   -5,285975933e-01    0,000000000e+00    0,000000000e+00    0,000000000e+00    0,000000000e+00
      408000000   -4,290531948e-02   -1,565152965e-02    1,494826823e-01   -7,339022160e-01    0,000000000e+00    0,000000000e+00    0,000000000e+00    0,000000000e+00
      422000000   -2,610029094e-02   -3,121729195e-02   -2,793821990e-01   -6,901104450e-01    0,000000000e+00    0,000000000e+00    0,000000000e+00    0,000000000e+00
      436000000   -3,911824524e-02   -4,906346649e-02   -6,102297306e-01   -4,195050895e-01    0,000000000e+00    0,000000000e+00    0,000000000e+00    0,000000000e+00
      450000000   -6,500788033e-02   -3,921306133e-02   -7,373293638e-01   -7,374376059e-03    0,000000000e+00    0,000000000e+00    0,000000000e+00    0,000000000e+00
      464000000   -6,794907153e-02   -6,397696678e-03   -6,081593037e-01    4,060815871e-01    0,000000000e+00    0,000000000e+00    0,000000000e+00    0,000000000e+00
      478000000   -3,871054202e-02    1,583873667e-02   -2,675171793e-01    6,700042486e-01    0,000000000e+00    0,000000000e+00    0,000000000e+00    0,000000000e+00
      492000000   -5,026150960e-03    5,900395103e-03    1,513013691e-01    6,950070858e-01    0,000000000e+00    0,000000000e+00    0,000000000e+00    0,000000000e+00
      506000000    6,719854195e-03   -2,021602355e-02    5,074205995e-01    4,886689782e-01    0,000000000e+00    0,000000000e+00    0,000000000e+00    0,000000000e+00
      520000000    7,158675580e-04   -3,822038323e-02    6,887879968e-01    1,228904799e-01    0,000000000e+00    0,000000000e+00    0,000000000e+00    0,000000000e+00
      534000000   -2,909525763e-03   -4,524936154e-02    6,331439614e-01   -2,817901373e-01    0,000000000e+00    0,000000000e+00    0,000000000e+00    0,000000000e+00
      548000000    9,117773152e-04   -5,985577777e-02    3,604614735e-01   -5,797610283e-01    0,000000000e+00    0,000000000e+00    0,000000000e+00    0,000000000e+00
      562000000   -7,802254520e-03   -8,895423263e-02   -2,716501430e-02   -6,733782887e-01    0,000000000e+00    0,000000000e+00    0,000000000e+00    0,000000000e+00
      576000000   -4,547791183e-02   -1,092840806e-01   -4,015945792e-01   -5,384984016e-01    0,000000000e+00    0,000000000e+00    0,000000000e+00    0,000000000e+00
      590000000   -9,475515783e-02   -9,372248501e-02   -6,422643065e-01   -2,170973271e-01    0,000000000e+00    0,000000000e+00    0,000000000e+00    0,000000000e+00
      604000000   -1,112852171e-01   -4,101828858e-02   -6,469632983e-01    1,980081350e-01    0,000000000e+00    0,000000000e+00    0,000000000e+00    0,000000000e+00
      618000000   -7,545535266e-02   -2,167609055e-03   -4,024541378e-01    5,355073214e-01    0,000000000e+00    0,000000000e+00    0,000000000e+00    0,000000000e+00
      632000000   -2,992204577e-02   -2,154928818e-02   -1,166589279e-02    6,550938487e-01    0,000000000e+00    0,000000000e+00    0,000000000e+00    0,000000000e+00
      646000000   -3,663465753e-02   -7,627461106e-02    3,662382960e-01    5,269983411e-01    0,000000000e+00    0,000000000e+00    0,000000000e+00    0,000000000e+00
      660000000   -1,123936772e-01   -9,984442592e-02    6,012650728e-01    1,931034774e-01    0,000000000e+00    0,000000000e+00    0,000000000e+00    0,000000000e+00
      674000000   -1,994096041e-01   -2,333357371e-02    5,651360750e-01   -2,399922311e-01    0,000000000e+00    0,000000000e+00    0,000000000e+00    0,000000000e+00
      688000000   -1,789303124e-01    1,451455951e-01    2,086101621e-01   -5,213487744e-01    0,000000000e+00    0,000000000e+00    0,000000000e+00    0,000000000e+00
      702000000    2,458014898e-02    2,464097440e-01   -1,948299408e-01   -4,112282395e-01    0,000000000e+00    0,000000000e+00    0,000000000e+00    0,000000000e+00
      716000000    2,631812990e-01    1,103756800e-01   -2,726026177e-01   -8,329470456e-02    0,000000000e+00    0,000000000e+00    0,000000000e+00    0,000000000e+00
      730000000    3,036686778e-01   -1,867079437e-01   -1,064226180e-01    3,218502924e-02    0,000000000e+00    0,000000000e+00    0,000000000e+00    0,000000000e+00
      744000000    9,443493187e-02   -4,279963970e-01   -4,225699604e-02   -6,555653363e-02    0,000000000e+00    0,000000000e+00    0,000000000e+00    0,000000000e+00
      758000000   -2,589815259e-01   -4,295154810e-01   -1,756896079e-01   -1,254470497e-01    0,000000000e+00    0,000000000e+00    0,000000000e+00    0,000000000e+00
      772000000   -4,854454696e-01   -1,200999171e-01   -3,368872702e-01    3,837906942e-02    0,000000000e+00    0,000000000e+00    0,000000000e+00    0,000000000e+00
      786000000   -3,418020308e-01    2,223802954e-01   -2,626247108e-01    3,170627952e-01    0,000000000e+00    0,000000000e+00    0,000000000e+00    0,000000000e+00
      800000000   -4,109252244e-02    2,771565914e-01    2,666899934e-03    4,364694357e-01    0,000000000e+00    0,000000000e+00    0,000000000e+00    0,000000000e+00
      814000000    1,445507407e-01    1,254827678e-01    2,641200423e-01    3,593834937e-01    0,000000000e+00    0,000000000e+00    0,000000000e+00    0,000000000e+00
      828000000    1,676858366e-01   -6,998074800e-02    4,329902530e-01    1,567189246e-01    0,000000000e+00    0,000000000e+00    0,000000000e+00    0,000000000e+00
      842000000    6,733813137e-02   -2,180449218e-01    4,662233889e-01   -1,205272079e-01    0,000000000e+00    0,000000000e+00    0,000000000e+00    0,000000000e+00
      856000000   -1,072893217e-01   -2,639921010e-01    3,193828166e-01   -3,952219188e-01    0,000000000e+00    0,000000000e+00    0,000000000e+00    0,000000000e+00
      870000000   -2,743048370e-01   -1,684627682e-01   -2,385641215e-03   -5,268722773e-01    0,000000000e+00    0,000000000e+00    0,000000000e+00    0,000000000e+00
      884000000   -3,210649490e-01    3,598839790e-02   -3,486201763e-01   -3,919516206e-01    0,000000000e+00    0,000000000e+00    0,000000000e+00    0,000000000e+00
      898000000   -1,924874336e-01    2,064023465e-01   -4,895714521e-01   -6,287004799e-02    0,000000000e+00    0,000000000e+00    0,000000000e+00    0,000000000e+00
      912000000    7,344235666e-03    2,193618268e-01   -3,922231495e-01    2,751342058e-01    0,000000000e+00    0,000000000e+00    0,000000000e+00    0,000000000e+00
      926000000    1,507757455e-01    1,133329794e-01   -1,678849310e-01    4,152015448e-01    0,000000000e+00    0,000000000e+00    0,000000000e+00    0,000000000e+00
      940000000    1,995408982e-01   -4,354324564e-02    6,350128353e-02    4,242486060e-01    0,000000000e+00    0,000000000e+00    0,000000000e+00    0,000000000e+00
      954000000    1,543279737e-01   -2,045504004e-01    2,610532343e-01    3,388839960e-01    0,000000000e+00    0,000000000e+00    0,000000000e+00    0,000000000e+00
      968000000    2,255542390e-02   -3,141843975e-01    4,123345912e-01    1,799376309e-01    0,000000000e+00    0,000000000e+00    0,000000000e+00    0,000000000e+00
      982000000   -1,645018309e-01   -3,330889046e-01    4,744832218e-01   -6,553017348e-02    0,000000000e+00    0,000000000e+00    0,000000000e+00    0,000000000e+00
      996000000   -3,234415650e-01   -2,081835121e-01    3,681833744e-01   -3,560188711e-01    0,000000000e+00    0,000000000e+00    0,000000000e+00    0,000000000e+00
     1010000000   -3,400358260e-01   -8,942106739e-03    3,967455029e-02   -5,257335901e-01    0,000000000e+00    0,000000000e+00    0,000000000e+00    0,000000000e+00
     1024000000   -2,027219981e-01    9,141340852e-02   -3,457739055e-01   -3,807143867e-01    0,000000000e+00    0,000000000e+00    0,000000000e+00    0,000000000e+00
     1038000000   -1,336236894e-01    1,053332351e-02   -4,826820493e-01    6,325994432e-02    0,000000000e+00    0,000000000e+00    0,000000000e+00    0,000000000e+00
     1052000000   -2,855112553e-01    5,553172156e-02   -9,529341012e-02    3,722337782e-01    0,000000000e+00    0,000000000e+00    0,000000000e+00    0,000000000e+00
     1066000000   -1,480383128e-01    2,924009264e-01    1,414499283e-01    1,317655593e-01    0,000000000e+00    0,000000000e+00    0,000000000e+00    0,000000000e+00
     1080000000    9,858839214e-02    2,530572116e-01    8,942069113e-02    2,091474272e-02    0,000000000e+00    0,000000000e+00    0,000000000e+00    0,000000000e+00
     1094000000    2,226288170e-01    8,521468937e-02    6,867886335e-02    1,113549154e-02    0,000000000e+00    0,000000000e+00    0,000000000e+00    0,000000000e+00
     1108000000    2,394763976e-01   -8,557294309e-02    7,950510085e-02    5,506927264e-04    0,000000000e+00    0,000000000e+00    0,000000000e+00    0,000000000e+00
     1122000000    1,874969900e-01   -2,502721548e-01    1,049118191e-01   -2,410765365e-02    0,000000000e+00    0,000000000e+00    0,000000000e+00    0,000000000e+00
     1136000000    4,716862738e-02   -3,802955449e-01    1,257832348e-01   -7,560078800e-02    0,000000000e+00    0,000000000e+00    0,000000000e+00    0,000000000e+00
     1150000000   -1,524649560e-01   -4,252629876e-01    1,370598823e-01   -1,517571360e-01    0,000000000e+00    0,000000000e+00    0,000000000e+00    0,000000000e+00
     1164000000   -3,820723295e-01   -3,249668479e-01    9,674168378e-02   -2,776437998e-01    0,000000000e+00    0,000000000e+00    0,000000000e+00    0,000000000e+00
     1178000000   -4,699172974e-01   -8,753688633e-02   -1,068306938e-01   -4,059128165e-01    0,000000000e+00    0,000000000e+00    0,000000000e+00    0,000000000e+00
     1192000000   -3,718762994e-01    4,070932046e-02   -4,623076022e-01   -1,965631694e-01    0,000000000e+00    0,000000000e+00    0,000000000e+00    0,000000000e+00
     1206000000   -4,107999206e-01    1,298744380e-01   -2,714426816e-01    2,373151034e-01    0,000000000e+00    0,000000000e+00    0,000000000e+00    0,000000000e+00
     1220000000   -2,784042954e-01    3,281294703e-01   -1,867773477e-03    1,645144075e-01    0,000000000e+00    0,000000000e+00    0,000000000e+00    0,000000000e+00
     1234000000   -4,212988168e-02    3,488161862e-01    2,671733312e-02    5,553149804e-02    0,000000000e+00    0,000000000e+00    0,000000000e+00    0,000000000e+00
     1248000000    1,231105179e-01    2,534053922e-01    4,990546033e-03    2,543322183e-02    0,000000000e+00    0,000000000e+00    0,000000000e+00    0,000000000e+00
     1262000000    2,143716067e-01    1,033268198e-01    7,274111267e-03    2,806597762e-02    0,000000000e+00    0,000000000e+00    0,000000000e+00    0,000000000e+00
     1276000000    2,352991253e-01   -5,663526803e-02    2,876332402e-02    3,703572601e-02    0,000000000e+00    0,000000000e+00    0,000000000e+00    0,000000000e+00
     1290000000    1,916967034e-01   -2,125986516e-01    5,559244007e-02    2,874333784e-02    0,000000000e+00    0,000000000e+00    0,000000000e+00    0,000000000e+00
     1304000000    7,964610308e-02   -3,566193283e-01    7,340697944e-02    2,868588548e-03    0,000000000e+00    0,000000000e+00    0,000000000e+00    0,000000000e+00
     1318000000   -1,023824885e-01   -4,469260573e-01    8,241074532e-02   -9,311556816e-03    0,000000000e+00    0,000000000e+00    0,000000000e+00    0,000000000e+00
     1332000000   -3,524459898e-01   -4,327800274e-01    9,049832821e-02   -2,004400827e-02    0,000000000e+00    0,000000000e+00    0,000000000e+00    0,000000000e+00
     1346000000   -5,899755955e-01   -2,490399927e-01    1,085598320e-01   -5,289983470e-03    0,000000000e+00    0,000000000e+00    0,000000000e+00    0,000000000e+00
     1360000000   -6,480193734e-01    7,145303488e-02    1,333513856e-01   -1,056001242e-02    0,000000000e+00    0,000000000e+00    0,000000000e+00    0,000000000e+00
     1374000000   -4,986476898e-01    3,291156590e-01    1,611843705e-01   -5,757313222e-02    0,000000000e+00    0,000000000e+00    0,000000000e+00    0,000000000e+00
     1388000000   -2,528061271e-01    4,250522256e-01    1,564684510e-01   -8,844333887e-02    0,000000000e+00    0,000000000e+00    0,000000000e+00    0,000000000e+00
     1402000000   -4,018576071e-02    3,800740540e-01    1,377716511e-01   -9,610898048e-02    0,000000000e+00    0,000000000e+00    0,000000000e+00    0,000000000e+00
     1416000000    1,041967943e-01    2,840367258e-01    1,209623292e-01   -8,643475175e-02    0,000000000e+00    0,000000000e+00    0,000000000e+00    0,000000000e+00
     1430000000    1,842847317e-01    1,426912248e-01    9,276880324e-02   -7,779143006e-02    0,000000000e+00    0,000000000e+00    0,000000000e+00    0,000000000e+00
     1444000000    2,152332813e-01   -7,990603335e-03    1,257156134e-01   -1,911984384e-02    0,000000000e+00    0,000000000e+00    0,000000000e+00    0,000000000e+00
     1458000000    1,816544384e-01   -1,763340682e-01    1,327441037e-01    1,663617976e-02    0,000000000e+00    0,000000000e+00    0,000000000e+00    0,000000000e+00
     1472000000    6,617268175e-02   -3,526490629e-01    1,849179566e-01    5,984985083e-02    0,000000000e+00    0,000000000e+00    0,000000000e+00    0,000000000e+00
     1486000000   -1,410149187e-01   -4,848193526e-01    2,874090075e-01    8,361948282e-02    0,000000000e+00    0,000000000e+00    0,000000000e+00    0,000000000e+00
     1500000000   -4,474022985e-01   -4,778504968e-01    4,177575707e-01    5,084746704e-02    0,000000000e+00    0,000000000e+00    0,000000000e+00    0,000000000e+00
