! NanoVNA-App
! Date: 2025-09-25 15:58:30
! Start: 100MHz Stop: 1,5GHz Points: 101
! S-Parameter data: F S11 S21 S12 S22
# Hz S RI R 50
!     Frequency           S11_Real           S11_Imag           S21_Real           S21_Imag           S12_Real           S12_Imag           S22_Real           S22_Imag
      100000000   -2,823319845e-02   -2,840815810e-03    3,722423315e-01   -7,224206924e-01    0,000000000e+00    0,000000000e+00    0,000000000e+00    0,000000000e+00
      114000000   -1,566704549e-02    1,288496982e-02   -9,131555259e-02   -8,047149181e-01    0,000000000e+00    0,000000000e+00    0,000000000e+00    0,000000000e+00
      128000000    4,364723340e-03    1,187801454e-02   -5,159741044e-01   -6,187055707e-01    0,000000000e+00    0,000000000e+00    0,000000000e+00    0,000000000e+00
      142000000    1,549101993e-02   -1,762204338e-03   -7,674272060e-01   -2,343120128e-01    0,000000000e+00    0,000000000e+00    0,000000000e+00    0,000000000e+00
      156000000    1,727067679e-02   -1,368136052e-02   -7,666831613e-01    2,269284874e-01    0,000000000e+00    0,000000000e+00    0,000000000e+00    0,000000000e+00
      170000000    1,761643216e-02   -2,096609026e-02   -5,154131055e-01    6,063178182e-01    0,000000000e+00    0,000000000e+00    0,000000000e+00    0,000000000e+00
      184000000    2,203185298e-02   -3,556562960e-02   -9,838864207e-02    7,860580683e-01    0,000000000e+00    0,000000000e+00    0,000000000e+00    0,000000000e+00
      198000000    1,401304267e-02   -6,066276133e-02    3,457865715e-01    7,108433843e-01    0,000000000e+00    0,000000000e+00    0,000000000e+00    0,000000000e+00
      212000000   -1,769153029e-02   -7,915122062e-02    6,807027459e-01    4,062944353e-01    0,000000000e+00    0,000000000e+00    0,000000000e+00    0,000000000e+00
      226000000   -6,033010781e-02   -6,665809453e-02    7,957960367e-01   -3,560243174e-02    0,000000000e+00    0,000000000e+00    0,000000000e+00    0,000000000e+00
      240000000   -8,051306009e-02   -2,280112170e-02    6,414536238e-01   -4,716711044e-01    0,000000000e+00    0,000000000e+00    0,000000000e+00    0,000000000e+00
      254000000   -6,076491624e-02    1,980960555e-02    2,709579468e-01   -7,418097258e-01    0,000000000e+00    0,000000000e+00    0,000000000e+00    0,000000000e+00
      268000000   -2,099810913e-02    3,082723543e-02   -1,812432408e-01   -7,608911991e-01    0,000000000e+00    0,000000000e+00    0,000000000e+00    0,000000000e+00
      282000000    6,876969710e-03    1,372249704e-02   -5,630785227e-01   -5,324535370e-01    0,000000000e+00    0,000000000e+00    0,000000000e+00    0,000000000e+00
      296000000    1,243933383e-02   -6,205070298e-03   -7,605314851e-01   -1,342123598e-01    0,000000000e+00    0,000000000e+00    0,000000000e+00    0,000000000e+00
      310000000    1,353400573e-02   -1,451128628e-02   -7,097188234e-01    3,040836453e-01    0,000000000e+00    0,000000000e+00    0,000000000e+00    0,000000000e+00
      324000000    2,248725854e-02   -2,474634536e-02   -4,221798778e-01    6,389588714e-01    0,000000000e+00    0,000000000e+00    0,000000000e+00    0,000000000e+00
      338000000    2,820425108e-02   -5,043988675e-02   -4,180537653e-04    7,590404749e-01    0,000000000e+00    0,000000000e+00    0,000000000e+00    0,000000000e+00
      352000000    1,004568581e-02   -8,276624978e-02    4,109416902e-01    6,360862851e-01    0,000000000e+00    0,000000000e+00    0,000000000e+00    0,000000000e+00
      366000000   -3,168991581e-02   -9,391501546e-02    6,928851008e-01    3,043486774e-01    0,000000000e+00    0,000000000e+00    0,000000000e+00    0,000000000e+00
      380000000   -6,761401147e-02   -6,864216179e-02    7,452797890e-01   -1,346061975e-01    0,000000000e+00    0,000000000e+00    0,000000000e+00    0,000000000e+00
      394000000   -6,864821911e-02   -3,049637005e-02    5,401723981e-01   -5,279365182e-01    0,000000000e+00    0,000000000e+00    0,000000000e+00    0,000000000e+00
      408000000   -4,285155237e-02   -1,558404136e-02    1,495695859e-01   -7,345491648e-01    0,000000000e+00    0,000000000e+00    0,000000000e+00    0,000000000e+00
      422000000   -2,616079524e-02   -3,136311844e-02   -2,792768776e-01   -6,897830963e-01    0,000000000e+00    0,000000000e+00    0,000000000e+00    0,000000000e+00
      436000000   -3,928605467e-02   -4,895360023e-02   -6,103074551e-01   -4,195674658e-01    0,000000000e+00    0,000000000e+00    0,000000000e+00    0,000000000e+00
      450000000   -6,461686641e-02   -3,887767345e-02   -7,366396189e-01   -7,465058006e-03    0,000000000e+00    0,000000000e+00    0,000000000e+00    0,000000000e+00
      464000000   -6,773991138e-02   -6,037515122e-03   -6,078347564e-01    4,062694907e-01    0,000000000e+00    0,000000000e+00    0,000000000e+00    0,000000000e+00
      478000000   -3,875471279e-02    1,616958901e-02   -2,679465413e-01    6,697905064e-01    0,000000000e+00    0,000000000e+00    0,000000000e+00    0,000000000e+00
      492000000   -5,144638009e-03    6,390152965e-03    1,518896520e-01    6,944895387e-01    0,000000000e+00    0,000000000e+00    0,000000000e+00    0,000000000e+00
      506000000    6,780468859e-03   -2,000883780e-02    5,076581836e-01    4,885389507e-01    0,000000000e+00    0,000000000e+00    0,000000000e+00    0,000000000e+00
      520000000    2,123160084e-04   -3,829317167e-02    6,898835301e-01    1,210277677e-01    0,000000000e+00    0,000000000e+00    0,000000000e+00    0,000000000e+00
      534000000   -2,959612291e-03   -4,548264295e-02    6,332442164e-01   -2,817570567e-01    0,000000000e+00    0,000000000e+00    0,000000000e+00    0,000000000e+00
      548000000    1,087086392e-03   -5,993052945e-02    3,604545593e-01   -5,796800852e-01    0,000000000e+00    0,000000000e+00    0,000000000e+00    0,000000000e+00
      562000000   -7,415626198e-03   -8,859339356e-02   -2,639057115e-02   -6,722755432e-01    0,000000000e+00    0,000000000e+00    0,000000000e+00    0,000000000e+00
      576000000   -4,566866532e-02   -1,098726913e-01   -4,007648528e-01   -5,388250947e-01    0,000000000e+00    0,000000000e+00    0,000000000e+00    0,000000000e+00
      590000000   -9,489016980e-02   -9,360463172e-02   -6,410028338e-01   -2,163335979e-01    0,000000000e+00    0,000000000e+00    0,000000000e+00    0,000000000e+00
      604000000   -1,114144400e-01   -4,146243259e-02   -6,472499371e-01    1,979289800e-01    0,000000000e+00    0,000000000e+00    0,000000000e+00    0,000000000e+00
      618000000   -7,627176493e-02   -2,090050373e-03   -4,029705822e-01    5,353603959e-01    0,000000000e+00    0,000000000e+00    0,000000000e+00    0,000000000e+00
      632000000   -3,011180833e-02   -2,142285369e-02   -1,143203862e-02    6,545822024e-01    0,000000000e+00    0,000000000e+00    0,000000000e+00    0,000000000e+00
      646000000   -3,630549088e-02   -7,642652839e-02    3,666279614e-01    5,267096758e-01    0,000000000e+00    0,000000000e+00    0,000000000e+00    0,000000000e+00
      660000000   -1,122500300e-01   -9,994982183e-02    6,010437012e-01    1,931993663e-01    0,000000000e+00    0,000000000e+00    0,000000000e+00    0,000000000e+00
      674000000   -1,993188858e-01   -2,341444232e-02    5,656403899e-01   -2,397109568e-01    0,000000000e+00    0,000000000e+00    0,000000000e+00    0,000000000e+00
      688000000   -1,785378456e-01    1,440095454e-01    2,094625086e-01   -5,216607451e-01    0,000000000e+00    0,000000000e+00    0,000000000e+00    0,000000000e+00
      702000000    2,414268441e-02    2,468005419e-01   -2,010998279e-01   -4,069771171e-01    0,000000000e+00    0,000000000e+00    0,000000000e+00    0,000000000e+00
      716000000    2,636512816e-01    1,101946905e-01   -2,728611529e-01   -8,343487233e-02    0,000000000e+00    0,000000000e+00    0,000000000e+00    0,000000000e+00
      730000000    3,036006391e-01   -1,867368519e-01   -1,069797948e-01    3,189851344e-02    0,000000000e+00    0,000000000e+00    0,000000000e+00    0,000000000e+00
      744000000    9,294184297e-02   -4,273052216e-01   -4,205483198e-02   -6,581170112e-02    0,000000000e+00    0,000000000e+00    0,000000000e+00    0,000000000e+00
      758000000   -2,600855529e-01   -4,295567274e-01   -1,759129167e-01   -1,255064160e-01    0,000000000e+00    0,000000000e+00    0,000000000e+00    0,000000000e+00
      772000000   -4,845913649e-01   -1,183196157e-01   -3,366268575e-01    3,825342655e-02    0,000000000e+00    0,000000000e+00    0,000000000e+00    0,000000000e+00
      786000000   -3,418140113e-01    2,220997810e-01   -2,629046142e-01    3,163721859e-01    0,000000000e+00    0,000000000e+00    0,000000000e+00    0,000000000e+00
      800000000   -4,085310921e-02    2,773112357e-01    2,820795169e-03    4,367662072e-01    0,000000000e+00    0,000000000e+00    0,000000000e+00    0,000000000e+00
      814000000    1,445722729e-01    1,250428855e-01    2,641524374e-01    3,585117161e-01    0,000000000e+00    0,000000000e+00    0,000000000e+00    0,000000000e+00
      828000000    1,680311263e-01   -6,998243928e-02    4,329429269e-01    1,566248983e-01    0,000000000e+00    0,000000000e+00    0,000000000e+00    0,000000000e+00
      842000000    6,712619960e-02   -2,185557932e-01    4,670251310e-01   -1,199805290e-01    0,000000000e+00    0,000000000e+00    0,000000000e+00    0,000000000e+00
      856000000   -1,069494486e-01   -2,632955015e-01    3,190457821e-01   -3,947215676e-01    0,000000000e+00    0,000000000e+00    0,000000000e+00    0,000000000e+00
      870000000   -2,737758160e-01   -1,684921831e-01   -2,428542823e-03   -5,283780694e-01    0,000000000e+00    0,000000000e+00    0,000000000e+00    0,000000000e+00
      884000000   -3,199557364e-01    3,624398261e-02   -3,487398326e-01   -3,918353617e-01    0,000000000e+00    0,000000000e+00    0,000000000e+00    0,000000000e+00
      898000000   -1,917326301e-01    2,060325146e-01   -4,893356860e-01   -6,326876581e-02    0,000000000e+00    0,000000000e+00    0,000000000e+00    0,000000000e+00
      912000000    6,031981204e-03    2,191071063e-01   -4,035593271e-01    2,812561691e-01    0,000000000e+00    0,000000000e+00    0,000000000e+00    0,000000000e+00
      926000000    1,486376226e-01    1,134252250e-01   -1,701148748e-01    4,175989330e-01    0,000000000e+00    0,000000000e+00    0,000000000e+00    0,000000000e+00
      940000000    1,964620799e-01   -4,675546288e-02    6,322778761e-02    4,237222672e-01    0,000000000e+00    0,000000000e+00    0,000000000e+00    0,000000000e+00
      954000000    1,541788876e-01   -2,004021704e-01    2,608493567e-01    3,434979916e-01    0,000000000e+00    0,000000000e+00    0,000000000e+00    0,000000000e+00
      968000000    2,346201055e-02   -3,165584505e-01    4,112982154e-01    1,798709482e-01    0,000000000e+00    0,000000000e+00    0,000000000e+00    0,000000000e+00
      982000000   -1,630746871e-01   -3,289063871e-01    4,742664993e-01   -6,562302262e-02    0,000000000e+00    0,000000000e+00    0,000000000e+00    0,000000000e+00
      996000000   -3,283151984e-01   -2,086236030e-01    3,680172563e-01   -3,563446403e-01    0,000000000e+00    0,000000000e+00    0,000000000e+00    0,000000000e+00
     1010000000   -3,430740535e-01   -9,572514333e-03    4,423784092e-02   -5,241801143e-01    0,000000000e+00    0,000000000e+00    0,000000000e+00    0,000000000e+00
     1024000000   -2,070264369e-01    9,079057723e-02   -3,428548276e-01   -3,806895912e-01    0,000000000e+00    0,000000000e+00    0,000000000e+00    0,000000000e+00
     1038000000   -1,343310773e-01    6,545839831e-03   -4,812107384e-01    6,501962990e-02    0,000000000e+00    0,000000000e+00    0,000000000e+00    0,000000000e+00
     1052000000   -2,847718000e-01    5,265621841e-02   -9,596268833e-02    3,721681237e-01    0,000000000e+00    0,000000000e+00    0,000000000e+00    0,000000000e+00
     1066000000   -1,509289145e-01    2,965164483e-01    1,418829858e-01    1,324897707e-01    0,000000000e+00    0,000000000e+00    0,000000000e+00    0,000000000e+00
     1080000000    9,758691490e-02    2,471377552e-01    9,139860421e-02    2,160973847e-02    0,000000000e+00    0,000000000e+00    0,000000000e+00    0,000000000e+00
     1094000000    2,186439782e-01    8,615382761e-02    6,871066988e-02    8,682660758e-03    0,000000000e+00    0,000000000e+00    0,000000000e+00    0,000000000e+00
     1108000000    2,435812950e-01   -8,957301080e-02    7,907707244e-02    1,616763882e-03    0,000000000e+00    0,000000000e+00    0,000000000e+00    0,000000000e+00
     1122000000    1,864599138e-01   -2,502288520e-01    1,036868021e-01   -2,580665424e-02    0,000000000e+00    0,000000000e+00    0,000000000e+00    0,000000000e+00
     1136000000    4,724402726e-02   -3,752551079e-01    1,260993779e-01   -7,189840078e-02    0,000000000e+00    0,000000000e+00    0,000000000e+00    0,000000000e+00
     1150000000   -1,528963745e-01   -4,244424701e-01    1,394366175e-01   -1,498112381e-01    0,000000000e+00    0,000000000e+00    0,000000000e+00    0,000000000e+00
     1164000000   -3,792253435e-01   -3,291197419e-01    9,955774248e-02   -2,786037326e-01    0,000000000e+00    0,000000000e+00    0,000000000e+00    0,000000000e+00
     1178000000   -4,603391886e-01   -8,898585290e-02   -1,018012017e-01   -4,040498137e-01    0,000000000e+00    0,000000000e+00    0,000000000e+00    0,000000000e+00
     1192000000   -3,737659752e-01    4,092197865e-02   -4,599382281e-01   -1,965689361e-01    0,000000000e+00    0,000000000e+00    0,000000000e+00    0,000000000e+00
     1206000000   -4,133346379e-01    1,281879097e-01   -2,743706703e-01    2,380145788e-01    0,000000000e+00    0,000000000e+00    0,000000000e+00    0,000000000e+00
     1220000000   -2,725443244e-01    3,311555684e-01   -4,821760114e-03    1,633735746e-01    0,000000000e+00    0,000000000e+00    0,000000000e+00    0,000000000e+00
     1234000000   -4,931233823e-02    3,460415900e-01    2,023919486e-02    5,542994291e-02    0,000000000e+00    0,000000000e+00    0,000000000e+00    0,000000000e+00
     1248000000    1,240293086e-01    2,485661209e-01    3,624072531e-03    2,339887060e-02    0,000000000e+00    0,000000000e+00    0,000000000e+00    0,000000000e+00
     1262000000    2,149433196e-01    1,050657108e-01    6,914470810e-03    3,258852288e-02    0,000000000e+00    0,000000000e+00    0,000000000e+00    0,000000000e+00
     1276000000    2,331501544e-01   -6,179368123e-02    2,855435945e-02    3,364054486e-02    0,000000000e+00    0,000000000e+00    0,000000000e+00    0,000000000e+00
     1290000000    1,935894638e-01   -2,156553715e-01    5,804093182e-02    2,045314386e-02    0,000000000e+00    0,000000000e+00    0,000000000e+00    0,000000000e+00
     1304000000    7,989878207e-02   -3,550394475e-01    7,328873873e-02    8,919269778e-03    0,000000000e+00    0,000000000e+00    0,000000000e+00    0,000000000e+00
     1318000000   -9,865865856e-02   -4,476929307e-01    8,937560022e-02   -1,323646214e-02    0,000000000e+00    0,000000000e+00    0,000000000e+00    0,000000000e+00
     1332000000   -3,531893492e-01   -4,353823662e-01    8,668667823e-02   -2,152775414e-02    0,000000000e+00    0,000000000e+00    0,000000000e+00    0,000000000e+00
     1346000000   -5,903220177e-01   -2,441307753e-01    1,003364846e-01   -5,611295346e-03    0,000000000e+00    0,000000000e+00    0,000000000e+00    0,000000000e+00
     1360000000   -6,546490788e-01    7,404804975e-02    1,391136348e-01   -1,589909010e-02    0,000000000e+00    0,000000000e+00    0,000000000e+00    0,000000000e+00
     1374000000   -4,904473424e-01    3,361768425e-01    1,672853529e-01   -4,599662870e-02    0,000000000e+00    0,000000000e+00    0,000000000e+00    0,000000000e+00
     1388000000   -2,574180961e-01    4,313263297e-01    1,580099165e-01   -8,142016083e-02    0,000000000e+00    0,000000000e+00    0,000000000e+00    0,000000000e+00
     1402000000   -3,873235732e-02    3,881863356e-01    1,516925991e-01   -9,356847405e-02    0,000000000e+00    0,000000000e+00    0,000000000e+00    0,000000000e+00
     1416000000    1,028733328e-01    2,914554477e-01    1,278648674e-01   -8,179798722e-02    0,000000000e+00    0,000000000e+00    0,000000000e+00    0,000000000e+00
     1430000000    1,930904388e-01    1,486505121e-01    1,225586608e-01   -7,653657347e-02    0,000000000e+00    0,000000000e+00    0,000000000e+00    0,000000000e+00
     1444000000    2,140638530e-01   -1,705396362e-02    1,210192889e-01   -2,836463228e-02    0,000000000e+00    0,000000000e+00    0,000000000e+00    0,000000000e+00
     1458000000    1,806100607e-01   -1,838474274e-01    1,613011807e-01    7,243374828e-03    0,000000000e+00    0,000000000e+00    0,000000000e+00    0,000000000e+00
     1472000000    7,017551363e-02   -3,451923132e-01    2,052422911e-01    7,137825340e-02    0,000000000e+00    0,000000000e+00    0,000000000e+00    0,000000000e+00
     1486000000   -1,403518468e-01   -4,596584141e-01    2,854173481e-01    9,855117649e-02    0,000000000e+00    0,000000000e+00    0,000000000e+00    0,000000000e+00
     1500000000   -4,375455081e-01   -4,722007215e-01    4,331130385e-01    4,775096849e-02    0,000000000e+00    0,000000000e+00    0,000000000e+00    0,000000000e+00
