! NanoVNA-App
! Date: 2025-09-25 16:02:53
! Start: 100MHz Stop: 1,5GHz Points: 101
! S-Parameter data: F S11 S21 S12 S22
# Hz S RI R 50
!     Frequency           S11_Real           S11_Imag           S21_Real           S21_Imag           S12_Real           S12_Imag           S22_Real           S22_Imag
      100000000   -2,830694616e-02   -2,881582361e-03    3,723323345e-01   -7,224749923e-01    0,000000000e+00    0,000000000e+00    0,000000000e+00    0,000000000e+00
      114000000   -1,575410925e-02    1,290554088e-02   -9,115562588e-02   -8,047772050e-01    0,000000000e+00    0,000000000e+00    0,000000000e+00    0,000000000e+00
      128000000    4,318917170e-03    1,196920592e-02   -5,160592198e-01   -6,188575625e-01    0,000000000e+00    0,000000000e+00    0,000000000e+00    0,000000000e+00
      142000000    1,547442749e-02   -1,716255327e-03   -7,675333619e-01   -2,342071980e-01    0,000000000e+00    0,000000000e+00    0,000000000e+00    0,000000000e+00
      156000000    1,660404354e-02   -1,307415683e-02   -7,645950913e-01    2,251039743e-01    0,000000000e+00    0,000000000e+00    0,000000000e+00    0,000000000e+00
      170000000    1,765348390e-02   -2,096749842e-02   -5,155370235e-01    6,060727239e-01    0,000000000e+00    0,000000000e+00    0,000000000e+00    0,000000000e+00
      184000000    2,201860957e-02   -3,557361290e-02   -9,814029932e-02    7,861659527e-01    0,000000000e+00    0,000000000e+00    0,000000000e+00    0,000000000e+00
      198000000    1,400107332e-02   -6,062073633e-02    3,460015655e-01    7,107882500e-01    0,000000000e+00    0,000000000e+00    0,000000000e+00    0,000000000e+00
      212000000   -1,771497540e-02   -7,912935317e-02    6,807580590e-01    4,061564207e-01    0,000000000e+00    0,000000000e+00    0,000000000e+00    0,000000000e+00
      226000000   -6,030349061e-02   -6,660322845e-02    7,958163619e-01   -3,560937941e-02    0,000000000e+00    0,000000000e+00    0,000000000e+00    0,000000000e+00
      240000000   -8,043755591e-02   -2,270019241e-02    6,417278051e-01   -4,716901779e-01    0,000000000e+00    0,000000000e+00    0,000000000e+00    0,000000000e+00
      254000000   -6,081074849e-02    1,980089583e-02    2,710898817e-01   -7,422330379e-01    0,000000000e+00    0,000000000e+00    0,000000000e+00    0,000000000e+00
      268000000   -2,090202272e-02    3,089955449e-02   -1,812567264e-01   -7,609969378e-01    0,000000000e+00    0,000000000e+00    0,000000000e+00    0,000000000e+00
      282000000    6,965148728e-03    1,379521098e-02   -5,633097291e-01   -5,326632857e-01    0,000000000e+00    0,000000000e+00    0,000000000e+00    0,000000000e+00
      296000000    1,247389149e-02   -6,249964703e-03   -7,604271173e-01   -1,342206448e-01    0,000000000e+00    0,000000000e+00    0,000000000e+00    0,000000000e+00
      310000000    1,354064979e-02   -1,445890032e-02   -7,086744308e-01    3,032388091e-01    0,000000000e+00    0,000000000e+00    0,000000000e+00    0,000000000e+00
      324000000    2,269336209e-02   -2,443540655e-02   -4,215553999e-01    6,381812692e-01    0,000000000e+00    0,000000000e+00    0,000000000e+00    0,000000000e+00
      338000000    2,844346315e-02   -5,051831529e-02    6,342113920e-05    7,601819038e-01    0,000000000e+00    0,000000000e+00    0,000000000e+00    0,000000000e+00
      352000000    9,992447682e-03   -8,284700662e-02    4,113378823e-01    6,356045008e-01    0,000000000e+00    0,000000000e+00    0,000000000e+00    0,000000000e+00
      366000000   -3,180452436e-02   -9,405917674e-02    6,928727627e-01    3,041690886e-01    0,000000000e+00    0,000000000e+00    0,000000000e+00    0,000000000e+00
      380000000   -6,776677072e-02   -6,891220808e-02    7,453908920e-01   -1,342877746e-01    0,000000000e+00    0,000000000e+00    0,000000000e+00    0,000000000e+00
      394000000   -6,853154302e-02   -3,035116009e-02    5,387911797e-01   -5,274841189e-01    0,000000000e+00    0,000000000e+00    0,000000000e+00    0,000000000e+00
      408000000   -4,266655445e-02   -1,553551201e-02    1,505836993e-01   -7,340914607e-01    0,000000000e+00    0,000000000e+00    0,000000000e+00    0,000000000e+00
      422000000   -2,604233474e-02   -3,122987784e-02   -2,796569467e-01   -6,898411512e-01    0,000000000e+00    0,000000000e+00    0,000000000e+00    0,000000000e+00
      436000000   -3,920426965e-02   -4,907370731e-02   -6,108654737e-01   -4,201785922e-01    0,000000000e+00    0,000000000e+00    0,000000000e+00    0,000000000e+00
      450000000   -6,453683227e-02   -3,919988498e-02   -7,372695804e-01   -7,691738196e-03    0,000000000e+00    0,000000000e+00    0,000000000e+00    0,000000000e+00
      464000000   -6,771768630e-02   -6,171288434e-03   -6,082811952e-01    4,063067734e-01    0,000000000e+00    0,000000000e+00    0,000000000e+00    0,000000000e+00
      478000000   -3,832171857e-02    1,601377316e-02   -2,679909468e-01    6,710776091e-01    0,000000000e+00    0,000000000e+00    0,000000000e+00    0,000000000e+00
      492000000   -5,544605199e-03    6,304034032e-03    1,519730538e-01    6,948618293e-01    0,000000000e+00    0,000000000e+00    0,000000000e+00    0,000000000e+00
      506000000    7,327445783e-03   -2,001270093e-02    5,086436868e-01    4,882636666e-01    0,000000000e+00    0,000000000e+00    0,000000000e+00    0,000000000e+00
      520000000    1,357033325e-04   -3,868111596e-02    6,877750158e-01    1,214498207e-01    0,000000000e+00    0,000000000e+00    0,000000000e+00    0,000000000e+00
      534000000   -3,144098679e-03   -4,577740654e-02    6,326645613e-01   -2,822827995e-01    0,000000000e+00    0,000000000e+00    0,000000000e+00    0,000000000e+00
      548000000    6,078155129e-04   -5,954047292e-02    3,604031205e-01   -5,797376633e-01    0,000000000e+00    0,000000000e+00    0,000000000e+00    0,000000000e+00
      562000000   -8,112221025e-03   -8,860888332e-02   -2,661895752e-02   -6,733598113e-01    0,000000000e+00    0,000000000e+00    0,000000000e+00    0,000000000e+00
      576000000   -4,565797746e-02   -1,099707112e-01   -4,014930129e-01   -5,387415886e-01    0,000000000e+00    0,000000000e+00    0,000000000e+00    0,000000000e+00
      590000000   -9,493354708e-02   -9,364439547e-02   -6,406828165e-01   -2,200161666e-01    0,000000000e+00    0,000000000e+00    0,000000000e+00    0,000000000e+00
      604000000   -1,119846329e-01   -4,102064297e-02   -6,477316022e-01    1,989170611e-01    0,000000000e+00    0,000000000e+00    0,000000000e+00    0,000000000e+00
      618000000   -7,617258281e-02   -1,978989923e-03   -4,017307460e-01    5,357351899e-01    0,000000000e+00    0,000000000e+00    0,000000000e+00    0,000000000e+00
      632000000   -2,940018103e-02   -2,120399103e-02   -1,330197603e-02    6,556792259e-01    0,000000000e+00    0,000000000e+00    0,000000000e+00    0,000000000e+00
      646000000   -3,710019961e-02   -7,666901499e-02    3,664631546e-01    5,277493596e-01    0,000000000e+00    0,000000000e+00    0,000000000e+00    0,000000000e+00
      660000000   -1,116639599e-01   -9,989582002e-02    6,012207866e-01    1,939547658e-01    0,000000000e+00    0,000000000e+00    0,000000000e+00    0,000000000e+00
      674000000   -1,989695579e-01   -2,323992737e-02    5,657165051e-01   -2,392509580e-01    0,000000000e+00    0,000000000e+00    0,000000000e+00    0,000000000e+00
      688000000   -1,787685007e-01    1,434731632e-01    2,104802728e-01   -5,218206644e-01    0,000000000e+00    0,000000000e+00    0,000000000e+00    0,000000000e+00
      702000000    2,399429865e-02    2,467755228e-01   -2,006225437e-01   -4,085330665e-01    0,000000000e+00    0,000000000e+00    0,000000000e+00    0,000000000e+00
      716000000    2,631207705e-01    1,105161235e-01   -2,745268047e-01   -8,452495933e-02    0,000000000e+00    0,000000000e+00    0,000000000e+00    0,000000000e+00
      730000000    3,041976392e-01   -1,853495687e-01   -1,081316024e-01    3,295272589e-02    0,000000000e+00    0,000000000e+00    0,000000000e+00    0,000000000e+00
      744000000    9,520137310e-02   -4,272206426e-01   -4,212978482e-02   -6,421644986e-02    0,000000000e+00    0,000000000e+00    0,000000000e+00    0,000000000e+00
      758000000   -2,590406835e-01   -4,305855930e-01   -1,742422879e-01   -1,252308786e-01    0,000000000e+00    0,000000000e+00    0,000000000e+00    0,000000000e+00
      772000000   -4,851970971e-01   -1,192681342e-01   -3,358545899e-01    3,760403767e-02    0,000000000e+00    0,000000000e+00    0,000000000e+00    0,000000000e+00
      786000000   -3,426593542e-01    2,226023376e-01   -2,628270388e-01    3,163896799e-01    0,000000000e+00    0,000000000e+00    0,000000000e+00    0,000000000e+00
      800000000   -4,161198810e-02    2,776407301e-01    3,036783077e-03    4,365060031e-01    0,000000000e+00    0,000000000e+00    0,000000000e+00    0,000000000e+00
      814000000    1,441037655e-01    1,260302663e-01    2,642909884e-01    3,600391448e-01    0,000000000e+00    0,000000000e+00    0,000000000e+00    0,000000000e+00
      828000000    1,678914279e-01   -7,031758875e-02    4,328844845e-01    1,570197344e-01    0,000000000e+00    0,000000000e+00    0,000000000e+00    0,000000000e+00
      842000000    6,752836704e-02   -2,185107023e-01    4,663946033e-01   -1,201234907e-01    0,000000000e+00    0,000000000e+00    0,000000000e+00    0,000000000e+00
      856000000   -1,075908020e-01   -2,642622590e-01    3,202677071e-01   -3,947735429e-01    0,000000000e+00    0,000000000e+00    0,000000000e+00    0,000000000e+00
      870000000   -2,740576267e-01   -1,680569500e-01   -2,283928450e-03   -5,271645188e-01    0,000000000e+00    0,000000000e+00    0,000000000e+00    0,000000000e+00
      884000000   -3,214269578e-01    3,509406373e-02   -3,474818766e-01   -3,934453130e-01    0,000000000e+00    0,000000000e+00    0,000000000e+00    0,000000000e+00
      898000000   -1,924068630e-01    2,070744783e-01   -4,892879426e-01   -6,267198175e-02    0,000000000e+00    0,000000000e+00    0,000000000e+00    0,000000000e+00
      912000000    7,627814077e-03    2,194657922e-01   -4,092815518e-01    2,703152299e-01    0,000000000e+00    0,000000000e+00    0,000000000e+00    0,000000000e+00
      926000000    1,502563357e-01    1,124338731e-01   -1,704035401e-01    4,152292907e-01    0,000000000e+00    0,000000000e+00    0,000000000e+00    0,000000000e+00
      940000000    1,994278133e-01   -4,449753836e-02    6,309505552e-02    4,243877828e-01    0,000000000e+00    0,000000000e+00    0,000000000e+00    0,000000000e+00
      954000000    1,552286297e-01   -2,044366002e-01    2,603691518e-01    3,419117332e-01    0,000000000e+00    0,000000000e+00    0,000000000e+00    0,000000000e+00
      968000000    2,518290095e-02   -3,166223168e-01    4,105080068e-01    1,790588498e-01    0,000000000e+00    0,000000000e+00    0,000000000e+00    0,000000000e+00
      982000000   -1,642754078e-01   -3,307729065e-01    4,749314189e-01   -6,725750118e-02    0,000000000e+00    0,000000000e+00    0,000000000e+00    0,000000000e+00
      996000000   -3,270162642e-01   -2,123825550e-01    3,661698997e-01   -3,579016328e-01    0,000000000e+00    0,000000000e+00    0,000000000e+00    0,000000000e+00
     1010000000   -3,410601318e-01   -4,118045792e-03    4,027197510e-02   -5,243332386e-01    0,000000000e+00    0,000000000e+00    0,000000000e+00    0,000000000e+00
     1024000000   -2,032246441e-01    9,288779646e-02   -3,434008360e-01   -3,794423044e-01    0,000000000e+00    0,000000000e+00    0,000000000e+00    0,000000000e+00
     1038000000   -1,366737634e-01    8,097944781e-03   -4,810402393e-01    6,407553703e-02    0,000000000e+00    0,000000000e+00    0,000000000e+00    0,000000000e+00
     1052000000   -2,858763039e-01    5,649764463e-02   -9,449927509e-02    3,728485703e-01    0,000000000e+00    0,000000000e+00    0,000000000e+00    0,000000000e+00
     1066000000   -1,517554671e-01    2,913744748e-01    1,429413557e-01    1,324968487e-01    0,000000000e+00    0,000000000e+00    0,000000000e+00    0,000000000e+00
     1080000000    1,018521041e-01    2,468568832e-01    8,988506347e-02    2,065335214e-02    0,000000000e+00    0,000000000e+00    0,000000000e+00    0,000000000e+00
     1094000000    2,179518789e-01    9,013671428e-02    6,930162013e-02    9,611702524e-03    0,000000000e+00    0,000000000e+00    0,000000000e+00    0,000000000e+00
     1108000000    2,403177172e-01   -8,849144727e-02    8,053959161e-02    1,927922713e-03    0,000000000e+00    0,000000000e+00    0,000000000e+00    0,000000000e+00
     1122000000    1,814806759e-01   -2,526597977e-01    1,034846455e-01   -2,734859474e-02    0,000000000e+00    0,000000000e+00    0,000000000e+00    0,000000000e+00
     1136000000    5,031816661e-02   -3,798210323e-01    1,287459582e-01   -7,342900336e-02    0,000000000e+00    0,000000000e+00    0,000000000e+00    0,000000000e+00
     1150000000   -1,587025076e-01   -4,228051007e-01    1,394737065e-01   -1,517013162e-01    0,000000000e+00    0,000000000e+00    0,000000000e+00    0,000000000e+00
     1164000000   -3,744377196e-01   -3,247882724e-01    9,817777574e-02   -2,789432108e-01    0,000000000e+00    0,000000000e+00    0,000000000e+00    0,000000000e+00
     1178000000   -4,610736668e-01   -8,564203233e-02   -1,055521294e-01   -4,059495926e-01    0,000000000e+00    0,000000000e+00    0,000000000e+00    0,000000000e+00
     1192000000   -3,703867197e-01    4,056452587e-02   -4,629202783e-01   -1,944264323e-01    0,000000000e+00    0,000000000e+00    0,000000000e+00    0,000000000e+00
     1206000000   -4,175531268e-01    1,365100592e-01   -2,741296291e-01    2,414448857e-01    0,000000000e+00    0,000000000e+00    0,000000000e+00    0,000000000e+00
     1220000000   -2,756268084e-01    3,316835463e-01   -2,589334734e-03    1,699038446e-01    0,000000000e+00    0,000000000e+00    0,000000000e+00    0,000000000e+00
     1234000000   -4,992936924e-02    3,532707393e-01    1,866946369e-02    5,704006180e-02    0,000000000e+00    0,000000000e+00    0,000000000e+00    0,000000000e+00
     1248000000    1,187257841e-01    2,524015903e-01    3,545037471e-03    2,189402841e-02    0,000000000e+00    0,000000000e+00    0,000000000e+00    0,000000000e+00
     1262000000    2,157161683e-01    1,028113440e-01    7,795181125e-03    3,314600885e-02    0,000000000e+00    0,000000000e+00    0,000000000e+00    0,000000000e+00
     1276000000    2,354417145e-01   -5,552814528e-02    2,714475244e-02    3,811620176e-02    0,000000000e+00    0,000000000e+00    0,000000000e+00    0,000000000e+00
     1290000000    1,964728832e-01   -2,177196443e-01    5,748524144e-02    2,206341363e-02    0,000000000e+00    0,000000000e+00    0,000000000e+00    0,000000000e+00
     1304000000    8,245106041e-02   -3,563579321e-01    7,457152754e-02    6,918224972e-03    0,000000000e+00    0,000000000e+00    0,000000000e+00    0,000000000e+00
     1318000000   -1,056236327e-01   -4,511681199e-01    8,163663745e-02   -1,273349673e-02    0,000000000e+00    0,000000000e+00    0,000000000e+00    0,000000000e+00
     1332000000   -3,546201885e-01   -4,364216924e-01    8,675423265e-02   -1,549031865e-02    0,000000000e+00    0,000000000e+00    0,000000000e+00    0,000000000e+00
     1346000000   -5,890718102e-01   -2,473039627e-01    1,050384641e-01   -8,372414857e-03    0,000000000e+00    0,000000000e+00    0,000000000e+00    0,000000000e+00
     1360000000   -6,474060416e-01    6,652414054e-02    1,339096576e-01   -1,329807006e-02    0,000000000e+00    0,000000000e+00    0,000000000e+00    0,000000000e+00
     1374000000   -4,937161505e-01    3,374044895e-01    1,605605632e-01   -5,724706873e-02    0,000000000e+00    0,000000000e+00    0,000000000e+00    0,000000000e+00
     1388000000   -2,458919138e-01    4,300606549e-01    1,590899229e-01   -8,217936754e-02    0,000000000e+00    0,000000000e+00    0,000000000e+00    0,000000000e+00
     1402000000   -4,320900515e-02    3,943466246e-01    1,408896148e-01   -8,624801785e-02    0,000000000e+00    0,000000000e+00    0,000000000e+00    0,000000000e+00
     1416000000    1,057321802e-01    2,855429351e-01    1,278253198e-01   -8,531893045e-02    0,000000000e+00    0,000000000e+00    0,000000000e+00    0,000000000e+00
     1430000000    1,929047853e-01    1,538151503e-01    1,012018695e-01   -5,030803755e-02    0,000000000e+00    0,000000000e+00    0,000000000e+00    0,000000000e+00
     1444000000    2,096752673e-01   -1,333167311e-02    1,147197112e-01   -2,648103982e-02    0,000000000e+00    0,000000000e+00    0,000000000e+00    0,000000000e+00
     1458000000    1,816785932e-01   -1,848873496e-01    1,442195028e-01    7,340535056e-03    0,000000000e+00    0,000000000e+00    0,000000000e+00    0,000000000e+00
     1472000000    6,345060468e-02   -3,502595425e-01    1,835265607e-01    6,407094002e-02    0,000000000e+00    0,000000000e+00    0,000000000e+00    0,000000000e+00
     1486000000   -1,386824548e-01   -4,735198915e-01    2,988576293e-01    9,772495925e-02    0,000000000e+00    0,000000000e+00    0,000000000e+00    0,000000000e+00
     1500000000   -4,454479218e-01   -4,831207991e-01    4,055605829e-01    3,820011020e-02    0,000000000e+00    0,000000000e+00    0,000000000e+00    0,000000000e+00
