! NanoVNA-App
! Date: 2025-09-25 15:55:36
! Start: 100MHz Stop: 1,5GHz Points: 101
! S-Parameter data: F S11 S21 S12 S22
# Hz S RI R 50
!     Frequency           S11_Real           S11_Imag           S21_Real           S21_Imag           S12_Real           S12_Imag           S22_Real           S22_Imag
      100000000   -2,817101777e-02   -2,818368608e-03    3,722037673e-01   -7,224385142e-01    0,000000000e+00    0,000000000e+00    0,000000000e+00    0,000000000e+00
      114000000   -1,556553598e-02    1,287128776e-02   -9,124036878e-02   -8,045329452e-01    0,000000000e+00    0,000000000e+00    0,000000000e+00    0,000000000e+00
      128000000    4,403362516e-03    1,184564084e-02   -5,160132647e-01   -6,188458204e-01    0,000000000e+00    0,000000000e+00    0,000000000e+00    0,000000000e+00
      142000000    1,550737023e-02   -1,861511148e-03   -7,674806118e-01   -2,341484278e-01    0,000000000e+00    0,000000000e+00    0,000000000e+00    0,000000000e+00
      156000000    1,691440679e-02   -1,394550502e-02   -7,703875303e-01    2,264272273e-01    0,000000000e+00    0,000000000e+00    0,000000000e+00    0,000000000e+00
      170000000    1,765182987e-02   -2,099723183e-02   -5,155109763e-01    6,061956286e-01    0,000000000e+00    0,000000000e+00    0,000000000e+00    0,000000000e+00
      184000000    2,202923037e-02   -3,556699678e-02   -9,822076559e-02    7,859717607e-01    0,000000000e+00    0,000000000e+00    0,000000000e+00    0,000000000e+00
      198000000    1,402601879e-02   -6,068133935e-02    3,461803198e-01    7,108318210e-01    0,000000000e+00    0,000000000e+00    0,000000000e+00    0,000000000e+00
      212000000   -1,769121923e-02   -7,913099974e-02    6,804332733e-01    4,064541161e-01    0,000000000e+00    0,000000000e+00    0,000000000e+00    0,000000000e+00
      226000000   -6,035311520e-02   -6,660947204e-02    7,956900597e-01   -3,553381190e-02    0,000000000e+00    0,000000000e+00    0,000000000e+00    0,000000000e+00
      240000000   -8,047939837e-02   -2,287193388e-02    6,414834261e-01   -4,714858234e-01    0,000000000e+00    0,000000000e+00    0,000000000e+00    0,000000000e+00
      254000000   -6,084784120e-02    1,970923878e-02    2,713223100e-01   -7,419154048e-01    0,000000000e+00    0,000000000e+00    0,000000000e+00    0,000000000e+00
      268000000   -2,097715624e-02    3,087025136e-02   -1,812207252e-01   -7,607125044e-01    0,000000000e+00    0,000000000e+00    0,000000000e+00    0,000000000e+00
      282000000    6,846060045e-03    1,366716530e-02   -5,630754232e-01   -5,326443315e-01    0,000000000e+00    0,000000000e+00    0,000000000e+00    0,000000000e+00
      296000000    1,236114930e-02   -6,229467690e-03   -7,604249120e-01   -1,343965381e-01    0,000000000e+00    0,000000000e+00    0,000000000e+00    0,000000000e+00
      310000000    1,346462499e-02   -1,445407793e-02   -7,075215578e-01    3,049254715e-01    0,000000000e+00    0,000000000e+00    0,000000000e+00    0,000000000e+00
      324000000    2,264809608e-02   -2,460026182e-02   -4,211850166e-01    6,392478347e-01    0,000000000e+00    0,000000000e+00    0,000000000e+00    0,000000000e+00
      338000000    2,837300487e-02   -5,054866895e-02   -5,096828681e-04    7,598887086e-01    0,000000000e+00    0,000000000e+00    0,000000000e+00    0,000000000e+00
      352000000    1,030972973e-02   -8,270788938e-02    4,110449851e-01    6,347995400e-01    0,000000000e+00    0,000000000e+00    0,000000000e+00    0,000000000e+00
      366000000   -3,154278919e-02   -9,389837831e-02    6,933964491e-01    3,040509522e-01    0,000000000e+00    0,000000000e+00    0,000000000e+00    0,000000000e+00
      380000000   -6,785732508e-02   -6,882388145e-02    7,454631329e-01   -1,340738982e-01    0,000000000e+00    0,000000000e+00    0,000000000e+00    0,000000000e+00
      394000000   -6,853329390e-02   -3,068656474e-02    5,383192897e-01   -5,290657282e-01    0,000000000e+00    0,000000000e+00    0,000000000e+00    0,000000000e+00
      408000000   -4,277107492e-02   -1,565313712e-02    1,486775428e-01   -7,343029380e-01    0,000000000e+00    0,000000000e+00    0,000000000e+00    0,000000000e+00
      422000000   -2,611844428e-02   -3,103290498e-02   -2,798063755e-01   -6,895909905e-01    0,000000000e+00    0,000000000e+00    0,000000000e+00    0,000000000e+00
      436000000   -3,898315504e-02   -4,885283113e-02   -6,099596620e-01   -4,195390344e-01    0,000000000e+00    0,000000000e+00    0,000000000e+00    0,000000000e+00
      450000000   -6,474341452e-02   -3,939719498e-02   -7,370708585e-01   -8,313102648e-03    0,000000000e+00    0,000000000e+00    0,000000000e+00    0,000000000e+00
      464000000   -6,767700613e-02   -6,191760302e-03   -6,074173450e-01    4,060378969e-01    0,000000000e+00    0,000000000e+00    0,000000000e+00    0,000000000e+00
      478000000   -3,896242753e-02    1,607867889e-02   -2,681463659e-01    6,696701646e-01    0,000000000e+00    0,000000000e+00    0,000000000e+00    0,000000000e+00
      492000000   -4,917983897e-03    6,464964710e-03    1,522169262e-01    6,951881051e-01    0,000000000e+00    0,000000000e+00    0,000000000e+00    0,000000000e+00
      506000000    6,644662470e-03   -2,044495381e-02    5,074788332e-01    4,889365435e-01    0,000000000e+00    0,000000000e+00    0,000000000e+00    0,000000000e+00
      520000000    4,125163541e-04   -3,908079490e-02    6,903666258e-01    1,205207109e-01    0,000000000e+00    0,000000000e+00    0,000000000e+00    0,000000000e+00
      534000000   -3,463022644e-03   -4,534565285e-02    6,323665380e-01   -2,817482352e-01    0,000000000e+00    0,000000000e+00    0,000000000e+00    0,000000000e+00
      548000000    1,133479760e-03   -5,948681757e-02    3,606027961e-01   -5,789015293e-01    0,000000000e+00    0,000000000e+00    0,000000000e+00    0,000000000e+00
      562000000   -7,793375291e-03   -8,801285923e-02   -2,620264888e-02   -6,728025079e-01    0,000000000e+00    0,000000000e+00    0,000000000e+00    0,000000000e+00
      576000000   -4,542712122e-02   -1,098431498e-01   -4,012683332e-01   -5,379694700e-01    0,000000000e+00    0,000000000e+00    0,000000000e+00    0,000000000e+00
      590000000   -9,477932751e-02   -9,350106120e-02   -6,413234472e-01   -2,173600793e-01    0,000000000e+00    0,000000000e+00    0,000000000e+00    0,000000000e+00
      604000000   -1,116574183e-01   -4,156693071e-02   -6,474362016e-01    1,977277994e-01    0,000000000e+00    0,000000000e+00    0,000000000e+00    0,000000000e+00
      618000000   -7,584790140e-02   -2,053978853e-03   -4,013604224e-01    5,358616710e-01    0,000000000e+00    0,000000000e+00    0,000000000e+00    0,000000000e+00
      632000000   -3,018105961e-02   -2,088162675e-02   -1,123511232e-02    6,550751328e-01    0,000000000e+00    0,000000000e+00    0,000000000e+00    0,000000000e+00
      646000000   -3,694270551e-02   -7,673538476e-02    3,653734326e-01    5,267923474e-01    0,000000000e+00    0,000000000e+00    0,000000000e+00    0,000000000e+00
      660000000   -1,113264039e-01   -9,970401973e-02    6,008802056e-01    1,933943927e-01    0,000000000e+00    0,000000000e+00    0,000000000e+00    0,000000000e+00
      674000000   -1,999916285e-01   -2,442202158e-02    5,651301742e-01   -2,397708148e-01    0,000000000e+00    0,000000000e+00    0,000000000e+00    0,000000000e+00
      688000000   -1,790376902e-01    1,457174867e-01    2,099264711e-01   -5,210481286e-01    0,000000000e+00    0,000000000e+00    0,000000000e+00    0,000000000e+00
      702000000    2,625397034e-02    2,439543754e-01   -1,935630739e-01   -4,040442407e-01    0,000000000e+00    0,000000000e+00    0,000000000e+00    0,000000000e+00
      716000000    2,631928325e-01    1,099334359e-01   -2,722090483e-01   -8,308434486e-02    0,000000000e+00    0,000000000e+00    0,000000000e+00    0,000000000e+00
      730000000    3,032251596e-01   -1,867037416e-01   -1,064614281e-01    3,174133599e-02    0,000000000e+00    0,000000000e+00    0,000000000e+00    0,000000000e+00
      744000000    9,386435896e-02   -4,280518591e-01   -4,228628054e-02   -6,586213410e-02    0,000000000e+00    0,000000000e+00    0,000000000e+00    0,000000000e+00
      758000000   -2,601407766e-01   -4,292393625e-01   -1,764807552e-01   -1,257388443e-01    0,000000000e+00    0,000000000e+00    0,000000000e+00    0,000000000e+00
      772000000   -4,848674834e-01   -1,203938425e-01   -3,366604745e-01    3,852970526e-02    0,000000000e+00    0,000000000e+00    0,000000000e+00    0,000000000e+00
      786000000   -3,415438235e-01    2,217418253e-01   -2,629193068e-01    3,173152506e-01    0,000000000e+00    0,000000000e+00    0,000000000e+00    0,000000000e+00
      800000000   -4,025551304e-02    2,762325108e-01    2,625666326e-03    4,365034699e-01    0,000000000e+00    0,000000000e+00    0,000000000e+00    0,000000000e+00
      814000000    1,442261934e-01    1,255011410e-01    2,639645636e-01    3,594136834e-01    0,000000000e+00    0,000000000e+00    0,000000000e+00    0,000000000e+00
      828000000    1,677197516e-01   -7,036509365e-02    4,329505563e-01    1,568789631e-01    0,000000000e+00    0,000000000e+00    0,000000000e+00    0,000000000e+00
      842000000    6,661178917e-02   -2,178309262e-01    4,671962559e-01   -1,200332716e-01    0,000000000e+00    0,000000000e+00    0,000000000e+00    0,000000000e+00
      856000000   -1,060953885e-01   -2,627034485e-01    3,193378150e-01   -3,941703439e-01    0,000000000e+00    0,000000000e+00    0,000000000e+00    0,000000000e+00
      870000000   -2,740221620e-01   -1,687000096e-01   -1,271815272e-03   -5,269650221e-01    0,000000000e+00    0,000000000e+00    0,000000000e+00    0,000000000e+00
      884000000   -3,209748864e-01    3,492964432e-02   -3,479474783e-01   -3,932579756e-01    0,000000000e+00    0,000000000e+00    0,000000000e+00    0,000000000e+00
      898000000   -1,921033412e-01    2,061534971e-01   -4,887773395e-01   -6,381952763e-02    0,000000000e+00    0,000000000e+00    0,000000000e+00    0,000000000e+00
      912000000    6,194626912e-03    2,198871821e-01   -3,974844813e-01    2,795348167e-01    0,000000000e+00    0,000000000e+00    0,000000000e+00    0,000000000e+00
      926000000    1,510647833e-01    1,117792279e-01   -1,678794622e-01    4,148999155e-01    0,000000000e+00    0,000000000e+00    0,000000000e+00    0,000000000e+00
      940000000    2,002273947e-01   -4,554469138e-02    6,496695429e-02    4,263553619e-01    0,000000000e+00    0,000000000e+00    0,000000000e+00    0,000000000e+00
      954000000    1,520079374e-01   -2,051690221e-01    2,598585486e-01    3,402631283e-01    0,000000000e+00    0,000000000e+00    0,000000000e+00    0,000000000e+00
      968000000    2,353071608e-02   -3,125851154e-01    4,118034840e-01    1,785195172e-01    0,000000000e+00    0,000000000e+00    0,000000000e+00    0,000000000e+00
      982000000   -1,596511900e-01   -3,316248655e-01    4,760657549e-01   -6,753086299e-02    0,000000000e+00    0,000000000e+00    0,000000000e+00    0,000000000e+00
      996000000   -3,258351982e-01   -2,118402272e-01    3,695653975e-01   -3,559791446e-01    0,000000000e+00    0,000000000e+00    0,000000000e+00    0,000000000e+00
     1010000000   -3,394685984e-01   -1,047513355e-02    4,087253660e-02   -5,221883059e-01    0,000000000e+00    0,000000000e+00    0,000000000e+00    0,000000000e+00
     1024000000   -2,082840055e-01    9,231614321e-02   -3,426308036e-01   -3,826795816e-01    0,000000000e+00    0,000000000e+00    0,000000000e+00    0,000000000e+00
     1038000000   -1,320275813e-01    1,309944689e-02   -4,834420085e-01    6,192253903e-02    0,000000000e+00    0,000000000e+00    0,000000000e+00    0,000000000e+00
     1052000000   -2,876453102e-01    5,480850115e-02   -9,797190130e-02    3,723894656e-01    0,000000000e+00    0,000000000e+00    0,000000000e+00    0,000000000e+00
     1066000000   -1,521594673e-01    2,956708372e-01    1,439113468e-01    1,349286586e-01    0,000000000e+00    0,000000000e+00    0,000000000e+00    0,000000000e+00
     1080000000    9,739804268e-02    2,461674362e-01    9,169702232e-02    2,132289298e-02    0,000000000e+00    0,000000000e+00    0,000000000e+00    0,000000000e+00
     1094000000    2,172694057e-01    9,120831639e-02    7,054438442e-02    7,949868217e-03    0,000000000e+00    0,000000000e+00    0,000000000e+00    0,000000000e+00
     1108000000    2,433832586e-01   -8,709378541e-02    8,334459364e-02   -4,947007401e-04    0,000000000e+00    0,000000000e+00    0,000000000e+00    0,000000000e+00
     1122000000    1,845308989e-01   -2,474813461e-01    1,009896323e-01   -2,803785913e-02    0,000000000e+00    0,000000000e+00    0,000000000e+00    0,000000000e+00
     1136000000    4,732324183e-02   -3,755605519e-01    1,267244369e-01   -7,179483771e-02    0,000000000e+00    0,000000000e+00    0,000000000e+00    0,000000000e+00
     1150000000   -1,561855823e-01   -4,248141050e-01    1,365864575e-01   -1,530541480e-01    0,000000000e+00    0,000000000e+00    0,000000000e+00    0,000000000e+00
     1164000000   -3,720209599e-01   -3,269111216e-01    9,740037471e-02   -2,773054242e-01    0,000000000e+00    0,000000000e+00    0,000000000e+00    0,000000000e+00
     1178000000   -4,626770020e-01   -8,363356441e-02   -1,042789146e-01   -4,030532837e-01    0,000000000e+00    0,000000000e+00    0,000000000e+00    0,000000000e+00
     1192000000   -3,713433444e-01    3,757859021e-02   -4,590724111e-01   -2,006349117e-01    0,000000000e+00    0,000000000e+00    0,000000000e+00    0,000000000e+00
     1206000000   -4,117575288e-01    1,364124715e-01   -2,778741419e-01    2,363457978e-01    0,000000000e+00    0,000000000e+00    0,000000000e+00    0,000000000e+00
     1220000000   -2,783824801e-01    3,278083205e-01   -5,151436199e-03    1,641038209e-01    0,000000000e+00    0,000000000e+00    0,000000000e+00    0,000000000e+00
     1234000000   -5,072560534e-02    3,464896381e-01    1,973354444e-02    5,858428031e-02    0,000000000e+00    0,000000000e+00    0,000000000e+00    0,000000000e+00
     1248000000    1,198616400e-01    2,463895082e-01   -7,111638552e-04    2,416328527e-02    0,000000000e+00    0,000000000e+00    0,000000000e+00    0,000000000e+00
     1262000000    2,100453824e-01    1,054086536e-01    4,458692856e-03    3,641720116e-02    0,000000000e+00    0,000000000e+00    0,000000000e+00    0,000000000e+00
     1276000000    2,312863171e-01   -5,618405715e-02    2,500073798e-02    3,613142669e-02    0,000000000e+00    0,000000000e+00    0,000000000e+00    0,000000000e+00
     1290000000    1,920896024e-01   -2,173434794e-01    5,191027746e-02    2,325923927e-02    0,000000000e+00    0,000000000e+00    0,000000000e+00    0,000000000e+00
     1304000000    7,943876833e-02   -3,557522595e-01    7,661574334e-02    8,497972041e-03    0,000000000e+00    0,000000000e+00    0,000000000e+00    0,000000000e+00
     1318000000   -1,023616865e-01   -4,493825138e-01    8,073106408e-02   -1,147080958e-02    0,000000000e+00    0,000000000e+00    0,000000000e+00    0,000000000e+00
     1332000000   -3,526753783e-01   -4,332318604e-01    8,863595873e-02   -1,649121009e-02    0,000000000e+00    0,000000000e+00    0,000000000e+00    0,000000000e+00
     1346000000   -5,858930945e-01   -2,425362468e-01    1,114545017e-01   -1,097636670e-02    0,000000000e+00    0,000000000e+00    0,000000000e+00    0,000000000e+00
     1360000000   -6,514354944e-01    7,219483703e-02    1,341913193e-01   -1,598784514e-02    0,000000000e+00    0,000000000e+00    0,000000000e+00    0,000000000e+00
     1374000000   -4,922396243e-01    3,374650180e-01    1,610414088e-01   -4,122236371e-02    0,000000000e+00    0,000000000e+00    0,000000000e+00    0,000000000e+00
     1388000000   -2,557817996e-01    4,194411039e-01    1,653662473e-01   -8,639953285e-02    0,000000000e+00    0,000000000e+00    0,000000000e+00    0,000000000e+00
     1402000000   -4,491928220e-02    3,881288469e-01    1,439828128e-01   -9,993034601e-02    0,000000000e+00    0,000000000e+00    0,000000000e+00    0,000000000e+00
     1416000000    1,011424735e-01    2,868359983e-01    1,197377294e-01   -8,553145081e-02    0,000000000e+00    0,000000000e+00    0,000000000e+00    0,000000000e+00
     1430000000    1,890406162e-01    1,468710899e-01    1,133824140e-01   -5,994196236e-02    0,000000000e+00    0,000000000e+00    0,000000000e+00    0,000000000e+00
     1444000000    2,170707434e-01   -1,141868997e-02    1,315459460e-01   -3,303756937e-02    0,000000000e+00    0,000000000e+00    0,000000000e+00    0,000000000e+00
     1458000000    1,851837933e-01   -1,826881319e-01    1,539707184e-01    2,476622723e-02    0,000000000e+00    0,000000000e+00    0,000000000e+00    0,000000000e+00
     1472000000    6,895341724e-02   -3,417799175e-01    2,002275884e-01    7,188191265e-02    0,000000000e+00    0,000000000e+00    0,000000000e+00    0,000000000e+00
     1486000000   -1,502881646e-01   -4,677660763e-01    2,822032869e-01    9,497419745e-02    0,000000000e+00    0,000000000e+00    0,000000000e+00    0,000000000e+00
     1500000000   -4,414320886e-01   -4,783786237e-01    4,079586864e-01    4,267126322e-02    0,000000000e+00    0,000000000e+00    0,000000000e+00    0,000000000e+00
