! NanoVNA-App
! Date: 2025-09-25 16:00:49
! Start: 100MHz Stop: 1,5GHz Points: 101
! S-Parameter data: F S11 S21 S12 S22
# Hz S RI R 50
!     Frequency           S11_Real           S11_Imag           S21_Real           S21_Imag           S12_Real           S12_Imag           S22_Real           S22_Imag
      100000000   -2,828616090e-02   -2,879854292e-03    3,723025620e-01   -7,223824263e-01    0,000000000e+00    0,000000000e+00    0,000000000e+00    0,000000000e+00
      114000000   -1,570797339e-02    1,289972477e-02   -9,114931524e-02   -8,048440814e-01    0,000000000e+00    0,000000000e+00    0,000000000e+00    0,000000000e+00
      128000000    4,351857118e-03    1,196053158e-02   -5,159578323e-01   -6,187935472e-01    0,000000000e+00    0,000000000e+00    0,000000000e+00    0,000000000e+00
      142000000    1,548444014e-02   -1,750708092e-03   -7,675301433e-01   -2,342286855e-01    0,000000000e+00    0,000000000e+00    0,000000000e+00    0,000000000e+00
      156000000    1,657790504e-02   -1,308955625e-02   -7,644937634e-01    2,250242829e-01    0,000000000e+00    0,000000000e+00    0,000000000e+00    0,000000000e+00
      170000000    1,767901704e-02   -2,095393836e-02   -5,153233409e-01    6,059466004e-01    0,000000000e+00    0,000000000e+00    0,000000000e+00    0,000000000e+00
      184000000    2,198259905e-02   -3,555259481e-02   -9,857113659e-02    7,860867977e-01    0,000000000e+00    0,000000000e+00    0,000000000e+00    0,000000000e+00
      198000000    1,403338462e-02   -6,063615531e-02    3,461329043e-01    7,107986212e-01    0,000000000e+00    0,000000000e+00    0,000000000e+00    0,000000000e+00
      212000000   -1,765952818e-02   -7,911243290e-02    6,807507277e-01    4,061280787e-01    0,000000000e+00    0,000000000e+00    0,000000000e+00    0,000000000e+00
      226000000   -6,031896919e-02   -6,661635637e-02    7,957024574e-01   -3,566201404e-02    0,000000000e+00    0,000000000e+00    0,000000000e+00    0,000000000e+00
      240000000   -8,052192628e-02   -2,268770337e-02    6,416359544e-01   -4,717123508e-01    0,000000000e+00    0,000000000e+00    0,000000000e+00    0,000000000e+00
      254000000   -6,083037704e-02    1,983495243e-02    2,709757984e-01   -7,418617010e-01    0,000000000e+00    0,000000000e+00    0,000000000e+00    0,000000000e+00
      268000000   -2,093280666e-02    3,085772693e-02   -1,810516864e-01   -7,611380219e-01    0,000000000e+00    0,000000000e+00    0,000000000e+00    0,000000000e+00
      282000000    7,005745545e-03    1,379148010e-02   -5,628317595e-01   -5,324739814e-01    0,000000000e+00    0,000000000e+00    0,000000000e+00    0,000000000e+00
      296000000    1,240699459e-02   -6,213732995e-03   -7,604854703e-01   -1,343559325e-01    0,000000000e+00    0,000000000e+00    0,000000000e+00    0,000000000e+00
      310000000    1,358990278e-02   -1,448555477e-02   -7,081480026e-01    3,043305576e-01    0,000000000e+00    0,000000000e+00    0,000000000e+00    0,000000000e+00
      324000000    2,259147912e-02   -2,478623576e-02   -4,209897816e-01    6,394534111e-01    0,000000000e+00    0,000000000e+00    0,000000000e+00    0,000000000e+00
      338000000    2,857583389e-02   -5,080997571e-02   -1,394176623e-03    7,620756626e-01    0,000000000e+00    0,000000000e+00    0,000000000e+00    0,000000000e+00
      352000000    1,013595238e-02   -8,298000693e-02    4,124900997e-01    6,361422539e-01    0,000000000e+00    0,000000000e+00    0,000000000e+00    0,000000000e+00
      366000000   -3,187685087e-02   -9,373347461e-02    6,926074624e-01    3,040293157e-01    0,000000000e+00    0,000000000e+00    0,000000000e+00    0,000000000e+00
      380000000   -6,756950915e-02   -6,851802021e-02    7,455216646e-01   -1,340650916e-01    0,000000000e+00    0,000000000e+00    0,000000000e+00    0,000000000e+00
      394000000   -6,843854487e-02   -3,047648631e-02    5,397397280e-01   -5,281512737e-01    0,000000000e+00    0,000000000e+00    0,000000000e+00    0,000000000e+00
      408000000   -4,278462753e-02   -1,560668461e-02    1,491243839e-01   -7,351745367e-01    0,000000000e+00    0,000000000e+00    0,000000000e+00    0,000000000e+00
      422000000   -2,627696656e-02   -3,094426915e-02   -2,788589001e-01   -6,898130178e-01    0,000000000e+00    0,000000000e+00    0,000000000e+00    0,000000000e+00
      436000000   -3,925893456e-02   -4,900351912e-02   -6,097057462e-01   -4,198037386e-01    0,000000000e+00    0,000000000e+00    0,000000000e+00    0,000000000e+00
      450000000   -6,483308226e-02   -3,918303549e-02   -7,378352880e-01   -7,703049574e-03    0,000000000e+00    0,000000000e+00    0,000000000e+00    0,000000000e+00
      464000000   -6,745018065e-02   -6,198905408e-03   -6,066960096e-01    4,060849845e-01    0,000000000e+00    0,000000000e+00    0,000000000e+00    0,000000000e+00
      478000000   -3,834498301e-02    1,617218368e-02   -2,672713101e-01    6,697698832e-01    0,000000000e+00    0,000000000e+00    0,000000000e+00    0,000000000e+00
      492000000   -5,064281635e-03    6,199075375e-03    1,515664011e-01    6,941524744e-01    0,000000000e+00    0,000000000e+00    0,000000000e+00    0,000000000e+00
      506000000    6,933229044e-03   -2,000957541e-02    5,074908733e-01    4,886544347e-01    0,000000000e+00    0,000000000e+00    0,000000000e+00    0,000000000e+00
      520000000    5,922603887e-04   -3,844333068e-02    6,878318787e-01    1,226996556e-01    0,000000000e+00    0,000000000e+00    0,000000000e+00    0,000000000e+00
      534000000   -3,090524115e-03   -4,512443393e-02    6,328057051e-01   -2,818072736e-01    0,000000000e+00    0,000000000e+00    0,000000000e+00    0,000000000e+00
      548000000    1,040288247e-03   -5,942665413e-02    3,601129949e-01   -5,794123411e-01    0,000000000e+00    0,000000000e+00    0,000000000e+00    0,000000000e+00
      562000000   -7,940885611e-03   -8,821003884e-02   -2,683876827e-02   -6,728315949e-01    0,000000000e+00    0,000000000e+00    0,000000000e+00    0,000000000e+00
      576000000   -4,514887184e-02   -1,098231226e-01   -4,006814957e-01   -5,386235714e-01    0,000000000e+00    0,000000000e+00    0,000000000e+00    0,000000000e+00
      590000000   -9,489138424e-02   -9,351785481e-02   -6,385599375e-01   -2,178337723e-01    0,000000000e+00    0,000000000e+00    0,000000000e+00    0,000000000e+00
      604000000   -1,115209833e-01   -4,080594331e-02   -6,472411156e-01    1,991340369e-01    0,000000000e+00    0,000000000e+00    0,000000000e+00    0,000000000e+00
      618000000   -7,550179958e-02   -2,899572253e-03   -4,024398923e-01    5,364950895e-01    0,000000000e+00    0,000000000e+00    0,000000000e+00    0,000000000e+00
      632000000   -2,943472937e-02   -2,127175219e-02   -1,217891369e-02    6,552079320e-01    0,000000000e+00    0,000000000e+00    0,000000000e+00    0,000000000e+00
      646000000   -3,679759055e-02   -7,713998854e-02    3,664758801e-01    5,267808437e-01    0,000000000e+00    0,000000000e+00    0,000000000e+00    0,000000000e+00
      660000000   -1,119436249e-01   -1,002288237e-01    6,019200683e-01    1,935521811e-01    0,000000000e+00    0,000000000e+00    0,000000000e+00    0,000000000e+00
      674000000   -1,991284490e-01   -2,415401302e-02    5,655427575e-01   -2,401234210e-01    0,000000000e+00    0,000000000e+00    0,000000000e+00    0,000000000e+00
      688000000   -1,780265868e-01    1,447474062e-01    2,102306485e-01   -5,217326880e-01    0,000000000e+00    0,000000000e+00    0,000000000e+00    0,000000000e+00
      702000000    2,697808668e-02    2,451751083e-01   -1,977266818e-01   -4,037395418e-01    0,000000000e+00    0,000000000e+00    0,000000000e+00    0,000000000e+00
      716000000    2,632214129e-01    1,101348102e-01   -2,731602490e-01   -8,349473774e-02    0,000000000e+00    0,000000000e+00    0,000000000e+00    0,000000000e+00
      730000000    3,034534454e-01   -1,857225299e-01   -1,069010645e-01    3,203256056e-02    0,000000000e+00    0,000000000e+00    0,000000000e+00    0,000000000e+00
      744000000    9,469556808e-02   -4,281904101e-01   -4,211077467e-02   -6,518931687e-02    0,000000000e+00    0,000000000e+00    0,000000000e+00    0,000000000e+00
      758000000   -2,581606209e-01   -4,299055636e-01   -1,756660193e-01   -1,252699047e-01    0,000000000e+00    0,000000000e+00    0,000000000e+00    0,000000000e+00
      772000000   -4,843626916e-01   -1,193299219e-01   -3,368354142e-01    3,814057633e-02    0,000000000e+00    0,000000000e+00    0,000000000e+00    0,000000000e+00
      786000000   -3,414787352e-01    2,223993540e-01   -2,627900541e-01    3,167467713e-01    0,000000000e+00    0,000000000e+00    0,000000000e+00    0,000000000e+00
      800000000   -4,010778666e-02    2,764274478e-01    3,278089454e-03    4,375741482e-01    0,000000000e+00    0,000000000e+00    0,000000000e+00    0,000000000e+00
      814000000    1,440970153e-01    1,253989786e-01    2,645053566e-01    3,599604368e-01    0,000000000e+00    0,000000000e+00    0,000000000e+00    0,000000000e+00
      828000000    1,677921712e-01   -6,984674931e-02    4,330878556e-01    1,563324779e-01    0,000000000e+00    0,000000000e+00    0,000000000e+00    0,000000000e+00
      842000000    6,774725020e-02   -2,182274759e-01    4,667258263e-01   -1,203294992e-01    0,000000000e+00    0,000000000e+00    0,000000000e+00    0,000000000e+00
      856000000   -1,067354456e-01   -2,639510930e-01    3,197340071e-01   -3,942779601e-01    0,000000000e+00    0,000000000e+00    0,000000000e+00    0,000000000e+00
      870000000   -2,754482627e-01   -1,686610729e-01   -2,822311129e-03   -5,279511213e-01    0,000000000e+00    0,000000000e+00    0,000000000e+00    0,000000000e+00
      884000000   -3,209302723e-01    3,503989801e-02   -3,485021591e-01   -3,933556676e-01    0,000000000e+00    0,000000000e+00    0,000000000e+00    0,000000000e+00
      898000000   -1,919783205e-01    2,071202397e-01   -4,891879559e-01   -6,217091531e-02    0,000000000e+00    0,000000000e+00    0,000000000e+00    0,000000000e+00
      912000000    6,617115345e-03    2,205698490e-01   -4,091039300e-01    2,795341909e-01    0,000000000e+00    0,000000000e+00    0,000000000e+00    0,000000000e+00
      926000000    1,526490450e-01    1,128812432e-01   -1,673528552e-01    4,159010351e-01    0,000000000e+00    0,000000000e+00    0,000000000e+00    0,000000000e+00
      940000000    1,971713901e-01   -4,732752219e-02    6,203536689e-02    4,232996702e-01    0,000000000e+00    0,000000000e+00    0,000000000e+00    0,000000000e+00
      954000000    1,551217437e-01   -2,004026473e-01    2,617206573e-01    3,422871828e-01    0,000000000e+00    0,000000000e+00    0,000000000e+00    0,000000000e+00
      968000000    2,378518321e-02   -3,172260225e-01    4,121375382e-01    1,804670244e-01    0,000000000e+00    0,000000000e+00    0,000000000e+00    0,000000000e+00
      982000000   -1,622874290e-01   -3,283039927e-01    4,742221236e-01   -6,752458960e-02    0,000000000e+00    0,000000000e+00    0,000000000e+00    0,000000000e+00
      996000000   -3,223532736e-01   -2,098691911e-01    3,678340912e-01   -3,563823104e-01    0,000000000e+00    0,000000000e+00    0,000000000e+00    0,000000000e+00
     1010000000   -3,385142088e-01   -5,732886493e-03    4,078510404e-02   -5,253238082e-01    0,000000000e+00    0,000000000e+00    0,000000000e+00    0,000000000e+00
     1024000000   -2,053623497e-01    9,541166574e-02   -3,463811576e-01   -3,797331452e-01    0,000000000e+00    0,000000000e+00    0,000000000e+00    0,000000000e+00
     1038000000   -1,337681562e-01    7,234735414e-03   -4,825290442e-01    6,461771578e-02    0,000000000e+00    0,000000000e+00    0,000000000e+00    0,000000000e+00
     1052000000   -2,845206857e-01    5,353538692e-02   -9,540382773e-02    3,719135225e-01    0,000000000e+00    0,000000000e+00    0,000000000e+00    0,000000000e+00
     1066000000   -1,510435790e-01    2,935210764e-01    1,418011189e-01    1,343078166e-01    0,000000000e+00    0,000000000e+00    0,000000000e+00    0,000000000e+00
     1080000000    1,009088382e-01    2,534305453e-01    8,919309080e-02    2,005287074e-02    0,000000000e+00    0,000000000e+00    0,000000000e+00    0,000000000e+00
     1094000000    2,200368494e-01    9,014942497e-02    7,111326605e-02    1,030500513e-02    0,000000000e+00    0,000000000e+00    0,000000000e+00    0,000000000e+00
     1108000000    2,449230403e-01   -8,608547598e-02    8,114124835e-02   -6,971065159e-05    0,000000000e+00    0,000000000e+00    0,000000000e+00    0,000000000e+00
     1122000000    1,809733212e-01   -2,532204688e-01    1,035805345e-01   -2,412611246e-02    0,000000000e+00    0,000000000e+00    0,000000000e+00    0,000000000e+00
     1136000000    5,101032928e-02   -3,754371107e-01    1,281155795e-01   -7,425202429e-02    0,000000000e+00    0,000000000e+00    0,000000000e+00    0,000000000e+00
     1150000000   -1,568723768e-01   -4,200808406e-01    1,366164088e-01   -1,513920575e-01    0,000000000e+00    0,000000000e+00    0,000000000e+00    0,000000000e+00
     1164000000   -3,830568790e-01   -3,245037198e-01    9,839113802e-02   -2,797691822e-01    0,000000000e+00    0,000000000e+00    0,000000000e+00    0,000000000e+00
     1178000000   -4,693762362e-01   -8,698777109e-02   -1,095202193e-01   -4,046630561e-01    0,000000000e+00    0,000000000e+00    0,000000000e+00    0,000000000e+00
     1192000000   -3,734386563e-01    4,196478054e-02   -4,629105031e-01   -1,945171356e-01    0,000000000e+00    0,000000000e+00    0,000000000e+00    0,000000000e+00
     1206000000   -4,169596732e-01    1,386611909e-01   -2,706854641e-01    2,382319123e-01    0,000000000e+00    0,000000000e+00    0,000000000e+00    0,000000000e+00
     1220000000   -2,793938518e-01    3,317739666e-01   -8,862058632e-03    1,673806608e-01    0,000000000e+00    0,000000000e+00    0,000000000e+00    0,000000000e+00
     1234000000   -5,188640580e-02    3,491292894e-01    1,898426190e-02    5,623456463e-02    0,000000000e+00    0,000000000e+00    0,000000000e+00    0,000000000e+00
     1248000000    1,232587174e-01    2,518401146e-01    6,309167948e-03    3,110180236e-02    0,000000000e+00    0,000000000e+00    0,000000000e+00    0,000000000e+00
     1262000000    2,096257508e-01    1,050324216e-01    1,528514113e-04    3,118757531e-02    0,000000000e+00    0,000000000e+00    0,000000000e+00    0,000000000e+00
     1276000000    2,300743908e-01   -6,199906766e-02    2,476098202e-02    3,576708212e-02    0,000000000e+00    0,000000000e+00    0,000000000e+00    0,000000000e+00
     1290000000    1,937732697e-01   -2,155462205e-01    5,312993377e-02    2,580962889e-02    0,000000000e+00    0,000000000e+00    0,000000000e+00    0,000000000e+00
     1304000000    8,598447591e-02   -3,550296128e-01    7,771432400e-02    6,036984269e-03    0,000000000e+00    0,000000000e+00    0,000000000e+00    0,000000000e+00
     1318000000   -1,067139879e-01   -4,444976151e-01    8,099222928e-02   -8,276143111e-03    0,000000000e+00    0,000000000e+00    0,000000000e+00    0,000000000e+00
     1332000000   -3,510266244e-01   -4,341659844e-01    9,070924670e-02   -8,039178327e-03    0,000000000e+00    0,000000000e+00    0,000000000e+00    0,000000000e+00
     1346000000   -5,883303881e-01   -2,500331104e-01    1,065827683e-01   -1,309579238e-02    0,000000000e+00    0,000000000e+00    0,000000000e+00    0,000000000e+00
     1360000000   -6,581097245e-01    6,971120834e-02    1,312107146e-01   -9,179367684e-03    0,000000000e+00    0,000000000e+00    0,000000000e+00    0,000000000e+00
     1374000000   -4,878911376e-01    3,287959397e-01    1,711349189e-01   -4,611884803e-02    0,000000000e+00    0,000000000e+00    0,000000000e+00    0,000000000e+00
     1388000000   -2,498110980e-01    4,286328852e-01    1,687444150e-01   -8,017306775e-02    0,000000000e+00    0,000000000e+00    0,000000000e+00    0,000000000e+00
     1402000000   -4,440288991e-02    3,899224102e-01    1,396265775e-01   -1,029961035e-01    0,000000000e+00    0,000000000e+00    0,000000000e+00    0,000000000e+00
     1416000000    1,046987101e-01    2,845499814e-01    1,243989170e-01   -9,402110428e-02    0,000000000e+00    0,000000000e+00    0,000000000e+00    0,000000000e+00
     1430000000    1,909523457e-01    1,483497024e-01    1,255329549e-01   -4,632336274e-02    0,000000000e+00    0,000000000e+00    0,000000000e+00    0,000000000e+00
     1444000000    2,118167430e-01   -1,109760068e-02    1,107822210e-01   -3,391902149e-02    0,000000000e+00    0,000000000e+00    0,000000000e+00    0,000000000e+00
     1458000000    1,831383854e-01   -1,835612506e-01    1,362566501e-01    2,099354379e-02    0,000000000e+00    0,000000000e+00    0,000000000e+00    0,000000000e+00
     1472000000    6,442441046e-02   -3,437900841e-01    1,895455569e-01    6,520844251e-02    0,000000000e+00    0,000000000e+00    0,000000000e+00    0,000000000e+00
     1486000000   -1,313510686e-01   -4,701384902e-01    3,017285466e-01    9,163019061e-02    0,000000000e+00    0,000000000e+00    0,000000000e+00    0,000000000e+00
     1500000000   -4,417846799e-01   -4,766446352e-01    4,102712870e-01    4,180912673e-02    0,000000000e+00    0,000000000e+00    0,000000000e+00    0,000000000e+00
