! NanoVNA-App
! Date: 2025-09-25 16:00:15
! Start: 100MHz Stop: 1,5GHz Points: 101
! S-Parameter data: F S11 S21 S12 S22
# Hz S RI R 50
!     Frequency           S11_Real           S11_Imag           S21_Real           S21_Imag           S12_Real           S12_Imag           S22_Real           S22_Imag
      100000000   -2,826844342e-02   -2,861964982e-03    3,722699583e-01   -7,223345041e-01    0,000000000e+00    0,000000000e+00    0,000000000e+00    0,000000000e+00
      114000000   -1,569619402e-02    1,290818304e-02   -9,107408673e-02   -8,047075868e-01    0,000000000e+00    0,000000000e+00    0,000000000e+00    0,000000000e+00
      128000000    4,334013909e-03    1,195947453e-02   -5,158340931e-01   -6,186783314e-01    0,000000000e+00    0,000000000e+00    0,000000000e+00    0,000000000e+00
      142000000    1,547441911e-02   -1,737487852e-03   -7,675133944e-01   -2,340641469e-01    0,000000000e+00    0,000000000e+00    0,000000000e+00    0,000000000e+00
      156000000    1,707218960e-02   -1,350066811e-02   -7,658230662e-01    2,262499481e-01    0,000000000e+00    0,000000000e+00    0,000000000e+00    0,000000000e+00
      170000000    1,767095923e-02   -2,094451338e-02   -5,153326392e-01    6,061654091e-01    0,000000000e+00    0,000000000e+00    0,000000000e+00    0,000000000e+00
      184000000    2,203605510e-02   -3,558361530e-02   -9,832160920e-02    7,861693501e-01    0,000000000e+00    0,000000000e+00    0,000000000e+00    0,000000000e+00
      198000000    1,401670184e-02   -6,066743284e-02    3,461400568e-01    7,106448412e-01    0,000000000e+00    0,000000000e+00    0,000000000e+00    0,000000000e+00
      212000000   -1,766704395e-02   -7,918168604e-02    6,806895137e-01    4,062843919e-01    0,000000000e+00    0,000000000e+00    0,000000000e+00    0,000000000e+00
      226000000   -6,036048010e-02   -6,659532338e-02    7,957385778e-01   -3,553810716e-02    0,000000000e+00    0,000000000e+00    0,000000000e+00    0,000000000e+00
      240000000   -8,054722846e-02   -2,271688357e-02    6,415697336e-01   -4,719664156e-01    0,000000000e+00    0,000000000e+00    0,000000000e+00    0,000000000e+00
      254000000   -6,076745689e-02    1,981779560e-02    2,709446549e-01   -7,423426509e-01    0,000000000e+00    0,000000000e+00    0,000000000e+00    0,000000000e+00
      268000000   -2,095688507e-02    3,091026656e-02   -1,810612082e-01   -7,609419823e-01    0,000000000e+00    0,000000000e+00    0,000000000e+00    0,000000000e+00
      282000000    6,876430474e-03    1,373826619e-02   -5,631496906e-01   -5,326028466e-01    0,000000000e+00    0,000000000e+00    0,000000000e+00    0,000000000e+00
      296000000    1,228157617e-02   -6,217434537e-03   -7,603980303e-01   -1,343347430e-01    0,000000000e+00    0,000000000e+00    0,000000000e+00    0,000000000e+00
      310000000    1,346674375e-02   -1,446918305e-02   -7,083483934e-01    3,054030538e-01    0,000000000e+00    0,000000000e+00    0,000000000e+00    0,000000000e+00
      324000000    2,257483453e-02   -2,488233149e-02   -4,214943647e-01    6,385720968e-01    0,000000000e+00    0,000000000e+00    0,000000000e+00    0,000000000e+00
      338000000    2,822359279e-02   -5,068372935e-02   -3,890047083e-03    7,590293884e-01    0,000000000e+00    0,000000000e+00    0,000000000e+00    0,000000000e+00
      352000000    1,016595680e-02   -8,278013021e-02    4,111834168e-01    6,345317364e-01    0,000000000e+00    0,000000000e+00    0,000000000e+00    0,000000000e+00
      366000000   -3,169646859e-02   -9,377761185e-02    6,936410666e-01    3,042578697e-01    0,000000000e+00    0,000000000e+00    0,000000000e+00    0,000000000e+00
      380000000   -6,780780107e-02   -6,895704567e-02    7,452895641e-01   -1,344685704e-01    0,000000000e+00    0,000000000e+00    0,000000000e+00    0,000000000e+00
      394000000   -6,867892295e-02   -3,056658059e-02    5,392127037e-01   -5,292156935e-01    0,000000000e+00    0,000000000e+00    0,000000000e+00    0,000000000e+00
      408000000   -4,271203279e-02   -1,542429440e-02    1,500611007e-01   -7,330828309e-01    0,000000000e+00    0,000000000e+00    0,000000000e+00    0,000000000e+00
      422000000   -2,618080564e-02   -3,125342354e-02   -2,787825763e-01   -6,903093457e-01    0,000000000e+00    0,000000000e+00    0,000000000e+00    0,000000000e+00
      436000000   -3,914880380e-02   -4,903826118e-02   -6,100698709e-01   -4,195453823e-01    0,000000000e+00    0,000000000e+00    0,000000000e+00    0,000000000e+00
      450000000   -6,453862786e-02   -3,932160884e-02   -7,370572686e-01   -7,671607658e-03    0,000000000e+00    0,000000000e+00    0,000000000e+00    0,000000000e+00
      464000000   -6,790460646e-02   -5,967422854e-03   -6,075532436e-01    4,064842761e-01    0,000000000e+00    0,000000000e+00    0,000000000e+00    0,000000000e+00
      478000000   -3,893645853e-02    1,573520899e-02   -2,676679194e-01    6,703949571e-01    0,000000000e+00    0,000000000e+00    0,000000000e+00    0,000000000e+00
      492000000   -5,226548295e-03    6,494332571e-03    1,515824944e-01    6,948388815e-01    0,000000000e+00    0,000000000e+00    0,000000000e+00    0,000000000e+00
      506000000    6,912135053e-03   -2,032522671e-02    5,081632137e-01    4,884715080e-01    0,000000000e+00    0,000000000e+00    0,000000000e+00    0,000000000e+00
      520000000    2,092111827e-04   -3,869333863e-02    6,896327734e-01    1,203050613e-01    0,000000000e+00    0,000000000e+00    0,000000000e+00    0,000000000e+00
      534000000   -3,221018706e-03   -4,525006562e-02    6,322305202e-01   -2,821312249e-01    0,000000000e+00    0,000000000e+00    0,000000000e+00    0,000000000e+00
      548000000    1,118357177e-03   -5,963754281e-02    3,601523340e-01   -5,793231130e-01    0,000000000e+00    0,000000000e+00    0,000000000e+00    0,000000000e+00
      562000000   -8,081747219e-03   -8,887634426e-02   -2,697758004e-02   -6,732299924e-01    0,000000000e+00    0,000000000e+00    0,000000000e+00    0,000000000e+00
      576000000   -4,552943259e-02   -1,091522276e-01   -4,006213844e-01   -5,389865637e-01    0,000000000e+00    0,000000000e+00    0,000000000e+00    0,000000000e+00
      590000000   -9,456811100e-02   -9,365692735e-02   -6,391412020e-01   -2,185042053e-01    0,000000000e+00    0,000000000e+00    0,000000000e+00    0,000000000e+00
      604000000   -1,119447723e-01   -4,146730155e-02   -6,479119658e-01    1,981971562e-01    0,000000000e+00    0,000000000e+00    0,000000000e+00    0,000000000e+00
      618000000   -7,586224377e-02   -2,874257741e-03   -4,012989402e-01    5,344614983e-01    0,000000000e+00    0,000000000e+00    0,000000000e+00    0,000000000e+00
      632000000   -2,953884192e-02   -2,136872895e-02   -1,272066962e-02    6,554963589e-01    0,000000000e+00    0,000000000e+00    0,000000000e+00    0,000000000e+00
      646000000   -3,594319522e-02   -7,676372677e-02    3,662209213e-01    5,285609961e-01    0,000000000e+00    0,000000000e+00    0,000000000e+00    0,000000000e+00
      660000000   -1,114407480e-01   -9,936394542e-02    6,013777256e-01    1,933901608e-01    0,000000000e+00    0,000000000e+00    0,000000000e+00    0,000000000e+00
      674000000   -2,002602816e-01   -2,403591387e-02    5,654440522e-01   -2,402604073e-01    0,000000000e+00    0,000000000e+00    0,000000000e+00    0,000000000e+00
      688000000   -1,790922135e-01    1,457645893e-01    2,087735236e-01   -5,215219855e-01    0,000000000e+00    0,000000000e+00    0,000000000e+00    0,000000000e+00
      702000000    2,487259544e-02    2,481751293e-01   -2,033420950e-01   -4,097464085e-01    0,000000000e+00    0,000000000e+00    0,000000000e+00    0,000000000e+00
      716000000    2,643947601e-01    1,104252934e-01   -2,724661231e-01   -8,299373090e-02    0,000000000e+00    0,000000000e+00    0,000000000e+00    0,000000000e+00
      730000000    3,037602305e-01   -1,859744340e-01   -1,061362475e-01    3,180977702e-02    0,000000000e+00    0,000000000e+00    0,000000000e+00    0,000000000e+00
      744000000    9,325776249e-02   -4,282869697e-01   -4,243053868e-02   -6,566518545e-02    0,000000000e+00    0,000000000e+00    0,000000000e+00    0,000000000e+00
      758000000   -2,593755126e-01   -4,289156497e-01   -1,760827452e-01   -1,253896058e-01    0,000000000e+00    0,000000000e+00    0,000000000e+00    0,000000000e+00
      772000000   -4,844961464e-01   -1,195640117e-01   -3,367614746e-01    3,850507736e-02    0,000000000e+00    0,000000000e+00    0,000000000e+00    0,000000000e+00
      786000000   -3,405624330e-01    2,217809707e-01   -2,626789808e-01    3,173974752e-01    0,000000000e+00    0,000000000e+00    0,000000000e+00    0,000000000e+00
      800000000   -4,018829390e-02    2,761811316e-01    2,618544968e-03    4,370579422e-01    0,000000000e+00    0,000000000e+00    0,000000000e+00    0,000000000e+00
      814000000    1,445354372e-01    1,248769686e-01    2,637961507e-01    3,596881032e-01    0,000000000e+00    0,000000000e+00    0,000000000e+00    0,000000000e+00
      828000000    1,675774902e-01   -7,025393844e-02    4,332195818e-01    1,564856619e-01    0,000000000e+00    0,000000000e+00    0,000000000e+00    0,000000000e+00
      842000000    6,764444709e-02   -2,186900228e-01    4,665843546e-01   -1,202714369e-01    0,000000000e+00    0,000000000e+00    0,000000000e+00    0,000000000e+00
      856000000   -1,065309197e-01   -2,631780207e-01    3,196027577e-01   -3,945747614e-01    0,000000000e+00    0,000000000e+00    0,000000000e+00    0,000000000e+00
      870000000   -2,751085758e-01   -1,677260548e-01   -2,272115322e-03   -5,264687538e-01    0,000000000e+00    0,000000000e+00    0,000000000e+00    0,000000000e+00
      884000000   -3,200540543e-01    3,515839577e-02   -3,467530906e-01   -3,935861886e-01    0,000000000e+00    0,000000000e+00    0,000000000e+00    0,000000000e+00
      898000000   -1,923496574e-01    2,061040998e-01   -4,897318184e-01   -6,312223524e-02    0,000000000e+00    0,000000000e+00    0,000000000e+00    0,000000000e+00
      912000000    6,197964773e-03    2,193107605e-01   -3,971086144e-01    2,802758217e-01    0,000000000e+00    0,000000000e+00    0,000000000e+00    0,000000000e+00
      926000000    1,511694491e-01    1,117427275e-01   -1,681597978e-01    4,147301316e-01    0,000000000e+00    0,000000000e+00    0,000000000e+00    0,000000000e+00
      940000000    1,981963515e-01   -4,489480332e-02    6,218006834e-02    4,265431762e-01    0,000000000e+00    0,000000000e+00    0,000000000e+00    0,000000000e+00
      954000000    1,559549570e-01   -2,028211057e-01    2,609211504e-01    3,414366543e-01    0,000000000e+00    0,000000000e+00    0,000000000e+00    0,000000000e+00
      968000000    2,682182007e-02   -3,137720823e-01    4,121400416e-01    1,774108708e-01    0,000000000e+00    0,000000000e+00    0,000000000e+00    0,000000000e+00
      982000000   -1,598933488e-01   -3,311173022e-01    4,756665230e-01   -6,739210337e-02    0,000000000e+00    0,000000000e+00    0,000000000e+00    0,000000000e+00
      996000000   -3,250706494e-01   -2,114220411e-01    3,694430292e-01   -3,553552032e-01    0,000000000e+00    0,000000000e+00    0,000000000e+00    0,000000000e+00
     1010000000   -3,404577672e-01   -9,559788741e-03    4,352888092e-02   -5,234653950e-01    0,000000000e+00    0,000000000e+00    0,000000000e+00    0,000000000e+00
     1024000000   -2,077663690e-01    9,406954795e-02   -3,489463925e-01   -3,809055090e-01    0,000000000e+00    0,000000000e+00    0,000000000e+00    0,000000000e+00
     1038000000   -1,334407181e-01    1,121189538e-02   -4,820936024e-01    6,497891992e-02    0,000000000e+00    0,000000000e+00    0,000000000e+00    0,000000000e+00
     1052000000   -2,899998724e-01    5,226680636e-02   -9,239166975e-02    3,720898926e-01    0,000000000e+00    0,000000000e+00    0,000000000e+00    0,000000000e+00
     1066000000   -1,481045634e-01    2,999380529e-01    1,447903514e-01    1,313797832e-01    0,000000000e+00    0,000000000e+00    0,000000000e+00    0,000000000e+00
     1080000000    1,023733243e-01    2,459907830e-01    8,718374372e-02    2,025013976e-02    0,000000000e+00    0,000000000e+00    0,000000000e+00    0,000000000e+00
     1094000000    2,248629332e-01    8,728774637e-02    6,873874366e-02    8,228811435e-03    0,000000000e+00    0,000000000e+00    0,000000000e+00    0,000000000e+00
     1108000000    2,389584631e-01   -8,840488642e-02    8,303052187e-02    1,433810976e-04    0,000000000e+00    0,000000000e+00    0,000000000e+00    0,000000000e+00
     1122000000    1,848220974e-01   -2,488572896e-01    1,053042188e-01   -2,602373064e-02    0,000000000e+00    0,000000000e+00    0,000000000e+00    0,000000000e+00
     1136000000    5,094792694e-02   -3,803003728e-01    1,259674281e-01   -7,468532771e-02    0,000000000e+00    0,000000000e+00    0,000000000e+00    0,000000000e+00
     1150000000   -1,538003087e-01   -4,248743653e-01    1,395722777e-01   -1,516432762e-01    0,000000000e+00    0,000000000e+00    0,000000000e+00    0,000000000e+00
     1164000000   -3,745328486e-01   -3,262873590e-01    1,000249684e-01   -2,751694322e-01    0,000000000e+00    0,000000000e+00    0,000000000e+00    0,000000000e+00
     1178000000   -4,664984941e-01   -9,006942064e-02   -1,064186543e-01   -4,082240462e-01    0,000000000e+00    0,000000000e+00    0,000000000e+00    0,000000000e+00
     1192000000   -3,739645779e-01    4,135892168e-02   -4,627685845e-01   -1,943212152e-01    0,000000000e+00    0,000000000e+00    0,000000000e+00    0,000000000e+00
     1206000000   -4,190100729e-01    1,357947439e-01   -2,726503015e-01    2,395840287e-01    0,000000000e+00    0,000000000e+00    0,000000000e+00    0,000000000e+00
     1220000000   -2,706340849e-01    3,309251666e-01   -2,913209843e-03    1,656012982e-01    0,000000000e+00    0,000000000e+00    0,000000000e+00    0,000000000e+00
     1234000000   -4,684515297e-02    3,465206623e-01    2,573857643e-02    5,493109673e-02    0,000000000e+00    0,000000000e+00    0,000000000e+00    0,000000000e+00
     1248000000    1,230652034e-01    2,474085838e-01    6,459040102e-03    2,238663658e-02    0,000000000e+00    0,000000000e+00    0,000000000e+00    0,000000000e+00
     1262000000    2,088616639e-01    1,014631391e-01    3,927526530e-03    3,191314265e-02    0,000000000e+00    0,000000000e+00    0,000000000e+00    0,000000000e+00
     1276000000    2,357713431e-01   -5,646747351e-02    2,750124224e-02    3,793222085e-02    0,000000000e+00    0,000000000e+00    0,000000000e+00    0,000000000e+00
     1290000000    1,986307949e-01   -2,156904638e-01    5,734433979e-02    2,234945446e-02    0,000000000e+00    0,000000000e+00    0,000000000e+00    0,000000000e+00
     1304000000    8,658425510e-02   -3,569583297e-01    7,938383520e-02    6,417030469e-03    0,000000000e+00    0,000000000e+00    0,000000000e+00    0,000000000e+00
     1318000000   -1,037080064e-01   -4,497732520e-01    8,175639808e-02   -1,714361645e-02    0,000000000e+00    0,000000000e+00    0,000000000e+00    0,000000000e+00
     1332000000   -3,576152027e-01   -4,312345684e-01    8,803336322e-02   -1,019604038e-02    0,000000000e+00    0,000000000e+00    0,000000000e+00    0,000000000e+00
     1346000000   -5,892879367e-01   -2,531421185e-01    1,067533866e-01   -8,330805227e-03    0,000000000e+00    0,000000000e+00    0,000000000e+00    0,000000000e+00
     1360000000   -6,479533315e-01    8,077340573e-02    1,396092921e-01   -9,858772159e-03    0,000000000e+00    0,000000000e+00    0,000000000e+00    0,000000000e+00
     1374000000   -4,948136806e-01    3,320482373e-01    1,700064689e-01   -4,698402807e-02    0,000000000e+00    0,000000000e+00    0,000000000e+00    0,000000000e+00
     1388000000   -2,503615618e-01    4,295271039e-01    1,605727971e-01   -7,803616673e-02    0,000000000e+00    0,000000000e+00    0,000000000e+00    0,000000000e+00
     1402000000   -4,627808556e-02    3,877182901e-01    1,401295662e-01   -1,016473547e-01    0,000000000e+00    0,000000000e+00    0,000000000e+00    0,000000000e+00
     1416000000    1,027369648e-01    2,869361937e-01    1,241991520e-01   -7,987246662e-02    0,000000000e+00    0,000000000e+00    0,000000000e+00    0,000000000e+00
     1430000000    1,820816547e-01    1,457469910e-01    1,134869084e-01   -3,581630439e-02    0,000000000e+00    0,000000000e+00    0,000000000e+00    0,000000000e+00
     1444000000    2,156843990e-01   -1,260641031e-02    1,151494682e-01   -2,786995284e-02    0,000000000e+00    0,000000000e+00    0,000000000e+00    0,000000000e+00
     1458000000    1,820142865e-01   -1,804500073e-01    1,422574967e-01    1,456114370e-02    0,000000000e+00    0,000000000e+00    0,000000000e+00    0,000000000e+00
     1472000000    7,189898938e-02   -3,504202664e-01    2,003411651e-01    6,921736151e-02    0,000000000e+00    0,000000000e+00    0,000000000e+00    0,000000000e+00
     1486000000   -1,399471760e-01   -4,606624842e-01    3,018102348e-01    1,110198498e-01    0,000000000e+00    0,000000000e+00    0,000000000e+00    0,000000000e+00
     1500000000   -4,442594051e-01   -4,792192876e-01    3,991986215e-01    4,271059856e-02    0,000000000e+00    0,000000000e+00    0,000000000e+00    0,000000000e+00
