! NanoVNA-App
! Date: 2025-09-25 16:01:18
! Start: 100MHz Stop: 1,5GHz Points: 101
! S-Parameter data: F S11 S21 S12 S22
# Hz S RI R 50
!     Frequency           S11_Real           S11_Imag           S21_Real           S21_Imag           S12_Real           S12_Imag           S22_Real           S22_Imag
      100000000   -2,828360163e-02   -2,873594873e-03    3,723201752e-01   -7,224263549e-01    0,000000000e+00    0,000000000e+00    0,000000000e+00    0,000000000e+00
      114000000   -1,570109464e-02    1,287535578e-02   -9,135874361e-02   -8,047199845e-01    0,000000000e+00    0,000000000e+00    0,000000000e+00    0,000000000e+00
      128000000    4,303379916e-03    1,193426270e-02   -5,157234669e-01   -6,186459064e-01    0,000000000e+00    0,000000000e+00    0,000000000e+00    0,000000000e+00
      142000000    1,547042094e-02   -1,723260735e-03   -7,675354481e-01   -2,341485023e-01    0,000000000e+00    0,000000000e+00    0,000000000e+00    0,000000000e+00
      156000000    1,586983539e-02   -1,278954558e-02   -7,634556293e-01    2,218365073e-01    0,000000000e+00    0,000000000e+00    0,000000000e+00    0,000000000e+00
      170000000    1,767919585e-02   -2,096915245e-02   -5,154848099e-01    6,061310768e-01    0,000000000e+00    0,000000000e+00    0,000000000e+00    0,000000000e+00
      184000000    2,199484594e-02   -3,550755978e-02   -9,846457094e-02    7,863550186e-01    0,000000000e+00    0,000000000e+00    0,000000000e+00    0,000000000e+00
      198000000    1,406777371e-02   -6,067014858e-02    3,462320864e-01    7,107912898e-01    0,000000000e+00    0,000000000e+00    0,000000000e+00    0,000000000e+00
      212000000   -1,765044406e-02   -7,915313542e-02    6,805144548e-01    4,062507451e-01    0,000000000e+00    0,000000000e+00    0,000000000e+00    0,000000000e+00
      226000000   -6,031861901e-02   -6,666347384e-02    7,957497835e-01   -3,551113233e-02    0,000000000e+00    0,000000000e+00    0,000000000e+00    0,000000000e+00
      240000000   -8,058537543e-02   -2,271531150e-02    6,417453885e-01   -4,718694687e-01    0,000000000e+00    0,000000000e+00    0,000000000e+00    0,000000000e+00
      254000000   -6,081098691e-02    1,982787438e-02    2,710060179e-01   -7,419891953e-01    0,000000000e+00    0,000000000e+00    0,000000000e+00    0,000000000e+00
      268000000   -2,088554949e-02    3,085153177e-02   -1,811166555e-01   -7,608337402e-01    0,000000000e+00    0,000000000e+00    0,000000000e+00    0,000000000e+00
      282000000    6,943896879e-03    1,373729203e-02   -5,630871058e-01   -5,324715376e-01    0,000000000e+00    0,000000000e+00    0,000000000e+00    0,000000000e+00
      296000000    1,237424184e-02   -6,245417986e-03   -7,603764534e-01   -1,343520880e-01    0,000000000e+00    0,000000000e+00    0,000000000e+00    0,000000000e+00
      310000000    1,356516685e-02   -1,460995432e-02   -7,092850804e-01    3,037904799e-01    0,000000000e+00    0,000000000e+00    0,000000000e+00    0,000000000e+00
      324000000    2,253247611e-02   -2,474874258e-02   -4,215348065e-01    6,391347647e-01    0,000000000e+00    0,000000000e+00    0,000000000e+00    0,000000000e+00
      338000000    2,844483033e-02   -5,082611740e-02   -1,153058838e-03    7,632081509e-01    0,000000000e+00    0,000000000e+00    0,000000000e+00    0,000000000e+00
      352000000    1,009585243e-02   -8,292873204e-02    4,125676155e-01    6,361352801e-01    0,000000000e+00    0,000000000e+00    0,000000000e+00    0,000000000e+00
      366000000   -3,148828074e-02   -9,394065291e-02    6,931092143e-01    3,035361469e-01    0,000000000e+00    0,000000000e+00    0,000000000e+00    0,000000000e+00
      380000000   -6,780936569e-02   -6,870885193e-02    7,458058000e-01   -1,346111596e-01    0,000000000e+00    0,000000000e+00    0,000000000e+00    0,000000000e+00
      394000000   -6,849144399e-02   -3,059501573e-02    5,396652222e-01   -5,293087363e-01    0,000000000e+00    0,000000000e+00    0,000000000e+00    0,000000000e+00
      408000000   -4,279692844e-02   -1,558732614e-02    1,488512903e-01   -7,350335121e-01    0,000000000e+00    0,000000000e+00    0,000000000e+00    0,000000000e+00
      422000000   -2,615938336e-02   -3,120111488e-02   -2,785633802e-01   -6,896229982e-01    0,000000000e+00    0,000000000e+00    0,000000000e+00    0,000000000e+00
      436000000   -3,907071054e-02   -4,894259572e-02   -6,101676822e-01   -4,198317528e-01    0,000000000e+00    0,000000000e+00    0,000000000e+00    0,000000000e+00
      450000000   -6,454149634e-02   -3,900605440e-02   -7,370318770e-01   -7,785315160e-03    0,000000000e+00    0,000000000e+00    0,000000000e+00    0,000000000e+00
      464000000   -6,746820360e-02   -6,294724531e-03   -6,082106829e-01    4,065036178e-01    0,000000000e+00    0,000000000e+00    0,000000000e+00    0,000000000e+00
      478000000   -3,891183808e-02    1,603712328e-02   -2,674562335e-01    6,701266170e-01    0,000000000e+00    0,000000000e+00    0,000000000e+00    0,000000000e+00
      492000000   -5,001998506e-03    6,640326232e-03    1,522321850e-01    6,952942610e-01    0,000000000e+00    0,000000000e+00    0,000000000e+00    0,000000000e+00
      506000000    6,652391516e-03   -2,031274326e-02    5,083369613e-01    4,879820943e-01    0,000000000e+00    0,000000000e+00    0,000000000e+00    0,000000000e+00
      520000000    4,780598392e-04   -3,842677921e-02    6,898561120e-01    1,225882545e-01    0,000000000e+00    0,000000000e+00    0,000000000e+00    0,000000000e+00
      534000000   -3,243449377e-03   -4,563099518e-02    6,327058077e-01   -2,826169133e-01    0,000000000e+00    0,000000000e+00    0,000000000e+00    0,000000000e+00
      548000000    8,877589717e-04   -5,948879942e-02    3,604743779e-01   -5,796205401e-01    0,000000000e+00    0,000000000e+00    0,000000000e+00    0,000000000e+00
      562000000   -7,482563145e-03   -8,874840289e-02   -2,666185237e-02   -6,735247374e-01    0,000000000e+00    0,000000000e+00    0,000000000e+00    0,000000000e+00
      576000000   -4,554345459e-02   -1,096212193e-01   -4,008091092e-01   -5,389853716e-01    0,000000000e+00    0,000000000e+00    0,000000000e+00    0,000000000e+00
      590000000   -9,482991695e-02   -9,357529134e-02   -6,415109634e-01   -2,165919244e-01    0,000000000e+00    0,000000000e+00    0,000000000e+00    0,000000000e+00
      604000000   -1,115580797e-01   -4,139062762e-02   -6,474584341e-01    1,983335465e-01    0,000000000e+00    0,000000000e+00    0,000000000e+00    0,000000000e+00
      618000000   -7,546886057e-02   -2,791382605e-03   -4,010373950e-01    5,358246565e-01    0,000000000e+00    0,000000000e+00    0,000000000e+00    0,000000000e+00
      632000000   -3,057402000e-02   -2,097786963e-02   -1,273853611e-02    6,556635499e-01    0,000000000e+00    0,000000000e+00    0,000000000e+00    0,000000000e+00
      646000000   -3,597213328e-02   -7,672196627e-02    3,667169809e-01    5,281828046e-01    0,000000000e+00    0,000000000e+00    0,000000000e+00    0,000000000e+00
      660000000   -1,115126833e-01   -1,002058983e-01    6,011765599e-01    1,933400780e-01    0,000000000e+00    0,000000000e+00    0,000000000e+00    0,000000000e+00
      674000000   -2,001137286e-01   -2,325468324e-02    5,655941963e-01   -2,397744805e-01    0,000000000e+00    0,000000000e+00    0,000000000e+00    0,000000000e+00
      688000000   -1,793569773e-01    1,448013037e-01    2,100230008e-01   -5,222252011e-01    0,000000000e+00    0,000000000e+00    0,000000000e+00    0,000000000e+00
      702000000    2,527384460e-02    2,474399954e-01   -2,032315135e-01   -4,102806747e-01    0,000000000e+00    0,000000000e+00    0,000000000e+00    0,000000000e+00
      716000000    2,627987564e-01    1,107070670e-01   -2,736754417e-01   -8,361750841e-02    0,000000000e+00    0,000000000e+00    0,000000000e+00    0,000000000e+00
      730000000    3,041889071e-01   -1,856263429e-01   -1,074177399e-01    3,237887472e-02    0,000000000e+00    0,000000000e+00    0,000000000e+00    0,000000000e+00
      744000000    9,465935081e-02   -4,279195964e-01   -4,214228690e-02   -6,485781819e-02    0,000000000e+00    0,000000000e+00    0,000000000e+00    0,000000000e+00
      758000000   -2,594860792e-01   -4,303577244e-01   -1,752864420e-01   -1,252458394e-01    0,000000000e+00    0,000000000e+00    0,000000000e+00    0,000000000e+00
      772000000   -4,857284725e-01   -1,187618971e-01   -3,363734782e-01    3,792405501e-02    0,000000000e+00    0,000000000e+00    0,000000000e+00    0,000000000e+00
      786000000   -3,419220448e-01    2,226904333e-01   -2,626394331e-01    3,160242140e-01    0,000000000e+00    0,000000000e+00    0,000000000e+00    0,000000000e+00
      800000000   -4,108732939e-02    2,771274149e-01    2,711280948e-03    4,372388721e-01    0,000000000e+00    0,000000000e+00    0,000000000e+00    0,000000000e+00
      814000000    1,446956843e-01    1,257964671e-01    2,638818026e-01    3,588859737e-01    0,000000000e+00    0,000000000e+00    0,000000000e+00    0,000000000e+00
      828000000    1,682727635e-01   -6,995944679e-02    4,333573878e-01    1,569068879e-01    0,000000000e+00    0,000000000e+00    0,000000000e+00    0,000000000e+00
      842000000    6,732372195e-02   -2,180422992e-01    4,665065706e-01   -1,202945858e-01    0,000000000e+00    0,000000000e+00    0,000000000e+00    0,000000000e+00
      856000000   -1,068844944e-01   -2,647404373e-01    3,203170300e-01   -3,943535686e-01    0,000000000e+00    0,000000000e+00    0,000000000e+00    0,000000000e+00
      870000000   -2,742260695e-01   -1,688253284e-01   -2,167103114e-03   -5,280399323e-01    0,000000000e+00    0,000000000e+00    0,000000000e+00    0,000000000e+00
      884000000   -3,202575147e-01    3,602701053e-02   -3,476759791e-01   -3,920574188e-01    0,000000000e+00    0,000000000e+00    0,000000000e+00    0,000000000e+00
      898000000   -1,922735423e-01    2,065273523e-01   -4,890445471e-01   -6,297458708e-02    0,000000000e+00    0,000000000e+00    0,000000000e+00    0,000000000e+00
      912000000    6,910986267e-03    2,191147506e-01   -3,941840529e-01    2,758615315e-01    0,000000000e+00    0,000000000e+00    0,000000000e+00    0,000000000e+00
      926000000    1,503462195e-01    1,144934073e-01   -1,682481170e-01    4,169816673e-01    0,000000000e+00    0,000000000e+00    0,000000000e+00    0,000000000e+00
      940000000    2,004172504e-01   -4,690609127e-02    6,350251287e-02    4,239279628e-01    0,000000000e+00    0,000000000e+00    0,000000000e+00    0,000000000e+00
      954000000    1,564618200e-01   -2,032491863e-01    2,599436045e-01    3,420506716e-01    0,000000000e+00    0,000000000e+00    0,000000000e+00    0,000000000e+00
      968000000    2,556650527e-02   -3,131877184e-01    4,104568958e-01    1,793659627e-01    0,000000000e+00    0,000000000e+00    0,000000000e+00    0,000000000e+00
      982000000   -1,600108445e-01   -3,342142701e-01    4,752809703e-01   -6,724489480e-02    0,000000000e+00    0,000000000e+00    0,000000000e+00    0,000000000e+00
      996000000   -3,258936703e-01   -2,066511810e-01    3,658192754e-01   -3,581696153e-01    0,000000000e+00    0,000000000e+00    0,000000000e+00    0,000000000e+00
     1010000000   -3,439442217e-01   -5,772484466e-03    4,242338985e-02   -5,227368474e-01    0,000000000e+00    0,000000000e+00    0,000000000e+00    0,000000000e+00
     1024000000   -2,080369145e-01    9,424980730e-02   -3,445964158e-01   -3,798749745e-01    0,000000000e+00    0,000000000e+00    0,000000000e+00    0,000000000e+00
     1038000000   -1,381573826e-01    9,709200822e-03   -4,816206694e-01    6,245363876e-02    0,000000000e+00    0,000000000e+00    0,000000000e+00    0,000000000e+00
     1052000000   -2,886835933e-01    5,055850372e-02   -9,572809935e-02    3,717319965e-01    0,000000000e+00    0,000000000e+00    0,000000000e+00    0,000000000e+00
     1066000000   -1,505289227e-01    2,966288030e-01    1,435953975e-01    1,330846548e-01    0,000000000e+00    0,000000000e+00    0,000000000e+00    0,000000000e+00
     1080000000    9,892885387e-02    2,487406135e-01    9,132917970e-02    2,241254039e-02    0,000000000e+00    0,000000000e+00    0,000000000e+00    0,000000000e+00
     1094000000    2,259922177e-01    9,109326452e-02    6,830536574e-02    1,001840457e-02    0,000000000e+00    0,000000000e+00    0,000000000e+00    0,000000000e+00
     1108000000    2,449974716e-01   -8,419418335e-02    8,200614899e-02    4,920159117e-04    0,000000000e+00    0,000000000e+00    0,000000000e+00    0,000000000e+00
     1122000000    1,860760748e-01   -2,546582222e-01    1,042441204e-01   -2,558142133e-02    0,000000000e+00    0,000000000e+00    0,000000000e+00    0,000000000e+00
     1136000000    4,867161438e-02   -3,766402900e-01    1,259090155e-01   -7,215581089e-02    0,000000000e+00    0,000000000e+00    0,000000000e+00    0,000000000e+00
     1150000000   -1,546271443e-01   -4,231643975e-01    1,378958076e-01   -1,493984759e-01    0,000000000e+00    0,000000000e+00    0,000000000e+00    0,000000000e+00
     1164000000   -3,787716627e-01   -3,218427300e-01    1,009326726e-01   -2,762499452e-01    0,000000000e+00    0,000000000e+00    0,000000000e+00    0,000000000e+00
     1178000000   -4,658379555e-01   -7,983009517e-02   -1,066458747e-01   -4,049093723e-01    0,000000000e+00    0,000000000e+00    0,000000000e+00    0,000000000e+00
     1192000000   -3,710799217e-01    3,632726893e-02   -4,615968764e-01   -1,985855997e-01    0,000000000e+00    0,000000000e+00    0,000000000e+00    0,000000000e+00
     1206000000   -4,098530710e-01    1,333801597e-01   -2,729848027e-01    2,363020927e-01    0,000000000e+00    0,000000000e+00    0,000000000e+00    0,000000000e+00
     1220000000   -2,740516067e-01    3,348847628e-01   -4,625419620e-03    1,664458364e-01    0,000000000e+00    0,000000000e+00    0,000000000e+00    0,000000000e+00
     1234000000   -4,343971983e-02    3,453339636e-01    2,546716668e-02    5,187162012e-02    0,000000000e+00    0,000000000e+00    0,000000000e+00    0,000000000e+00
     1248000000    1,245267540e-01    2,490166128e-01    1,476336620e-03    2,540262416e-02    0,000000000e+00    0,000000000e+00    0,000000000e+00    0,000000000e+00
     1262000000    2,073001713e-01    1,012994647e-01    3,543907311e-03    3,107793443e-02    0,000000000e+00    0,000000000e+00    0,000000000e+00    0,000000000e+00
     1276000000    2,376045734e-01   -6,084692106e-02    2,864342369e-02    3,460299224e-02    0,000000000e+00    0,000000000e+00    0,000000000e+00    0,000000000e+00
     1290000000    1,909579784e-01   -2,204549015e-01    5,320416763e-02    2,157249860e-02    0,000000000e+00    0,000000000e+00    0,000000000e+00    0,000000000e+00
     1304000000    8,227349818e-02   -3,528899550e-01    7,714340091e-02    8,153787814e-03    0,000000000e+00    0,000000000e+00    0,000000000e+00    0,000000000e+00
     1318000000   -1,049095243e-01   -4,469128847e-01    8,012372255e-02   -1,063935738e-02    0,000000000e+00    0,000000000e+00    0,000000000e+00    0,000000000e+00
     1332000000   -3,542949557e-01   -4,327799380e-01    8,667967469e-02   -1,484621409e-02    0,000000000e+00    0,000000000e+00    0,000000000e+00    0,000000000e+00
     1346000000   -5,887957215e-01   -2,447148412e-01    1,012552530e-01   -1,457736944e-03    0,000000000e+00    0,000000000e+00    0,000000000e+00    0,000000000e+00
     1360000000   -6,583784223e-01    6,780617684e-02    1,343317181e-01   -1,134770457e-02    0,000000000e+00    0,000000000e+00    0,000000000e+00    0,000000000e+00
     1374000000   -4,921893775e-01    3,278400004e-01    1,691255867e-01   -5,029321462e-02    0,000000000e+00    0,000000000e+00    0,000000000e+00    0,000000000e+00
     1388000000   -2,553104758e-01    4,298711419e-01    1,582563818e-01   -8,047056943e-02    0,000000000e+00    0,000000000e+00    0,000000000e+00    0,000000000e+00
     1402000000   -4,566756636e-02    3,915169835e-01    1,425555944e-01   -8,547657728e-02    0,000000000e+00    0,000000000e+00    0,000000000e+00    0,000000000e+00
     1416000000    9,971375763e-02    2,880287468e-01    1,152998433e-01   -8,449917287e-02    0,000000000e+00    0,000000000e+00    0,000000000e+00    0,000000000e+00
     1430000000    1,855786145e-01    1,448704302e-01    1,066209152e-01   -7,074268162e-02    0,000000000e+00    0,000000000e+00    0,000000000e+00    0,000000000e+00
     1444000000    2,145675123e-01   -8,021616377e-03    1,196425781e-01   -1,893678680e-02    0,000000000e+00    0,000000000e+00    0,000000000e+00    0,000000000e+00
     1458000000    1,763348281e-01   -1,797338575e-01    1,387815475e-01    2,366250940e-02    0,000000000e+00    0,000000000e+00    0,000000000e+00    0,000000000e+00
     1472000000    7,292687893e-02   -3,474065661e-01    2,066216767e-01    6,207801402e-02    0,000000000e+00    0,000000000e+00    0,000000000e+00    0,000000000e+00
     1486000000   -1,456397921e-01   -4,767029285e-01    2,939837575e-01    7,813920081e-02    0,000000000e+00    0,000000000e+00    0,000000000e+00    0,000000000e+00
     1500000000   -4,464849234e-01   -4,616758227e-01    3,935402334e-01    7,237460464e-02    0,000000000e+00    0,000000000e+00    0,000000000e+00    0,000000000e+00
