! NanoVNA-App
! Date: 2025-09-25 16:01:38
! Start: 100MHz Stop: 1,5GHz Points: 101
! S-Parameter data: F S11 S21 S12 S22
# Hz S RI R 50
!     Frequency           S11_Real           S11_Imag           S21_Real           S21_Imag           S12_Real           S12_Imag           S22_Real           S22_Imag
      100000000   -2,828676812e-02   -2,873950638e-03    3,723037243e-01   -7,224402428e-01    0,000000000e+00    0,000000000e+00    0,000000000e+00    0,000000000e+00
      114000000   -1,571310684e-02    1,287427358e-02   -9,130154550e-02   -8,048681617e-01    0,000000000e+00    0,000000000e+00    0,000000000e+00    0,000000000e+00
      128000000    4,358360078e-03    1,195616927e-02   -5,159142017e-01   -6,188641787e-01    0,000000000e+00    0,000000000e+00    0,000000000e+00    0,000000000e+00
      142000000    1,549202669e-02   -1,726413844e-03   -7,675589919e-01   -2,341596633e-01    0,000000000e+00    0,000000000e+00    0,000000000e+00    0,000000000e+00
      156000000    1,510577835e-02   -1,314113010e-02   -7,660613656e-01    2,204708159e-01    0,000000000e+00    0,000000000e+00    0,000000000e+00    0,000000000e+00
      170000000    1,763904095e-02   -2,090249024e-02   -5,154662132e-01    6,063122749e-01    0,000000000e+00    0,000000000e+00    0,000000000e+00    0,000000000e+00
      184000000    2,203317173e-02   -3,554334119e-02   -9,794741124e-02    7,860377431e-01    0,000000000e+00    0,000000000e+00    0,000000000e+00    0,000000000e+00
      198000000    1,401348971e-02   -6,062369421e-02    3,459404409e-01    7,107788920e-01    0,000000000e+00    0,000000000e+00    0,000000000e+00    0,000000000e+00
      212000000   -1,768900268e-02   -7,913200557e-02    6,807445884e-01    4,062091410e-01    0,000000000e+00    0,000000000e+00    0,000000000e+00    0,000000000e+00
      226000000   -6,027706340e-02   -6,666540354e-02    7,956737280e-01   -3,556265682e-02    0,000000000e+00    0,000000000e+00    0,000000000e+00    0,000000000e+00
      240000000   -8,050061017e-02   -2,274024487e-02    6,416175961e-01   -4,717521369e-01    0,000000000e+00    0,000000000e+00    0,000000000e+00    0,000000000e+00
      254000000   -6,079240516e-02    1,982108504e-02    2,707524896e-01   -7,421240807e-01    0,000000000e+00    0,000000000e+00    0,000000000e+00    0,000000000e+00
      268000000   -2,084997110e-02    3,087217174e-02   -1,810470372e-01   -7,607614398e-01    0,000000000e+00    0,000000000e+00    0,000000000e+00    0,000000000e+00
      282000000    6,994328927e-03    1,374295074e-02   -5,629677176e-01   -5,322360992e-01    0,000000000e+00    0,000000000e+00    0,000000000e+00    0,000000000e+00
      296000000    1,235693321e-02   -6,279602181e-03   -7,604685426e-01   -1,343804300e-01    0,000000000e+00    0,000000000e+00    0,000000000e+00    0,000000000e+00
      310000000    1,361312624e-02   -1,444373094e-02   -7,076290250e-01    3,040221930e-01    0,000000000e+00    0,000000000e+00    0,000000000e+00    0,000000000e+00
      324000000    2,254384942e-02   -2,472443879e-02   -4,222326577e-01    6,393299103e-01    0,000000000e+00    0,000000000e+00    0,000000000e+00    0,000000000e+00
      338000000    2,806853876e-02   -5,051543191e-02   -1,083023148e-03    7,596541643e-01    0,000000000e+00    0,000000000e+00    0,000000000e+00    0,000000000e+00
      352000000    1,010000799e-02   -8,304910362e-02    4,112462103e-01    6,346515417e-01    0,000000000e+00    0,000000000e+00    0,000000000e+00    0,000000000e+00
      366000000   -3,164689243e-02   -9,391854703e-02    6,935307980e-01    3,043079972e-01    0,000000000e+00    0,000000000e+00    0,000000000e+00    0,000000000e+00
      380000000   -6,760445237e-02   -6,877330691e-02    7,463288307e-01   -1,344498396e-01    0,000000000e+00    0,000000000e+00    0,000000000e+00    0,000000000e+00
      394000000   -6,844285131e-02   -3,068168648e-02    5,394014716e-01   -5,291372538e-01    0,000000000e+00    0,000000000e+00    0,000000000e+00    0,000000000e+00
      408000000   -4,279633984e-02   -1,549982186e-02    1,503977776e-01   -7,335072160e-01    0,000000000e+00    0,000000000e+00    0,000000000e+00    0,000000000e+00
      422000000   -2,609941922e-02   -3,081389889e-02   -2,786741853e-01   -6,892595887e-01    0,000000000e+00    0,000000000e+00    0,000000000e+00    0,000000000e+00
      436000000   -3,936845064e-02   -4,913075641e-02   -6,111955047e-01   -4,199981391e-01    0,000000000e+00    0,000000000e+00    0,000000000e+00    0,000000000e+00
      450000000   -6,475754827e-02   -3,916127607e-02   -7,369133234e-01   -8,099698462e-03    0,000000000e+00    0,000000000e+00    0,000000000e+00    0,000000000e+00
      464000000   -6,740114838e-02   -6,471092347e-03   -6,083479524e-01    4,065395594e-01    0,000000000e+00    0,000000000e+00    0,000000000e+00    0,000000000e+00
      478000000   -3,851930425e-02    1,618451439e-02   -2,685766518e-01    6,702655554e-01    0,000000000e+00    0,000000000e+00    0,000000000e+00    0,000000000e+00
      492000000   -5,344936159e-03    6,261929404e-03    1,520000249e-01    6,949204803e-01    0,000000000e+00    0,000000000e+00    0,000000000e+00    0,000000000e+00
      506000000    6,836478598e-03   -2,023910731e-02    5,078978539e-01    4,887940288e-01    0,000000000e+00    0,000000000e+00    0,000000000e+00    0,000000000e+00
      520000000    6,288817967e-04   -3,849676251e-02    6,887931228e-01    1,214355677e-01    0,000000000e+00    0,000000000e+00    0,000000000e+00    0,000000000e+00
      534000000   -2,690532710e-03   -4,569419473e-02    6,327364445e-01   -2,818630934e-01    0,000000000e+00    0,000000000e+00    0,000000000e+00    0,000000000e+00
      548000000    6,508223596e-04   -5,992307514e-02    3,595544100e-01   -5,796559453e-01    0,000000000e+00    0,000000000e+00    0,000000000e+00    0,000000000e+00
      562000000   -7,649340667e-03   -8,825240284e-02   -2,749531530e-02   -6,726244092e-01    0,000000000e+00    0,000000000e+00    0,000000000e+00    0,000000000e+00
      576000000   -4,525751993e-02   -1,101516858e-01   -4,010089040e-01   -5,393020511e-01    0,000000000e+00    0,000000000e+00    0,000000000e+00    0,000000000e+00
      590000000   -9,482622147e-02   -9,331742674e-02   -6,418588758e-01   -2,195716500e-01    0,000000000e+00    0,000000000e+00    0,000000000e+00    0,000000000e+00
      604000000   -1,118463725e-01   -4,091418907e-02   -6,479993463e-01    1,988143027e-01    0,000000000e+00    0,000000000e+00    0,000000000e+00    0,000000000e+00
      618000000   -7,524155080e-02   -2,431499772e-03   -4,012360573e-01    5,354499221e-01    0,000000000e+00    0,000000000e+00    0,000000000e+00    0,000000000e+00
      632000000   -3,044372052e-02   -2,097824030e-02   -1,179023646e-02    6,558184624e-01    0,000000000e+00    0,000000000e+00    0,000000000e+00    0,000000000e+00
      646000000   -3,677734733e-02   -7,686900347e-02    3,661305904e-01    5,274059772e-01    0,000000000e+00    0,000000000e+00    0,000000000e+00    0,000000000e+00
      660000000   -1,117938086e-01   -1,004908606e-01    6,013480425e-01    1,939856261e-01    0,000000000e+00    0,000000000e+00    0,000000000e+00    0,000000000e+00
      674000000   -1,998668015e-01   -2,306789532e-02    5,659682751e-01   -2,399463803e-01    0,000000000e+00    0,000000000e+00    0,000000000e+00    0,000000000e+00
      688000000   -1,781042516e-01    1,441352218e-01    2,097047567e-01   -5,223919153e-01    0,000000000e+00    0,000000000e+00    0,000000000e+00    0,000000000e+00
      702000000    2,392291650e-02    2,440929711e-01   -1,945969760e-01   -4,035193920e-01    0,000000000e+00    0,000000000e+00    0,000000000e+00    0,000000000e+00
      716000000    2,636716664e-01    1,112924963e-01   -2,733788788e-01   -8,390226215e-02    0,000000000e+00    0,000000000e+00    0,000000000e+00    0,000000000e+00
      730000000    3,033507466e-01   -1,853841990e-01   -1,071802303e-01    3,204602003e-02    0,000000000e+00    0,000000000e+00    0,000000000e+00    0,000000000e+00
      744000000    9,498271346e-02   -4,285303354e-01   -4,260971397e-02   -6,465073675e-02    0,000000000e+00    0,000000000e+00    0,000000000e+00    0,000000000e+00
      758000000   -2,581422031e-01   -4,294694662e-01   -1,757479608e-01   -1,255122125e-01    0,000000000e+00    0,000000000e+00    0,000000000e+00    0,000000000e+00
      772000000   -4,846017659e-01   -1,193228960e-01   -3,368315399e-01    3,838678077e-02    0,000000000e+00    0,000000000e+00    0,000000000e+00    0,000000000e+00
      786000000   -3,416746855e-01    2,228496224e-01   -2,631359398e-01    3,168974221e-01    0,000000000e+00    0,000000000e+00    0,000000000e+00    0,000000000e+00
      800000000   -4,085044190e-02    2,765262723e-01    2,778289607e-03    4,359348714e-01    0,000000000e+00    0,000000000e+00    0,000000000e+00    0,000000000e+00
      814000000    1,442205906e-01    1,253066659e-01    2,640919685e-01    3,593678772e-01    0,000000000e+00    0,000000000e+00    0,000000000e+00    0,000000000e+00
      828000000    1,679739058e-01   -7,059758157e-02    4,328083992e-01    1,566275060e-01    0,000000000e+00    0,000000000e+00    0,000000000e+00    0,000000000e+00
      842000000    6,777545810e-02   -2,186488658e-01    4,662932456e-01   -1,202434525e-01    0,000000000e+00    0,000000000e+00    0,000000000e+00    0,000000000e+00
      856000000   -1,062224284e-01   -2,642864287e-01    3,195424974e-01   -3,940908015e-01    0,000000000e+00    0,000000000e+00    0,000000000e+00    0,000000000e+00
      870000000   -2,743662000e-01   -1,677563488e-01   -3,182566958e-03   -5,266314149e-01    0,000000000e+00    0,000000000e+00    0,000000000e+00    0,000000000e+00
      884000000   -3,206073940e-01    3,632871807e-02   -3,481153548e-01   -3,920141459e-01    0,000000000e+00    0,000000000e+00    0,000000000e+00    0,000000000e+00
      898000000   -1,916278601e-01    2,064002603e-01   -4,884397388e-01   -6,266478449e-02    0,000000000e+00    0,000000000e+00    0,000000000e+00    0,000000000e+00
      912000000    7,170459721e-03    2,201777548e-01   -3,940399587e-01    2,682238221e-01    0,000000000e+00    0,000000000e+00    0,000000000e+00    0,000000000e+00
      926000000    1,489720941e-01    1,109612435e-01   -1,700876206e-01    4,155108035e-01    0,000000000e+00    0,000000000e+00    0,000000000e+00    0,000000000e+00
      940000000    1,978958249e-01   -4,364397004e-02    6,240108237e-02    4,247073531e-01    0,000000000e+00    0,000000000e+00    0,000000000e+00    0,000000000e+00
      954000000    1,555406302e-01   -2,042562515e-01    2,609251142e-01    3,412157297e-01    0,000000000e+00    0,000000000e+00    0,000000000e+00    0,000000000e+00
      968000000    2,701389603e-02   -3,144245148e-01    4,118160903e-01    1,800743192e-01    0,000000000e+00    0,000000000e+00    0,000000000e+00    0,000000000e+00
      982000000   -1,643016040e-01   -3,331740797e-01    4,746541679e-01   -6,718276441e-02    0,000000000e+00    0,000000000e+00    0,000000000e+00    0,000000000e+00
      996000000   -3,232208788e-01   -2,067710310e-01    3,673926294e-01   -3,546640873e-01    0,000000000e+00    0,000000000e+00    0,000000000e+00    0,000000000e+00
     1010000000   -3,425709605e-01   -9,318948723e-03    4,334989190e-02   -5,246959925e-01    0,000000000e+00    0,000000000e+00    0,000000000e+00    0,000000000e+00
     1024000000   -2,073784173e-01    8,989132196e-02   -3,450549543e-01   -3,803723752e-01    0,000000000e+00    0,000000000e+00    0,000000000e+00    0,000000000e+00
     1038000000   -1,383446455e-01    1,193636935e-02   -4,818201959e-01    6,306422502e-02    0,000000000e+00    0,000000000e+00    0,000000000e+00    0,000000000e+00
     1052000000   -2,894126773e-01    5,661944300e-02   -9,371501952e-02    3,731765747e-01    0,000000000e+00    0,000000000e+00    0,000000000e+00    0,000000000e+00
     1066000000   -1,510344893e-01    2,954261899e-01    1,410883814e-01    1,300625056e-01    0,000000000e+00    0,000000000e+00    0,000000000e+00    0,000000000e+00
     1080000000    1,048256382e-01    2,503280342e-01    9,089183062e-02    2,161476016e-02    0,000000000e+00    0,000000000e+00    0,000000000e+00    0,000000000e+00
     1094000000    2,198600918e-01    8,545836061e-02    7,034330070e-02    8,376393467e-03    0,000000000e+00    0,000000000e+00    0,000000000e+00    0,000000000e+00
     1108000000    2,402849793e-01   -8,492465317e-02    8,132154495e-02   -6,070759846e-04    0,000000000e+00    0,000000000e+00    0,000000000e+00    0,000000000e+00
     1122000000    1,873215288e-01   -2,491763681e-01    1,040075719e-01   -2,404037304e-02    0,000000000e+00    0,000000000e+00    0,000000000e+00    0,000000000e+00
     1136000000    4,872738570e-02   -3,810288012e-01    1,258605421e-01   -7,359335572e-02    0,000000000e+00    0,000000000e+00    0,000000000e+00    0,000000000e+00
     1150000000   -1,565635949e-01   -4,272792339e-01    1,385927796e-01   -1,514505595e-01    0,000000000e+00    0,000000000e+00    0,000000000e+00    0,000000000e+00
     1164000000   -3,788742125e-01   -3,200609982e-01    1,014338136e-01   -2,745709717e-01    0,000000000e+00    0,000000000e+00    0,000000000e+00    0,000000000e+00
     1178000000   -4,646766782e-01   -8,902543783e-02   -1,060676947e-01   -4,050302505e-01    0,000000000e+00    0,000000000e+00    0,000000000e+00    0,000000000e+00
     1192000000   -3,710372448e-01    3,756652400e-02   -4,601254463e-01   -1,949037462e-01    0,000000000e+00    0,000000000e+00    0,000000000e+00    0,000000000e+00
     1206000000   -4,176342785e-01    1,308569312e-01   -2,778827250e-01    2,370889932e-01    0,000000000e+00    0,000000000e+00    0,000000000e+00    0,000000000e+00
     1220000000   -2,787215114e-01    3,287679255e-01   -4,224195145e-03    1,614623964e-01    0,000000000e+00    0,000000000e+00    0,000000000e+00    0,000000000e+00
     1234000000   -4,579862207e-02    3,519969285e-01    2,578031458e-02    5,790985376e-02    0,000000000e+00    0,000000000e+00    0,000000000e+00    0,000000000e+00
     1248000000    1,179875880e-01    2,491348237e-01    2,667953027e-03    2,605106495e-02    0,000000000e+00    0,000000000e+00    0,000000000e+00    0,000000000e+00
     1262000000    2,156743407e-01    1,052548066e-01    4,345176741e-03    3,163077682e-02    0,000000000e+00    0,000000000e+00    0,000000000e+00    0,000000000e+00
     1276000000    2,343131900e-01   -5,970558152e-02    2,643996663e-02    3,077472374e-02    0,000000000e+00    0,000000000e+00    0,000000000e+00    0,000000000e+00
     1290000000    1,952817589e-01   -2,204035670e-01    5,701142177e-02    2,562090196e-02    0,000000000e+00    0,000000000e+00    0,000000000e+00    0,000000000e+00
     1304000000    8,733863384e-02   -3,559211493e-01    8,052986860e-02    7,885607891e-03    0,000000000e+00    0,000000000e+00    0,000000000e+00    0,000000000e+00
     1318000000   -1,024785191e-01   -4,452703595e-01    9,091036767e-02   -3,320325050e-04    0,000000000e+00    0,000000000e+00    0,000000000e+00    0,000000000e+00
     1332000000   -3,517782390e-01   -4,393804371e-01    8,955028653e-02   -1,764657535e-02    0,000000000e+00    0,000000000e+00    0,000000000e+00    0,000000000e+00
     1346000000   -5,878037810e-01   -2,504877150e-01    1,109755784e-01   -7,145010866e-03    0,000000000e+00    0,000000000e+00    0,000000000e+00    0,000000000e+00
     1360000000   -6,497678757e-01    7,028678805e-02    1,405570358e-01   -9,621777572e-03    0,000000000e+00    0,000000000e+00    0,000000000e+00    0,000000000e+00
     1374000000   -4,967786074e-01    3,321240842e-01    1,705661267e-01   -5,024652556e-02    0,000000000e+00    0,000000000e+00    0,000000000e+00    0,000000000e+00
     1388000000   -2,481558621e-01    4,229065478e-01    1,660318822e-01   -9,208268672e-02    0,000000000e+00    0,000000000e+00    0,000000000e+00    0,000000000e+00
     1402000000   -4,725571722e-02    3,914514184e-01    1,392263025e-01   -8,892902732e-02    0,000000000e+00    0,000000000e+00    0,000000000e+00    0,000000000e+00
     1416000000    1,074947268e-01    2,879683375e-01    1,300422847e-01   -8,515658230e-02    0,000000000e+00    0,000000000e+00    0,000000000e+00    0,000000000e+00
     1430000000    1,958699375e-01    1,515715271e-01    1,372066289e-01   -6,776331365e-02    0,000000000e+00    0,000000000e+00    0,000000000e+00    0,000000000e+00
     1444000000    2,121308595e-01   -1,123782247e-02    1,088627726e-01   -3,479263932e-02    0,000000000e+00    0,000000000e+00    0,000000000e+00    0,000000000e+00
     1458000000    1,799242347e-01   -1,759555787e-01    1,463429779e-01    3,222886845e-02    0,000000000e+00    0,000000000e+00    0,000000000e+00    0,000000000e+00
     1472000000    6,535941362e-02   -3,471451104e-01    1,858991832e-01    6,291511655e-02    0,000000000e+00    0,000000000e+00    0,000000000e+00    0,000000000e+00
     1486000000   -1,394034773e-01   -4,788567126e-01    2,812035978e-01    8,493170887e-02    0,000000000e+00    0,000000000e+00    0,000000000e+00    0,000000000e+00
     1500000000   -4,405421019e-01   -4,837009907e-01    4,077476561e-01    4,659764841e-02    0,000000000e+00    0,000000000e+00    0,000000000e+00    0,000000000e+00
