! NanoVNA-App
! Date: 2025-09-25 15:59:57
! Start: 100MHz Stop: 1,5GHz Points: 101
! S-Parameter data: F S11 S21 S12 S22
# Hz S RI R 50
!     Frequency           S11_Real           S11_Imag           S21_Real           S21_Imag           S12_Real           S12_Imag           S22_Real           S22_Imag
      100000000   -2,825807780e-02   -2,859126311e-03    3,722722232e-01   -7,223760486e-01    0,000000000e+00    0,000000000e+00    0,000000000e+00    0,000000000e+00
      114000000   -1,572530344e-02    1,288029924e-02   -9,129383415e-02   -8,047040701e-01    0,000000000e+00    0,000000000e+00    0,000000000e+00    0,000000000e+00
      128000000    4,389065783e-03    1,195799187e-02   -5,159454942e-01   -6,187415719e-01    0,000000000e+00    0,000000000e+00    0,000000000e+00    0,000000000e+00
      142000000    1,548474841e-02   -1,766099944e-03   -7,673639655e-01   -2,341530323e-01    0,000000000e+00    0,000000000e+00    0,000000000e+00    0,000000000e+00
      156000000    1,575219072e-02   -1,282818988e-02   -7,633742094e-01    2,218550742e-01    0,000000000e+00    0,000000000e+00    0,000000000e+00    0,000000000e+00
      170000000    1,765497401e-02   -2,099575289e-02   -5,151724219e-01    6,060861349e-01    0,000000000e+00    0,000000000e+00    0,000000000e+00    0,000000000e+00
      184000000    2,204606496e-02   -3,559415415e-02   -9,844110906e-02    7,860943079e-01    0,000000000e+00    0,000000000e+00    0,000000000e+00    0,000000000e+00
      198000000    1,405418012e-02   -6,066340581e-02    3,461231887e-01    7,106282711e-01    0,000000000e+00    0,000000000e+00    0,000000000e+00    0,000000000e+00
      212000000   -1,768738963e-02   -7,918963581e-02    6,807787418e-01    4,062801600e-01    0,000000000e+00    0,000000000e+00    0,000000000e+00    0,000000000e+00
      226000000   -6,029314548e-02   -6,657189131e-02    7,957313657e-01   -3,560281545e-02    0,000000000e+00    0,000000000e+00    0,000000000e+00    0,000000000e+00
      240000000   -8,059386164e-02   -2,276423015e-02    6,417192817e-01   -4,717347622e-01    0,000000000e+00    0,000000000e+00    0,000000000e+00    0,000000000e+00
      254000000   -6,081873178e-02    1,978608780e-02    2,711882293e-01   -7,419968843e-01    0,000000000e+00    0,000000000e+00    0,000000000e+00    0,000000000e+00
      268000000   -2,094861865e-02    3,091631643e-02   -1,813129038e-01   -7,608483434e-01    0,000000000e+00    0,000000000e+00    0,000000000e+00    0,000000000e+00
      282000000    6,934991572e-03    1,371652633e-02   -5,631287098e-01   -5,325130224e-01    0,000000000e+00    0,000000000e+00    0,000000000e+00    0,000000000e+00
      296000000    1,232067682e-02   -6,264533382e-03   -7,603813410e-01   -1,344487667e-01    0,000000000e+00    0,000000000e+00    0,000000000e+00    0,000000000e+00
      310000000    1,340451092e-02   -1,478125714e-02   -7,088160515e-01    3,038567007e-01    0,000000000e+00    0,000000000e+00    0,000000000e+00    0,000000000e+00
      324000000    2,243406698e-02   -2,481624857e-02   -4,213915765e-01    6,387136579e-01    0,000000000e+00    0,000000000e+00    0,000000000e+00    0,000000000e+00
      338000000    2,827768959e-02   -5,048123747e-02   -3,827006090e-03    7,587364912e-01    0,000000000e+00    0,000000000e+00    0,000000000e+00    0,000000000e+00
      352000000    1,032277197e-02   -8,318493515e-02    4,119515419e-01    6,351152062e-01    0,000000000e+00    0,000000000e+00    0,000000000e+00    0,000000000e+00
      366000000   -3,191787004e-02   -9,387223423e-02    6,927812696e-01    3,043133318e-01    0,000000000e+00    0,000000000e+00    0,000000000e+00    0,000000000e+00
      380000000   -6,758463383e-02   -6,869051605e-02    7,450972199e-01   -1,338346303e-01    0,000000000e+00    0,000000000e+00    0,000000000e+00    0,000000000e+00
      394000000   -6,835398823e-02   -3,050429188e-02    5,401070714e-01   -5,276904702e-01    0,000000000e+00    0,000000000e+00    0,000000000e+00    0,000000000e+00
      408000000   -4,263532534e-02   -1,549437083e-02    1,506852955e-01   -7,344963551e-01    0,000000000e+00    0,000000000e+00    0,000000000e+00    0,000000000e+00
      422000000   -2,613544837e-02   -3,124271706e-02   -2,798150778e-01   -6,895698309e-01    0,000000000e+00    0,000000000e+00    0,000000000e+00    0,000000000e+00
      436000000   -3,922719881e-02   -4,894562811e-02   -6,103466749e-01   -4,197098613e-01    0,000000000e+00    0,000000000e+00    0,000000000e+00    0,000000000e+00
      450000000   -6,466745585e-02   -3,916935250e-02   -7,376613617e-01   -7,472649682e-03    0,000000000e+00    0,000000000e+00    0,000000000e+00    0,000000000e+00
      464000000   -6,788329780e-02   -6,276397035e-03   -6,082086563e-01    4,060217738e-01    0,000000000e+00    0,000000000e+00    0,000000000e+00    0,000000000e+00
      478000000   -3,876094893e-02    1,586078294e-02   -2,677314579e-01    6,694269776e-01    0,000000000e+00    0,000000000e+00    0,000000000e+00    0,000000000e+00
      492000000   -5,185509566e-03    6,322716363e-03    1,520147324e-01    6,954805255e-01    0,000000000e+00    0,000000000e+00    0,000000000e+00    0,000000000e+00
      506000000    7,073969115e-03   -2,029820904e-02    5,078496337e-01    4,884042740e-01    0,000000000e+00    0,000000000e+00    0,000000000e+00    0,000000000e+00
      520000000    1,657327812e-04   -3,876985610e-02    6,893830895e-01    1,213196963e-01    0,000000000e+00    0,000000000e+00    0,000000000e+00    0,000000000e+00
      534000000   -2,644619904e-03   -4,557432607e-02    6,327644587e-01   -2,825629115e-01    0,000000000e+00    0,000000000e+00    0,000000000e+00    0,000000000e+00
      548000000    6,417804398e-04   -5,966437235e-02    3,590593040e-01   -5,789940953e-01    0,000000000e+00    0,000000000e+00    0,000000000e+00    0,000000000e+00
      562000000   -8,264051750e-03   -8,875090629e-02   -2,694392391e-02   -6,726626158e-01    0,000000000e+00    0,000000000e+00    0,000000000e+00    0,000000000e+00
      576000000   -4,525972530e-02   -1,098864749e-01   -4,013704658e-01   -5,387644768e-01    0,000000000e+00    0,000000000e+00    0,000000000e+00    0,000000000e+00
      590000000   -9,480985999e-02   -9,322880208e-02   -6,390004158e-01   -2,192708999e-01    0,000000000e+00    0,000000000e+00    0,000000000e+00    0,000000000e+00
      604000000   -1,113781109e-01   -4,112030938e-02   -6,471437216e-01    1,985562593e-01    0,000000000e+00    0,000000000e+00    0,000000000e+00    0,000000000e+00
      618000000   -7,608788460e-02   -2,340820385e-03   -4,018084705e-01    5,351107121e-01    0,000000000e+00    0,000000000e+00    0,000000000e+00    0,000000000e+00
      632000000   -2,997486107e-02   -2,078616992e-02   -1,188517176e-02    6,554439664e-01    0,000000000e+00    0,000000000e+00    0,000000000e+00    0,000000000e+00
      646000000   -3,654187918e-02   -7,650128007e-02    3,658950031e-01    5,272691846e-01    0,000000000e+00    0,000000000e+00    0,000000000e+00    0,000000000e+00
      660000000   -1,121704355e-01   -1,001029760e-01    6,011092663e-01    1,929783523e-01    0,000000000e+00    0,000000000e+00    0,000000000e+00    0,000000000e+00
      674000000   -1,994905025e-01   -2,319296636e-02    5,651490688e-01   -2,399551421e-01    0,000000000e+00    0,000000000e+00    0,000000000e+00    0,000000000e+00
      688000000   -1,790351421e-01    1,441505402e-01    2,085174471e-01   -5,218892097e-01    0,000000000e+00    0,000000000e+00    0,000000000e+00    0,000000000e+00
      702000000    2,635014616e-02    2,472401857e-01   -2,046770751e-01   -4,052699804e-01    0,000000000e+00    0,000000000e+00    0,000000000e+00    0,000000000e+00
      716000000    2,634455562e-01    1,103295013e-01   -2,723326087e-01   -8,300136775e-02    0,000000000e+00    0,000000000e+00    0,000000000e+00    0,000000000e+00
      730000000    3,029933870e-01   -1,868198365e-01   -1,060213372e-01    3,169424832e-02    0,000000000e+00    0,000000000e+00    0,000000000e+00    0,000000000e+00
      744000000    9,357508272e-02   -4,274615049e-01   -4,217570275e-02   -6,580659747e-02    0,000000000e+00    0,000000000e+00    0,000000000e+00    0,000000000e+00
      758000000   -2,601660192e-01   -4,279067516e-01   -1,760168374e-01   -1,259508878e-01    0,000000000e+00    0,000000000e+00    0,000000000e+00    0,000000000e+00
      772000000   -4,843223691e-01   -1,190372780e-01   -3,370955586e-01    3,855981305e-02    0,000000000e+00    0,000000000e+00    0,000000000e+00    0,000000000e+00
      786000000   -3,414751589e-01    2,205664665e-01   -2,628525198e-01    3,169066310e-01    0,000000000e+00    0,000000000e+00    0,000000000e+00    0,000000000e+00
      800000000   -4,035957158e-02    2,760145366e-01    3,101943759e-03    4,375568032e-01    0,000000000e+00    0,000000000e+00    0,000000000e+00    0,000000000e+00
      814000000    1,445316672e-01    1,253795475e-01    2,636291385e-01    3,597960770e-01    0,000000000e+00    0,000000000e+00    0,000000000e+00    0,000000000e+00
      828000000    1,677640378e-01   -7,020144165e-02    4,324823618e-01    1,565998942e-01    0,000000000e+00    0,000000000e+00    0,000000000e+00    0,000000000e+00
      842000000    6,765653193e-02   -2,187215537e-01    4,667830467e-01   -1,200924367e-01    0,000000000e+00    0,000000000e+00    0,000000000e+00    0,000000000e+00
      856000000   -1,065679044e-01   -2,644339204e-01    3,197992742e-01   -3,944716454e-01    0,000000000e+00    0,000000000e+00    0,000000000e+00    0,000000000e+00
      870000000   -2,753303647e-01   -1,677562892e-01   -2,387291053e-03   -5,277702808e-01    0,000000000e+00    0,000000000e+00    0,000000000e+00    0,000000000e+00
      884000000   -3,209793866e-01    3,616625443e-02   -3,484511971e-01   -3,918940723e-01    0,000000000e+00    0,000000000e+00    0,000000000e+00    0,000000000e+00
      898000000   -1,916630119e-01    2,061754167e-01   -4,885016978e-01   -6,293372065e-02    0,000000000e+00    0,000000000e+00    0,000000000e+00    0,000000000e+00
      912000000    7,554188371e-03    2,193230093e-01   -4,027859569e-01    2,655732036e-01    0,000000000e+00    0,000000000e+00    0,000000000e+00    0,000000000e+00
      926000000    1,513472050e-01    1,117977872e-01   -1,689532101e-01    4,151483476e-01    0,000000000e+00    0,000000000e+00    0,000000000e+00    0,000000000e+00
      940000000    1,995315701e-01   -4,753892124e-02    6,294217706e-02    4,250230193e-01    0,000000000e+00    0,000000000e+00    0,000000000e+00    0,000000000e+00
      954000000    1,506656408e-01   -2,009100318e-01    2,605304122e-01    3,400107920e-01    0,000000000e+00    0,000000000e+00    0,000000000e+00    0,000000000e+00
      968000000    2,399692871e-02   -3,163452446e-01    4,113857150e-01    1,785634905e-01    0,000000000e+00    0,000000000e+00    0,000000000e+00    0,000000000e+00
      982000000   -1,624100953e-01   -3,290529251e-01    4,742990136e-01   -6,625856459e-02    0,000000000e+00    0,000000000e+00    0,000000000e+00    0,000000000e+00
      996000000   -3,272846937e-01   -2,074693888e-01    3,696125746e-01   -3,554422259e-01    0,000000000e+00    0,000000000e+00    0,000000000e+00    0,000000000e+00
     1010000000   -3,376293480e-01   -7,786105853e-03    4,245904461e-02   -5,225617290e-01    0,000000000e+00    0,000000000e+00    0,000000000e+00    0,000000000e+00
     1024000000   -2,078425884e-01    9,036028385e-02   -3,438039720e-01   -3,786970675e-01    0,000000000e+00    0,000000000e+00    0,000000000e+00    0,000000000e+00
     1038000000   -1,356298327e-01    1,166204549e-02   -4,828203022e-01    6,551764905e-02    0,000000000e+00    0,000000000e+00    0,000000000e+00    0,000000000e+00
     1052000000   -2,861356139e-01    5,264925584e-02   -9,272234887e-02    3,746900856e-01    0,000000000e+00    0,000000000e+00    0,000000000e+00    0,000000000e+00
     1066000000   -1,500993073e-01    2,970125973e-01    1,436691433e-01    1,290134341e-01    0,000000000e+00    0,000000000e+00    0,000000000e+00    0,000000000e+00
     1080000000    9,668777138e-02    2,464849353e-01    8,864203095e-02    2,158787102e-02    0,000000000e+00    0,000000000e+00    0,000000000e+00    0,000000000e+00
     1094000000    2,221572995e-01    9,169796854e-02    6,942147762e-02    9,728980251e-03    0,000000000e+00    0,000000000e+00    0,000000000e+00    0,000000000e+00
     1108000000    2,421651781e-01   -8,908940852e-02    8,224510401e-02    1,584606245e-03    0,000000000e+00    0,000000000e+00    0,000000000e+00    0,000000000e+00
     1122000000    1,807367355e-01   -2,507316470e-01    1,028311029e-01   -2,472002618e-02    0,000000000e+00    0,000000000e+00    0,000000000e+00    0,000000000e+00
     1136000000    5,142954364e-02   -3,768913746e-01    1,261338741e-01   -7,235143334e-02    0,000000000e+00    0,000000000e+00    0,000000000e+00    0,000000000e+00
     1150000000   -1,543586850e-01   -4,276354611e-01    1,368688047e-01   -1,521763504e-01    0,000000000e+00    0,000000000e+00    0,000000000e+00    0,000000000e+00
     1164000000   -3,801817894e-01   -3,222143352e-01    1,010149792e-01   -2,755384445e-01    0,000000000e+00    0,000000000e+00    0,000000000e+00    0,000000000e+00
     1178000000   -4,670539796e-01   -8,102801442e-02   -1,083219722e-01   -4,051792324e-01    0,000000000e+00    0,000000000e+00    0,000000000e+00    0,000000000e+00
     1192000000   -3,756532371e-01    3,513820469e-02   -4,626360536e-01   -1,967075169e-01    0,000000000e+00    0,000000000e+00    0,000000000e+00    0,000000000e+00
     1206000000   -4,150838256e-01    1,371905804e-01   -2,721241713e-01    2,403234988e-01    0,000000000e+00    0,000000000e+00    0,000000000e+00    0,000000000e+00
     1220000000   -2,777555287e-01    3,295241892e-01   -7,674162276e-03    1,653938740e-01    0,000000000e+00    0,000000000e+00    0,000000000e+00    0,000000000e+00
     1234000000   -4,164055735e-02    3,508672714e-01    2,729993127e-02    5,400334671e-02    0,000000000e+00    0,000000000e+00    0,000000000e+00    0,000000000e+00
     1248000000    1,263759285e-01    2,539025843e-01    6,161413621e-03    2,728195861e-02    0,000000000e+00    0,000000000e+00    0,000000000e+00    0,000000000e+00
     1262000000    2,166418731e-01    1,009105071e-01    5,720189773e-03    3,097340651e-02    0,000000000e+00    0,000000000e+00    0,000000000e+00    0,000000000e+00
     1276000000    2,319215536e-01   -5,911253020e-02    2,463543601e-02    3,415062651e-02    0,000000000e+00    0,000000000e+00    0,000000000e+00    0,000000000e+00
     1290000000    1,947948933e-01   -2,142889500e-01    5,863106251e-02    2,129212208e-02    0,000000000e+00    0,000000000e+00    0,000000000e+00    0,000000000e+00
     1304000000    8,698383719e-02   -3,517941535e-01    8,145993203e-02    3,285582410e-03    0,000000000e+00    0,000000000e+00    0,000000000e+00    0,000000000e+00
     1318000000   -1,051096693e-01   -4,505883455e-01    7,618444413e-02   -1,459401473e-02    0,000000000e+00    0,000000000e+00    0,000000000e+00    0,000000000e+00
     1332000000   -3,548669219e-01   -4,340450168e-01    8,678026497e-02   -2,168578096e-02    0,000000000e+00    0,000000000e+00    0,000000000e+00    0,000000000e+00
     1346000000   -5,925145149e-01   -2,503526807e-01    1,057444364e-01   -8,431481197e-03    0,000000000e+00    0,000000000e+00    0,000000000e+00    0,000000000e+00
     1360000000   -6,500488520e-01    7,622117549e-02    1,338592470e-01   -1,630873792e-02    0,000000000e+00    0,000000000e+00    0,000000000e+00    0,000000000e+00
     1374000000   -4,889418185e-01    3,267818689e-01    1,777615994e-01   -4,617417604e-02    0,000000000e+00    0,000000000e+00    0,000000000e+00    0,000000000e+00
     1388000000   -2,516902387e-01    4,298451245e-01    1,612865180e-01   -7,890406996e-02    0,000000000e+00    0,000000000e+00    0,000000000e+00    0,000000000e+00
     1402000000   -5,028257892e-02    3,892553449e-01    1,376256198e-01   -9,205345809e-02    0,000000000e+00    0,000000000e+00    0,000000000e+00    0,000000000e+00
     1416000000    9,977365285e-02    2,847377360e-01    1,118274331e-01   -9,263803810e-02    0,000000000e+00    0,000000000e+00    0,000000000e+00    0,000000000e+00
     1430000000    1,924115717e-01    1,522482187e-01    1,173315719e-01   -3,664567322e-02    0,000000000e+00    0,000000000e+00    0,000000000e+00    0,000000000e+00
     1444000000    2,171551138e-01   -1,130727120e-02    1,228275299e-01   -2,836126275e-02    0,000000000e+00    0,000000000e+00    0,000000000e+00    0,000000000e+00
     1458000000    1,800417453e-01   -1,826202720e-01    1,388743818e-01    1,675047725e-02    0,000000000e+00    0,000000000e+00    0,000000000e+00    0,000000000e+00
     1472000000    6,992239505e-02   -3,483481705e-01    2,025518417e-01    7,794475555e-02    0,000000000e+00    0,000000000e+00    0,000000000e+00    0,000000000e+00
     1486000000   -1,456098855e-01   -4,696672261e-01    2,923399210e-01    1,043193266e-01    0,000000000e+00    0,000000000e+00    0,000000000e+00    0,000000000e+00
     1500000000   -4,500873685e-01   -4,856753945e-01    3,956956267e-01    4,679486528e-02    0,000000000e+00    0,000000000e+00    0,000000000e+00    0,000000000e+00
