! NanoVNA-App
! Date: 2025-09-25 15:57:16
! Start: 100MHz Stop: 1,5GHz Points: 101
! S-Parameter data: F S11 S21 S12 S22
# Hz S RI R 50
!     Frequency           S11_Real           S11_Imag           S21_Real           S21_Imag           S12_Real           S12_Imag           S22_Real           S22_Imag
      100000000   -2,819809318e-02   -2,835244173e-03    3,722608089e-01   -7,225530744e-01    0,000000000e+00    0,000000000e+00    0,000000000e+00    0,000000000e+00
      114000000   -1,564617455e-02    1,284638513e-02   -9,137493372e-02   -8,046570420e-01    0,000000000e+00    0,000000000e+00    0,000000000e+00    0,000000000e+00
      128000000    4,424523097e-03    1,188955177e-02   -5,158889890e-01   -6,187307239e-01    0,000000000e+00    0,000000000e+00    0,000000000e+00    0,000000000e+00
      142000000    1,549154799e-02   -1,821875805e-03   -7,674571276e-01   -2,341604829e-01    0,000000000e+00    0,000000000e+00    0,000000000e+00    0,000000000e+00
      156000000    1,753880270e-02   -1,390528306e-02   -7,678918242e-01    2,273157984e-01    0,000000000e+00    0,000000000e+00    0,000000000e+00    0,000000000e+00
      170000000    1,758828945e-02   -2,100926265e-02   -5,155194998e-01    6,062325835e-01    0,000000000e+00    0,000000000e+00    0,000000000e+00    0,000000000e+00
      184000000    2,200112119e-02   -3,558789939e-02   -9,814495593e-02    7,863360047e-01    0,000000000e+00    0,000000000e+00    0,000000000e+00    0,000000000e+00
      198000000    1,404353231e-02   -6,066076085e-02    3,459380269e-01    7,106678486e-01    0,000000000e+00    0,000000000e+00    0,000000000e+00    0,000000000e+00
      212000000   -1,766589843e-02   -7,914789766e-02    6,807942986e-01    4,063407183e-01    0,000000000e+00    0,000000000e+00    0,000000000e+00    0,000000000e+00
      226000000   -6,032228842e-02   -6,661775708e-02    7,958613038e-01   -3,561778367e-02    0,000000000e+00    0,000000000e+00    0,000000000e+00    0,000000000e+00
      240000000   -8,055975288e-02   -2,272595093e-02    6,416031122e-01   -4,715067744e-01    0,000000000e+00    0,000000000e+00    0,000000000e+00    0,000000000e+00
      254000000   -6,079357117e-02    1,976931281e-02    2,709729671e-01   -7,422612309e-01    0,000000000e+00    0,000000000e+00    0,000000000e+00    0,000000000e+00
      268000000   -2,090348117e-02    3,084224649e-02   -1,812523007e-01   -7,609716058e-01    0,000000000e+00    0,000000000e+00    0,000000000e+00    0,000000000e+00
      282000000    6,873410195e-03    1,370053831e-02   -5,633201003e-01   -5,322359204e-01    0,000000000e+00    0,000000000e+00    0,000000000e+00    0,000000000e+00
      296000000    1,228739042e-02   -6,341939326e-03   -7,601706982e-01   -1,341930330e-01    0,000000000e+00    0,000000000e+00    0,000000000e+00    0,000000000e+00
      310000000    1,353655290e-02   -1,469405927e-02   -7,086273432e-01    3,029748797e-01    0,000000000e+00    0,000000000e+00    0,000000000e+00    0,000000000e+00
      324000000    2,248678356e-02   -2,485916950e-02   -4,213360548e-01    6,380586624e-01    0,000000000e+00    0,000000000e+00    0,000000000e+00    0,000000000e+00
      338000000    2,831570990e-02   -5,053396896e-02   -3,537734272e-03    7,608671784e-01    0,000000000e+00    0,000000000e+00    0,000000000e+00    0,000000000e+00
      352000000    1,027934160e-02   -8,288872242e-02    4,112715721e-01    6,361923218e-01    0,000000000e+00    0,000000000e+00    0,000000000e+00    0,000000000e+00
      366000000   -3,164557368e-02   -9,392423183e-02    6,933546066e-01    3,039374650e-01    0,000000000e+00    0,000000000e+00    0,000000000e+00    0,000000000e+00
      380000000   -6,750065833e-02   -6,865653396e-02    7,456614971e-01   -1,342024058e-01    0,000000000e+00    0,000000000e+00    0,000000000e+00    0,000000000e+00
      394000000   -6,869556755e-02   -3,056611679e-02    5,390083194e-01   -5,277875066e-01    0,000000000e+00    0,000000000e+00    0,000000000e+00    0,000000000e+00
      408000000   -4,288838059e-02   -1,603147946e-02    1,495127827e-01   -7,347290516e-01    0,000000000e+00    0,000000000e+00    0,000000000e+00    0,000000000e+00
      422000000   -2,635211311e-02   -3,102823906e-02   -2,798481584e-01   -6,893646121e-01    0,000000000e+00    0,000000000e+00    0,000000000e+00    0,000000000e+00
      436000000   -3,938393295e-02   -4,888657853e-02   -6,105381846e-01   -4,196426570e-01    0,000000000e+00    0,000000000e+00    0,000000000e+00    0,000000000e+00
      450000000   -6,463089585e-02   -3,917520121e-02   -7,371144295e-01   -7,640906144e-03    0,000000000e+00    0,000000000e+00    0,000000000e+00    0,000000000e+00
      464000000   -6,778065860e-02   -6,452271249e-03   -6,079903841e-01    4,059708416e-01    0,000000000e+00    0,000000000e+00    0,000000000e+00    0,000000000e+00
      478000000   -3,854320571e-02    1,612168550e-02   -2,677887380e-01    6,696597934e-01    0,000000000e+00    0,000000000e+00    0,000000000e+00    0,000000000e+00
      492000000   -5,260618869e-03    6,899843458e-03    1,515351683e-01    6,953426003e-01    0,000000000e+00    0,000000000e+00    0,000000000e+00    0,000000000e+00
      506000000    6,977168377e-03   -2,031631954e-02    5,076970458e-01    4,882448316e-01    0,000000000e+00    0,000000000e+00    0,000000000e+00    0,000000000e+00
      520000000    4,922678345e-04   -3,880306706e-02    6,894015074e-01    1,205353886e-01    0,000000000e+00    0,000000000e+00    0,000000000e+00    0,000000000e+00
      534000000   -3,047204809e-03   -4,536055401e-02    6,333000660e-01   -2,819124758e-01    0,000000000e+00    0,000000000e+00    0,000000000e+00    0,000000000e+00
      548000000    1,135130529e-03   -5,977799371e-02    3,601980507e-01   -5,787515640e-01    0,000000000e+00    0,000000000e+00    0,000000000e+00    0,000000000e+00
      562000000   -7,656558417e-03   -8,828640729e-02   -2,624034137e-02   -6,721267104e-01    0,000000000e+00    0,000000000e+00    0,000000000e+00    0,000000000e+00
      576000000   -4,527624324e-02   -1,094946563e-01   -4,013731480e-01   -5,384339690e-01    0,000000000e+00    0,000000000e+00    0,000000000e+00    0,000000000e+00
      590000000   -9,459794313e-02   -9,348645806e-02   -6,386296749e-01   -2,174166590e-01    0,000000000e+00    0,000000000e+00    0,000000000e+00    0,000000000e+00
      604000000   -1,117687374e-01   -4,128386453e-02   -6,479305625e-01    1,984223872e-01    0,000000000e+00    0,000000000e+00    0,000000000e+00    0,000000000e+00
      618000000   -7,585858554e-02   -1,782235340e-03   -4,018474817e-01    5,354931355e-01    0,000000000e+00    0,000000000e+00    0,000000000e+00    0,000000000e+00
      632000000   -2,941325866e-02   -2,140918560e-02   -1,182204019e-02    6,555030942e-01    0,000000000e+00    0,000000000e+00    0,000000000e+00    0,000000000e+00
      646000000   -3,691384196e-02   -7,683856040e-02    3,657271564e-01    5,268887877e-01    0,000000000e+00    0,000000000e+00    0,000000000e+00    0,000000000e+00
      660000000   -1,118098646e-01   -9,933838248e-02    6,008081436e-01    1,932191700e-01    0,000000000e+00    0,000000000e+00    0,000000000e+00    0,000000000e+00
      674000000   -2,004507482e-01   -2,320002206e-02    5,648001432e-01   -2,403421253e-01    0,000000000e+00    0,000000000e+00    0,000000000e+00    0,000000000e+00
      688000000   -1,794914007e-01    1,453093737e-01    2,089706361e-01   -5,214303732e-01    0,000000000e+00    0,000000000e+00    0,000000000e+00    0,000000000e+00
      702000000    2,476256713e-02    2,464208305e-01   -1,963417828e-01   -4,111401737e-01    0,000000000e+00    0,000000000e+00    0,000000000e+00    0,000000000e+00
      716000000    2,634772956e-01    1,101161838e-01   -2,721957266e-01   -8,328963071e-02    0,000000000e+00    0,000000000e+00    0,000000000e+00    0,000000000e+00
      730000000    3,032885194e-01   -1,868855953e-01   -1,062023938e-01    3,160291538e-02    0,000000000e+00    0,000000000e+00    0,000000000e+00    0,000000000e+00
      744000000    9,319029748e-02   -4,278401732e-01   -4,257569835e-02   -6,610827893e-02    0,000000000e+00    0,000000000e+00    0,000000000e+00    0,000000000e+00
      758000000   -2,598475516e-01   -4,287024736e-01   -1,762558222e-01   -1,259272099e-01    0,000000000e+00    0,000000000e+00    0,000000000e+00    0,000000000e+00
      772000000   -4,839680791e-01   -1,179082021e-01   -3,372063339e-01    3,853436932e-02    0,000000000e+00    0,000000000e+00    0,000000000e+00    0,000000000e+00
      786000000   -3,405982852e-01    2,206029743e-01   -2,630468607e-01    3,175508976e-01    0,000000000e+00    0,000000000e+00    0,000000000e+00    0,000000000e+00
      800000000   -3,982663527e-02    2,761625946e-01    3,055538982e-03    4,366230071e-01    0,000000000e+00    0,000000000e+00    0,000000000e+00    0,000000000e+00
      814000000    1,437793821e-01    1,249322519e-01    2,639108300e-01    3,591126502e-01    0,000000000e+00    0,000000000e+00    0,000000000e+00    0,000000000e+00
      828000000    1,679487824e-01   -6,997098774e-02    4,334298074e-01    1,562682390e-01    0,000000000e+00    0,000000000e+00    0,000000000e+00    0,000000000e+00
      842000000    6,735005975e-02   -2,181420624e-01    4,667270482e-01   -1,202846691e-01    0,000000000e+00    0,000000000e+00    0,000000000e+00    0,000000000e+00
      856000000   -1,069918945e-01   -2,638803422e-01    3,198702335e-01   -3,948068023e-01    0,000000000e+00    0,000000000e+00    0,000000000e+00    0,000000000e+00
      870000000   -2,740649879e-01   -1,687740833e-01   -2,760709729e-03   -5,268401504e-01    0,000000000e+00    0,000000000e+00    0,000000000e+00    0,000000000e+00
      884000000   -3,196123838e-01    3,551009297e-02   -3,475663662e-01   -3,920778036e-01    0,000000000e+00    0,000000000e+00    0,000000000e+00    0,000000000e+00
      898000000   -1,921431571e-01    2,058445811e-01   -4,898943007e-01   -6,356146187e-02    0,000000000e+00    0,000000000e+00    0,000000000e+00    0,000000000e+00
      912000000    5,743444897e-03    2,195792198e-01   -4,033797383e-01    2,832237780e-01    0,000000000e+00    0,000000000e+00    0,000000000e+00    0,000000000e+00
      926000000    1,481328458e-01    1,122864410e-01   -1,704119742e-01    4,158958495e-01    0,000000000e+00    0,000000000e+00    0,000000000e+00    0,000000000e+00
      940000000    2,003405839e-01   -4,557892680e-02    6,523578614e-02    4,237094522e-01    0,000000000e+00    0,000000000e+00    0,000000000e+00    0,000000000e+00
      954000000    1,526061296e-01   -2,049503773e-01    2,606578767e-01    3,415662944e-01    0,000000000e+00    0,000000000e+00    0,000000000e+00    0,000000000e+00
      968000000    2,295611054e-02   -3,167986274e-01    4,116669893e-01    1,786157936e-01    0,000000000e+00    0,000000000e+00    0,000000000e+00    0,000000000e+00
      982000000   -1,578515917e-01   -3,318791389e-01    4,763201177e-01   -6,677819043e-02    0,000000000e+00    0,000000000e+00    0,000000000e+00    0,000000000e+00
      996000000   -3,231337965e-01   -2,103523463e-01    3,676741421e-01   -3,561043143e-01    0,000000000e+00    0,000000000e+00    0,000000000e+00    0,000000000e+00
     1010000000   -3,378837407e-01   -5,487143062e-03    4,252699390e-02   -5,241279006e-01    0,000000000e+00    0,000000000e+00    0,000000000e+00    0,000000000e+00
     1024000000   -2,057570964e-01    9,562120587e-02   -3,449757397e-01   -3,779906034e-01    0,000000000e+00    0,000000000e+00    0,000000000e+00    0,000000000e+00
     1038000000   -1,336110830e-01    8,187632076e-03   -4,830808640e-01    6,272289902e-02    0,000000000e+00    0,000000000e+00    0,000000000e+00    0,000000000e+00
     1052000000   -2,907011509e-01    5,228782818e-02   -9,531467408e-02    3,732651472e-01    0,000000000e+00    0,000000000e+00    0,000000000e+00    0,000000000e+00
     1066000000   -1,454016715e-01    3,004854620e-01    1,455507874e-01    1,329353452e-01    0,000000000e+00    0,000000000e+00    0,000000000e+00    0,000000000e+00
     1080000000    1,032475308e-01    2,482940108e-01    9,073549509e-02    2,369897440e-02    0,000000000e+00    0,000000000e+00    0,000000000e+00    0,000000000e+00
     1094000000    2,231587470e-01    8,976303786e-02    6,824840605e-02    8,283955976e-03    0,000000000e+00    0,000000000e+00    0,000000000e+00    0,000000000e+00
     1108000000    2,410434186e-01   -9,058210999e-02    8,311027288e-02   -7,901604404e-04    0,000000000e+00    0,000000000e+00    0,000000000e+00    0,000000000e+00
     1122000000    1,863922179e-01   -2,524033785e-01    1,037805006e-01   -2,545965277e-02    0,000000000e+00    0,000000000e+00    0,000000000e+00    0,000000000e+00
     1136000000    5,116847903e-02   -3,762647510e-01    1,274092346e-01   -7,514074445e-02    0,000000000e+00    0,000000000e+00    0,000000000e+00    0,000000000e+00
     1150000000   -1,569429487e-01   -4,250363111e-01    1,365495026e-01   -1,519497037e-01    0,000000000e+00    0,000000000e+00    0,000000000e+00    0,000000000e+00
     1164000000   -3,774102330e-01   -3,215505481e-01    9,604140371e-02   -2,763221860e-01    0,000000000e+00    0,000000000e+00    0,000000000e+00    0,000000000e+00
     1178000000   -4,625626802e-01   -9,089996666e-02   -1,064908355e-01   -4,090934694e-01    0,000000000e+00    0,000000000e+00    0,000000000e+00    0,000000000e+00
     1192000000   -3,773624599e-01    3,884484246e-02   -4,644136727e-01   -1,958999634e-01    0,000000000e+00    0,000000000e+00    0,000000000e+00    0,000000000e+00
     1206000000   -4,105563760e-01    1,376061291e-01   -2,744744122e-01    2,369029969e-01    0,000000000e+00    0,000000000e+00    0,000000000e+00    0,000000000e+00
     1220000000   -2,776545882e-01    3,275615573e-01   -2,762977267e-03    1,625132412e-01    0,000000000e+00    0,000000000e+00    0,000000000e+00    0,000000000e+00
     1234000000   -5,152018368e-02    3,499422669e-01    2,106626704e-02    5,652853101e-02    0,000000000e+00    0,000000000e+00    0,000000000e+00    0,000000000e+00
     1248000000    1,181002706e-01    2,474124432e-01    1,071100822e-03    2,253487147e-02    0,000000000e+00    0,000000000e+00    0,000000000e+00    0,000000000e+00
     1262000000    2,137032300e-01    9,883751720e-02    5,681565031e-03    2,655662782e-02    0,000000000e+00    0,000000000e+00    0,000000000e+00    0,000000000e+00
     1276000000    2,315841466e-01   -5,834206194e-02    2,458752692e-02    3,275755048e-02    0,000000000e+00    0,000000000e+00    0,000000000e+00    0,000000000e+00
     1290000000    1,916392148e-01   -2,133870721e-01    5,448644981e-02    2,822278254e-02    0,000000000e+00    0,000000000e+00    0,000000000e+00    0,000000000e+00
     1304000000    7,896649092e-02   -3,549602628e-01    7,403211296e-02    5,334225483e-03    0,000000000e+00    0,000000000e+00    0,000000000e+00    0,000000000e+00
     1318000000   -1,000542492e-01   -4,444163144e-01    8,599762619e-02   -8,150355890e-03    0,000000000e+00    0,000000000e+00    0,000000000e+00    0,000000000e+00
     1332000000   -3,519147933e-01   -4,343862534e-01    8,903279901e-02   -1,236231253e-02    0,000000000e+00    0,000000000e+00    0,000000000e+00    0,000000000e+00
     1346000000   -5,894927382e-01   -2,494976521e-01    1,078782380e-01   -9,276658297e-03    0,000000000e+00    0,000000000e+00    0,000000000e+00    0,000000000e+00
     1360000000   -6,525588036e-01    6,691057980e-02    1,414312422e-01   -2,243230864e-02    0,000000000e+00    0,000000000e+00    0,000000000e+00    0,000000000e+00
     1374000000   -4,877805412e-01    3,276397884e-01    1,757724732e-01   -4,826958850e-02    0,000000000e+00    0,000000000e+00    0,000000000e+00    0,000000000e+00
     1388000000   -2,571350634e-01    4,253171980e-01    1,611568332e-01   -8,308188617e-02    0,000000000e+00    0,000000000e+00    0,000000000e+00    0,000000000e+00
     1402000000   -4,457587749e-02    3,855810463e-01    1,405987740e-01   -9,890087694e-02    0,000000000e+00    0,000000000e+00    0,000000000e+00    0,000000000e+00
     1416000000    1,021871120e-01    2,814855576e-01    1,321984828e-01   -9,227661043e-02    0,000000000e+00    0,000000000e+00    0,000000000e+00    0,000000000e+00
     1430000000    1,872687340e-01    1,443364918e-01    1,178147569e-01   -8,536839485e-02    0,000000000e+00    0,000000000e+00    0,000000000e+00    0,000000000e+00
     1444000000    2,106804997e-01   -8,745055646e-03    1,185331643e-01   -1,731353626e-02    0,000000000e+00    0,000000000e+00    0,000000000e+00    0,000000000e+00
     1458000000    1,879965663e-01   -1,829732507e-01    1,538765728e-01    1,374298334e-02    0,000000000e+00    0,000000000e+00    0,000000000e+00    0,000000000e+00
     1472000000    7,176641375e-02   -3,453841209e-01    2,047431618e-01    6,865110993e-02    0,000000000e+00    0,000000000e+00    0,000000000e+00    0,000000000e+00
     1486000000   -1,393334270e-01   -4,737093449e-01    2,922785282e-01    8,298534155e-02    0,000000000e+00    0,000000000e+00    0,000000000e+00    0,000000000e+00
     1500000000   -4,420427382e-01   -4,716337621e-01    4,184371829e-01    6,375888735e-02    0,000000000e+00    0,000000000e+00    0,000000000e+00    0,000000000e+00
