! NanoVNA-App
! Date: 2025-09-25 16:00:31
! Start: 100MHz Stop: 1,5GHz Points: 101
! S-Parameter data: F S11 S21 S12 S22
# Hz S RI R 50
!     Frequency           S11_Real           S11_Imag           S21_Real           S21_Imag           S12_Real           S12_Imag           S22_Real           S22_Imag
      100000000   -2,827410959e-02   -2,879254986e-03    3,722759783e-01   -7,223532200e-01    0,000000000e+00    0,000000000e+00    0,000000000e+00    0,000000000e+00
      114000000   -1,570229419e-02    1,287735626e-02   -9,133992344e-02   -8,047015667e-01    0,000000000e+00    0,000000000e+00    0,000000000e+00    0,000000000e+00
      128000000    4,325380549e-03    1,198452991e-02   -5,157995820e-01   -6,187859774e-01    0,000000000e+00    0,000000000e+00    0,000000000e+00    0,000000000e+00
      142000000    1,549381390e-02   -1,748565817e-03   -7,673403621e-01   -2,341688871e-01    0,000000000e+00    0,000000000e+00    0,000000000e+00    0,000000000e+00
      156000000    1,518218406e-02   -1,314857975e-02   -7,660636306e-01    2,203502804e-01    0,000000000e+00    0,000000000e+00    0,000000000e+00    0,000000000e+00
      170000000    1,765740477e-02   -2,103172615e-02   -5,153530240e-01    6,062108278e-01    0,000000000e+00    0,000000000e+00    0,000000000e+00    0,000000000e+00
      184000000    2,203138918e-02   -3,555220366e-02   -9,842820466e-02    7,859460711e-01    0,000000000e+00    0,000000000e+00    0,000000000e+00    0,000000000e+00
      198000000    1,404858194e-02   -6,067749113e-02    3,459109068e-01    7,107051611e-01    0,000000000e+00    0,000000000e+00    0,000000000e+00    0,000000000e+00
      212000000   -1,769275777e-02   -7,915984839e-02    6,809270382e-01    4,064162076e-01    0,000000000e+00    0,000000000e+00    0,000000000e+00    0,000000000e+00
      226000000   -6,027838960e-02   -6,658414006e-02    7,957859039e-01   -3,561164066e-02    0,000000000e+00    0,000000000e+00    0,000000000e+00    0,000000000e+00
      240000000   -8,058682829e-02   -2,277403139e-02    6,415961981e-01   -4,716615975e-01    0,000000000e+00    0,000000000e+00    0,000000000e+00    0,000000000e+00
      254000000   -6,081222370e-02    1,977331750e-02    2,709576488e-01   -7,418091297e-01    0,000000000e+00    0,000000000e+00    0,000000000e+00    0,000000000e+00
      268000000   -2,093818039e-02    3,088269010e-02   -1,811849475e-01   -7,609959245e-01    0,000000000e+00    0,000000000e+00    0,000000000e+00    0,000000000e+00
      282000000    6,916780956e-03    1,372188143e-02   -5,633033514e-01   -5,323788524e-01    0,000000000e+00    0,000000000e+00    0,000000000e+00    0,000000000e+00
      296000000    1,236343104e-02   -6,186633371e-03   -7,603280544e-01   -1,343382150e-01    0,000000000e+00    0,000000000e+00    0,000000000e+00    0,000000000e+00
      310000000    1,371489186e-02   -1,463490073e-02   -7,080719471e-01    3,037105203e-01    0,000000000e+00    0,000000000e+00    0,000000000e+00    0,000000000e+00
      324000000    2,266080678e-02   -2,469671890e-02   -4,209286571e-01    6,389110684e-01    0,000000000e+00    0,000000000e+00    0,000000000e+00    0,000000000e+00
      338000000    2,834707499e-02   -5,050717294e-02   -1,552059664e-03    7,594686747e-01    0,000000000e+00    0,000000000e+00    0,000000000e+00    0,000000000e+00
      352000000    1,021274086e-02   -8,287803084e-02    4,121042788e-01    6,353743672e-01    0,000000000e+00    0,000000000e+00    0,000000000e+00    0,000000000e+00
      366000000   -3,167071939e-02   -9,358548373e-02    6,935117841e-01    3,040769398e-01    0,000000000e+00    0,000000000e+00    0,000000000e+00    0,000000000e+00
      380000000   -6,771689653e-02   -6,886488199e-02    7,456577420e-01   -1,346121579e-01    0,000000000e+00    0,000000000e+00    0,000000000e+00    0,000000000e+00
      394000000   -6,839936227e-02   -3,039658442e-02    5,403468609e-01   -5,283434987e-01    0,000000000e+00    0,000000000e+00    0,000000000e+00    0,000000000e+00
      408000000   -4,273561016e-02   -1,568526402e-02    1,491307765e-01   -7,345578671e-01    0,000000000e+00    0,000000000e+00    0,000000000e+00    0,000000000e+00
      422000000   -2,617612109e-02   -3,092480637e-02   -2,793365717e-01   -6,896392703e-01    0,000000000e+00    0,000000000e+00    0,000000000e+00    0,000000000e+00
      436000000   -3,905011714e-02   -4,913120344e-02   -6,098709702e-01   -4,196143150e-01    0,000000000e+00    0,000000000e+00    0,000000000e+00    0,000000000e+00
      450000000   -6,462755799e-02   -3,924289346e-02   -7,368387580e-01   -7,425403222e-03    0,000000000e+00    0,000000000e+00    0,000000000e+00    0,000000000e+00
      464000000   -6,779256463e-02   -6,355283782e-03   -6,083839536e-01    4,068386555e-01    0,000000000e+00    0,000000000e+00    0,000000000e+00    0,000000000e+00
      478000000   -3,838124871e-02    1,607752219e-02   -2,677047253e-01    6,710064411e-01    0,000000000e+00    0,000000000e+00    0,000000000e+00    0,000000000e+00
      492000000   -5,034063943e-03    6,629452575e-03    1,524818391e-01    6,949558258e-01    0,000000000e+00    0,000000000e+00    0,000000000e+00    0,000000000e+00
      506000000    6,915128790e-03   -2,034780011e-02    5,081163049e-01    4,883007109e-01    0,000000000e+00    0,000000000e+00    0,000000000e+00    0,000000000e+00
      520000000    8,453998598e-04   -3,850137442e-02    6,899262071e-01    1,225896925e-01    0,000000000e+00    0,000000000e+00    0,000000000e+00    0,000000000e+00
      534000000   -3,096265718e-03   -4,564328119e-02    6,327045560e-01   -2,822133899e-01    0,000000000e+00    0,000000000e+00    0,000000000e+00    0,000000000e+00
      548000000    9,761335677e-04   -5,992127210e-02    3,601108193e-01   -5,799193978e-01    0,000000000e+00    0,000000000e+00    0,000000000e+00    0,000000000e+00
      562000000   -7,511647884e-03   -8,879300952e-02   -2,629028447e-02   -6,728088260e-01    0,000000000e+00    0,000000000e+00    0,000000000e+00    0,000000000e+00
      576000000   -4,540887475e-02   -1,098747402e-01   -4,012430608e-01   -5,381203890e-01    0,000000000e+00    0,000000000e+00    0,000000000e+00    0,000000000e+00
      590000000   -9,490296990e-02   -9,381306916e-02   -6,393389106e-01   -2,189360112e-01    0,000000000e+00    0,000000000e+00    0,000000000e+00    0,000000000e+00
      604000000   -1,118153781e-01   -4,095112160e-02   -6,478881836e-01    1,986774653e-01    0,000000000e+00    0,000000000e+00    0,000000000e+00    0,000000000e+00
      618000000   -7,631592453e-02   -2,466063714e-03   -4,024237394e-01    5,360565186e-01    0,000000000e+00    0,000000000e+00    0,000000000e+00    0,000000000e+00
      632000000   -3,026106954e-02   -2,145360410e-02   -1,231747773e-02    6,549780369e-01    0,000000000e+00    0,000000000e+00    0,000000000e+00    0,000000000e+00
      646000000   -3,610407934e-02   -7,641746104e-02    3,659250140e-01    5,275212526e-01    0,000000000e+00    0,000000000e+00    0,000000000e+00    0,000000000e+00
      660000000   -1,117479280e-01   -9,937962145e-02    6,010974050e-01    1,930054575e-01    0,000000000e+00    0,000000000e+00    0,000000000e+00    0,000000000e+00
      674000000   -2,003927380e-01   -2,325151674e-02    5,649877191e-01   -2,403453141e-01    0,000000000e+00    0,000000000e+00    0,000000000e+00    0,000000000e+00
      688000000   -1,783286333e-01    1,443920732e-01    2,085979432e-01   -5,218169689e-01    0,000000000e+00    0,000000000e+00    0,000000000e+00    0,000000000e+00
      702000000    2,665980160e-02    2,446601540e-01   -1,994146109e-01   -4,004867971e-01    0,000000000e+00    0,000000000e+00    0,000000000e+00    0,000000000e+00
      716000000    2,632072866e-01    1,106360853e-01   -2,728867531e-01   -8,342311531e-02    0,000000000e+00    0,000000000e+00    0,000000000e+00    0,000000000e+00
      730000000    3,035541773e-01   -1,860658675e-01   -1,065616757e-01    3,227809072e-02    0,000000000e+00    0,000000000e+00    0,000000000e+00    0,000000000e+00
      744000000    9,362301975e-02   -4,270328879e-01   -4,228546098e-02   -6,503915787e-02    0,000000000e+00    0,000000000e+00    0,000000000e+00    0,000000000e+00
      758000000   -2,592457235e-01   -4,301604331e-01   -1,758269519e-01   -1,253212690e-01    0,000000000e+00    0,000000000e+00    0,000000000e+00    0,000000000e+00
      772000000   -4,851258993e-01   -1,183149889e-01   -3,365893662e-01    3,808514029e-02    0,000000000e+00    0,000000000e+00    0,000000000e+00    0,000000000e+00
      786000000   -3,411339521e-01    2,208327204e-01   -2,621965408e-01    3,169469237e-01    0,000000000e+00    0,000000000e+00    0,000000000e+00    0,000000000e+00
      800000000   -4,127361625e-02    2,768813372e-01    2,988334280e-03    4,369512200e-01    0,000000000e+00    0,000000000e+00    0,000000000e+00    0,000000000e+00
      814000000    1,441660821e-01    1,255508512e-01    2,640582025e-01    3,596764207e-01    0,000000000e+00    0,000000000e+00    0,000000000e+00    0,000000000e+00
      828000000    1,681910753e-01   -7,008960843e-02    4,329316318e-01    1,568077207e-01    0,000000000e+00    0,000000000e+00    0,000000000e+00    0,000000000e+00
      842000000    6,713578850e-02   -2,193513662e-01    4,669755697e-01   -1,206646264e-01    0,000000000e+00    0,000000000e+00    0,000000000e+00    0,000000000e+00
      856000000   -1,074443609e-01   -2,631721795e-01    3,193620741e-01   -3,941577971e-01    0,000000000e+00    0,000000000e+00    0,000000000e+00    0,000000000e+00
      870000000   -2,751922309e-01   -1,682473272e-01   -2,180237323e-03   -5,272614360e-01    0,000000000e+00    0,000000000e+00    0,000000000e+00    0,000000000e+00
      884000000   -3,202199936e-01    3,628965095e-02   -3,484910131e-01   -3,928127587e-01    0,000000000e+00    0,000000000e+00    0,000000000e+00    0,000000000e+00
      898000000   -1,921001077e-01    2,064071596e-01   -4,899080098e-01   -6,308413297e-02    0,000000000e+00    0,000000000e+00    0,000000000e+00    0,000000000e+00
      912000000    6,720910780e-03    2,201661170e-01   -4,057448804e-01    2,801279426e-01    0,000000000e+00    0,000000000e+00    0,000000000e+00    0,000000000e+00
      926000000    1,510811895e-01    1,119127497e-01   -1,688833833e-01    4,156159759e-01    0,000000000e+00    0,000000000e+00    0,000000000e+00    0,000000000e+00
      940000000    1,992481202e-01   -4,692867771e-02    6,353626400e-02    4,246120155e-01    0,000000000e+00    0,000000000e+00    0,000000000e+00    0,000000000e+00
      954000000    1,516981721e-01   -2,021346092e-01    2,594360709e-01    3,418273628e-01    0,000000000e+00    0,000000000e+00    0,000000000e+00    0,000000000e+00
      968000000    2,735485695e-02   -3,134772480e-01    4,126470685e-01    1,792854071e-01    0,000000000e+00    0,000000000e+00    0,000000000e+00    0,000000000e+00
      982000000   -1,601545513e-01   -3,293270469e-01    4,743495286e-01   -6,678119302e-02    0,000000000e+00    0,000000000e+00    0,000000000e+00    0,000000000e+00
      996000000   -3,230980039e-01   -2,077447921e-01    3,680973053e-01   -3,564095497e-01    0,000000000e+00    0,000000000e+00    0,000000000e+00    0,000000000e+00
     1010000000   -3,396371901e-01   -3,017609240e-03    4,302989319e-02   -5,238904357e-01    0,000000000e+00    0,000000000e+00    0,000000000e+00    0,000000000e+00
     1024000000   -2,043862939e-01    9,017208219e-02   -3,472445309e-01   -3,800856173e-01    0,000000000e+00    0,000000000e+00    0,000000000e+00    0,000000000e+00
     1038000000   -1,338572949e-01    7,345698774e-03   -4,843864441e-01    6,505917758e-02    0,000000000e+00    0,000000000e+00    0,000000000e+00    0,000000000e+00
     1052000000   -2,848300636e-01    5,209032074e-02   -9,565062076e-02    3,734566271e-01    0,000000000e+00    0,000000000e+00    0,000000000e+00    0,000000000e+00
     1066000000   -1,449204534e-01    2,968386710e-01    1,413823217e-01    1,287546307e-01    0,000000000e+00    0,000000000e+00    0,000000000e+00    0,000000000e+00
     1080000000    9,878788888e-02    2,472134084e-01    9,205611050e-02    2,271487564e-02    0,000000000e+00    0,000000000e+00    0,000000000e+00    0,000000000e+00
     1094000000    2,223986834e-01    8,495794237e-02    6,671699882e-02    1,018316299e-02    0,000000000e+00    0,000000000e+00    0,000000000e+00    0,000000000e+00
     1108000000    2,406261712e-01   -8,650381118e-02    8,164390922e-02   -1,162787550e-03    0,000000000e+00    0,000000000e+00    0,000000000e+00    0,000000000e+00
     1122000000    1,865252256e-01   -2,513442636e-01    1,051117182e-01   -2,519730479e-02    0,000000000e+00    0,000000000e+00    0,000000000e+00    0,000000000e+00
     1136000000    4,827844352e-02   -3,806871772e-01    1,268359423e-01   -7,196386158e-02    0,000000000e+00    0,000000000e+00    0,000000000e+00    0,000000000e+00
     1150000000   -1,575454921e-01   -4,203023016e-01    1,379467100e-01   -1,508645415e-01    0,000000000e+00    0,000000000e+00    0,000000000e+00    0,000000000e+00
     1164000000   -3,808603287e-01   -3,215931654e-01    9,661900252e-02   -2,773531377e-01    0,000000000e+00    0,000000000e+00    0,000000000e+00    0,000000000e+00
     1178000000   -4,614689350e-01   -8,880953491e-02   -1,044835299e-01   -4,066446126e-01    0,000000000e+00    0,000000000e+00    0,000000000e+00    0,000000000e+00
     1192000000   -3,767609894e-01    3,822113201e-02   -4,658006728e-01   -1,990096420e-01    0,000000000e+00    0,000000000e+00    0,000000000e+00    0,000000000e+00
     1206000000   -4,150088429e-01    1,357083023e-01   -2,735588849e-01    2,408900410e-01    0,000000000e+00    0,000000000e+00    0,000000000e+00    0,000000000e+00
     1220000000   -2,784369588e-01    3,335596323e-01   -2,973059658e-03    1,636255383e-01    0,000000000e+00    0,000000000e+00    0,000000000e+00    0,000000000e+00
     1234000000   -4,209907725e-02    3,510275781e-01    2,399322204e-02    5,572705716e-02    0,000000000e+00    0,000000000e+00    0,000000000e+00    0,000000000e+00
     1248000000    1,171571910e-01    2,469620407e-01   -7,098687929e-04    2,367293462e-02    0,000000000e+00    0,000000000e+00    0,000000000e+00    0,000000000e+00
     1262000000    2,140252441e-01    9,750842303e-02    3,984132316e-03    2,947243862e-02    0,000000000e+00    0,000000000e+00    0,000000000e+00    0,000000000e+00
     1276000000    2,312068343e-01   -5,662041157e-02    2,539917640e-02    3,610171005e-02    0,000000000e+00    0,000000000e+00    0,000000000e+00    0,000000000e+00
     1290000000    1,964315921e-01   -2,140773982e-01    5,766673759e-02    2,769071795e-02    0,000000000e+00    0,000000000e+00    0,000000000e+00    0,000000000e+00
     1304000000    8,510099351e-02   -3,524082005e-01    8,112251014e-02    7,826606743e-03    0,000000000e+00    0,000000000e+00    0,000000000e+00    0,000000000e+00
     1318000000   -1,027819216e-01   -4,523437619e-01    8,908423036e-02   -1,414423995e-02    0,000000000e+00    0,000000000e+00    0,000000000e+00    0,000000000e+00
     1332000000   -3,556909859e-01   -4,377325177e-01    9,316428751e-02   -1,607235707e-02    0,000000000e+00    0,000000000e+00    0,000000000e+00    0,000000000e+00
     1346000000   -5,974892378e-01   -2,482645363e-01    9,573720396e-02   -1,518867351e-02    0,000000000e+00    0,000000000e+00    0,000000000e+00    0,000000000e+00
     1360000000   -6,475903988e-01    6,915002316e-02    1,366328299e-01   -1,494814269e-02    0,000000000e+00    0,000000000e+00    0,000000000e+00    0,000000000e+00
     1374000000   -4,904643893e-01    3,314586282e-01    1,660587490e-01   -5,373144895e-02    0,000000000e+00    0,000000000e+00    0,000000000e+00    0,000000000e+00
     1388000000   -2,541303337e-01    4,234550595e-01    1,591500789e-01   -8,058366179e-02    0,000000000e+00    0,000000000e+00    0,000000000e+00    0,000000000e+00
     1402000000   -4,198881239e-02    3,892381489e-01    1,473362744e-01   -9,137541056e-02    0,000000000e+00    0,000000000e+00    0,000000000e+00    0,000000000e+00
     1416000000    9,825126082e-02    2,808098793e-01    1,176558435e-01   -9,150599688e-02    0,000000000e+00    0,000000000e+00    0,000000000e+00    0,000000000e+00
     1430000000    1,922914535e-01    1,510570794e-01    1,060621962e-01   -6,066721678e-02    0,000000000e+00    0,000000000e+00    0,000000000e+00    0,000000000e+00
     1444000000    2,184157073e-01   -1,095433813e-02    1,243281364e-01   -3,182515875e-02    0,000000000e+00    0,000000000e+00    0,000000000e+00    0,000000000e+00
     1458000000    1,858922094e-01   -1,813076586e-01    1,546121240e-01    1,882930100e-02    0,000000000e+00    0,000000000e+00    0,000000000e+00    0,000000000e+00
     1472000000    7,151589543e-02   -3,485082686e-01    2,040632218e-01    4,488151893e-02    0,000000000e+00    0,000000000e+00    0,000000000e+00    0,000000000e+00
     1486000000   -1,386433989e-01   -4,762471318e-01    2,969679534e-01    1,024902761e-01    0,000000000e+00    0,000000000e+00    0,000000000e+00    0,000000000e+00
     1500000000   -4,393793344e-01   -4,657733440e-01    4,057456255e-01    6,737504154e-02    0,000000000e+00    0,000000000e+00    0,000000000e+00    0,000000000e+00
