! NanoVNA-App
! Date: 2025-09-25 16:01:09
! Start: 100MHz Stop: 1,5GHz Points: 101
! S-Parameter data: F S11 S21 S12 S22
# Hz S RI R 50
!     Frequency           S11_Real           S11_Imag           S21_Real           S21_Imag           S12_Real           S12_Imag           S22_Real           S22_Imag
      100000000   -2,829823457e-02   -2,862130059e-03    3,722708821e-01   -7,223720551e-01    0,000000000e+00    0,000000000e+00    0,000000000e+00    0,000000000e+00
      114000000   -1,574206911e-02    1,286335383e-02   -9,129121900e-02   -8,047139645e-01    0,000000000e+00    0,000000000e+00    0,000000000e+00    0,000000000e+00
      128000000    4,317223560e-03    1,191222109e-02   -5,160431862e-01   -6,188436747e-01    0,000000000e+00    0,000000000e+00    0,000000000e+00    0,000000000e+00
      142000000    1,547703706e-02   -1,708210795e-03   -7,674277425e-01   -2,340953648e-01    0,000000000e+00    0,000000000e+00    0,000000000e+00    0,000000000e+00
      156000000    1,549671777e-02   -1,362819318e-02   -7,699247003e-01    2,231371999e-01    0,000000000e+00    0,000000000e+00    0,000000000e+00    0,000000000e+00
      170000000    1,763137802e-02   -2,096715011e-02   -5,151947141e-01    6,063829660e-01    0,000000000e+00    0,000000000e+00    0,000000000e+00    0,000000000e+00
      184000000    2,199755795e-02   -3,555847704e-02   -9,837965667e-02    7,857936621e-01    0,000000000e+00    0,000000000e+00    0,000000000e+00    0,000000000e+00
      198000000    1,404515281e-02   -6,067223474e-02    3,457198739e-01    7,104743719e-01    0,000000000e+00    0,000000000e+00    0,000000000e+00    0,000000000e+00
      212000000   -1,766769588e-02   -7,914900035e-02    6,807566881e-01    4,060997367e-01    0,000000000e+00    0,000000000e+00    0,000000000e+00    0,000000000e+00
      226000000   -6,031895056e-02   -6,668939441e-02    7,958474159e-01   -3,559836000e-02    0,000000000e+00    0,000000000e+00    0,000000000e+00    0,000000000e+00
      240000000   -8,048272878e-02   -2,269320004e-02    6,417188644e-01   -4,717892706e-01    0,000000000e+00    0,000000000e+00    0,000000000e+00    0,000000000e+00
      254000000   -6,081868708e-02    1,983230002e-02    2,709524035e-01   -7,418451905e-01    0,000000000e+00    0,000000000e+00    0,000000000e+00    0,000000000e+00
      268000000   -2,092402615e-02    3,081670403e-02   -1,812440753e-01   -7,608720064e-01    0,000000000e+00    0,000000000e+00    0,000000000e+00    0,000000000e+00
      282000000    6,935180165e-03    1,379020792e-02   -5,626981854e-01   -5,327632427e-01    0,000000000e+00    0,000000000e+00    0,000000000e+00    0,000000000e+00
      296000000    1,249952056e-02   -6,299953908e-03   -7,604983449e-01   -1,344229132e-01    0,000000000e+00    0,000000000e+00    0,000000000e+00    0,000000000e+00
      310000000    1,351795718e-02   -1,432498544e-02   -7,090890408e-01    3,047375083e-01    0,000000000e+00    0,000000000e+00    0,000000000e+00    0,000000000e+00
      324000000    2,264211886e-02   -2,486709505e-02   -4,212227166e-01    6,401068568e-01    0,000000000e+00    0,000000000e+00    0,000000000e+00    0,000000000e+00
      338000000    2,837183140e-02   -5,065841600e-02   -2,627298003e-03    7,582601309e-01    0,000000000e+00    0,000000000e+00    0,000000000e+00    0,000000000e+00
      352000000    1,023701392e-02   -8,300324529e-02    4,117859006e-01    6,354051232e-01    0,000000000e+00    0,000000000e+00    0,000000000e+00    0,000000000e+00
      366000000   -3,164018691e-02   -9,419885278e-02    6,935963631e-01    3,034386635e-01    0,000000000e+00    0,000000000e+00    0,000000000e+00    0,000000000e+00
      380000000   -6,762988865e-02   -6,888937950e-02    7,458139658e-01   -1,344850212e-01    0,000000000e+00    0,000000000e+00    0,000000000e+00    0,000000000e+00
      394000000   -6,854603440e-02   -3,045129403e-02    5,398370028e-01   -5,278699398e-01    0,000000000e+00    0,000000000e+00    0,000000000e+00    0,000000000e+00
      408000000   -4,286528379e-02   -1,566766202e-02    1,499285847e-01   -7,353213429e-01    0,000000000e+00    0,000000000e+00    0,000000000e+00    0,000000000e+00
      422000000   -2,613799833e-02   -3,120152280e-02   -2,797390819e-01   -6,901918054e-01    0,000000000e+00    0,000000000e+00    0,000000000e+00    0,000000000e+00
      436000000   -3,953346238e-02   -4,881707206e-02   -6,106415987e-01   -4,187153280e-01    0,000000000e+00    0,000000000e+00    0,000000000e+00    0,000000000e+00
      450000000   -6,487917900e-02   -3,904734179e-02   -7,374826670e-01   -7,341794204e-03    0,000000000e+00    0,000000000e+00    0,000000000e+00    0,000000000e+00
      464000000   -6,740817428e-02   -6,069061812e-03   -6,081203222e-01    4,061133564e-01    0,000000000e+00    0,000000000e+00    0,000000000e+00    0,000000000e+00
      478000000   -3,886434436e-02    1,590692624e-02   -2,674079239e-01    6,697453856e-01    0,000000000e+00    0,000000000e+00    0,000000000e+00    0,000000000e+00
      492000000   -5,216006190e-03    6,237266120e-03    1,522347331e-01    6,947910786e-01    0,000000000e+00    0,000000000e+00    0,000000000e+00    0,000000000e+00
      506000000    6,770314183e-03   -2,003535628e-02    5,076183081e-01    4,882304072e-01    0,000000000e+00    0,000000000e+00    0,000000000e+00    0,000000000e+00
      520000000    5,347796832e-04   -3,829079494e-02    6,890080571e-01    1,217088178e-01    0,000000000e+00    0,000000000e+00    0,000000000e+00    0,000000000e+00
      534000000   -3,237787168e-03   -4,542105272e-02    6,323275566e-01   -2,823728323e-01    0,000000000e+00    0,000000000e+00    0,000000000e+00    0,000000000e+00
      548000000    1,496075070e-03   -5,951783806e-02    3,600559831e-01   -5,789204240e-01    0,000000000e+00    0,000000000e+00    0,000000000e+00    0,000000000e+00
      562000000   -7,960303687e-03   -8,855289966e-02   -2,659923770e-02   -6,727100015e-01    0,000000000e+00    0,000000000e+00    0,000000000e+00    0,000000000e+00
      576000000   -4,540809989e-02   -1,097221002e-01   -4,018770158e-01   -5,386064053e-01    0,000000000e+00    0,000000000e+00    0,000000000e+00    0,000000000e+00
      590000000   -9,484868497e-02   -9,361631423e-02   -6,411755681e-01   -2,189506441e-01    0,000000000e+00    0,000000000e+00    0,000000000e+00    0,000000000e+00
      604000000   -1,115761399e-01   -4,090865329e-02   -6,474581957e-01    1,989149749e-01    0,000000000e+00    0,000000000e+00    0,000000000e+00    0,000000000e+00
      618000000   -7,555627823e-02   -2,640876686e-03   -4,018833935e-01    5,351696610e-01    0,000000000e+00    0,000000000e+00    0,000000000e+00    0,000000000e+00
      632000000   -2,947421186e-02   -2,109955437e-02   -1,186292898e-02    6,556142569e-01    0,000000000e+00    0,000000000e+00    0,000000000e+00    0,000000000e+00
      646000000   -3,675679490e-02   -7,697879523e-02    3,660641611e-01    5,266373158e-01    0,000000000e+00    0,000000000e+00    0,000000000e+00    0,000000000e+00
      660000000   -1,114293486e-01   -9,925476462e-02    6,010699272e-01    1,938630044e-01    0,000000000e+00    0,000000000e+00    0,000000000e+00    0,000000000e+00
      674000000   -1,997719109e-01   -2,332592383e-02    5,658176541e-01   -2,398329526e-01    0,000000000e+00    0,000000000e+00    0,000000000e+00    0,000000000e+00
      688000000   -1,791508347e-01    1,445811689e-01    2,096183598e-01   -5,227100253e-01    0,000000000e+00    0,000000000e+00    0,000000000e+00    0,000000000e+00
      702000000    2,688558213e-02    2,453569174e-01   -1,992571950e-01   -4,025863111e-01    0,000000000e+00    0,000000000e+00    0,000000000e+00    0,000000000e+00
      716000000    2,635810077e-01    1,103272438e-01   -2,734990418e-01   -8,332937956e-02    0,000000000e+00    0,000000000e+00    0,000000000e+00    0,000000000e+00
      730000000    3,035421371e-01   -1,859751344e-01   -1,073943973e-01    3,254752606e-02    0,000000000e+00    0,000000000e+00    0,000000000e+00    0,000000000e+00
      744000000    9,455298632e-02   -4,270075858e-01   -4,235178977e-02   -6,505035609e-02    0,000000000e+00    0,000000000e+00    0,000000000e+00    0,000000000e+00
      758000000   -2,595963478e-01   -4,295373857e-01   -1,751286536e-01   -1,255164593e-01    0,000000000e+00    0,000000000e+00    0,000000000e+00    0,000000000e+00
      772000000   -4,859487414e-01   -1,206494868e-01   -3,366676271e-01    3,809186071e-02    0,000000000e+00    0,000000000e+00    0,000000000e+00    0,000000000e+00
      786000000   -3,420830965e-01    2,207904160e-01   -2,627605200e-01    3,165206015e-01    0,000000000e+00    0,000000000e+00    0,000000000e+00    0,000000000e+00
      800000000   -4,049718007e-02    2,762809992e-01    2,935970202e-03    4,367914796e-01    0,000000000e+00    0,000000000e+00    0,000000000e+00    0,000000000e+00
      814000000    1,441599876e-01    1,258184910e-01    2,641580999e-01    3,597388268e-01    0,000000000e+00    0,000000000e+00    0,000000000e+00    0,000000000e+00
      828000000    1,679351777e-01   -6,988094747e-02    4,330704510e-01    1,562246829e-01    0,000000000e+00    0,000000000e+00    0,000000000e+00    0,000000000e+00
      842000000    6,779095531e-02   -2,182963789e-01    4,666564465e-01   -1,202297434e-01    0,000000000e+00    0,000000000e+00    0,000000000e+00    0,000000000e+00
      856000000   -1,067785397e-01   -2,642184198e-01    3,204643428e-01   -3,946653306e-01    0,000000000e+00    0,000000000e+00    0,000000000e+00    0,000000000e+00
      870000000   -2,751521170e-01   -1,683066934e-01   -3,458099207e-03   -5,270278454e-01    0,000000000e+00    0,000000000e+00    0,000000000e+00    0,000000000e+00
      884000000   -3,212464452e-01    3,560753539e-02   -3,488169312e-01   -3,926075995e-01    0,000000000e+00    0,000000000e+00    0,000000000e+00    0,000000000e+00
      898000000   -1,920171678e-01    2,072891593e-01   -4,891137779e-01   -6,209402904e-02    0,000000000e+00    0,000000000e+00    0,000000000e+00    0,000000000e+00
      912000000    8,336413652e-03    2,195374966e-01   -4,117299914e-01    2,700535357e-01    0,000000000e+00    0,000000000e+00    0,000000000e+00    0,000000000e+00
      926000000    1,491826773e-01    1,105120704e-01   -1,705218554e-01    4,139074683e-01    0,000000000e+00    0,000000000e+00    0,000000000e+00    0,000000000e+00
      940000000    1,983540505e-01   -4,675307870e-02    6,285742670e-02    4,251663089e-01    0,000000000e+00    0,000000000e+00    0,000000000e+00    0,000000000e+00
      954000000    1,536800414e-01   -2,046387494e-01    2,608569562e-01    3,418531716e-01    0,000000000e+00    0,000000000e+00    0,000000000e+00    0,000000000e+00
      968000000    2,259932086e-02   -3,138412237e-01    4,099770784e-01    1,799537241e-01    0,000000000e+00    0,000000000e+00    0,000000000e+00    0,000000000e+00
      982000000   -1,620932370e-01   -3,293757737e-01    4,758797884e-01   -6,572679430e-02    0,000000000e+00    0,000000000e+00    0,000000000e+00    0,000000000e+00
      996000000   -3,271761537e-01   -2,068446130e-01    3,674691916e-01   -3,548676670e-01    0,000000000e+00    0,000000000e+00    0,000000000e+00    0,000000000e+00
     1010000000   -3,375068307e-01   -5,909567699e-03    4,013745487e-02   -5,255592465e-01    0,000000000e+00    0,000000000e+00    0,000000000e+00    0,000000000e+00
     1024000000   -2,091116905e-01    9,058350325e-02   -3,470520675e-01   -3,797720671e-01    0,000000000e+00    0,000000000e+00    0,000000000e+00    0,000000000e+00
     1038000000   -1,345248371e-01    1,295131259e-02   -4,841166735e-01    6,497985125e-02    0,000000000e+00    0,000000000e+00    0,000000000e+00    0,000000000e+00
     1052000000   -2,867561579e-01    5,695158988e-02   -9,320826828e-02    3,699976206e-01    0,000000000e+00    0,000000000e+00    0,000000000e+00    0,000000000e+00
     1066000000   -1,455983669e-01    2,894378304e-01    1,429489553e-01    1,335252672e-01    0,000000000e+00    0,000000000e+00    0,000000000e+00    0,000000000e+00
     1080000000    1,042443812e-01    2,488160133e-01    8,863110840e-02    2,170062065e-02    0,000000000e+00    0,000000000e+00    0,000000000e+00    0,000000000e+00
     1094000000    2,182593495e-01    8,684805036e-02    6,838624924e-02    1,161358226e-02    0,000000000e+00    0,000000000e+00    0,000000000e+00    0,000000000e+00
     1108000000    2,421441674e-01   -8,855633438e-02    7,969239354e-02    1,443549176e-03    0,000000000e+00    0,000000000e+00    0,000000000e+00    0,000000000e+00
     1122000000    1,863210648e-01   -2,510342002e-01    1,043878123e-01   -2,639240026e-02    0,000000000e+00    0,000000000e+00    0,000000000e+00    0,000000000e+00
     1136000000    5,045565590e-02   -3,759581447e-01    1,247737557e-01   -7,251989096e-02    0,000000000e+00    0,000000000e+00    0,000000000e+00    0,000000000e+00
     1150000000   -1,507913023e-01   -4,243608415e-01    1,400394440e-01   -1,524823606e-01    0,000000000e+00    0,000000000e+00    0,000000000e+00    0,000000000e+00
     1164000000   -3,766381741e-01   -3,218947649e-01    9,817291051e-02   -2,770990133e-01    0,000000000e+00    0,000000000e+00    0,000000000e+00    0,000000000e+00
     1178000000   -4,665912390e-01   -8,539025486e-02   -1,072091758e-01   -4,043062031e-01    0,000000000e+00    0,000000000e+00    0,000000000e+00    0,000000000e+00
     1192000000   -3,762557507e-01    3,780997172e-02   -4,617474675e-01   -1,961704642e-01    0,000000000e+00    0,000000000e+00    0,000000000e+00    0,000000000e+00
     1206000000   -4,176628888e-01    1,303122193e-01   -2,756820023e-01    2,359281480e-01    0,000000000e+00    0,000000000e+00    0,000000000e+00    0,000000000e+00
     1220000000   -2,805761099e-01    3,263000846e-01   -3,134452971e-03    1,657457650e-01    0,000000000e+00    0,000000000e+00    0,000000000e+00    0,000000000e+00
     1234000000   -4,645429179e-02    3,457225263e-01    2,477480657e-02    4,943687096e-02    0,000000000e+00    0,000000000e+00    0,000000000e+00    0,000000000e+00
     1248000000    1,234484687e-01    2,460554540e-01    2,951996867e-03    2,369729616e-02    0,000000000e+00    0,000000000e+00    0,000000000e+00    0,000000000e+00
     1262000000    2,089140862e-01    1,050577238e-01   -3,007661086e-03    2,957895771e-02    0,000000000e+00    0,000000000e+00    0,000000000e+00    0,000000000e+00
     1276000000    2,332935780e-01   -5,742098019e-02    2,353505231e-02    3,173550591e-02    0,000000000e+00    0,000000000e+00    0,000000000e+00    0,000000000e+00
     1290000000    1,914221346e-01   -2,194261402e-01    5,364483222e-02    2,096411586e-02    0,000000000e+00    0,000000000e+00    0,000000000e+00    0,000000000e+00
     1304000000    8,500620723e-02   -3,579154313e-01    7,966745645e-02    4,382945132e-03    0,000000000e+00    0,000000000e+00    0,000000000e+00    0,000000000e+00
     1318000000   -1,036822051e-01   -4,494651556e-01    8,222766966e-02   -1,161620673e-02    0,000000000e+00    0,000000000e+00    0,000000000e+00    0,000000000e+00
     1332000000   -3,537642062e-01   -4,394540191e-01    8,120465279e-02   -1,642202772e-02    0,000000000e+00    0,000000000e+00    0,000000000e+00    0,000000000e+00
     1346000000   -5,884437561e-01   -2,505224049e-01    9,822268039e-02   -1,597765274e-02    0,000000000e+00    0,000000000e+00    0,000000000e+00    0,000000000e+00
     1360000000   -6,506693363e-01    6,915285438e-02    1,454349309e-01   -2,588426135e-02    0,000000000e+00    0,000000000e+00    0,000000000e+00    0,000000000e+00
     1374000000   -4,846903682e-01    3,338751197e-01    1,810207814e-01   -4,860241339e-02    0,000000000e+00    0,000000000e+00    0,000000000e+00    0,000000000e+00
     1388000000   -2,511704862e-01    4,321461022e-01    1,651244313e-01   -7,747569680e-02    0,000000000e+00    0,000000000e+00    0,000000000e+00    0,000000000e+00
     1402000000   -4,814741015e-02    3,938221335e-01    1,403335780e-01   -9,093163162e-02    0,000000000e+00    0,000000000e+00    0,000000000e+00    0,000000000e+00
     1416000000    1,023403034e-01    2,868267000e-01    1,295529753e-01   -8,643122017e-02    0,000000000e+00    0,000000000e+00    0,000000000e+00    0,000000000e+00
     1430000000    1,904095858e-01    1,474790275e-01    1,111422554e-01   -7,610748708e-02    0,000000000e+00    0,000000000e+00    0,000000000e+00    0,000000000e+00
     1444000000    2,117988169e-01   -1,023154054e-02    1,099969000e-01   -2,646259591e-02    0,000000000e+00    0,000000000e+00    0,000000000e+00    0,000000000e+00
     1458000000    1,788459718e-01   -1,843055189e-01    1,461924911e-01    7,244034205e-03    0,000000000e+00    0,000000000e+00    0,000000000e+00    0,000000000e+00
     1472000000    6,548999995e-02   -3,475272357e-01    1,790426672e-01    5,919940397e-02    0,000000000e+00    0,000000000e+00    0,000000000e+00    0,000000000e+00
     1486000000   -1,427900940e-01   -4,612957537e-01    2,881681323e-01    1,092474535e-01    0,000000000e+00    0,000000000e+00    0,000000000e+00    0,000000000e+00
     1500000000   -4,429451823e-01   -4,732194841e-01    3,925804198e-01    5,479151383e-02    0,000000000e+00    0,000000000e+00    0,000000000e+00    0,000000000e+00
