! NanoVNA-App
! Date: 2025-09-25 16:01:13
! Start: 100MHz Stop: 1,5GHz Points: 101
! S-Parameter data: F S11 S21 S12 S22
# Hz S RI R 50
!     Frequency           S11_Real           S11_Imag           S21_Real           S21_Imag           S12_Real           S12_Imag           S22_Real           S22_Imag
      100000000   -2,828591131e-02   -2,871745965e-03    3,722922206e-01   -7,223905325e-01    0,000000000e+00    0,000000000e+00    0,000000000e+00    0,000000000e+00
      114000000   -1,573788375e-02    1,290448848e-02   -9,126726538e-02   -8,047462702e-01    0,000000000e+00    0,000000000e+00    0,000000000e+00    0,000000000e+00
      128000000    4,363957793e-03    1,190592349e-02   -5,159918070e-01   -6,188510060e-01    0,000000000e+00    0,000000000e+00    0,000000000e+00    0,000000000e+00
      142000000    1,546776760e-02   -1,715744729e-03   -7,674962878e-01   -2,342381924e-01    0,000000000e+00    0,000000000e+00    0,000000000e+00    0,000000000e+00
      156000000    1,657181047e-02   -1,308697741e-02   -7,645644546e-01    2,251320183e-01    0,000000000e+00    0,000000000e+00    0,000000000e+00    0,000000000e+00
      170000000    1,766681112e-02   -2,097043954e-02   -5,154823661e-01    6,060302258e-01    0,000000000e+00    0,000000000e+00    0,000000000e+00    0,000000000e+00
      184000000    2,203850262e-02   -3,555884957e-02   -9,843634069e-02    7,862452269e-01    0,000000000e+00    0,000000000e+00    0,000000000e+00    0,000000000e+00
      198000000    1,404592860e-02   -6,061518192e-02    3,458668590e-01    7,107695937e-01    0,000000000e+00    0,000000000e+00    0,000000000e+00    0,000000000e+00
      212000000   -1,768085547e-02   -7,917405665e-02    6,806585789e-01    4,061366618e-01    0,000000000e+00    0,000000000e+00    0,000000000e+00    0,000000000e+00
      226000000   -6,034561619e-02   -6,665633619e-02    7,958543301e-01   -3,554716706e-02    0,000000000e+00    0,000000000e+00    0,000000000e+00    0,000000000e+00
      240000000   -8,056156337e-02   -2,269425243e-02    6,416736841e-01   -4,719422758e-01    0,000000000e+00    0,000000000e+00    0,000000000e+00    0,000000000e+00
      254000000   -6,080967933e-02    1,979894564e-02    2,709890902e-01   -7,422188520e-01    0,000000000e+00    0,000000000e+00    0,000000000e+00    0,000000000e+00
      268000000   -2,092186548e-02    3,093939833e-02   -1,813449860e-01   -7,610276937e-01    0,000000000e+00    0,000000000e+00    0,000000000e+00    0,000000000e+00
      282000000    6,901006214e-03    1,368911471e-02   -5,633960366e-01   -5,325378776e-01    0,000000000e+00    0,000000000e+00    0,000000000e+00    0,000000000e+00
      296000000    1,238904428e-02   -6,381822750e-03   -7,604719996e-01   -1,342181712e-01    0,000000000e+00    0,000000000e+00    0,000000000e+00    0,000000000e+00
      310000000    1,354632713e-02   -1,441394724e-02   -7,081947327e-01    3,050641119e-01    0,000000000e+00    0,000000000e+00    0,000000000e+00    0,000000000e+00
      324000000    2,264839038e-02   -2,459542640e-02   -4,222457707e-01    6,400142312e-01    0,000000000e+00    0,000000000e+00    0,000000000e+00    0,000000000e+00
      338000000    2,814240940e-02   -5,027485266e-02   -1,356780529e-03    7,586776614e-01    0,000000000e+00    0,000000000e+00    0,000000000e+00    0,000000000e+00
      352000000    1,004534680e-02   -8,295315504e-02    4,113029838e-01    6,352526546e-01    0,000000000e+00    0,000000000e+00    0,000000000e+00    0,000000000e+00
      366000000   -3,187468275e-02   -9,383000433e-02    6,930766106e-01    3,041343093e-01    0,000000000e+00    0,000000000e+00    0,000000000e+00    0,000000000e+00
      380000000   -6,766059995e-02   -6,882168353e-02    7,453533411e-01   -1,345053911e-01    0,000000000e+00    0,000000000e+00    0,000000000e+00    0,000000000e+00
      394000000   -6,830829382e-02   -3,029479645e-02    5,405879021e-01   -5,288950801e-01    0,000000000e+00    0,000000000e+00    0,000000000e+00    0,000000000e+00
      408000000   -4,266640171e-02   -1,554911770e-02    1,497192532e-01   -7,328500152e-01    0,000000000e+00    0,000000000e+00    0,000000000e+00    0,000000000e+00
      422000000   -2,612019517e-02   -3,116678447e-02   -2,790626884e-01   -6,896167994e-01    0,000000000e+00    0,000000000e+00    0,000000000e+00    0,000000000e+00
      436000000   -3,903808072e-02   -4,892478511e-02   -6,098189354e-01   -4,199469388e-01    0,000000000e+00    0,000000000e+00    0,000000000e+00    0,000000000e+00
      450000000   -6,493128836e-02   -3,914557025e-02   -7,375385761e-01   -7,610570174e-03    0,000000000e+00    0,000000000e+00    0,000000000e+00    0,000000000e+00
      464000000   -6,781977415e-02   -6,430626847e-03   -6,079446673e-01    4,060821235e-01    0,000000000e+00    0,000000000e+00    0,000000000e+00    0,000000000e+00
      478000000   -3,892046958e-02    1,574970037e-02   -2,671898603e-01    6,696525216e-01    0,000000000e+00    0,000000000e+00    0,000000000e+00    0,000000000e+00
      492000000   -5,370756146e-03    6,614229176e-03    1,515249759e-01    6,950928569e-01    0,000000000e+00    0,000000000e+00    0,000000000e+00    0,000000000e+00
      506000000    7,030827459e-03   -2,027585357e-02    5,079203248e-01    4,878612161e-01    0,000000000e+00    0,000000000e+00    0,000000000e+00    0,000000000e+00
      520000000    5,445461720e-04   -3,865710646e-02    6,908097267e-01    1,217440516e-01    0,000000000e+00    0,000000000e+00    0,000000000e+00    0,000000000e+00
      534000000   -3,258594079e-03   -4,544753209e-02    6,323446035e-01   -2,822787762e-01    0,000000000e+00    0,000000000e+00    0,000000000e+00    0,000000000e+00
      548000000    6,265016855e-04   -6,007326022e-02    3,602339029e-01   -5,790482759e-01    0,000000000e+00    0,000000000e+00    0,000000000e+00    0,000000000e+00
      562000000   -7,926655933e-03   -8,865635842e-02   -2,701787278e-02   -6,737682223e-01    0,000000000e+00    0,000000000e+00    0,000000000e+00    0,000000000e+00
      576000000   -4,516134784e-02   -1,098749265e-01   -4,013249874e-01   -5,379567742e-01    0,000000000e+00    0,000000000e+00    0,000000000e+00    0,000000000e+00
      590000000   -9,478672594e-02   -9,355646372e-02   -6,417832971e-01   -2,188407481e-01    0,000000000e+00    0,000000000e+00    0,000000000e+00    0,000000000e+00
      604000000   -1,117922366e-01   -4,114622995e-02   -6,475685239e-01    1,982701123e-01    0,000000000e+00    0,000000000e+00    0,000000000e+00    0,000000000e+00
      618000000   -7,573913783e-02   -2,669941168e-03   -4,007459283e-01    5,354747176e-01    0,000000000e+00    0,000000000e+00    0,000000000e+00    0,000000000e+00
      632000000   -2,965000086e-02   -2,163379453e-02   -1,226851717e-02    6,560518146e-01    0,000000000e+00    0,000000000e+00    0,000000000e+00    0,000000000e+00
      646000000   -3,594066203e-02   -7,688356191e-02    3,657636642e-01    5,281541348e-01    0,000000000e+00    0,000000000e+00    0,000000000e+00    0,000000000e+00
      660000000   -1,120822281e-01   -1,001624614e-01    6,011587977e-01    1,942366809e-01    0,000000000e+00    0,000000000e+00    0,000000000e+00    0,000000000e+00
      674000000   -1,994952857e-01   -2,287324332e-02    5,657593012e-01   -2,395094633e-01    0,000000000e+00    0,000000000e+00    0,000000000e+00    0,000000000e+00
      688000000   -1,787058264e-01    1,440714151e-01    2,098456323e-01   -5,224275589e-01    0,000000000e+00    0,000000000e+00    0,000000000e+00    0,000000000e+00
      702000000    2,690900490e-02    2,473984212e-01   -2,016755939e-01   -4,031922817e-01    0,000000000e+00    0,000000000e+00    0,000000000e+00    0,000000000e+00
      716000000    2,634803355e-01    1,113899723e-01   -2,732473016e-01   -8,394857496e-02    0,000000000e+00    0,000000000e+00    0,000000000e+00    0,000000000e+00
      730000000    3,041316867e-01   -1,863995790e-01   -1,077605635e-01    3,226576000e-02    0,000000000e+00    0,000000000e+00    0,000000000e+00    0,000000000e+00
      744000000    9,329333901e-02   -4,274078608e-01   -4,225233570e-02   -6,460730731e-02    0,000000000e+00    0,000000000e+00    0,000000000e+00    0,000000000e+00
      758000000   -2,589651644e-01   -4,290880561e-01   -1,752253771e-01   -1,256704479e-01    0,000000000e+00    0,000000000e+00    0,000000000e+00    0,000000000e+00
      772000000   -4,862375259e-01   -1,197476462e-01   -3,361607194e-01    3,835911304e-02    0,000000000e+00    0,000000000e+00    0,000000000e+00    0,000000000e+00
      786000000   -3,427539468e-01    2,217424810e-01   -2,627640665e-01    3,162854910e-01    0,000000000e+00    0,000000000e+00    0,000000000e+00    0,000000000e+00
      800000000   -4,008554667e-02    2,772226930e-01    2,891979879e-03    4,366711378e-01    0,000000000e+00    0,000000000e+00    0,000000000e+00    0,000000000e+00
      814000000    1,442819834e-01    1,252251118e-01    2,637393177e-01    3,604765236e-01    0,000000000e+00    0,000000000e+00    0,000000000e+00    0,000000000e+00
      828000000    1,682535559e-01   -6,991336495e-02    4,327768981e-01    1,568556875e-01    0,000000000e+00    0,000000000e+00    0,000000000e+00    0,000000000e+00
      842000000    6,788982451e-02   -2,188464403e-01    4,665695727e-01   -1,201292723e-01    0,000000000e+00    0,000000000e+00    0,000000000e+00    0,000000000e+00
      856000000   -1,066246405e-01   -2,642132044e-01    3,199062943e-01   -3,945393562e-01    0,000000000e+00    0,000000000e+00    0,000000000e+00    0,000000000e+00
      870000000   -2,746036947e-01   -1,685658991e-01   -1,344967866e-03   -5,267682076e-01    0,000000000e+00    0,000000000e+00    0,000000000e+00    0,000000000e+00
      884000000   -3,200220466e-01    3,544447944e-02   -3,469746709e-01   -3,929873705e-01    0,000000000e+00    0,000000000e+00    0,000000000e+00    0,000000000e+00
      898000000   -1,930062771e-01    2,064269781e-01   -4,898636043e-01   -6,283230335e-02    0,000000000e+00    0,000000000e+00    0,000000000e+00    0,000000000e+00
      912000000    7,611310575e-03    2,193911523e-01   -4,109452665e-01    2,720979750e-01    0,000000000e+00    0,000000000e+00    0,000000000e+00    0,000000000e+00
      926000000    1,504836231e-01    1,141854897e-01   -1,659473628e-01    4,167242944e-01    0,000000000e+00    0,000000000e+00    0,000000000e+00    0,000000000e+00
      940000000    2,002062052e-01   -4,397585243e-02    6,433995813e-02    4,233433604e-01    0,000000000e+00    0,000000000e+00    0,000000000e+00    0,000000000e+00
      954000000    1,522546262e-01   -2,043666095e-01    2,631148696e-01    3,410673738e-01    0,000000000e+00    0,000000000e+00    0,000000000e+00    0,000000000e+00
      968000000    2,455552854e-02   -3,167091310e-01    4,101527631e-01    1,775535345e-01    0,000000000e+00    0,000000000e+00    0,000000000e+00    0,000000000e+00
      982000000   -1,606826484e-01   -3,334673047e-01    4,728251994e-01   -6,759469211e-02    0,000000000e+00    0,000000000e+00    0,000000000e+00    0,000000000e+00
      996000000   -3,227825463e-01   -2,116495818e-01    3,674979806e-01   -3,588217199e-01    0,000000000e+00    0,000000000e+00    0,000000000e+00    0,000000000e+00
     1010000000   -3,379682302e-01   -7,770205382e-03    4,174672067e-02   -5,247135162e-01    0,000000000e+00    0,000000000e+00    0,000000000e+00    0,000000000e+00
     1024000000   -2,080455571e-01    9,207912534e-02   -3,442053795e-01   -3,826614618e-01    0,000000000e+00    0,000000000e+00    0,000000000e+00    0,000000000e+00
     1038000000   -1,376914829e-01    7,643026765e-03   -4,802176356e-01    6,497022510e-02    0,000000000e+00    0,000000000e+00    0,000000000e+00    0,000000000e+00
     1052000000   -2,864032388e-01    5,784794688e-02   -9,396315366e-02    3,732499182e-01    0,000000000e+00    0,000000000e+00    0,000000000e+00    0,000000000e+00
     1066000000   -1,472629607e-01    2,926673889e-01    1,436466873e-01    1,315529794e-01    0,000000000e+00    0,000000000e+00    0,000000000e+00    0,000000000e+00
     1080000000    1,025940999e-01    2,475231588e-01    8,983603865e-02    2,231465653e-02    0,000000000e+00    0,000000000e+00    0,000000000e+00    0,000000000e+00
     1094000000    2,234661877e-01    8,814927191e-02    6,743861735e-02    8,512920700e-03    0,000000000e+00    0,000000000e+00    0,000000000e+00    0,000000000e+00
     1108000000    2,452862114e-01   -8,323635161e-02    8,071234077e-02   -1,941843075e-04    0,000000000e+00    0,000000000e+00    0,000000000e+00    0,000000000e+00
     1122000000    1,840020120e-01   -2,538242042e-01    1,030735150e-01   -2,576845139e-02    0,000000000e+00    0,000000000e+00    0,000000000e+00    0,000000000e+00
     1136000000    4,787591472e-02   -3,805889189e-01    1,259914190e-01   -7,351972908e-02    0,000000000e+00    0,000000000e+00    0,000000000e+00    0,000000000e+00
     1150000000   -1,564286351e-01   -4,256115854e-01    1,386626512e-01   -1,510916352e-01    0,000000000e+00    0,000000000e+00    0,000000000e+00    0,000000000e+00
     1164000000   -3,753588200e-01   -3,256375492e-01    1,008449495e-01   -2,764603794e-01    0,000000000e+00    0,000000000e+00    0,000000000e+00    0,000000000e+00
     1178000000   -4,667076766e-01   -8,509775251e-02   -1,074159071e-01   -4,021584988e-01    0,000000000e+00    0,000000000e+00    0,000000000e+00    0,000000000e+00
     1192000000   -3,704895973e-01    4,015265033e-02   -4,594549239e-01   -1,989213228e-01    0,000000000e+00    0,000000000e+00    0,000000000e+00    0,000000000e+00
     1206000000   -4,131975770e-01    1,307830811e-01   -2,718263268e-01    2,358861417e-01    0,000000000e+00    0,000000000e+00    0,000000000e+00    0,000000000e+00
     1220000000   -2,721277475e-01    3,294328749e-01    3,048993240e-04    1,630236506e-01    0,000000000e+00    0,000000000e+00    0,000000000e+00    0,000000000e+00
     1234000000   -4,260708019e-02    3,463756144e-01    2,848218754e-02    5,321022496e-02    0,000000000e+00    0,000000000e+00    0,000000000e+00    0,000000000e+00
     1248000000    1,183047965e-01    2,466400713e-01    7,969687693e-03    2,479448728e-02    0,000000000e+00    0,000000000e+00    0,000000000e+00    0,000000000e+00
     1262000000    2,121075541e-01    1,065904498e-01    1,153330086e-03    3,661914542e-02    0,000000000e+00    0,000000000e+00    0,000000000e+00    0,000000000e+00
     1276000000    2,400527298e-01   -6,071402878e-02    2,848314121e-02    3,467278555e-02    0,000000000e+00    0,000000000e+00    0,000000000e+00    0,000000000e+00
     1290000000    1,952942759e-01   -2,140540034e-01    5,929904804e-02    2,351532876e-02    0,000000000e+00    0,000000000e+00    0,000000000e+00    0,000000000e+00
     1304000000    8,316822350e-02   -3,614334464e-01    7,805348933e-02    2,165930811e-03    0,000000000e+00    0,000000000e+00    0,000000000e+00    0,000000000e+00
     1318000000   -1,051187292e-01   -4,459025562e-01    7,677423954e-02   -1,285775937e-02    0,000000000e+00    0,000000000e+00    0,000000000e+00    0,000000000e+00
     1332000000   -3,533922136e-01   -4,348178506e-01    8,058760315e-02   -1,859398186e-02    0,000000000e+00    0,000000000e+00    0,000000000e+00    0,000000000e+00
     1346000000   -5,873805881e-01   -2,457874417e-01    1,014783904e-01   -1,226415019e-02    0,000000000e+00    0,000000000e+00    0,000000000e+00    0,000000000e+00
     1360000000   -6,502363682e-01    7,742430270e-02    1,373347044e-01   -9,059940465e-03    0,000000000e+00    0,000000000e+00    0,000000000e+00    0,000000000e+00
     1374000000   -4,912405908e-01    3,397753239e-01    1,617360711e-01   -5,324780941e-02    0,000000000e+00    0,000000000e+00    0,000000000e+00    0,000000000e+00
     1388000000   -2,542218566e-01    4,278425276e-01    1,584689021e-01   -8,828820288e-02    0,000000000e+00    0,000000000e+00    0,000000000e+00    0,000000000e+00
     1402000000   -3,997696564e-02    3,892998695e-01    1,444954574e-01   -9,412772208e-02    0,000000000e+00    0,000000000e+00    0,000000000e+00    0,000000000e+00
     1416000000    9,771051258e-02    2,807718813e-01    1,198814511e-01   -8,837614208e-02    0,000000000e+00    0,000000000e+00    0,000000000e+00    0,000000000e+00
     1430000000    1,951590031e-01    1,499099582e-01    1,171177030e-01   -6,292408705e-02    0,000000000e+00    0,000000000e+00    0,000000000e+00    0,000000000e+00
     1444000000    2,129857093e-01   -9,440754540e-03    1,178414226e-01   -3,106843866e-02    0,000000000e+00    0,000000000e+00    0,000000000e+00    0,000000000e+00
     1458000000    1,766432375e-01   -1,834659129e-01    1,410166770e-01    2,539099753e-02    0,000000000e+00    0,000000000e+00    0,000000000e+00    0,000000000e+00
     1472000000    6,672993302e-02   -3,471266329e-01    1,847680509e-01    6,604458392e-02    0,000000000e+00    0,000000000e+00    0,000000000e+00    0,000000000e+00
     1486000000   -1,458962858e-01   -4,717267752e-01    2,837297618e-01    9,046997875e-02    0,000000000e+00    0,000000000e+00    0,000000000e+00    0,000000000e+00
     1500000000   -4,431493878e-01   -4,878885448e-01    4,021221697e-01    4,686982557e-02    0,000000000e+00    0,000000000e+00    0,000000000e+00    0,000000000e+00
