! NanoVNA-App
! Date: 2025-09-25 15:59:35
! Start: 100MHz Stop: 1,5GHz Points: 101
! S-Parameter data: F S11 S21 S12 S22
# Hz S RI R 50
!     Frequency           S11_Real           S11_Imag           S21_Real           S21_Imag           S12_Real           S12_Imag           S22_Real           S22_Imag
      100000000   -2,824318409e-02   -2,859078581e-03    3,722734749e-01   -7,223998904e-01    0,000000000e+00    0,000000000e+00    0,000000000e+00    0,000000000e+00
      114000000   -1,570815966e-02    1,290070172e-02   -9,137961268e-02   -8,047350049e-01    0,000000000e+00    0,000000000e+00    0,000000000e+00    0,000000000e+00
      128000000    4,360327963e-03    1,188641228e-02   -5,159054995e-01   -6,187700033e-01    0,000000000e+00    0,000000000e+00    0,000000000e+00    0,000000000e+00
      142000000    1,548102964e-02   -1,770084142e-03   -7,671537399e-01   -2,341493070e-01    0,000000000e+00    0,000000000e+00    0,000000000e+00    0,000000000e+00
      156000000    1,513947546e-02   -1,346867252e-02   -7,682628036e-01    2,214023322e-01    0,000000000e+00    0,000000000e+00    0,000000000e+00    0,000000000e+00
      170000000    1,762929931e-02   -2,098797634e-02   -5,153342485e-01    6,061861515e-01    0,000000000e+00    0,000000000e+00    0,000000000e+00    0,000000000e+00
      184000000    2,202101238e-02   -3,555860743e-02   -9,815846384e-02    7,862125635e-01    0,000000000e+00    0,000000000e+00    0,000000000e+00    0,000000000e+00
      198000000    1,406668499e-02   -6,062931940e-02    3,460285664e-01    7,109353542e-01    0,000000000e+00    0,000000000e+00    0,000000000e+00    0,000000000e+00
      212000000   -1,768223383e-02   -7,911045104e-02    6,809851527e-01    4,063719213e-01    0,000000000e+00    0,000000000e+00    0,000000000e+00    0,000000000e+00
      226000000   -6,029404327e-02   -6,660101563e-02    7,957487702e-01   -3,562603146e-02    0,000000000e+00    0,000000000e+00    0,000000000e+00    0,000000000e+00
      240000000   -8,054573834e-02   -2,277917601e-02    6,416834593e-01   -4,716750383e-01    0,000000000e+00    0,000000000e+00    0,000000000e+00    0,000000000e+00
      254000000   -6,083512306e-02    1,982732490e-02    2,708602548e-01   -7,422755361e-01    0,000000000e+00    0,000000000e+00    0,000000000e+00    0,000000000e+00
      268000000   -2,095044963e-02    3,082527593e-02   -1,812820882e-01   -7,606540322e-01    0,000000000e+00    0,000000000e+00    0,000000000e+00    0,000000000e+00
      282000000    6,919126492e-03    1,378474943e-02   -5,630408525e-01   -5,324852467e-01    0,000000000e+00    0,000000000e+00    0,000000000e+00    0,000000000e+00
      296000000    1,249443367e-02   -6,265182979e-03   -7,603849173e-01   -1,342547685e-01    0,000000000e+00    0,000000000e+00    0,000000000e+00    0,000000000e+00
      310000000    1,355617028e-02   -1,459726226e-02   -7,078874111e-01    3,031508923e-01    0,000000000e+00    0,000000000e+00    0,000000000e+00    0,000000000e+00
      324000000    2,276465483e-02   -2,482898533e-02   -4,205791950e-01    6,390407085e-01    0,000000000e+00    0,000000000e+00    0,000000000e+00    0,000000000e+00
      338000000    2,833055146e-02   -5,077306181e-02   -1,176108955e-03    7,611997128e-01    0,000000000e+00    0,000000000e+00    0,000000000e+00    0,000000000e+00
      352000000    1,029816084e-02   -8,293581009e-02    4,116420746e-01    6,346390247e-01    0,000000000e+00    0,000000000e+00    0,000000000e+00    0,000000000e+00
      366000000   -3,163512051e-02   -9,360154718e-02    6,929249167e-01    3,041374683e-01    0,000000000e+00    0,000000000e+00    0,000000000e+00    0,000000000e+00
      380000000   -6,760814041e-02   -6,861037761e-02    7,460667491e-01   -1,339082271e-01    0,000000000e+00    0,000000000e+00    0,000000000e+00    0,000000000e+00
      394000000   -6,859037280e-02   -3,031689860e-02    5,396041274e-01   -5,281537771e-01    0,000000000e+00    0,000000000e+00    0,000000000e+00    0,000000000e+00
      408000000   -4,277101159e-02   -1,540307328e-02    1,501925588e-01   -7,334570885e-01    0,000000000e+00    0,000000000e+00    0,000000000e+00    0,000000000e+00
      422000000   -2,601762488e-02   -3,122445196e-02   -2,797972560e-01   -6,903222203e-01    0,000000000e+00    0,000000000e+00    0,000000000e+00    0,000000000e+00
      436000000   -3,948787227e-02   -4,908950254e-02   -6,105647683e-01   -4,192967713e-01    0,000000000e+00    0,000000000e+00    0,000000000e+00    0,000000000e+00
      450000000   -6,461557001e-02   -3,891474754e-02   -7,370627522e-01   -7,480734959e-03    0,000000000e+00    0,000000000e+00    0,000000000e+00    0,000000000e+00
      464000000   -6,750608981e-02   -5,918876734e-03   -6,078227162e-01    4,064469635e-01    0,000000000e+00    0,000000000e+00    0,000000000e+00    0,000000000e+00
      478000000   -3,878997639e-02    1,594753750e-02   -2,673428357e-01    6,704161167e-01    0,000000000e+00    0,000000000e+00    0,000000000e+00    0,000000000e+00
      492000000   -5,231803283e-03    6,497317925e-03    1,512801349e-01    6,952618957e-01    0,000000000e+00    0,000000000e+00    0,000000000e+00    0,000000000e+00
      506000000    7,272204384e-03   -2,010026202e-02    5,081632137e-01    4,887702167e-01    0,000000000e+00    0,000000000e+00    0,000000000e+00    0,000000000e+00
      520000000    7,885397063e-04   -3,850144148e-02    6,890398860e-01    1,214150488e-01    0,000000000e+00    0,000000000e+00    0,000000000e+00    0,000000000e+00
      534000000   -3,037081799e-03   -4,545463622e-02    6,331250668e-01   -2,821503580e-01    0,000000000e+00    0,000000000e+00    0,000000000e+00    0,000000000e+00
      548000000    1,241094433e-03   -5,937750265e-02    3,601090908e-01   -5,789335370e-01    0,000000000e+00    0,000000000e+00    0,000000000e+00    0,000000000e+00
      562000000   -7,812603377e-03   -8,889632672e-02   -2,654689550e-02   -6,719625592e-01    0,000000000e+00    0,000000000e+00    0,000000000e+00    0,000000000e+00
      576000000   -4,551726580e-02   -1,099785864e-01   -4,014115930e-01   -5,389447808e-01    0,000000000e+00    0,000000000e+00    0,000000000e+00    0,000000000e+00
      590000000   -9,468065947e-02   -9,358307719e-02   -6,398455501e-01   -2,170602381e-01    0,000000000e+00    0,000000000e+00    0,000000000e+00    0,000000000e+00
      604000000   -1,115373224e-01   -4,097784311e-02   -6,475490332e-01    1,988952160e-01    0,000000000e+00    0,000000000e+00    0,000000000e+00    0,000000000e+00
      618000000   -7,569069415e-02   -2,573434962e-03   -4,015182257e-01    5,360875130e-01    0,000000000e+00    0,000000000e+00    0,000000000e+00    0,000000000e+00
      632000000   -2,969767153e-02   -2,138883248e-02   -1,153065544e-02    6,548238397e-01    0,000000000e+00    0,000000000e+00    0,000000000e+00    0,000000000e+00
      646000000   -3,595362604e-02   -7,634563744e-02    3,657709658e-01    5,276134014e-01    0,000000000e+00    0,000000000e+00    0,000000000e+00    0,000000000e+00
      660000000   -1,117780730e-01   -1,002558991e-01    6,006962657e-01    1,930075139e-01    0,000000000e+00    0,000000000e+00    0,000000000e+00    0,000000000e+00
      674000000   -1,994607896e-01   -2,316163480e-02    5,654515028e-01   -2,392921001e-01    0,000000000e+00    0,000000000e+00    0,000000000e+00    0,000000000e+00
      688000000   -1,784940660e-01    1,437817365e-01    2,096089721e-01   -5,219919086e-01    0,000000000e+00    0,000000000e+00    0,000000000e+00    0,000000000e+00
      702000000    2,697190270e-02    2,462530881e-01   -2,042054683e-01   -4,008942246e-01    0,000000000e+00    0,000000000e+00    0,000000000e+00    0,000000000e+00
      716000000    2,629398704e-01    1,108824983e-01   -2,733763158e-01   -8,327788115e-02    0,000000000e+00    0,000000000e+00    0,000000000e+00    0,000000000e+00
      730000000    3,040356338e-01   -1,856824607e-01   -1,076468602e-01    3,219484538e-02    0,000000000e+00    0,000000000e+00    0,000000000e+00    0,000000000e+00
      744000000    9,370750189e-02   -4,278612733e-01   -4,199526086e-02   -6,472558528e-02    0,000000000e+00    0,000000000e+00    0,000000000e+00    0,000000000e+00
      758000000   -2,601394355e-01   -4,299500287e-01   -1,751203388e-01   -1,257710159e-01    0,000000000e+00    0,000000000e+00    0,000000000e+00    0,000000000e+00
      772000000   -4,844717681e-01   -1,190064251e-01   -3,361315429e-01    3,808482364e-02    0,000000000e+00    0,000000000e+00    0,000000000e+00    0,000000000e+00
      786000000   -3,419809937e-01    2,224808931e-01   -2,618989646e-01    3,168738782e-01    0,000000000e+00    0,000000000e+00    0,000000000e+00    0,000000000e+00
      800000000   -4,048835486e-02    2,762200832e-01    2,902365522e-03    4,368903339e-01    0,000000000e+00    0,000000000e+00    0,000000000e+00    0,000000000e+00
      814000000    1,442135870e-01    1,251870394e-01    2,639786005e-01    3,594746590e-01    0,000000000e+00    0,000000000e+00    0,000000000e+00    0,000000000e+00
      828000000    1,678229868e-01   -7,011389732e-02    4,330479801e-01    1,566159427e-01    0,000000000e+00    0,000000000e+00    0,000000000e+00    0,000000000e+00
      842000000    6,726056337e-02   -2,192458361e-01    4,667478204e-01   -1,202912703e-01    0,000000000e+00    0,000000000e+00    0,000000000e+00    0,000000000e+00
      856000000   -1,068507880e-01   -2,633990645e-01    3,197408319e-01   -3,951365948e-01    0,000000000e+00    0,000000000e+00    0,000000000e+00    0,000000000e+00
      870000000   -2,751767933e-01   -1,679572761e-01   -1,865524682e-03   -5,268345475e-01    0,000000000e+00    0,000000000e+00    0,000000000e+00    0,000000000e+00
      884000000   -3,205308020e-01    3,510869294e-02   -3,482933640e-01   -3,929134011e-01    0,000000000e+00    0,000000000e+00    0,000000000e+00    0,000000000e+00
      898000000   -1,914616376e-01    2,066019773e-01   -4,889849424e-01   -6,314309686e-02    0,000000000e+00    0,000000000e+00    0,000000000e+00    0,000000000e+00
      912000000    6,658954080e-03    2,193454653e-01   -3,974843621e-01    2,778666019e-01    0,000000000e+00    0,000000000e+00    0,000000000e+00    0,000000000e+00
      926000000    1,496464610e-01    1,148662567e-01   -1,685331315e-01    4,165063798e-01    0,000000000e+00    0,000000000e+00    0,000000000e+00    0,000000000e+00
      940000000    1,986929327e-01   -4,455923662e-02    6,394692510e-02    4,241632223e-01    0,000000000e+00    0,000000000e+00    0,000000000e+00    0,000000000e+00
      954000000    1,555224508e-01   -2,034627795e-01    2,617770433e-01    3,400556147e-01    0,000000000e+00    0,000000000e+00    0,000000000e+00    0,000000000e+00
      968000000    2,192860097e-02   -3,143717349e-01    4,106061459e-01    1,785357296e-01    0,000000000e+00    0,000000000e+00    0,000000000e+00    0,000000000e+00
      982000000   -1,595043987e-01   -3,289351761e-01    4,752523899e-01   -6,595446169e-02    0,000000000e+00    0,000000000e+00    0,000000000e+00    0,000000000e+00
      996000000   -3,274348378e-01   -2,106566131e-01    3,701277971e-01   -3,545724452e-01    0,000000000e+00    0,000000000e+00    0,000000000e+00    0,000000000e+00
     1010000000   -3,416202962e-01   -1,020496618e-02    4,388560727e-02   -5,227587223e-01    0,000000000e+00    0,000000000e+00    0,000000000e+00    0,000000000e+00
     1024000000   -2,076063007e-01    9,443680942e-02   -3,465919793e-01   -3,809683621e-01    0,000000000e+00    0,000000000e+00    0,000000000e+00    0,000000000e+00
     1038000000   -1,378473341e-01    1,148383692e-02   -4,815903902e-01    6,601896882e-02    0,000000000e+00    0,000000000e+00    0,000000000e+00    0,000000000e+00
     1052000000   -2,896310091e-01    5,217108130e-02   -9,463685751e-02    3,751474917e-01    0,000000000e+00    0,000000000e+00    0,000000000e+00    0,000000000e+00
     1066000000   -1,468031406e-01    2,999981344e-01    1,398928612e-01    1,328264922e-01    0,000000000e+00    0,000000000e+00    0,000000000e+00    0,000000000e+00
     1080000000    9,990736097e-02    2,529422045e-01    9,176169336e-02    2,132514678e-02    0,000000000e+00    0,000000000e+00    0,000000000e+00    0,000000000e+00
     1094000000    2,169295549e-01    9,069532901e-02    6,816615164e-02    9,859716520e-03    0,000000000e+00    0,000000000e+00    0,000000000e+00    0,000000000e+00
     1108000000    2,443479002e-01   -8,539728820e-02    8,073017001e-02    1,606600359e-03    0,000000000e+00    0,000000000e+00    0,000000000e+00    0,000000000e+00
     1122000000    1,866927594e-01   -2,534540892e-01    1,044543535e-01   -2,623442747e-02    0,000000000e+00    0,000000000e+00    0,000000000e+00    0,000000000e+00
     1136000000    4,646551237e-02   -3,771986365e-01    1,244207695e-01   -7,498288900e-02    0,000000000e+00    0,000000000e+00    0,000000000e+00    0,000000000e+00
     1150000000   -1,571064144e-01   -4,261796772e-01    1,395682245e-01   -1,513857543e-01    0,000000000e+00    0,000000000e+00    0,000000000e+00    0,000000000e+00
     1164000000   -3,763769865e-01   -3,211151063e-01    1,002834141e-01   -2,756328583e-01    0,000000000e+00    0,000000000e+00    0,000000000e+00    0,000000000e+00
     1178000000   -4,676261842e-01   -8,437401056e-02   -1,050733551e-01   -4,048171341e-01    0,000000000e+00    0,000000000e+00    0,000000000e+00    0,000000000e+00
     1192000000   -3,689958751e-01    3,899216652e-02   -4,624485672e-01   -1,969154775e-01    0,000000000e+00    0,000000000e+00    0,000000000e+00    0,000000000e+00
     1206000000   -4,145776331e-01    1,311875135e-01   -2,774819732e-01    2,356571257e-01    0,000000000e+00    0,000000000e+00    0,000000000e+00    0,000000000e+00
     1220000000   -2,738330662e-01    3,271027505e-01   -2,874533879e-03    1,614426374e-01    0,000000000e+00    0,000000000e+00    0,000000000e+00    0,000000000e+00
     1234000000   -4,948839918e-02    3,513230681e-01    2,162540331e-02    5,405765772e-02    0,000000000e+00    0,000000000e+00    0,000000000e+00    0,000000000e+00
     1248000000    1,255078912e-01    2,516974807e-01    8,400880732e-03    3,045566939e-02    0,000000000e+00    0,000000000e+00    0,000000000e+00    0,000000000e+00
     1262000000    2,111068815e-01    1,056837961e-01    3,446922172e-03    3,226790205e-02    0,000000000e+00    0,000000000e+00    0,000000000e+00    0,000000000e+00
     1276000000    2,302920073e-01   -5,385174230e-02    2,562691644e-02    3,620690852e-02    0,000000000e+00    0,000000000e+00    0,000000000e+00    0,000000000e+00
     1290000000    1,954619884e-01   -2,131970525e-01    5,671854690e-02    2,819212712e-02    0,000000000e+00    0,000000000e+00    0,000000000e+00    0,000000000e+00
     1304000000    8,458784223e-02   -3,555009067e-01    7,837254554e-02    6,923949812e-03    0,000000000e+00    0,000000000e+00    0,000000000e+00    0,000000000e+00
     1318000000   -1,028890237e-01   -4,467094541e-01    8,593136817e-02   -7,428622339e-03    0,000000000e+00    0,000000000e+00    0,000000000e+00    0,000000000e+00
     1332000000   -3,546800911e-01   -4,363795817e-01    8,855891228e-02   -1,452160440e-02    0,000000000e+00    0,000000000e+00    0,000000000e+00    0,000000000e+00
     1346000000   -5,862327218e-01   -2,460362613e-01    1,022631899e-01   -8,692086674e-03    0,000000000e+00    0,000000000e+00    0,000000000e+00    0,000000000e+00
     1360000000   -6,512497067e-01    7,310953736e-02    1,346176714e-01   -1,680409722e-02    0,000000000e+00    0,000000000e+00    0,000000000e+00    0,000000000e+00
     1374000000   -4,943001866e-01    3,328033984e-01    1,654907316e-01   -5,707332492e-02    0,000000000e+00    0,000000000e+00    0,000000000e+00    0,000000000e+00
     1388000000   -2,570327818e-01    4,243166447e-01    1,532122344e-01   -8,382909745e-02    0,000000000e+00    0,000000000e+00    0,000000000e+00    0,000000000e+00
     1402000000   -4,052432999e-02    3,905163705e-01    1,488215625e-01   -9,514797479e-02    0,000000000e+00    0,000000000e+00    0,000000000e+00    0,000000000e+00
     1416000000    1,092487723e-01    2,839925587e-01    1,271650195e-01   -8,524622023e-02    0,000000000e+00    0,000000000e+00    0,000000000e+00    0,000000000e+00
     1430000000    1,846378893e-01    1,496614963e-01    1,026763022e-01   -5,366845056e-02    0,000000000e+00    0,000000000e+00    0,000000000e+00    0,000000000e+00
     1444000000    2,126753330e-01   -1,354485657e-02    1,110995114e-01   -2,168122120e-02    0,000000000e+00    0,000000000e+00    0,000000000e+00    0,000000000e+00
     1458000000    1,791984141e-01   -1,845015138e-01    1,334481835e-01    1,782573760e-02    0,000000000e+00    0,000000000e+00    0,000000000e+00    0,000000000e+00
     1472000000    6,650192291e-02   -3,395232856e-01    1,994679421e-01    7,380713522e-02    0,000000000e+00    0,000000000e+00    0,000000000e+00    0,000000000e+00
     1486000000   -1,392754465e-01   -4,762398601e-01    3,020291626e-01    9,116603434e-02    0,000000000e+00    0,000000000e+00    0,000000000e+00    0,000000000e+00
     1500000000   -4,505792558e-01   -4,749394953e-01    4,062257707e-01    5,920444056e-02    0,000000000e+00    0,000000000e+00    0,000000000e+00    0,000000000e+00
