! NanoVNA-App
! Date: 2025-09-25 15:58:20
! Start: 100MHz Stop: 1,5GHz Points: 101
! S-Parameter data: F S11 S21 S12 S22
# Hz S RI R 50
!     Frequency           S11_Real           S11_Imag           S21_Real           S21_Imag           S12_Real           S12_Imag           S22_Real           S22_Imag
      100000000   -2,822780795e-02   -2,844639821e-03    3,722731769e-01   -7,224481702e-01    0,000000000e+00    0,000000000e+00    0,000000000e+00    0,000000000e+00
      114000000   -1,564242505e-02    1,287183724e-02   -9,132048488e-02   -8,048881292e-01    0,000000000e+00    0,000000000e+00    0,000000000e+00    0,000000000e+00
      128000000    4,384968430e-03    1,193626691e-02   -5,159713626e-01   -6,189171672e-01    0,000000000e+00    0,000000000e+00    0,000000000e+00    0,000000000e+00
      142000000    1,549367420e-02   -1,804461703e-03   -7,673958540e-01   -2,341615856e-01    0,000000000e+00    0,000000000e+00    0,000000000e+00    0,000000000e+00
      156000000    1,576174423e-02   -1,280886866e-02   -7,633123994e-01    2,218693495e-01    0,000000000e+00    0,000000000e+00    0,000000000e+00    0,000000000e+00
      170000000    1,764383912e-02   -2,098447271e-02   -5,154683590e-01    6,060685515e-01    0,000000000e+00    0,000000000e+00    0,000000000e+00    0,000000000e+00
      184000000    2,196859568e-02   -3,557786718e-02   -9,851580858e-02    7,863303423e-01    0,000000000e+00    0,000000000e+00    0,000000000e+00    0,000000000e+00
      198000000    1,399252564e-02   -6,064281985e-02    3,460599482e-01    7,108452916e-01    0,000000000e+00    0,000000000e+00    0,000000000e+00    0,000000000e+00
      212000000   -1,769404300e-02   -7,917617261e-02    6,805925965e-01    4,064256549e-01    0,000000000e+00    0,000000000e+00    0,000000000e+00    0,000000000e+00
      226000000   -6,029748917e-02   -6,666994095e-02    7,957008481e-01   -3,561422229e-02    0,000000000e+00    0,000000000e+00    0,000000000e+00    0,000000000e+00
      240000000   -8,058684319e-02   -2,276293933e-02    6,417045593e-01   -4,717647135e-01    0,000000000e+00    0,000000000e+00    0,000000000e+00    0,000000000e+00
      254000000   -6,079344824e-02    1,981242187e-02    2,709092796e-01   -7,417065501e-01    0,000000000e+00    0,000000000e+00    0,000000000e+00    0,000000000e+00
      268000000   -2,089554071e-02    3,087026626e-02   -1,812002808e-01   -7,607964277e-01    0,000000000e+00    0,000000000e+00    0,000000000e+00    0,000000000e+00
      282000000    6,964356638e-03    1,377995871e-02   -5,634219646e-01   -5,323696733e-01    0,000000000e+00    0,000000000e+00    0,000000000e+00    0,000000000e+00
      296000000    1,241555344e-02   -6,312522106e-03   -7,604541779e-01   -1,343130618e-01    0,000000000e+00    0,000000000e+00    0,000000000e+00    0,000000000e+00
      310000000    1,349079795e-02   -1,457197685e-02   -7,080509663e-01    3,038850427e-01    0,000000000e+00    0,000000000e+00    0,000000000e+00    0,000000000e+00
      324000000    2,246888913e-02   -2,463274449e-02   -4,213725328e-01    6,401216388e-01    0,000000000e+00    0,000000000e+00    0,000000000e+00    0,000000000e+00
      338000000    2,852641791e-02   -5,072908849e-02   -2,880068729e-03    7,606846690e-01    0,000000000e+00    0,000000000e+00    0,000000000e+00    0,000000000e+00
      352000000    1,031742617e-02   -8,279868215e-02    4,115124643e-01    6,352941990e-01    0,000000000e+00    0,000000000e+00    0,000000000e+00    0,000000000e+00
      366000000   -3,172214702e-02   -9,395620972e-02    6,930459738e-01    3,044123054e-01    0,000000000e+00    0,000000000e+00    0,000000000e+00    0,000000000e+00
      380000000   -6,766075641e-02   -6,888985634e-02    7,457032204e-01   -1,348943859e-01    0,000000000e+00    0,000000000e+00    0,000000000e+00    0,000000000e+00
      394000000   -6,854692847e-02   -3,068493493e-02    5,388880372e-01   -5,287552476e-01    0,000000000e+00    0,000000000e+00    0,000000000e+00    0,000000000e+00
      408000000   -4,266577214e-02   -1,550003793e-02    1,499855369e-01   -7,348422408e-01    0,000000000e+00    0,000000000e+00    0,000000000e+00    0,000000000e+00
      422000000   -2,617747150e-02   -3,115388937e-02   -2,799710929e-01   -6,899417639e-01    0,000000000e+00    0,000000000e+00    0,000000000e+00    0,000000000e+00
      436000000   -3,932172805e-02   -4,904221371e-02   -6,104495525e-01   -4,192572236e-01    0,000000000e+00    0,000000000e+00    0,000000000e+00    0,000000000e+00
      450000000   -6,487959623e-02   -3,924501687e-02   -7,371234894e-01   -7,524810266e-03    0,000000000e+00    0,000000000e+00    0,000000000e+00    0,000000000e+00
      464000000   -6,760606170e-02   -6,352554541e-03   -6,075724959e-01    4,062637389e-01    0,000000000e+00    0,000000000e+00    0,000000000e+00    0,000000000e+00
      478000000   -3,868567199e-02    1,638421044e-02   -2,679478228e-01    6,706649065e-01    0,000000000e+00    0,000000000e+00    0,000000000e+00    0,000000000e+00
      492000000   -5,221166182e-03    6,524150725e-03    1,516747624e-01    6,939866543e-01    0,000000000e+00    0,000000000e+00    0,000000000e+00    0,000000000e+00
      506000000    6,837169640e-03   -2,006728575e-02    5,074521899e-01    4,884163737e-01    0,000000000e+00    0,000000000e+00    0,000000000e+00    0,000000000e+00
      520000000    1,027807826e-03   -3,849652410e-02    6,905310154e-01    1,220771521e-01    0,000000000e+00    0,000000000e+00    0,000000000e+00    0,000000000e+00
      534000000   -2,950989176e-03   -4,561110586e-02    6,328473091e-01   -2,822070718e-01    0,000000000e+00    0,000000000e+00    0,000000000e+00    0,000000000e+00
      548000000    1,164759626e-03   -6,001362577e-02    3,596603274e-01   -5,794073343e-01    0,000000000e+00    0,000000000e+00    0,000000000e+00    0,000000000e+00
      562000000   -7,546184119e-03   -8,861938119e-02   -2,692065015e-02   -6,727938652e-01    0,000000000e+00    0,000000000e+00    0,000000000e+00    0,000000000e+00
      576000000   -4,558350146e-02   -1,097413301e-01   -4,014844000e-01   -5,378409624e-01    0,000000000e+00    0,000000000e+00    0,000000000e+00    0,000000000e+00
      590000000   -9,494160116e-02   -9,341606498e-02   -6,422269344e-01   -2,190162241e-01    0,000000000e+00    0,000000000e+00    0,000000000e+00    0,000000000e+00
      604000000   -1,118081212e-01   -4,143753275e-02   -6,475636363e-01    1,981373876e-01    0,000000000e+00    0,000000000e+00    0,000000000e+00    0,000000000e+00
      618000000   -7,570041716e-02   -2,772594569e-03   -4,020136595e-01    5,353365541e-01    0,000000000e+00    0,000000000e+00    0,000000000e+00    0,000000000e+00
      632000000   -3,051310219e-02   -2,099552006e-02   -1,189580001e-02    6,553331614e-01    0,000000000e+00    0,000000000e+00    0,000000000e+00    0,000000000e+00
      646000000   -3,596223891e-02   -7,638067007e-02    3,658571541e-01    5,269348621e-01    0,000000000e+00    0,000000000e+00    0,000000000e+00    0,000000000e+00
      660000000   -1,118276492e-01   -1,001351923e-01    6,011661887e-01    1,937074661e-01    0,000000000e+00    0,000000000e+00    0,000000000e+00    0,000000000e+00
      674000000   -1,993705630e-01   -2,438972332e-02    5,656129122e-01   -2,396342754e-01    0,000000000e+00    0,000000000e+00    0,000000000e+00    0,000000000e+00
      688000000   -1,795384139e-01    1,445543021e-01    2,092404068e-01   -5,225299001e-01    0,000000000e+00    0,000000000e+00    0,000000000e+00    0,000000000e+00
      702000000    2,548653632e-02    2,468298823e-01   -2,007756531e-01   -4,103676081e-01    0,000000000e+00    0,000000000e+00    0,000000000e+00    0,000000000e+00
      716000000    2,635997534e-01    1,110287011e-01   -2,733556926e-01   -8,387340605e-02    0,000000000e+00    0,000000000e+00    0,000000000e+00    0,000000000e+00
      730000000    3,033170700e-01   -1,854090840e-01   -1,073204279e-01    3,228809685e-02    0,000000000e+00    0,000000000e+00    0,000000000e+00    0,000000000e+00
      744000000    9,442251921e-02   -4,269981384e-01   -4,268698394e-02   -6,501193345e-02    0,000000000e+00    0,000000000e+00    0,000000000e+00    0,000000000e+00
      758000000   -2,577073574e-01   -4,294310808e-01   -1,758110374e-01   -1,251542419e-01    0,000000000e+00    0,000000000e+00    0,000000000e+00    0,000000000e+00
      772000000   -4,850797057e-01   -1,185963228e-01   -3,363108933e-01    3,829165176e-02    0,000000000e+00    0,000000000e+00    0,000000000e+00    0,000000000e+00
      786000000   -3,414311707e-01    2,211254388e-01   -2,629534304e-01    3,163714111e-01    0,000000000e+00    0,000000000e+00    0,000000000e+00    0,000000000e+00
      800000000   -4,063478857e-02    2,768504024e-01    3,022878896e-03    4,360254407e-01    0,000000000e+00    0,000000000e+00    0,000000000e+00    0,000000000e+00
      814000000    1,439993680e-01    1,255049855e-01    2,635010481e-01    3,591803908e-01    0,000000000e+00    0,000000000e+00    0,000000000e+00    0,000000000e+00
      828000000    1,679328978e-01   -7,029931992e-02    4,326067865e-01    1,567935199e-01    0,000000000e+00    0,000000000e+00    0,000000000e+00    0,000000000e+00
      842000000    6,775030494e-02   -2,186370641e-01    4,668243825e-01   -1,202664599e-01    0,000000000e+00    0,000000000e+00    0,000000000e+00    0,000000000e+00
      856000000   -1,065018028e-01   -2,636109889e-01    3,200162947e-01   -3,943534493e-01    0,000000000e+00    0,000000000e+00    0,000000000e+00    0,000000000e+00
      870000000   -2,743981481e-01   -1,678664982e-01   -2,221740084e-03   -5,269148946e-01    0,000000000e+00    0,000000000e+00    0,000000000e+00    0,000000000e+00
      884000000   -3,201679587e-01    3,527149931e-02   -3,475362062e-01   -3,930377066e-01    0,000000000e+00    0,000000000e+00    0,000000000e+00    0,000000000e+00
      898000000   -1,916976273e-01    2,068549097e-01   -4,886949360e-01   -6,219224259e-02    0,000000000e+00    0,000000000e+00    0,000000000e+00    0,000000000e+00
      912000000    6,149140652e-03    2,185608745e-01   -4,089769423e-01    2,779562473e-01    0,000000000e+00    0,000000000e+00    0,000000000e+00    0,000000000e+00
      926000000    1,504648477e-01    1,137703881e-01   -1,686556190e-01    4,169894159e-01    0,000000000e+00    0,000000000e+00    0,000000000e+00    0,000000000e+00
      940000000    1,991665810e-01   -4,706858099e-02    6,374785304e-02    4,235352576e-01    0,000000000e+00    0,000000000e+00    0,000000000e+00    0,000000000e+00
      954000000    1,552789658e-01   -2,039096653e-01    2,615698874e-01    3,405298591e-01    0,000000000e+00    0,000000000e+00    0,000000000e+00    0,000000000e+00
      968000000    2,679185756e-02   -3,141190112e-01    4,108265638e-01    1,788595915e-01    0,000000000e+00    0,000000000e+00    0,000000000e+00    0,000000000e+00
      982000000   -1,635821164e-01   -3,337776661e-01    4,756768346e-01   -6,781040877e-02    0,000000000e+00    0,000000000e+00    0,000000000e+00    0,000000000e+00
      996000000   -3,244849741e-01   -2,065386325e-01    3,671464324e-01   -3,565945625e-01    0,000000000e+00    0,000000000e+00    0,000000000e+00    0,000000000e+00
     1010000000   -3,368138671e-01   -8,291518316e-03    4,114058614e-02   -5,253497362e-01    0,000000000e+00    0,000000000e+00    0,000000000e+00    0,000000000e+00
     1024000000   -2,075201571e-01    9,099119902e-02   -3,451483548e-01   -3,820644319e-01    0,000000000e+00    0,000000000e+00    0,000000000e+00    0,000000000e+00
     1038000000   -1,314874589e-01    8,429585956e-03   -4,825131297e-01    6,325688958e-02    0,000000000e+00    0,000000000e+00    0,000000000e+00    0,000000000e+00
     1052000000   -2,914228737e-01    5,376095325e-02   -9,613218904e-02    3,732781112e-01    0,000000000e+00    0,000000000e+00    0,000000000e+00    0,000000000e+00
     1066000000   -1,520560831e-01    2,924451232e-01    1,431649774e-01    1,334270984e-01    0,000000000e+00    0,000000000e+00    0,000000000e+00    0,000000000e+00
     1080000000    9,896116704e-02    2,462321818e-01    9,029643983e-02    2,298794501e-02    0,000000000e+00    0,000000000e+00    0,000000000e+00    0,000000000e+00
     1094000000    2,173059583e-01    9,009011835e-02    6,904537231e-02    1,053265575e-02    0,000000000e+00    0,000000000e+00    0,000000000e+00    0,000000000e+00
     1108000000    2,448292226e-01   -8,610966057e-02    7,976789773e-02   -5,401696399e-05    0,000000000e+00    0,000000000e+00    0,000000000e+00    0,000000000e+00
     1122000000    1,840152740e-01   -2,482061982e-01    1,053948924e-01   -2,531486750e-02    0,000000000e+00    0,000000000e+00    0,000000000e+00    0,000000000e+00
     1136000000    5,233525485e-02   -3,772758543e-01    1,261858046e-01   -7,425384223e-02    0,000000000e+00    0,000000000e+00    0,000000000e+00    0,000000000e+00
     1150000000   -1,523710489e-01   -4,235468209e-01    1,376214027e-01   -1,526123583e-01    0,000000000e+00    0,000000000e+00    0,000000000e+00    0,000000000e+00
     1164000000   -3,778203130e-01   -3,218468726e-01    1,002345160e-01   -2,763861716e-01    0,000000000e+00    0,000000000e+00    0,000000000e+00    0,000000000e+00
     1178000000   -4,666550159e-01   -8,368181437e-02   -1,013730094e-01   -4,045997560e-01    0,000000000e+00    0,000000000e+00    0,000000000e+00    0,000000000e+00
     1192000000   -3,764995337e-01    3,997036815e-02   -4,637092054e-01   -1,989153028e-01    0,000000000e+00    0,000000000e+00    0,000000000e+00    0,000000000e+00
     1206000000   -4,100022316e-01    1,343324333e-01   -2,739635110e-01    2,404209524e-01    0,000000000e+00    0,000000000e+00    0,000000000e+00    0,000000000e+00
     1220000000   -2,756547928e-01    3,341655433e-01   -2,572054975e-03    1,678808331e-01    0,000000000e+00    0,000000000e+00    0,000000000e+00    0,000000000e+00
     1234000000   -4,268004745e-02    3,453758657e-01    2,564722113e-02    5,222931132e-02    0,000000000e+00    0,000000000e+00    0,000000000e+00    0,000000000e+00
     1248000000    1,193396747e-01    2,446569055e-01    3,060293384e-03    2,340959199e-02    0,000000000e+00    0,000000000e+00    0,000000000e+00    0,000000000e+00
     1262000000    2,142000049e-01    9,963113070e-02   -1,844693907e-03    3,020036407e-02    0,000000000e+00    0,000000000e+00    0,000000000e+00    0,000000000e+00
     1276000000    2,364165336e-01   -5,962736160e-02    2,673398517e-02    3,237123042e-02    0,000000000e+00    0,000000000e+00    0,000000000e+00    0,000000000e+00
     1290000000    1,965383589e-01   -2,147703767e-01    5,772601813e-02    2,668602951e-02    0,000000000e+00    0,000000000e+00    0,000000000e+00    0,000000000e+00
     1304000000    8,555952460e-02   -3,524405658e-01    7,634242624e-02    1,082049776e-02    0,000000000e+00    0,000000000e+00    0,000000000e+00    0,000000000e+00
     1318000000   -1,025630608e-01   -4,515407085e-01    8,229444921e-02   -1,341391727e-02    0,000000000e+00    0,000000000e+00    0,000000000e+00    0,000000000e+00
     1332000000   -3,528390229e-01   -4,382110834e-01    8,880906552e-02   -2,436841093e-02    0,000000000e+00    0,000000000e+00    0,000000000e+00    0,000000000e+00
     1346000000   -5,910997391e-01   -2,527884841e-01    9,959042817e-02   -1,004770119e-02    0,000000000e+00    0,000000000e+00    0,000000000e+00    0,000000000e+00
     1360000000   -6,424379349e-01    6,942105293e-02    1,376283914e-01   -2,293178067e-02    0,000000000e+00    0,000000000e+00    0,000000000e+00    0,000000000e+00
     1374000000   -4,888048172e-01    3,357991278e-01    1,707299948e-01   -5,217282102e-02    0,000000000e+00    0,000000000e+00    0,000000000e+00    0,000000000e+00
     1388000000   -2,453453988e-01    4,269833267e-01    1,608201861e-01   -7,666851580e-02    0,000000000e+00    0,000000000e+00    0,000000000e+00    0,000000000e+00
     1402000000   -4,355021566e-02    3,918979168e-01    1,435356736e-01   -8,298424631e-02    0,000000000e+00    0,000000000e+00    0,000000000e+00    0,000000000e+00
     1416000000    9,896740317e-02    2,888991535e-01    1,183041707e-01   -8,455598354e-02    0,000000000e+00    0,000000000e+00    0,000000000e+00    0,000000000e+00
     1430000000    1,915814728e-01    1,503032446e-01    1,192704290e-01   -6,942319870e-02    0,000000000e+00    0,000000000e+00    0,000000000e+00    0,000000000e+00
     1444000000    2,149619758e-01   -1,348444726e-02    1,248544753e-01   -2,795219421e-02    0,000000000e+00    0,000000000e+00    0,000000000e+00    0,000000000e+00
     1458000000    1,824762672e-01   -1,800465584e-01    1,540286839e-01    2,156225778e-02    0,000000000e+00    0,000000000e+00    0,000000000e+00    0,000000000e+00
     1472000000    6,608771533e-02   -3,404870033e-01    1,874184161e-01    7,752963901e-02    0,000000000e+00    0,000000000e+00    0,000000000e+00    0,000000000e+00
     1486000000   -1,328927130e-01   -4,723792374e-01    2,904988229e-01    8,889008313e-02    0,000000000e+00    0,000000000e+00    0,000000000e+00    0,000000000e+00
     1500000000   -4,299714863e-01   -4,803684354e-01    4,270029664e-01    6,587933749e-02    0,000000000e+00    0,000000000e+00    0,000000000e+00    0,000000000e+00
