! NanoVNA-App
! Date: 2025-09-25 15:56:32
! Start: 100MHz Stop: 1,5GHz Points: 101
! S-Parameter data: F S11 S21 S12 S22
# Hz S RI R 50
!     Frequency           S11_Real           S11_Imag           S21_Real           S21_Imag           S12_Real           S12_Imag           S22_Real           S22_Imag
      100000000   -2,818460949e-02   -2,817711094e-03    3,722741008e-01   -7,224684358e-01    0,000000000e+00    0,000000000e+00    0,000000000e+00    0,000000000e+00
      114000000   -1,560898218e-02    1,288173534e-02   -9,140883386e-02   -8,047882915e-01    0,000000000e+00    0,000000000e+00    0,000000000e+00    0,000000000e+00
      128000000    4,416833632e-03    1,192511804e-02   -5,159662366e-01   -6,188321710e-01    0,000000000e+00    0,000000000e+00    0,000000000e+00    0,000000000e+00
      142000000    1,550085191e-02   -1,854854869e-03   -7,672985196e-01   -2,340745330e-01    0,000000000e+00    0,000000000e+00    0,000000000e+00    0,000000000e+00
      156000000    1,581444591e-02   -1,282662060e-02   -7,634065151e-01    2,218927741e-01    0,000000000e+00    0,000000000e+00    0,000000000e+00    0,000000000e+00
      170000000    1,757902838e-02   -2,103679627e-02   -5,155530572e-01    6,060402393e-01    0,000000000e+00    0,000000000e+00    0,000000000e+00    0,000000000e+00
      184000000    2,199412696e-02   -3,557593003e-02   -9,822700918e-02    7,857673764e-01    0,000000000e+00    0,000000000e+00    0,000000000e+00    0,000000000e+00
      198000000    1,407172065e-02   -6,070282310e-02    3,459973931e-01    7,106190324e-01    0,000000000e+00    0,000000000e+00    0,000000000e+00    0,000000000e+00
      212000000   -1,770959795e-02   -7,910428941e-02    6,806028485e-01    4,061706364e-01    0,000000000e+00    0,000000000e+00    0,000000000e+00    0,000000000e+00
      226000000   -6,030371040e-02   -6,666857004e-02    7,957518697e-01   -3,558057547e-02    0,000000000e+00    0,000000000e+00    0,000000000e+00    0,000000000e+00
      240000000   -8,056061715e-02   -2,280306257e-02    6,418156624e-01   -4,717194438e-01    0,000000000e+00    0,000000000e+00    0,000000000e+00    0,000000000e+00
      254000000   -6,081879884e-02    1,976857148e-02    2,710275948e-01   -7,420058250e-01    0,000000000e+00    0,000000000e+00    0,000000000e+00    0,000000000e+00
      268000000   -2,097257785e-02    3,081425466e-02   -1,812297404e-01   -7,604804635e-01    0,000000000e+00    0,000000000e+00    0,000000000e+00    0,000000000e+00
      282000000    6,880094763e-03    1,378643233e-02   -5,633324385e-01   -5,328873992e-01    0,000000000e+00    0,000000000e+00    0,000000000e+00    0,000000000e+00
      296000000    1,228268258e-02   -6,251447834e-03   -7,602984309e-01   -1,342050731e-01    0,000000000e+00    0,000000000e+00    0,000000000e+00    0,000000000e+00
      310000000    1,352597121e-02   -1,461563166e-02   -7,097837925e-01    3,047578037e-01    0,000000000e+00    0,000000000e+00    0,000000000e+00    0,000000000e+00
      324000000    2,259900048e-02   -2,475254238e-02   -4,215598702e-01    6,385473013e-01    0,000000000e+00    0,000000000e+00    0,000000000e+00    0,000000000e+00
      338000000    2,829937823e-02   -5,069120973e-02   -1,209567650e-03    7,588527203e-01    0,000000000e+00    0,000000000e+00    0,000000000e+00    0,000000000e+00
      352000000    1,018436905e-02   -8,289144933e-02    4,111288488e-01    6,347311735e-01    0,000000000e+00    0,000000000e+00    0,000000000e+00    0,000000000e+00
      366000000   -3,161528707e-02   -9,373991191e-02    6,932457685e-01    3,045266867e-01    0,000000000e+00    0,000000000e+00    0,000000000e+00    0,000000000e+00
      380000000   -6,754179299e-02   -6,855248660e-02    7,454842925e-01   -1,340058893e-01    0,000000000e+00    0,000000000e+00    0,000000000e+00    0,000000000e+00
      394000000   -6,856413186e-02   -3,041911125e-02    5,398042798e-01   -5,277943611e-01    0,000000000e+00    0,000000000e+00    0,000000000e+00    0,000000000e+00
      408000000   -4,260765389e-02   -1,543334313e-02    1,499295831e-01   -7,332293391e-01    0,000000000e+00    0,000000000e+00    0,000000000e+00    0,000000000e+00
      422000000   -2,630645409e-02   -3,131970018e-02   -2,797774076e-01   -6,899579167e-01    0,000000000e+00    0,000000000e+00    0,000000000e+00    0,000000000e+00
      436000000   -3,930724785e-02   -4,905833304e-02   -6,099569798e-01   -4,194182158e-01    0,000000000e+00    0,000000000e+00    0,000000000e+00    0,000000000e+00
      450000000   -6,503742188e-02   -3,881271183e-02   -7,368639112e-01   -7,765513379e-03    0,000000000e+00    0,000000000e+00    0,000000000e+00    0,000000000e+00
      464000000   -6,776452810e-02   -6,186571438e-03   -6,074388623e-01    4,059381783e-01    0,000000000e+00    0,000000000e+00    0,000000000e+00    0,000000000e+00
      478000000   -3,888471425e-02    1,597681642e-02   -2,675960660e-01    6,699753404e-01    0,000000000e+00    0,000000000e+00    0,000000000e+00    0,000000000e+00
      492000000   -5,069180392e-03    6,623243447e-03    1,515830159e-01    6,956641674e-01    0,000000000e+00    0,000000000e+00    0,000000000e+00    0,000000000e+00
      506000000    7,281159982e-03   -2,017964236e-02    5,077980757e-01    4,876387417e-01    0,000000000e+00    0,000000000e+00    0,000000000e+00    0,000000000e+00
      520000000    8,298975299e-04   -3,882784024e-02    6,913284659e-01    1,218535751e-01    0,000000000e+00    0,000000000e+00    0,000000000e+00    0,000000000e+00
      534000000   -3,014827380e-03   -4,550170153e-02    6,330212951e-01   -2,820819318e-01    0,000000000e+00    0,000000000e+00    0,000000000e+00    0,000000000e+00
      548000000    8,678179001e-04   -5,969909951e-02    3,602232039e-01   -5,800661445e-01    0,000000000e+00    0,000000000e+00    0,000000000e+00    0,000000000e+00
      562000000   -7,988275029e-03   -8,811809868e-02   -2,699173801e-02   -6,720421910e-01    0,000000000e+00    0,000000000e+00    0,000000000e+00    0,000000000e+00
      576000000   -4,511089250e-02   -1,095172167e-01   -4,003008306e-01   -5,377613902e-01    0,000000000e+00    0,000000000e+00    0,000000000e+00    0,000000000e+00
      590000000   -9,474252909e-02   -9,332971275e-02   -6,385576129e-01   -2,191885412e-01    0,000000000e+00    0,000000000e+00    0,000000000e+00    0,000000000e+00
      604000000   -1,111558601e-01   -4,138019308e-02   -6,471579671e-01    1,981341988e-01    0,000000000e+00    0,000000000e+00    0,000000000e+00    0,000000000e+00
      618000000   -7,546479255e-02   -2,071820199e-03   -4,010527432e-01    5,356327891e-01    0,000000000e+00    0,000000000e+00    0,000000000e+00    0,000000000e+00
      632000000   -3,000387177e-02   -2,187699638e-02   -1,118673012e-02    6,547394395e-01    0,000000000e+00    0,000000000e+00    0,000000000e+00    0,000000000e+00
      646000000   -3,602745384e-02   -7,754533738e-02    3,659599125e-01    5,263965130e-01    0,000000000e+00    0,000000000e+00    0,000000000e+00    0,000000000e+00
      660000000   -1,110880822e-01   -9,976432472e-02    6,007729769e-01    1,936120391e-01    0,000000000e+00    0,000000000e+00    0,000000000e+00    0,000000000e+00
      674000000   -1,991744190e-01   -2,324155718e-02    5,651093125e-01   -2,401219010e-01    0,000000000e+00    0,000000000e+00    0,000000000e+00    0,000000000e+00
      688000000   -1,785065681e-01    1,454629153e-01    2,089178711e-01   -5,209485888e-01    0,000000000e+00    0,000000000e+00    0,000000000e+00    0,000000000e+00
      702000000    2,433722466e-02    2,472182512e-01   -2,050181925e-01   -4,052322805e-01    0,000000000e+00    0,000000000e+00    0,000000000e+00    0,000000000e+00
      716000000    2,633402348e-01    1,104650795e-01   -2,719404697e-01   -8,346808702e-02    0,000000000e+00    0,000000000e+00    0,000000000e+00    0,000000000e+00
      730000000    3,035408854e-01   -1,859949231e-01   -1,066783890e-01    3,154816478e-02    0,000000000e+00    0,000000000e+00    0,000000000e+00    0,000000000e+00
      744000000    9,293526411e-02   -4,267758429e-01   -4,261377826e-02   -6,592665613e-02    0,000000000e+00    0,000000000e+00    0,000000000e+00    0,000000000e+00
      758000000   -2,590277791e-01   -4,297930300e-01   -1,756343096e-01   -1,257830262e-01    0,000000000e+00    0,000000000e+00    0,000000000e+00    0,000000000e+00
      772000000   -4,841919839e-01   -1,185436025e-01   -3,369010687e-01    3,857738152e-02    0,000000000e+00    0,000000000e+00    0,000000000e+00    0,000000000e+00
      786000000   -3,416443467e-01    2,220247537e-01   -2,625196874e-01    3,165556788e-01    0,000000000e+00    0,000000000e+00    0,000000000e+00    0,000000000e+00
      800000000   -4,086829349e-02    2,760655582e-01    2,941441955e-03    4,367583096e-01    0,000000000e+00    0,000000000e+00    0,000000000e+00    0,000000000e+00
      814000000    1,439971179e-01    1,252573580e-01    2,643050551e-01    3,597036302e-01    0,000000000e+00    0,000000000e+00    0,000000000e+00    0,000000000e+00
      828000000    1,675869226e-01   -7,021693885e-02    4,328807294e-01    1,568183303e-01    0,000000000e+00    0,000000000e+00    0,000000000e+00    0,000000000e+00
      842000000    6,703137606e-02   -2,187935561e-01    4,665755033e-01   -1,200562939e-01    0,000000000e+00    0,000000000e+00    0,000000000e+00    0,000000000e+00
      856000000   -1,067080125e-01   -2,644209564e-01    3,209277987e-01   -3,945157230e-01    0,000000000e+00    0,000000000e+00    0,000000000e+00    0,000000000e+00
      870000000   -2,739776671e-01   -1,680467874e-01   -1,151932753e-03   -5,275410414e-01    0,000000000e+00    0,000000000e+00    0,000000000e+00    0,000000000e+00
      884000000   -3,204053342e-01    3,620859981e-02   -3,477350175e-01   -3,934955895e-01    0,000000000e+00    0,000000000e+00    0,000000000e+00    0,000000000e+00
      898000000   -1,928614080e-01    2,065029889e-01   -4,895290136e-01   -6,288927048e-02    0,000000000e+00    0,000000000e+00    0,000000000e+00    0,000000000e+00
      912000000    6,921543274e-03    2,186254561e-01   -4,084808826e-01    2,774468362e-01    0,000000000e+00    0,000000000e+00    0,000000000e+00    0,000000000e+00
      926000000    1,504798383e-01    1,135309711e-01   -1,678500026e-01    4,176179767e-01    0,000000000e+00    0,000000000e+00    0,000000000e+00    0,000000000e+00
      940000000    1,983974129e-01   -4,799599573e-02    6,244343892e-02    4,249299765e-01    0,000000000e+00    0,000000000e+00    0,000000000e+00    0,000000000e+00
      954000000    1,518323123e-01   -1,999554634e-01    2,602347732e-01    3,427862823e-01    0,000000000e+00    0,000000000e+00    0,000000000e+00    0,000000000e+00
      968000000    2,270029485e-02   -3,155006766e-01    4,115796983e-01    1,788468212e-01    0,000000000e+00    0,000000000e+00    0,000000000e+00    0,000000000e+00
      982000000   -1,608653218e-01   -3,296604753e-01    4,760511518e-01   -6,723318249e-02    0,000000000e+00    0,000000000e+00    0,000000000e+00    0,000000000e+00
      996000000   -3,273480833e-01   -2,089346349e-01    3,675711155e-01   -3,553512096e-01    0,000000000e+00    0,000000000e+00    0,000000000e+00    0,000000000e+00
     1010000000   -3,429132700e-01   -8,995532058e-03    4,204962775e-02   -5,244328976e-01    0,000000000e+00    0,000000000e+00    0,000000000e+00    0,000000000e+00
     1024000000   -2,083197683e-01    9,526247531e-02   -3,447212279e-01   -3,812885582e-01    0,000000000e+00    0,000000000e+00    0,000000000e+00    0,000000000e+00
     1038000000   -1,317745298e-01    1,056268718e-02   -4,834844172e-01    5,957746133e-02    0,000000000e+00    0,000000000e+00    0,000000000e+00    0,000000000e+00
     1052000000   -2,864190936e-01    5,538611487e-02   -9,676317871e-02    3,742724359e-01    0,000000000e+00    0,000000000e+00    0,000000000e+00    0,000000000e+00
     1066000000   -1,479189694e-01    2,895094156e-01    1,473329663e-01    1,340216249e-01    0,000000000e+00    0,000000000e+00    0,000000000e+00    0,000000000e+00
     1080000000    1,003344208e-01    2,511365712e-01    9,129439294e-02    2,242482826e-02    0,000000000e+00    0,000000000e+00    0,000000000e+00    0,000000000e+00
     1094000000    2,210755795e-01    8,602344245e-02    7,044993341e-02    9,630737826e-03    0,000000000e+00    0,000000000e+00    0,000000000e+00    0,000000000e+00
     1108000000    2,394008785e-01   -8,779140562e-02    8,127082884e-02   -1,358571346e-03    0,000000000e+00    0,000000000e+00    0,000000000e+00    0,000000000e+00
     1122000000    1,861784160e-01   -2,491346598e-01    1,038879454e-01   -2,687434480e-02    0,000000000e+00    0,000000000e+00    0,000000000e+00    0,000000000e+00
     1136000000    5,115132406e-02   -3,801911175e-01    1,239823326e-01   -7,639951259e-02    0,000000000e+00    0,000000000e+00    0,000000000e+00    0,000000000e+00
     1150000000   -1,583790630e-01   -4,224224091e-01    1,372586489e-01   -1,501074135e-01    0,000000000e+00    0,000000000e+00    0,000000000e+00    0,000000000e+00
     1164000000   -3,783622980e-01   -3,225873113e-01    9,460134804e-02   -2,765096724e-01    0,000000000e+00    0,000000000e+00    0,000000000e+00    0,000000000e+00
     1178000000   -4,656590819e-01   -9,326647967e-02   -1,029176936e-01   -4,045025706e-01    0,000000000e+00    0,000000000e+00    0,000000000e+00    0,000000000e+00
     1192000000   -3,700828552e-01    3,887287900e-02   -4,595608711e-01   -1,973224878e-01    0,000000000e+00    0,000000000e+00    0,000000000e+00    0,000000000e+00
     1206000000   -4,162069559e-01    1,287645996e-01   -2,786307335e-01    2,360929847e-01    0,000000000e+00    0,000000000e+00    0,000000000e+00    0,000000000e+00
     1220000000   -2,735716403e-01    3,341643214e-01   -5,604972597e-03    1,681869477e-01    0,000000000e+00    0,000000000e+00    0,000000000e+00    0,000000000e+00
     1234000000   -4,721937329e-02    3,484659195e-01    2,084974758e-02    5,605464801e-02    0,000000000e+00    0,000000000e+00    0,000000000e+00    0,000000000e+00
     1248000000    1,166468188e-01    2,492135912e-01   -1,338199014e-03    2,894014120e-02    0,000000000e+00    0,000000000e+00    0,000000000e+00    0,000000000e+00
     1262000000    2,089460641e-01    1,007846147e-01    8,391302545e-04    2,989201061e-02    0,000000000e+00    0,000000000e+00    0,000000000e+00    0,000000000e+00
     1276000000    2,339543849e-01   -5,578230694e-02    2,523637563e-02    3,653126583e-02    0,000000000e+00    0,000000000e+00    0,000000000e+00    0,000000000e+00
     1290000000    1,910784394e-01   -2,154624015e-01    5,568091199e-02    2,587291226e-02    0,000000000e+00    0,000000000e+00    0,000000000e+00    0,000000000e+00
     1304000000    8,427860588e-02   -3,598786294e-01    7,789192349e-02    2,417125041e-03    0,000000000e+00    0,000000000e+00    0,000000000e+00    0,000000000e+00
     1318000000   -1,068148240e-01   -4,472621679e-01    8,130152524e-02   -9,728341363e-03    0,000000000e+00    0,000000000e+00    0,000000000e+00    0,000000000e+00
     1332000000   -3,532598317e-01   -4,345188439e-01    8,909186721e-02   -1,037033554e-02    0,000000000e+00    0,000000000e+00    0,000000000e+00    0,000000000e+00
     1346000000   -5,912028551e-01   -2,521399856e-01    1,014049202e-01   -1,627631672e-02    0,000000000e+00    0,000000000e+00    0,000000000e+00    0,000000000e+00
     1360000000   -6,474242210e-01    7,274235785e-02    1,442465633e-01   -1,643045619e-02    0,000000000e+00    0,000000000e+00    0,000000000e+00    0,000000000e+00
     1374000000   -4,860948920e-01    3,352372050e-01    1,776888669e-01   -4,461774603e-02    0,000000000e+00    0,000000000e+00    0,000000000e+00    0,000000000e+00
     1388000000   -2,500807047e-01    4,225422740e-01    1,591884792e-01   -8,891374618e-02    0,000000000e+00    0,000000000e+00    0,000000000e+00    0,000000000e+00
     1402000000   -4,038208723e-02    3,871218562e-01    1,555374712e-01   -9,828785062e-02    0,000000000e+00    0,000000000e+00    0,000000000e+00    0,000000000e+00
     1416000000    9,976577014e-02    2,885582149e-01    1,285137385e-01   -8,267290145e-02    0,000000000e+00    0,000000000e+00    0,000000000e+00    0,000000000e+00
     1430000000    1,811206937e-01    1,535999030e-01    1,138544306e-01   -5,443175882e-02    0,000000000e+00    0,000000000e+00    0,000000000e+00    0,000000000e+00
     1444000000    2,152424306e-01   -9,123610333e-03    1,216391176e-01   -2,157732844e-02    0,000000000e+00    0,000000000e+00    0,000000000e+00    0,000000000e+00
     1458000000    1,800165921e-01   -1,838921010e-01    1,312631667e-01    1,597661711e-02    0,000000000e+00    0,000000000e+00    0,000000000e+00    0,000000000e+00
     1472000000    6,553493440e-02   -3,539737761e-01    1,968100816e-01    5,520329624e-02    0,000000000e+00    0,000000000e+00    0,000000000e+00    0,000000000e+00
     1486000000   -1,327321827e-01   -4,717551470e-01    3,035245240e-01    9,645988047e-02    0,000000000e+00    0,000000000e+00    0,000000000e+00    0,000000000e+00
     1500000000   -4,462341368e-01   -4,716620743e-01    4,073510170e-01    6,574162096e-02    0,000000000e+00    0,000000000e+00    0,000000000e+00    0,000000000e+00
