! NanoVNA-App
! Date: 2025-09-25 15:57:15
! Start: 100MHz Stop: 1,5GHz Points: 101
! S-Parameter data: F S11 S21 S12 S22
# Hz S RI R 50
!     Frequency           S11_Real           S11_Imag           S21_Real           S21_Imag           S12_Real           S12_Imag           S22_Real           S22_Imag
      100000000   -2,821726166e-02   -2,840529196e-03    3,722112179e-01   -7,224928737e-01    0,000000000e+00    0,000000000e+00    0,000000000e+00    0,000000000e+00
      114000000   -1,562664658e-02    1,288380194e-02   -9,132328629e-02   -8,045829535e-01    0,000000000e+00    0,000000000e+00    0,000000000e+00    0,000000000e+00
      128000000    4,381419159e-03    1,190027129e-02   -5,159448385e-01   -6,187236309e-01    0,000000000e+00    0,000000000e+00    0,000000000e+00    0,000000000e+00
      142000000    1,550032292e-02   -1,808041590e-03   -7,674049735e-01   -2,341161221e-01    0,000000000e+00    0,000000000e+00    0,000000000e+00    0,000000000e+00
      156000000    1,755453274e-02   -1,395175140e-02   -7,679938674e-01    2,273651958e-01    0,000000000e+00    0,000000000e+00    0,000000000e+00    0,000000000e+00
      170000000    1,768305339e-02   -2,100046165e-02   -5,153617263e-01    6,061991453e-01    0,000000000e+00    0,000000000e+00    0,000000000e+00    0,000000000e+00
      184000000    2,196586132e-02   -3,554477170e-02   -9,820834547e-02    7,861998081e-01    0,000000000e+00    0,000000000e+00    0,000000000e+00    0,000000000e+00
      198000000    1,399246510e-02   -6,068183109e-02    3,458606303e-01    7,104563117e-01    0,000000000e+00    0,000000000e+00    0,000000000e+00    0,000000000e+00
      212000000   -1,767591760e-02   -7,919938862e-02    6,807720661e-01    4,063661098e-01    0,000000000e+00    0,000000000e+00    0,000000000e+00    0,000000000e+00
      226000000   -6,037643179e-02   -6,660162657e-02    7,957388163e-01   -3,560987860e-02    0,000000000e+00    0,000000000e+00    0,000000000e+00    0,000000000e+00
      240000000   -8,051779121e-02   -2,275398187e-02    6,414270997e-01   -4,716413021e-01    0,000000000e+00    0,000000000e+00    0,000000000e+00    0,000000000e+00
      254000000   -6,085142493e-02    1,977020688e-02    2,707028985e-01   -7,418954372e-01    0,000000000e+00    0,000000000e+00    0,000000000e+00    0,000000000e+00
      268000000   -2,099703066e-02    3,085766919e-02   -1,811173856e-01   -7,609686255e-01    0,000000000e+00    0,000000000e+00    0,000000000e+00    0,000000000e+00
      282000000    6,955962162e-03    1,376230177e-02   -5,632976294e-01   -5,325710177e-01    0,000000000e+00    0,000000000e+00    0,000000000e+00    0,000000000e+00
      296000000    1,242383942e-02   -6,229182705e-03   -7,604740858e-01   -1,342841387e-01    0,000000000e+00    0,000000000e+00    0,000000000e+00    0,000000000e+00
      310000000    1,348716021e-02   -1,469703764e-02   -7,080360651e-01    3,029901981e-01    0,000000000e+00    0,000000000e+00    0,000000000e+00    0,000000000e+00
      324000000    2,228564397e-02   -2,494678088e-02   -4,219411910e-01    6,392063498e-01    0,000000000e+00    0,000000000e+00    0,000000000e+00    0,000000000e+00
      338000000    2,835786156e-02   -5,031110719e-02   -5,950454506e-04    7,595373988e-01    0,000000000e+00    0,000000000e+00    0,000000000e+00    0,000000000e+00
      352000000    9,964017197e-03   -8,293750137e-02    4,110591412e-01    6,344173551e-01    0,000000000e+00    0,000000000e+00    0,000000000e+00    0,000000000e+00
      366000000   -3,157692030e-02   -9,399265051e-02    6,933122873e-01    3,042540848e-01    0,000000000e+00    0,000000000e+00    0,000000000e+00    0,000000000e+00
      380000000   -6,755464524e-02   -6,876245141e-02    7,453616858e-01   -1,345238984e-01    0,000000000e+00    0,000000000e+00    0,000000000e+00    0,000000000e+00
      394000000   -6,862400472e-02   -3,068666346e-02    5,385735631e-01   -5,292637348e-01    0,000000000e+00    0,000000000e+00    0,000000000e+00    0,000000000e+00
      408000000   -4,256132618e-02   -1,556808781e-02    1,504567266e-01   -7,337608337e-01    0,000000000e+00    0,000000000e+00    0,000000000e+00    0,000000000e+00
      422000000   -2,616554499e-02   -3,103752993e-02   -2,796882391e-01   -6,893963218e-01    0,000000000e+00    0,000000000e+00    0,000000000e+00    0,000000000e+00
      436000000   -3,910009190e-02   -4,891829193e-02   -6,106394529e-01   -4,195126295e-01    0,000000000e+00    0,000000000e+00    0,000000000e+00    0,000000000e+00
      450000000   -6,470267475e-02   -3,901343793e-02   -7,366122603e-01   -7,706530858e-03    0,000000000e+00    0,000000000e+00    0,000000000e+00    0,000000000e+00
      464000000   -6,742446125e-02   -6,358078215e-03   -6,075277328e-01    4,059611261e-01    0,000000000e+00    0,000000000e+00    0,000000000e+00    0,000000000e+00
      478000000   -3,833977133e-02    1,638540439e-02   -2,678970098e-01    6,700987220e-01    0,000000000e+00    0,000000000e+00    0,000000000e+00    0,000000000e+00
      492000000   -4,971399438e-03    6,445665844e-03    1,525914669e-01    6,944583654e-01    0,000000000e+00    0,000000000e+00    0,000000000e+00    0,000000000e+00
      506000000    6,848888937e-03   -2,000389062e-02    5,074341893e-01    4,889134467e-01    0,000000000e+00    0,000000000e+00    0,000000000e+00    0,000000000e+00
      520000000    6,950675161e-04   -3,883339465e-02    6,905964613e-01    1,224803403e-01    0,000000000e+00    0,000000000e+00    0,000000000e+00    0,000000000e+00
      534000000   -3,039304400e-03   -4,526344314e-02    6,329349875e-01   -2,814911306e-01    0,000000000e+00    0,000000000e+00    0,000000000e+00    0,000000000e+00
      548000000    9,016739787e-04   -5,929205939e-02    3,601600230e-01   -5,788578391e-01    0,000000000e+00    0,000000000e+00    0,000000000e+00    0,000000000e+00
      562000000   -7,771462668e-03   -8,864131570e-02   -2,724679373e-02   -6,724147797e-01    0,000000000e+00    0,000000000e+00    0,000000000e+00    0,000000000e+00
      576000000   -4,548852518e-02   -1,096896008e-01   -4,016181529e-01   -5,378798842e-01    0,000000000e+00    0,000000000e+00    0,000000000e+00    0,000000000e+00
      590000000   -9,473821521e-02   -9,336850047e-02   -6,406226754e-01   -2,164078504e-01    0,000000000e+00    0,000000000e+00    0,000000000e+00    0,000000000e+00
      604000000   -1,119028032e-01   -4,104261100e-02   -6,476328373e-01    1,984723508e-01    0,000000000e+00    0,000000000e+00    0,000000000e+00    0,000000000e+00
      618000000   -7,547079027e-02   -2,226924291e-03   -4,013954401e-01    5,355219245e-01    0,000000000e+00    0,000000000e+00    0,000000000e+00    0,000000000e+00
      632000000   -3,009096906e-02   -2,172172442e-02   -1,152061205e-02    6,546746492e-01    0,000000000e+00    0,000000000e+00    0,000000000e+00    0,000000000e+00
      646000000   -3,613352031e-02   -7,725665718e-02    3,657587469e-01    5,269753933e-01    0,000000000e+00    0,000000000e+00    0,000000000e+00    0,000000000e+00
      660000000   -1,111350730e-01   -1,000813171e-01    6,008116603e-01    1,933614314e-01    0,000000000e+00    0,000000000e+00    0,000000000e+00    0,000000000e+00
      674000000   -1,999071091e-01   -2,274648845e-02    5,646870136e-01   -2,405286580e-01    0,000000000e+00    0,000000000e+00    0,000000000e+00    0,000000000e+00
      688000000   -1,791769266e-01    1,456798762e-01    2,087195963e-01   -5,217935443e-01    0,000000000e+00    0,000000000e+00    0,000000000e+00    0,000000000e+00
      702000000    2,331291884e-02    2,447704077e-01   -1,929356903e-01   -4,017550945e-01    0,000000000e+00    0,000000000e+00    0,000000000e+00    0,000000000e+00
      716000000    2,635534108e-01    1,104234606e-01   -2,721735239e-01   -8,317896724e-02    0,000000000e+00    0,000000000e+00    0,000000000e+00    0,000000000e+00
      730000000    3,033458591e-01   -1,872641593e-01   -1,062577516e-01    3,150808066e-02    0,000000000e+00    0,000000000e+00    0,000000000e+00    0,000000000e+00
      744000000    9,422446787e-02   -4,276857078e-01   -4,265861586e-02   -6,611726433e-02    0,000000000e+00    0,000000000e+00    0,000000000e+00    0,000000000e+00
      758000000   -2,586328983e-01   -4,284539819e-01   -1,764242947e-01   -1,261412948e-01    0,000000000e+00    0,000000000e+00    0,000000000e+00    0,000000000e+00
      772000000   -4,842255116e-01   -1,181397736e-01   -3,369559050e-01    3,838868439e-02    0,000000000e+00    0,000000000e+00    0,000000000e+00    0,000000000e+00
      786000000   -3,404130936e-01    2,207261771e-01   -2,634389699e-01    3,162888288e-01    0,000000000e+00    0,000000000e+00    0,000000000e+00    0,000000000e+00
      800000000   -4,141097888e-02    2,759076953e-01    3,219764214e-03    4,365267456e-01    0,000000000e+00    0,000000000e+00    0,000000000e+00    0,000000000e+00
      814000000    1,439328194e-01    1,255844533e-01    2,643541396e-01    3,601233959e-01    0,000000000e+00    0,000000000e+00    0,000000000e+00    0,000000000e+00
      828000000    1,674523503e-01   -7,003182173e-02    4,332402050e-01    1,565564871e-01    0,000000000e+00    0,000000000e+00    0,000000000e+00    0,000000000e+00
      842000000    6,674876064e-02   -2,183688581e-01    4,667626917e-01   -1,196737289e-01    0,000000000e+00    0,000000000e+00    0,000000000e+00    0,000000000e+00
      856000000   -1,063229591e-01   -2,628002167e-01    3,201022148e-01   -3,944596946e-01    0,000000000e+00    0,000000000e+00    0,000000000e+00    0,000000000e+00
      870000000   -2,746313512e-01   -1,673959047e-01   -3,201258602e-03   -5,272016525e-01    0,000000000e+00    0,000000000e+00    0,000000000e+00    0,000000000e+00
      884000000   -3,205080926e-01    3,598028794e-02   -3,481601775e-01   -3,923276961e-01    0,000000000e+00    0,000000000e+00    0,000000000e+00    0,000000000e+00
      898000000   -1,928450316e-01    2,058647722e-01   -4,892567098e-01   -6,306105107e-02    0,000000000e+00    0,000000000e+00    0,000000000e+00    0,000000000e+00
      912000000    6,387408823e-03    2,183250040e-01   -3,997282982e-01    2,817318439e-01    0,000000000e+00    0,000000000e+00    0,000000000e+00    0,000000000e+00
      926000000    1,493726075e-01    1,134511754e-01   -1,694473922e-01    4,162614048e-01    0,000000000e+00    0,000000000e+00    0,000000000e+00    0,000000000e+00
      940000000    1,968881935e-01   -4,489427060e-02    6,272982806e-02    4,247331023e-01    0,000000000e+00    0,000000000e+00    0,000000000e+00    0,000000000e+00
      954000000    1,508805603e-01   -2,033622563e-01    2,602373362e-01    3,422236145e-01    0,000000000e+00    0,000000000e+00    0,000000000e+00    0,000000000e+00
      968000000    2,503805608e-02   -3,161135614e-01    4,113243520e-01    1,793936640e-01    0,000000000e+00    0,000000000e+00    0,000000000e+00    0,000000000e+00
      982000000   -1,633724570e-01   -3,314372599e-01    4,750821888e-01   -6,613185257e-02    0,000000000e+00    0,000000000e+00    0,000000000e+00    0,000000000e+00
      996000000   -3,265506923e-01   -2,114165574e-01    3,685505688e-01   -3,565463424e-01    0,000000000e+00    0,000000000e+00    0,000000000e+00    0,000000000e+00
     1010000000   -3,386413753e-01   -9,706970304e-03    4,203907028e-02   -5,249108672e-01    0,000000000e+00    0,000000000e+00    0,000000000e+00    0,000000000e+00
     1024000000   -2,091757804e-01    9,557865560e-02   -3,443909287e-01   -3,791136742e-01    0,000000000e+00    0,000000000e+00    0,000000000e+00    0,000000000e+00
     1038000000   -1,339731961e-01    1,180215366e-02   -4,835355580e-01    6,467898935e-02    0,000000000e+00    0,000000000e+00    0,000000000e+00    0,000000000e+00
     1052000000   -2,852245271e-01    5,061573908e-02   -9,361192584e-02    3,734610975e-01    0,000000000e+00    0,000000000e+00    0,000000000e+00    0,000000000e+00
     1066000000   -1,520062983e-01    2,928394675e-01    1,475836784e-01    1,360360086e-01    0,000000000e+00    0,000000000e+00    0,000000000e+00    0,000000000e+00
     1080000000    9,782502055e-02    2,465571612e-01    9,251801670e-02    2,029662207e-02    0,000000000e+00    0,000000000e+00    0,000000000e+00    0,000000000e+00
     1094000000    2,189940512e-01    9,084430337e-02    7,003562897e-02    8,776779287e-03    0,000000000e+00    0,000000000e+00    0,000000000e+00    0,000000000e+00
     1108000000    2,446213216e-01   -8,816894889e-02    8,019174635e-02   -7,467965770e-05    0,000000000e+00    0,000000000e+00    0,000000000e+00    0,000000000e+00
     1122000000    1,871661842e-01   -2,490245849e-01    1,042493433e-01   -2,843740210e-02    0,000000000e+00    0,000000000e+00    0,000000000e+00    0,000000000e+00
     1136000000    4,796896875e-02   -3,798092306e-01    1,245226562e-01   -7,411872596e-02    0,000000000e+00    0,000000000e+00    0,000000000e+00    0,000000000e+00
     1150000000   -1,562770158e-01   -4,198766947e-01    1,378174573e-01   -1,503743529e-01    0,000000000e+00    0,000000000e+00    0,000000000e+00    0,000000000e+00
     1164000000   -3,802749217e-01   -3,238952756e-01    9,775593877e-02   -2,800912261e-01    0,000000000e+00    0,000000000e+00    0,000000000e+00    0,000000000e+00
     1178000000   -4,687353373e-01   -9,213431180e-02   -1,028959081e-01   -4,048813879e-01    0,000000000e+00    0,000000000e+00    0,000000000e+00    0,000000000e+00
     1192000000   -3,717766106e-01    3,531973064e-02   -4,603187442e-01   -1,986382753e-01    0,000000000e+00    0,000000000e+00    0,000000000e+00    0,000000000e+00
     1206000000   -4,128968716e-01    1,313160211e-01   -2,741225064e-01    2,384146899e-01    0,000000000e+00    0,000000000e+00    0,000000000e+00    0,000000000e+00
     1220000000   -2,752711177e-01    3,343706429e-01   -5,206728354e-03    1,644888818e-01    0,000000000e+00    0,000000000e+00    0,000000000e+00    0,000000000e+00
     1234000000   -4,369737580e-02    3,441576064e-01    2,857010439e-02    5,532041937e-02    0,000000000e+00    0,000000000e+00    0,000000000e+00    0,000000000e+00
     1248000000    1,218645200e-01    2,532571256e-01    9,777348489e-03    2,351146378e-02    0,000000000e+00    0,000000000e+00    0,000000000e+00    0,000000000e+00
     1262000000    2,112602592e-01    1,059852764e-01    5,055221729e-03    3,524225205e-02    0,000000000e+00    0,000000000e+00    0,000000000e+00    0,000000000e+00
     1276000000    2,378026247e-01   -5,435596034e-02    2,744798921e-02    4,130463675e-02    0,000000000e+00    0,000000000e+00    0,000000000e+00    0,000000000e+00
     1290000000    1,932082772e-01   -2,135658562e-01    5,783011019e-02    2,868617699e-02    0,000000000e+00    0,000000000e+00    0,000000000e+00    0,000000000e+00
     1304000000    8,012253791e-02   -3,579923511e-01    7,545363158e-02    5,473066121e-03    0,000000000e+00    0,000000000e+00    0,000000000e+00    0,000000000e+00
     1318000000   -1,038995981e-01   -4,493693113e-01    8,363732696e-02   -1,270782482e-02    0,000000000e+00    0,000000000e+00    0,000000000e+00    0,000000000e+00
     1332000000   -3,548593521e-01   -4,341600239e-01    8,090914786e-02   -1,136237849e-02    0,000000000e+00    0,000000000e+00    0,000000000e+00    0,000000000e+00
     1346000000   -5,878075361e-01   -2,507952154e-01    9,638595581e-02   -1,233559381e-02    0,000000000e+00    0,000000000e+00    0,000000000e+00    0,000000000e+00
     1360000000   -6,482902765e-01    7,518357784e-02    1,397282183e-01   -7,128676400e-03    0,000000000e+00    0,000000000e+00    0,000000000e+00    0,000000000e+00
     1374000000   -4,933534563e-01    3,365836442e-01    1,637954116e-01   -4,739291221e-02    0,000000000e+00    0,000000000e+00    0,000000000e+00    0,000000000e+00
     1388000000   -2,494997382e-01    4,281199276e-01    1,736547500e-01   -8,767771721e-02    0,000000000e+00    0,000000000e+00    0,000000000e+00    0,000000000e+00
     1402000000   -4,699787870e-02    3,907377124e-01    1,410377324e-01   -1,011214480e-01    0,000000000e+00    0,000000000e+00    0,000000000e+00    0,000000000e+00
     1416000000    1,033405364e-01    2,830930948e-01    1,270865649e-01   -9,220166504e-02    0,000000000e+00    0,000000000e+00    0,000000000e+00    0,000000000e+00
     1430000000    1,874110550e-01    1,508507878e-01    1,261595935e-01   -4,664063826e-02    0,000000000e+00    0,000000000e+00    0,000000000e+00    0,000000000e+00
     1444000000    2,125029564e-01   -1,096693240e-02    1,180343702e-01   -3,236149251e-02    0,000000000e+00    0,000000000e+00    0,000000000e+00    0,000000000e+00
     1458000000    1,833225787e-01   -1,792147607e-01    1,410228014e-01    2,294579148e-02    0,000000000e+00    0,000000000e+00    0,000000000e+00    0,000000000e+00
     1472000000    6,392171234e-02   -3,505711854e-01    1,878205389e-01    7,038018107e-02    0,000000000e+00    0,000000000e+00    0,000000000e+00    0,000000000e+00
     1486000000   -1,432790309e-01   -4,781247377e-01    2,869611979e-01    8,553226292e-02    0,000000000e+00    0,000000000e+00    0,000000000e+00    0,000000000e+00
     1500000000   -4,361032248e-01   -4,626200497e-01    4,059000015e-01    6,510172784e-02    0,000000000e+00    0,000000000e+00    0,000000000e+00    0,000000000e+00
