! NanoVNA-App
! Date: 2025-09-25 15:55:42
! Start: 100MHz Stop: 1,5GHz Points: 101
! S-Parameter data: F S11 S21 S12 S22
# Hz S RI R 50
!     Frequency           S11_Real           S11_Imag           S21_Real           S21_Imag           S12_Real           S12_Imag           S22_Real           S22_Imag
      100000000   -2,818631008e-02   -2,807379467e-03    3,722718358e-01   -7,224219441e-01    0,000000000e+00    0,000000000e+00    0,000000000e+00    0,000000000e+00
      114000000   -1,557543036e-02    1,286731847e-02   -9,130836278e-02   -8,049094677e-01    0,000000000e+00    0,000000000e+00    0,000000000e+00    0,000000000e+00
      128000000    4,459558055e-03    1,185595617e-02   -5,159512758e-01   -6,188025475e-01    0,000000000e+00    0,000000000e+00    0,000000000e+00    0,000000000e+00
      142000000    1,549624279e-02   -1,846192870e-03   -7,673314810e-01   -2,343369871e-01    0,000000000e+00    0,000000000e+00    0,000000000e+00    0,000000000e+00
      156000000    1,579963975e-02   -1,291676331e-02   -7,634541392e-01    2,218841910e-01    0,000000000e+00    0,000000000e+00    0,000000000e+00    0,000000000e+00
      170000000    1,758546568e-02   -2,099607885e-02   -5,156065226e-01    6,064763665e-01    0,000000000e+00    0,000000000e+00    0,000000000e+00    0,000000000e+00
      184000000    2,197745629e-02   -3,555591404e-02   -9,821361303e-02    7,859171629e-01    0,000000000e+00    0,000000000e+00    0,000000000e+00    0,000000000e+00
      198000000    1,404171437e-02   -6,067989394e-02    3,458483815e-01    7,109507918e-01    0,000000000e+00    0,000000000e+00    0,000000000e+00    0,000000000e+00
      212000000   -1,762417518e-02   -7,913342863e-02    6,806560755e-01    4,062890708e-01    0,000000000e+00    0,000000000e+00    0,000000000e+00    0,000000000e+00
      226000000   -6,033859029e-02   -6,667775661e-02    7,957610488e-01   -3,542212397e-02    0,000000000e+00    0,000000000e+00    0,000000000e+00    0,000000000e+00
      240000000   -8,062924445e-02   -2,281848341e-02    6,415537000e-01   -4,717106819e-01    0,000000000e+00    0,000000000e+00    0,000000000e+00    0,000000000e+00
      254000000   -6,077538803e-02    1,975942403e-02    2,710548043e-01   -7,420816422e-01    0,000000000e+00    0,000000000e+00    0,000000000e+00    0,000000000e+00
      268000000   -2,096906491e-02    3,086761944e-02   -1,810272187e-01   -7,611105442e-01    0,000000000e+00    0,000000000e+00    0,000000000e+00    0,000000000e+00
      282000000    6,892055273e-03    1,377725881e-02   -5,630137324e-01   -5,324913263e-01    0,000000000e+00    0,000000000e+00    0,000000000e+00    0,000000000e+00
      296000000    1,236805506e-02   -6,355098914e-03   -7,602672577e-01   -1,343389302e-01    0,000000000e+00    0,000000000e+00    0,000000000e+00    0,000000000e+00
      310000000    1,363195851e-02   -1,438697148e-02   -7,081473470e-01    3,034022152e-01    0,000000000e+00    0,000000000e+00    0,000000000e+00    0,000000000e+00
      324000000    2,262288518e-02   -2,474182658e-02   -4,212348461e-01    6,393000484e-01    0,000000000e+00    0,000000000e+00    0,000000000e+00    0,000000000e+00
      338000000    2,835728414e-02   -5,069417506e-02   -8,935058722e-04    7,595362067e-01    0,000000000e+00    0,000000000e+00    0,000000000e+00    0,000000000e+00
      352000000    1,039707474e-02   -8,262339234e-02    4,108498096e-01    6,354593039e-01    0,000000000e+00    0,000000000e+00    0,000000000e+00    0,000000000e+00
      366000000   -3,173690662e-02   -9,386740625e-02    6,935107112e-01    3,037785292e-01    0,000000000e+00    0,000000000e+00    0,000000000e+00    0,000000000e+00
      380000000   -6,749784201e-02   -6,871280819e-02    7,454519868e-01   -1,340676248e-01    0,000000000e+00    0,000000000e+00    0,000000000e+00    0,000000000e+00
      394000000   -6,881150603e-02   -3,051727824e-02    5,396871567e-01   -5,270168185e-01    0,000000000e+00    0,000000000e+00    0,000000000e+00    0,000000000e+00
      408000000   -4,284819961e-02   -1,556014549e-02    1,489870697e-01   -7,341366410e-01    0,000000000e+00    0,000000000e+00    0,000000000e+00    0,000000000e+00
      422000000   -2,624395862e-02   -3,122046590e-02   -2,793547511e-01   -6,900686622e-01    0,000000000e+00    0,000000000e+00    0,000000000e+00    0,000000000e+00
      436000000   -3,950581700e-02   -4,881800711e-02   -6,100441217e-01   -4,191117287e-01    0,000000000e+00    0,000000000e+00    0,000000000e+00    0,000000000e+00
      450000000   -6,486876309e-02   -3,917385265e-02   -7,370977998e-01   -7,917609997e-03    0,000000000e+00    0,000000000e+00    0,000000000e+00    0,000000000e+00
      464000000   -6,786227226e-02   -5,925477948e-03   -6,077826619e-01    4,060237706e-01    0,000000000e+00    0,000000000e+00    0,000000000e+00    0,000000000e+00
      478000000   -3,870173544e-02    1,616953686e-02   -2,683261633e-01    6,704723835e-01    0,000000000e+00    0,000000000e+00    0,000000000e+00    0,000000000e+00
      492000000   -4,871828482e-03    6,353727542e-03    1,510723978e-01    6,944437623e-01    0,000000000e+00    0,000000000e+00    0,000000000e+00    0,000000000e+00
      506000000    6,832968444e-03   -2,053172886e-02    5,077135563e-01    4,876577556e-01    0,000000000e+00    0,000000000e+00    0,000000000e+00    0,000000000e+00
      520000000    7,718800916e-04   -3,873242438e-02    6,889309287e-01    1,201040074e-01    0,000000000e+00    0,000000000e+00    0,000000000e+00    0,000000000e+00
      534000000   -2,906768816e-03   -4,551934078e-02    6,326560974e-01   -2,818178535e-01    0,000000000e+00    0,000000000e+00    0,000000000e+00    0,000000000e+00
      548000000    5,629735533e-04   -5,982360989e-02    3,601677716e-01   -5,786733627e-01    0,000000000e+00    0,000000000e+00    0,000000000e+00    0,000000000e+00
      562000000   -7,763425354e-03   -8,795006573e-02   -2,675682306e-02   -6,727170348e-01    0,000000000e+00    0,000000000e+00    0,000000000e+00    0,000000000e+00
      576000000   -4,520048201e-02   -1,097732782e-01   -4,009187818e-01   -5,385835767e-01    0,000000000e+00    0,000000000e+00    0,000000000e+00    0,000000000e+00
      590000000   -9,468471259e-02   -9,336762875e-02   -6,410703659e-01   -2,189601213e-01    0,000000000e+00    0,000000000e+00    0,000000000e+00    0,000000000e+00
      604000000   -1,117875427e-01   -4,145139083e-02   -6,472212076e-01    1,980464607e-01    0,000000000e+00    0,000000000e+00    0,000000000e+00    0,000000000e+00
      618000000   -7,587678730e-02   -2,878809348e-03   -4,017591774e-01    5,354732871e-01    0,000000000e+00    0,000000000e+00    0,000000000e+00    0,000000000e+00
      632000000   -3,017513640e-02   -2,087990195e-02   -1,159559470e-02    6,558957100e-01    0,000000000e+00    0,000000000e+00    0,000000000e+00    0,000000000e+00
      646000000   -3,687421978e-02   -7,687189430e-02    3,655068576e-01    5,268856287e-01    0,000000000e+00    0,000000000e+00    0,000000000e+00    0,000000000e+00
      660000000   -1,114373282e-01   -9,889959544e-02    6,005722284e-01    1,933350712e-01    0,000000000e+00    0,000000000e+00    0,000000000e+00    0,000000000e+00
      674000000   -1,999744773e-01   -2,438950911e-02    5,650344491e-01   -2,392680645e-01    0,000000000e+00    0,000000000e+00    0,000000000e+00    0,000000000e+00
      688000000   -1,785001606e-01    1,442257613e-01    2,095027119e-01   -5,223688483e-01    0,000000000e+00    0,000000000e+00    0,000000000e+00    0,000000000e+00
      702000000    2,651974000e-02    2,461771518e-01   -1,973370463e-01   -4,036097825e-01    0,000000000e+00    0,000000000e+00    0,000000000e+00    0,000000000e+00
      716000000    2,639238834e-01    1,108144149e-01   -2,722167373e-01   -8,341331035e-02    0,000000000e+00    0,000000000e+00    0,000000000e+00    0,000000000e+00
      730000000    3,033498824e-01   -1,864846349e-01   -1,064544916e-01    3,171103075e-02    0,000000000e+00    0,000000000e+00    0,000000000e+00    0,000000000e+00
      744000000    9,330752492e-02   -4,262315333e-01   -4,241307825e-02   -6,569429487e-02    0,000000000e+00    0,000000000e+00    0,000000000e+00    0,000000000e+00
      758000000   -2,586492300e-01   -4,291769564e-01   -1,762047559e-01   -1,256513149e-01    0,000000000e+00    0,000000000e+00    0,000000000e+00    0,000000000e+00
      772000000   -4,848827124e-01   -1,208029091e-01   -3,367004097e-01    3,856004775e-02    0,000000000e+00    0,000000000e+00    0,000000000e+00    0,000000000e+00
      786000000   -3,413780630e-01    2,215013951e-01   -2,628542483e-01    3,172204494e-01    0,000000000e+00    0,000000000e+00    0,000000000e+00    0,000000000e+00
      800000000   -4,136392847e-02    2,759319842e-01    2,628883813e-03    4,374757111e-01    0,000000000e+00    0,000000000e+00    0,000000000e+00    0,000000000e+00
      814000000    1,438242644e-01    1,256930679e-01    2,635958195e-01    3,595752716e-01    0,000000000e+00    0,000000000e+00    0,000000000e+00    0,000000000e+00
      828000000    1,681134701e-01   -6,999225914e-02    4,319536984e-01    1,568090469e-01    0,000000000e+00    0,000000000e+00    0,000000000e+00    0,000000000e+00
      842000000    6,729061902e-02   -2,175854594e-01    4,665143490e-01   -1,195022687e-01    0,000000000e+00    0,000000000e+00    0,000000000e+00    0,000000000e+00
      856000000   -1,065192819e-01   -2,629024386e-01    3,193441033e-01   -3,942363262e-01    0,000000000e+00    0,000000000e+00    0,000000000e+00    0,000000000e+00
      870000000   -2,736153007e-01   -1,681302339e-01   -1,265196945e-03   -5,273761749e-01    0,000000000e+00    0,000000000e+00    0,000000000e+00    0,000000000e+00
      884000000   -3,203108311e-01    3,483623639e-02   -3,473334908e-01   -3,931502998e-01    0,000000000e+00    0,000000000e+00    0,000000000e+00    0,000000000e+00
      898000000   -1,926093400e-01    2,067662328e-01   -4,896321893e-01   -6,336949021e-02    0,000000000e+00    0,000000000e+00    0,000000000e+00    0,000000000e+00
      912000000    6,183127873e-03    2,185212523e-01   -3,970223665e-01    2,658797204e-01    0,000000000e+00    0,000000000e+00    0,000000000e+00    0,000000000e+00
      926000000    1,509218663e-01    1,130245551e-01   -1,684443206e-01    4,171505868e-01    0,000000000e+00    0,000000000e+00    0,000000000e+00    0,000000000e+00
      940000000    1,977573037e-01   -4,378785193e-02    6,328979880e-02    4,252696931e-01    0,000000000e+00    0,000000000e+00    0,000000000e+00    0,000000000e+00
      954000000    1,531637609e-01   -2,008187324e-01    2,615090907e-01    3,405085504e-01    0,000000000e+00    0,000000000e+00    0,000000000e+00    0,000000000e+00
      968000000    2,338156477e-02   -3,156199455e-01    4,100502431e-01    1,795260906e-01    0,000000000e+00    0,000000000e+00    0,000000000e+00    0,000000000e+00
      982000000   -1,601288170e-01   -3,285813630e-01    4,727164805e-01   -6,753355265e-02    0,000000000e+00    0,000000000e+00    0,000000000e+00    0,000000000e+00
      996000000   -3,237079978e-01   -2,068261951e-01    3,674705923e-01   -3,553961217e-01    0,000000000e+00    0,000000000e+00    0,000000000e+00    0,000000000e+00
     1010000000   -3,422420919e-01   -4,561834037e-03    4,161793739e-02   -5,246272087e-01    0,000000000e+00    0,000000000e+00    0,000000000e+00    0,000000000e+00
     1024000000   -2,085061818e-01    9,571503848e-02   -3,444090486e-01   -3,836721480e-01    0,000000000e+00    0,000000000e+00    0,000000000e+00    0,000000000e+00
     1038000000   -1,349059045e-01    8,251097053e-03   -4,838072062e-01    6,120156869e-02    0,000000000e+00    0,000000000e+00    0,000000000e+00    0,000000000e+00
     1052000000   -2,861529291e-01    4,764325544e-02   -1,003366113e-01    3,743616343e-01    0,000000000e+00    0,000000000e+00    0,000000000e+00    0,000000000e+00
     1066000000   -1,494561136e-01    2,894379795e-01    1,460614204e-01    1,355608553e-01    0,000000000e+00    0,000000000e+00    0,000000000e+00    0,000000000e+00
     1080000000    1,019309461e-01    2,507803142e-01    9,189058840e-02    2,253073826e-02    0,000000000e+00    0,000000000e+00    0,000000000e+00    0,000000000e+00
     1094000000    2,212304771e-01    8,627089113e-02    7,100875676e-02    8,606111631e-03    0,000000000e+00    0,000000000e+00    0,000000000e+00    0,000000000e+00
     1108000000    2,430742234e-01   -8,720772713e-02    8,255231380e-02   -6,207922706e-04    0,000000000e+00    0,000000000e+00    0,000000000e+00    0,000000000e+00
     1122000000    1,864100993e-01   -2,519118488e-01    1,035371944e-01   -2,695810236e-02    0,000000000e+00    0,000000000e+00    0,000000000e+00    0,000000000e+00
     1136000000    4,795444384e-02   -3,786152899e-01    1,258072704e-01   -7,722607255e-02    0,000000000e+00    0,000000000e+00    0,000000000e+00    0,000000000e+00
     1150000000   -1,578537226e-01   -4,212789834e-01    1,368330717e-01   -1,507096589e-01    0,000000000e+00    0,000000000e+00    0,000000000e+00    0,000000000e+00
     1164000000   -3,732180893e-01   -3,245029449e-01    1,013087183e-01   -2,782615721e-01    0,000000000e+00    0,000000000e+00    0,000000000e+00    0,000000000e+00
     1178000000   -4,637885094e-01   -9,332170337e-02   -1,066555157e-01   -4,040743113e-01    0,000000000e+00    0,000000000e+00    0,000000000e+00    0,000000000e+00
     1192000000   -3,760965765e-01    4,110039771e-02   -4,616653025e-01   -1,980639845e-01    0,000000000e+00    0,000000000e+00    0,000000000e+00    0,000000000e+00
     1206000000   -4,091604352e-01    1,333252788e-01   -2,750860751e-01    2,346510142e-01    0,000000000e+00    0,000000000e+00    0,000000000e+00    0,000000000e+00
     1220000000   -2,751057148e-01    3,236381412e-01   -5,921959528e-04    1,662023962e-01    0,000000000e+00    0,000000000e+00    0,000000000e+00    0,000000000e+00
     1234000000   -4,392607138e-02    3,456563056e-01    2,287580445e-02    5,369364098e-02    0,000000000e+00    0,000000000e+00    0,000000000e+00    0,000000000e+00
     1248000000    1,254620999e-01    2,470868081e-01    2,191670937e-03    2,359486558e-02    0,000000000e+00    0,000000000e+00    0,000000000e+00    0,000000000e+00
     1262000000    2,096523643e-01    1,009560898e-01   -4,003558133e-04    3,060546517e-02    0,000000000e+00    0,000000000e+00    0,000000000e+00    0,000000000e+00
     1276000000    2,379167229e-01   -5,313247815e-02    2,357784659e-02    3,739938512e-02    0,000000000e+00    0,000000000e+00    0,000000000e+00    0,000000000e+00
     1290000000    1,943909228e-01   -2,110344470e-01    5,380269885e-02    2,782903425e-02    0,000000000e+00    0,000000000e+00    0,000000000e+00    0,000000000e+00
     1304000000    8,669309318e-02   -3,601355255e-01    8,073396236e-02    2,775346860e-03    0,000000000e+00    0,000000000e+00    0,000000000e+00    0,000000000e+00
     1318000000   -9,699708968e-02   -4,466718733e-01    8,489294350e-02   -1,471922453e-02    0,000000000e+00    0,000000000e+00    0,000000000e+00    0,000000000e+00
     1332000000   -3,566046357e-01   -4,343259633e-01    8,619395643e-02   -9,684868157e-03    0,000000000e+00    0,000000000e+00    0,000000000e+00    0,000000000e+00
     1346000000   -5,909217000e-01   -2,487512827e-01    9,164947271e-02   -6,975964643e-03    0,000000000e+00    0,000000000e+00    0,000000000e+00    0,000000000e+00
     1360000000   -6,426720023e-01    6,916964799e-02    1,491055638e-01   -1,894327812e-02    0,000000000e+00    0,000000000e+00    0,000000000e+00    0,000000000e+00
     1374000000   -4,910036027e-01    3,317627907e-01    1,740068942e-01   -5,082137138e-02    0,000000000e+00    0,000000000e+00    0,000000000e+00    0,000000000e+00
     1388000000   -2,494169176e-01    4,254596233e-01    1,635851860e-01   -7,649447024e-02    0,000000000e+00    0,000000000e+00    0,000000000e+00    0,000000000e+00
     1402000000   -4,478441551e-02    3,870989978e-01    1,456070840e-01   -1,081780270e-01    0,000000000e+00    0,000000000e+00    0,000000000e+00    0,000000000e+00
     1416000000    9,956850857e-02    2,873386145e-01    1,319155395e-01   -8,888662606e-02    0,000000000e+00    0,000000000e+00    0,000000000e+00    0,000000000e+00
     1430000000    1,822883189e-01    1,452342272e-01    1,030549332e-01   -6,445370615e-02    0,000000000e+00    0,000000000e+00    0,000000000e+00    0,000000000e+00
     1444000000    2,167434394e-01   -9,467153810e-03    1,246848553e-01   -2,152862959e-02    0,000000000e+00    0,000000000e+00    0,000000000e+00    0,000000000e+00
     1458000000    1,867672652e-01   -1,808308363e-01    1,550170183e-01    1,956400834e-02    0,000000000e+00    0,000000000e+00    0,000000000e+00    0,000000000e+00
     1472000000    6,668002903e-02   -3,469557166e-01    2,015492916e-01    7,126981020e-02    0,000000000e+00    0,000000000e+00    0,000000000e+00    0,000000000e+00
     1486000000   -1,475518346e-01   -4,730238914e-01    2,841700017e-01    9,669905901e-02    0,000000000e+00    0,000000000e+00    0,000000000e+00    0,000000000e+00
     1500000000   -4,305854738e-01   -4,728182256e-01    4,078772664e-01    5,642446503e-02    0,000000000e+00    0,000000000e+00    0,000000000e+00    0,000000000e+00
