! NanoVNA-App
! Date: 2025-09-25 16:01:50
! Start: 100MHz Stop: 1,5GHz Points: 101
! S-Parameter data: F S11 S21 S12 S22
# Hz S RI R 50
!     Frequency           S11_Real           S11_Imag           S21_Real           S21_Imag           S12_Real           S12_Imag           S22_Real           S22_Imag
      100000000   -2,828920633e-02   -2,864868380e-03    3,722860515e-01   -7,223878503e-01    0,000000000e+00    0,000000000e+00    0,000000000e+00    0,000000000e+00
      114000000   -1,573823020e-02    1,287234575e-02   -9,132842720e-02   -8,046991825e-01    0,000000000e+00    0,000000000e+00    0,000000000e+00    0,000000000e+00
      128000000    4,356595222e-03    1,195436064e-02   -5,157909393e-01   -6,187062860e-01    0,000000000e+00    0,000000000e+00    0,000000000e+00    0,000000000e+00
      142000000    1,547836233e-02   -1,728361240e-03   -7,675600648e-01   -2,341794223e-01    0,000000000e+00    0,000000000e+00    0,000000000e+00    0,000000000e+00
      156000000    1,543639321e-02   -1,288195420e-02   -7,642591000e-01    2,206704915e-01    0,000000000e+00    0,000000000e+00    0,000000000e+00    0,000000000e+00
      170000000    1,762800850e-02   -2,096029557e-02   -5,154698491e-01    6,062057018e-01    0,000000000e+00    0,000000000e+00    0,000000000e+00    0,000000000e+00
      184000000    2,203772590e-02   -3,552273288e-02   -9,828358889e-02    7,863248587e-01    0,000000000e+00    0,000000000e+00    0,000000000e+00    0,000000000e+00
      198000000    1,401940733e-02   -6,062661856e-02    3,460687995e-01    7,110103369e-01    0,000000000e+00    0,000000000e+00    0,000000000e+00    0,000000000e+00
      212000000   -1,770143397e-02   -7,910137624e-02    6,808393598e-01    4,061858952e-01    0,000000000e+00    0,000000000e+00    0,000000000e+00    0,000000000e+00
      226000000   -6,036770716e-02   -6,659940630e-02    7,958214879e-01   -3,561853245e-02    0,000000000e+00    0,000000000e+00    0,000000000e+00    0,000000000e+00
      240000000   -8,051937819e-02   -2,278804965e-02    6,415944695e-01   -4,718032181e-01    0,000000000e+00    0,000000000e+00    0,000000000e+00    0,000000000e+00
      254000000   -6,077663973e-02    1,979250088e-02    2,712486386e-01   -7,421582937e-01    0,000000000e+00    0,000000000e+00    0,000000000e+00    0,000000000e+00
      268000000   -2,089931630e-02    3,082529269e-02   -1,813525856e-01   -7,611528039e-01    0,000000000e+00    0,000000000e+00    0,000000000e+00    0,000000000e+00
      282000000    6,953125820e-03    1,372916624e-02   -5,631582737e-01   -5,322518945e-01    0,000000000e+00    0,000000000e+00    0,000000000e+00    0,000000000e+00
      296000000    1,226824708e-02   -6,304555573e-03   -7,603964806e-01   -1,343187839e-01    0,000000000e+00    0,000000000e+00    0,000000000e+00    0,000000000e+00
      310000000    1,360167284e-02   -1,449063793e-02   -7,085278630e-01    3,033262193e-01    0,000000000e+00    0,000000000e+00    0,000000000e+00    0,000000000e+00
      324000000    2,244673111e-02   -2,472595125e-02   -4,218806922e-01    6,395812631e-01    0,000000000e+00    0,000000000e+00    0,000000000e+00    0,000000000e+00
      338000000    2,847761102e-02   -5,100074038e-02   -9,747889708e-04    7,613726258e-01    0,000000000e+00    0,000000000e+00    0,000000000e+00    0,000000000e+00
      352000000    1,015228406e-02   -8,329160511e-02    4,119945765e-01    6,347894669e-01    0,000000000e+00    0,000000000e+00    0,000000000e+00    0,000000000e+00
      366000000   -3,174356744e-02   -9,385821968e-02    6,930311322e-01    3,040956557e-01    0,000000000e+00    0,000000000e+00    0,000000000e+00    0,000000000e+00
      380000000   -6,741099060e-02   -6,894136220e-02    7,458212972e-01   -1,343407929e-01    0,000000000e+00    0,000000000e+00    0,000000000e+00    0,000000000e+00
      394000000   -6,858894229e-02   -3,054975346e-02    5,394858718e-01   -5,296968222e-01    0,000000000e+00    0,000000000e+00    0,000000000e+00    0,000000000e+00
      408000000   -4,272529110e-02   -1,582337171e-02    1,492615938e-01   -7,341576815e-01    0,000000000e+00    0,000000000e+00    0,000000000e+00    0,000000000e+00
      422000000   -2,617519908e-02   -3,134929016e-02   -2,794931531e-01   -6,903589964e-01    0,000000000e+00    0,000000000e+00    0,000000000e+00    0,000000000e+00
      436000000   -3,929595277e-02   -4,893435910e-02   -6,102322340e-01   -4,196932614e-01    0,000000000e+00    0,000000000e+00    0,000000000e+00    0,000000000e+00
      450000000   -6,464135647e-02   -3,922248632e-02   -7,368715405e-01   -7,672917563e-03    0,000000000e+00    0,000000000e+00    0,000000000e+00    0,000000000e+00
      464000000   -6,742946804e-02   -6,351825316e-03   -6,078604460e-01    4,062933922e-01    0,000000000e+00    0,000000000e+00    0,000000000e+00    0,000000000e+00
      478000000   -3,892188519e-02    1,596281305e-02   -2,678444982e-01    6,703664660e-01    0,000000000e+00    0,000000000e+00    0,000000000e+00    0,000000000e+00
      492000000   -4,875655286e-03    6,469266023e-03    1,523093730e-01    6,952612400e-01    0,000000000e+00    0,000000000e+00    0,000000000e+00    0,000000000e+00
      506000000    6,883494090e-03   -2,031456307e-02    5,084753633e-01    4,883601964e-01    0,000000000e+00    0,000000000e+00    0,000000000e+00    0,000000000e+00
      520000000    6,058666040e-04   -3,835331276e-02    6,886764765e-01    1,217895001e-01    0,000000000e+00    0,000000000e+00    0,000000000e+00    0,000000000e+00
      534000000   -3,264934290e-03   -4,527613521e-02    6,326427460e-01   -2,820387483e-01    0,000000000e+00    0,000000000e+00    0,000000000e+00    0,000000000e+00
      548000000    1,365632867e-03   -5,989377946e-02    3,606388271e-01   -5,791932344e-01    0,000000000e+00    0,000000000e+00    0,000000000e+00    0,000000000e+00
      562000000   -7,635605987e-03   -8,865069598e-02   -2,678177878e-02   -6,725044250e-01    0,000000000e+00    0,000000000e+00    0,000000000e+00    0,000000000e+00
      576000000   -4,554048553e-02   -1,091723442e-01   -4,012726545e-01   -5,385052562e-01    0,000000000e+00    0,000000000e+00    0,000000000e+00    0,000000000e+00
      590000000   -9,490427375e-02   -9,322708100e-02   -6,415054202e-01   -2,167329043e-01    0,000000000e+00    0,000000000e+00    0,000000000e+00    0,000000000e+00
      604000000   -1,119655296e-01   -4,104134813e-02   -6,479308009e-01    1,983755976e-01    0,000000000e+00    0,000000000e+00    0,000000000e+00    0,000000000e+00
      618000000   -7,535546273e-02   -2,008609241e-03   -4,025821984e-01    5,371746421e-01    0,000000000e+00    0,000000000e+00    0,000000000e+00    0,000000000e+00
      632000000   -2,949856222e-02   -2,085994370e-02   -1,212449372e-02    6,561344862e-01    0,000000000e+00    0,000000000e+00    0,000000000e+00    0,000000000e+00
      646000000   -3,658478707e-02   -7,733092457e-02    3,660472929e-01    5,264245868e-01    0,000000000e+00    0,000000000e+00    0,000000000e+00    0,000000000e+00
      660000000   -1,116435081e-01   -1,002524346e-01    6,017315984e-01    1,940178126e-01    0,000000000e+00    0,000000000e+00    0,000000000e+00    0,000000000e+00
      674000000   -1,997335702e-01   -2,315836027e-02    5,652151704e-01   -2,397081405e-01    0,000000000e+00    0,000000000e+00    0,000000000e+00    0,000000000e+00
      688000000   -1,784551740e-01    1,436042488e-01    2,103906423e-01   -5,227203369e-01    0,000000000e+00    0,000000000e+00    0,000000000e+00    0,000000000e+00
      702000000    2,406119741e-02    2,444505394e-01   -1,918339878e-01   -4,029162228e-01    0,000000000e+00    0,000000000e+00    0,000000000e+00    0,000000000e+00
      716000000    2,628816962e-01    1,113029942e-01   -2,736147046e-01   -8,376159519e-02    0,000000000e+00    0,000000000e+00    0,000000000e+00    0,000000000e+00
      730000000    3,043866456e-01   -1,859695613e-01   -1,078072339e-01    3,240921348e-02    0,000000000e+00    0,000000000e+00    0,000000000e+00    0,000000000e+00
      744000000    9,405101091e-02   -4,282304943e-01   -4,214743152e-02   -6,444833428e-02    0,000000000e+00    0,000000000e+00    0,000000000e+00    0,000000000e+00
      758000000   -2,589099705e-01   -4,304974973e-01   -1,751496196e-01   -1,257455349e-01    0,000000000e+00    0,000000000e+00    0,000000000e+00    0,000000000e+00
      772000000   -4,849402010e-01   -1,186848357e-01   -3,361875117e-01    3,779075667e-02    0,000000000e+00    0,000000000e+00    0,000000000e+00    0,000000000e+00
      786000000   -3,423016071e-01    2,210338116e-01   -2,633744180e-01    3,160713911e-01    0,000000000e+00    0,000000000e+00    0,000000000e+00    0,000000000e+00
      800000000   -4,119860753e-02    2,762948275e-01    2,435259754e-03    4,357858300e-01    0,000000000e+00    0,000000000e+00    0,000000000e+00    0,000000000e+00
      814000000    1,448254585e-01    1,254593730e-01    2,635837197e-01    3,592805862e-01    0,000000000e+00    0,000000000e+00    0,000000000e+00    0,000000000e+00
      828000000    1,677457243e-01   -7,013379782e-02    4,327578545e-01    1,567649245e-01    0,000000000e+00    0,000000000e+00    0,000000000e+00    0,000000000e+00
      842000000    6,750365347e-02   -2,187642455e-01    4,666582644e-01   -1,199293509e-01    0,000000000e+00    0,000000000e+00    0,000000000e+00    0,000000000e+00
      856000000   -1,074335054e-01   -2,645365596e-01    3,203455806e-01   -3,948020041e-01    0,000000000e+00    0,000000000e+00    0,000000000e+00    0,000000000e+00
      870000000   -2,742858827e-01   -1,678365320e-01   -1,293906127e-03   -5,258424878e-01    0,000000000e+00    0,000000000e+00    0,000000000e+00    0,000000000e+00
      884000000   -3,214526176e-01    3,543271869e-02   -3,491005003e-01   -3,932727575e-01    0,000000000e+00    0,000000000e+00    0,000000000e+00    0,000000000e+00
      898000000   -1,923836023e-01    2,066080272e-01   -4,895001948e-01   -6,295665354e-02    0,000000000e+00    0,000000000e+00    0,000000000e+00    0,000000000e+00
      912000000    7,932438515e-03    2,192664444e-01   -4,098207951e-01    2,772262096e-01    0,000000000e+00    0,000000000e+00    0,000000000e+00    0,000000000e+00
      926000000    1,517433971e-01    1,121619716e-01   -1,647864729e-01    4,152416885e-01    0,000000000e+00    0,000000000e+00    0,000000000e+00    0,000000000e+00
      940000000    1,971094012e-01   -4,618387297e-02    6,265822798e-02    4,245246947e-01    0,000000000e+00    0,000000000e+00    0,000000000e+00    0,000000000e+00
      954000000    1,560210139e-01   -2,019213736e-01    2,631934285e-01    3,428300023e-01    0,000000000e+00    0,000000000e+00    0,000000000e+00    0,000000000e+00
      968000000    2,352433652e-02   -3,175323606e-01    4,097329378e-01    1,796843410e-01    0,000000000e+00    0,000000000e+00    0,000000000e+00    0,000000000e+00
      982000000   -1,632250845e-01   -3,337177634e-01    4,749004543e-01   -6,747376919e-02    0,000000000e+00    0,000000000e+00    0,000000000e+00    0,000000000e+00
      996000000   -3,270812333e-01   -2,118089050e-01    3,672261834e-01   -3,566346467e-01    0,000000000e+00    0,000000000e+00    0,000000000e+00    0,000000000e+00
     1010000000   -3,401992321e-01   -9,746863507e-03    4,296497256e-02   -5,247122645e-01    0,000000000e+00    0,000000000e+00    0,000000000e+00    0,000000000e+00
     1024000000   -2,040755302e-01    9,199270606e-02   -3,473614454e-01   -3,789820075e-01    0,000000000e+00    0,000000000e+00    0,000000000e+00    0,000000000e+00
     1038000000   -1,328266412e-01    9,244110435e-03   -4,820215702e-01    6,405645609e-02    0,000000000e+00    0,000000000e+00    0,000000000e+00    0,000000000e+00
     1052000000   -2,901195288e-01    5,244801193e-02   -9,553711861e-02    3,717752993e-01    0,000000000e+00    0,000000000e+00    0,000000000e+00    0,000000000e+00
     1066000000   -1,453274041e-01    2,974674106e-01    1,408144385e-01    1,301807761e-01    0,000000000e+00    0,000000000e+00    0,000000000e+00    0,000000000e+00
     1080000000    9,959660470e-02    2,530671358e-01    8,993409574e-02    2,145479620e-02    0,000000000e+00    0,000000000e+00    0,000000000e+00    0,000000000e+00
     1094000000    2,189930677e-01    9,044804424e-02    6,816115230e-02    1,246714871e-02    0,000000000e+00    0,000000000e+00    0,000000000e+00    0,000000000e+00
     1108000000    2,384339273e-01   -8,572039753e-02    8,169403672e-02   -1,565752551e-03    0,000000000e+00    0,000000000e+00    0,000000000e+00    0,000000000e+00
     1122000000    1,867547780e-01   -2,492666394e-01    1,034957096e-01   -2,420887351e-02    0,000000000e+00    0,000000000e+00    0,000000000e+00    0,000000000e+00
     1136000000    4,860202596e-02   -3,788664937e-01    1,265711933e-01   -7,248526812e-02    0,000000000e+00    0,000000000e+00    0,000000000e+00    0,000000000e+00
     1150000000   -1,524283886e-01   -4,278071821e-01    1,369722635e-01   -1,493161470e-01    0,000000000e+00    0,000000000e+00    0,000000000e+00    0,000000000e+00
     1164000000   -3,753940761e-01   -3,262121081e-01    1,001530811e-01   -2,788855731e-01    0,000000000e+00    0,000000000e+00    0,000000000e+00    0,000000000e+00
     1178000000   -4,631955922e-01   -8,714091778e-02   -1,076658070e-01   -4,048680663e-01    0,000000000e+00    0,000000000e+00    0,000000000e+00    0,000000000e+00
     1192000000   -3,748822510e-01    3,461942822e-02   -4,618074894e-01   -1,981279105e-01    0,000000000e+00    0,000000000e+00    0,000000000e+00    0,000000000e+00
     1206000000   -4,169007540e-01    1,358847171e-01   -2,718074024e-01    2,394545674e-01    0,000000000e+00    0,000000000e+00    0,000000000e+00    0,000000000e+00
     1220000000   -2,787365019e-01    3,320353925e-01   -5,799558014e-03    1,626308113e-01    0,000000000e+00    0,000000000e+00    0,000000000e+00    0,000000000e+00
     1234000000   -4,181449115e-02    3,492418528e-01    2,535371855e-02    5,438036099e-02    0,000000000e+00    0,000000000e+00    0,000000000e+00    0,000000000e+00
     1248000000    1,227298602e-01    2,534310818e-01    5,667899735e-03    2,333446592e-02    0,000000000e+00    0,000000000e+00    0,000000000e+00    0,000000000e+00
     1262000000    2,084060013e-01    1,072318628e-01    1,801349106e-03    3,303240985e-02    0,000000000e+00    0,000000000e+00    0,000000000e+00    0,000000000e+00
     1276000000    2,328151315e-01   -6,034784019e-02    2,310664393e-02    3,354855999e-02    0,000000000e+00    0,000000000e+00    0,000000000e+00    0,000000000e+00
     1290000000    1,902434230e-01   -2,174255699e-01    5,292765424e-02    2,392936498e-02    0,000000000e+00    0,000000000e+00    0,000000000e+00    0,000000000e+00
     1304000000    8,097992092e-02   -3,539774120e-01    7,275114208e-02    1,080374978e-02    0,000000000e+00    0,000000000e+00    0,000000000e+00    0,000000000e+00
     1318000000   -1,063512564e-01   -4,499913454e-01    7,898975164e-02   -1,089918613e-02    0,000000000e+00    0,000000000e+00    0,000000000e+00    0,000000000e+00
     1332000000   -3,520761132e-01   -4,364745319e-01    8,819939941e-02   -1,335073356e-02    0,000000000e+00    0,000000000e+00    0,000000000e+00    0,000000000e+00
     1346000000   -5,877344608e-01   -2,477202117e-01    1,076878160e-01   -1,464860979e-02    0,000000000e+00    0,000000000e+00    0,000000000e+00    0,000000000e+00
     1360000000   -6,453379989e-01    7,465459406e-02    1,424061954e-01   -1,523463614e-02    0,000000000e+00    0,000000000e+00    0,000000000e+00    0,000000000e+00
     1374000000   -4,885888100e-01    3,357245922e-01    1,701357216e-01   -5,107960105e-02    0,000000000e+00    0,000000000e+00    0,000000000e+00    0,000000000e+00
     1388000000   -2,521796823e-01    4,292705655e-01    1,592923850e-01   -9,202787280e-02    0,000000000e+00    0,000000000e+00    0,000000000e+00    0,000000000e+00
     1402000000   -4,316595197e-02    3,867748976e-01    1,454991400e-01   -1,065709516e-01    0,000000000e+00    0,000000000e+00    0,000000000e+00    0,000000000e+00
     1416000000    1,011798754e-01    2,900908589e-01    1,154198125e-01   -8,586811274e-02    0,000000000e+00    0,000000000e+00    0,000000000e+00    0,000000000e+00
     1430000000    1,837080419e-01    1,475445330e-01    1,292657405e-01   -4,839835688e-02    0,000000000e+00    0,000000000e+00    0,000000000e+00    0,000000000e+00
     1444000000    2,175341696e-01   -5,557466764e-03    1,287177205e-01   -1,956486143e-02    0,000000000e+00    0,000000000e+00    0,000000000e+00    0,000000000e+00
     1458000000    1,840463430e-01   -1,806538999e-01    1,424444020e-01    1,558552380e-03    0,000000000e+00    0,000000000e+00    0,000000000e+00    0,000000000e+00
     1472000000    7,349114865e-02   -3,471429050e-01    2,052731365e-01    7,044847310e-02    0,000000000e+00    0,000000000e+00    0,000000000e+00    0,000000000e+00
     1486000000   -1,338564754e-01   -4,817852378e-01    2,954457998e-01    8,173366636e-02    0,000000000e+00    0,000000000e+00    0,000000000e+00    0,000000000e+00
     1500000000   -4,344420135e-01   -4,797139466e-01    4,143691063e-01    3,223645315e-02    0,000000000e+00    0,000000000e+00    0,000000000e+00    0,000000000e+00
