! NanoVNA-App
! Date: 2025-09-25 16:02:41
! Start: 100MHz Stop: 1,5GHz Points: 101
! S-Parameter data: F S11 S21 S12 S22
# Hz S RI R 50
!     Frequency           S11_Real           S11_Imag           S21_Real           S21_Imag           S12_Real           S12_Imag           S22_Real           S22_Imag
      100000000   -2,829106338e-02   -2,888604300e-03    3,722940087e-01   -7,224227786e-01    0,000000000e+00    0,000000000e+00    0,000000000e+00    0,000000000e+00
      114000000   -1,574148796e-02    1,289417315e-02   -9,113344550e-02   -8,047595024e-01    0,000000000e+00    0,000000000e+00    0,000000000e+00    0,000000000e+00
      128000000    4,318558145e-03    1,197761670e-02   -5,157377720e-01   -6,186376214e-01    0,000000000e+00    0,000000000e+00    0,000000000e+00    0,000000000e+00
      142000000    1,546587050e-02   -1,690293313e-03   -7,674564123e-01   -2,342710197e-01    0,000000000e+00    0,000000000e+00    0,000000000e+00    0,000000000e+00
      156000000    1,670010574e-02   -1,305240206e-02   -7,646237612e-01    2,250309587e-01    0,000000000e+00    0,000000000e+00    0,000000000e+00    0,000000000e+00
      170000000    1,768972911e-02   -2,098542638e-02   -5,153880715e-01    6,060737967e-01    0,000000000e+00    0,000000000e+00    0,000000000e+00    0,000000000e+00
      184000000    2,201431803e-02   -3,556669131e-02   -9,828873724e-02    7,860279679e-01    0,000000000e+00    0,000000000e+00    0,000000000e+00    0,000000000e+00
      198000000    1,402211841e-02   -6,061418727e-02    3,460765183e-01    7,107855678e-01    0,000000000e+00    0,000000000e+00    0,000000000e+00    0,000000000e+00
      212000000   -1,764845289e-02   -7,912803441e-02    6,806137562e-01    4,063419998e-01    0,000000000e+00    0,000000000e+00    0,000000000e+00    0,000000000e+00
      226000000   -6,032940373e-02   -6,656856090e-02    7,958317399e-01   -3,571455181e-02    0,000000000e+00    0,000000000e+00    0,000000000e+00    0,000000000e+00
      240000000   -8,055406809e-02   -2,270580083e-02    6,415153146e-01   -4,716866314e-01    0,000000000e+00    0,000000000e+00    0,000000000e+00    0,000000000e+00
      254000000   -6,076871231e-02    1,979224756e-02    2,710103095e-01   -7,424293756e-01    0,000000000e+00    0,000000000e+00    0,000000000e+00    0,000000000e+00
      268000000   -2,097875811e-02    3,085426427e-02   -1,812326312e-01   -7,610802054e-01    0,000000000e+00    0,000000000e+00    0,000000000e+00    0,000000000e+00
      282000000    6,911293138e-03    1,380535960e-02   -5,632675886e-01   -5,328832865e-01    0,000000000e+00    0,000000000e+00    0,000000000e+00    0,000000000e+00
      296000000    1,246160734e-02   -6,265815347e-03   -7,605842948e-01   -1,343712360e-01    0,000000000e+00    0,000000000e+00    0,000000000e+00    0,000000000e+00
      310000000    1,368674636e-02   -1,464758161e-02   -7,095102072e-01    3,043220937e-01    0,000000000e+00    0,000000000e+00    0,000000000e+00    0,000000000e+00
      324000000    2,258056775e-02   -2,452754974e-02   -4,213461280e-01    6,400218010e-01    0,000000000e+00    0,000000000e+00    0,000000000e+00    0,000000000e+00
      338000000    2,828056179e-02   -5,072841793e-02   -1,286543440e-03    7,614413500e-01    0,000000000e+00    0,000000000e+00    0,000000000e+00    0,000000000e+00
      352000000    1,001369022e-02   -8,298734576e-02    4,111780524e-01    6,350288987e-01    0,000000000e+00    0,000000000e+00    0,000000000e+00    0,000000000e+00
      366000000   -3,191870824e-02   -9,375355393e-02    6,936334968e-01    3,045169413e-01    0,000000000e+00    0,000000000e+00    0,000000000e+00    0,000000000e+00
      380000000   -6,770598888e-02   -6,860656291e-02    7,455063462e-01   -1,341246217e-01    0,000000000e+00    0,000000000e+00    0,000000000e+00    0,000000000e+00
      394000000   -6,889432669e-02   -3,050264902e-02    5,392270684e-01   -5,279931426e-01    0,000000000e+00    0,000000000e+00    0,000000000e+00    0,000000000e+00
      408000000   -4,278500751e-02   -1,572260633e-02    1,505497396e-01   -7,342077494e-01    0,000000000e+00    0,000000000e+00    0,000000000e+00    0,000000000e+00
      422000000   -2,614035830e-02   -3,112103418e-02   -2,792285383e-01   -6,908146143e-01    0,000000000e+00    0,000000000e+00    0,000000000e+00    0,000000000e+00
      436000000   -3,927165270e-02   -4,907847196e-02   -6,108466387e-01   -4,198902249e-01    0,000000000e+00    0,000000000e+00    0,000000000e+00    0,000000000e+00
      450000000   -6,474277377e-02   -3,946764022e-02   -7,372229695e-01   -7,933413610e-03    0,000000000e+00    0,000000000e+00    0,000000000e+00    0,000000000e+00
      464000000   -6,775146723e-02   -6,657835096e-03   -6,077669263e-01    4,063096046e-01    0,000000000e+00    0,000000000e+00    0,000000000e+00    0,000000000e+00
      478000000   -3,889697790e-02    1,632088982e-02   -2,672125995e-01    6,705029607e-01    0,000000000e+00    0,000000000e+00    0,000000000e+00    0,000000000e+00
      492000000   -5,140327848e-03    6,253852975e-03    1,522993296e-01    6,949508786e-01    0,000000000e+00    0,000000000e+00    0,000000000e+00    0,000000000e+00
      506000000    6,812876090e-03   -1,989561133e-02    5,071364045e-01    4,893393219e-01    0,000000000e+00    0,000000000e+00    0,000000000e+00    0,000000000e+00
      520000000    1,862396020e-04   -3,846864030e-02    6,897387505e-01    1,211668402e-01    0,000000000e+00    0,000000000e+00    0,000000000e+00    0,000000000e+00
      534000000   -3,206393216e-03   -4,565154761e-02    6,328220963e-01   -2,822339237e-01    0,000000000e+00    0,000000000e+00    0,000000000e+00    0,000000000e+00
      548000000    1,115684398e-03   -5,932026356e-02    3,600422144e-01   -5,790984035e-01    0,000000000e+00    0,000000000e+00    0,000000000e+00    0,000000000e+00
      562000000   -7,922882214e-03   -8,832426369e-02   -2,685670555e-02   -6,731324196e-01    0,000000000e+00    0,000000000e+00    0,000000000e+00    0,000000000e+00
      576000000   -4,540850595e-02   -1,097787842e-01   -4,010477364e-01   -5,380331874e-01    0,000000000e+00    0,000000000e+00    0,000000000e+00    0,000000000e+00
      590000000   -9,497588128e-02   -9,338692576e-02   -6,422418952e-01   -2,171208709e-01    0,000000000e+00    0,000000000e+00    0,000000000e+00    0,000000000e+00
      604000000   -1,120037287e-01   -4,121635109e-02   -6,480269432e-01    1,982645392e-01    0,000000000e+00    0,000000000e+00    0,000000000e+00    0,000000000e+00
      618000000   -7,567278296e-02   -2,076234901e-03   -4,015749097e-01    5,365049839e-01    0,000000000e+00    0,000000000e+00    0,000000000e+00    0,000000000e+00
      632000000   -3,012072295e-02   -2,047266997e-02   -1,218351629e-02    6,555243134e-01    0,000000000e+00    0,000000000e+00    0,000000000e+00    0,000000000e+00
      646000000   -3,580243886e-02   -7,687914371e-02    3,660946488e-01    5,271854401e-01    0,000000000e+00    0,000000000e+00    0,000000000e+00    0,000000000e+00
      660000000   -1,123509929e-01   -9,966651350e-02    6,013409495e-01    1,935213208e-01    0,000000000e+00    0,000000000e+00    0,000000000e+00    0,000000000e+00
      674000000   -1,985617280e-01   -2,346407622e-02    5,658090711e-01   -2,398937345e-01    0,000000000e+00    0,000000000e+00    0,000000000e+00    0,000000000e+00
      688000000   -1,794380248e-01    1,436500251e-01    2,107437849e-01   -5,221028328e-01    0,000000000e+00    0,000000000e+00    0,000000000e+00    0,000000000e+00
      702000000    2,395417541e-02    2,468689978e-01   -2,009200901e-01   -4,081646800e-01    0,000000000e+00    0,000000000e+00    0,000000000e+00    0,000000000e+00
      716000000    2,628332078e-01    1,117838025e-01   -2,741799057e-01   -8,444077522e-02    0,000000000e+00    0,000000000e+00    0,000000000e+00    0,000000000e+00
      730000000    3,033751249e-01   -1,854983866e-01   -1,080644578e-01    3,288526461e-02    0,000000000e+00    0,000000000e+00    0,000000000e+00    0,000000000e+00
      744000000    9,512118995e-02   -4,272015393e-01   -4,262092710e-02   -6,390025467e-02    0,000000000e+00    0,000000000e+00    0,000000000e+00    0,000000000e+00
      758000000   -2,592776716e-01   -4,304738045e-01   -1,744233817e-01   -1,249811798e-01    0,000000000e+00    0,000000000e+00    0,000000000e+00    0,000000000e+00
      772000000   -4,846344292e-01   -1,195247099e-01   -3,355430663e-01    3,777588904e-02    0,000000000e+00    0,000000000e+00    0,000000000e+00    0,000000000e+00
      786000000   -3,429431617e-01    2,210557610e-01   -2,630203366e-01    3,161199391e-01    0,000000000e+00    0,000000000e+00    0,000000000e+00    0,000000000e+00
      800000000   -4,051972926e-02    2,770974338e-01    2,997673815e-03    4,362043738e-01    0,000000000e+00    0,000000000e+00    0,000000000e+00    0,000000000e+00
      814000000    1,443620473e-01    1,259864867e-01    2,631801665e-01    3,593404293e-01    0,000000000e+00    0,000000000e+00    0,000000000e+00    0,000000000e+00
      828000000    1,680450588e-01   -6,964044273e-02    4,330669343e-01    1,570090652e-01    0,000000000e+00    0,000000000e+00    0,000000000e+00    0,000000000e+00
      842000000    6,784508377e-02   -2,186278552e-01    4,663252234e-01   -1,198950410e-01    0,000000000e+00    0,000000000e+00    0,000000000e+00    0,000000000e+00
      856000000   -1,063962728e-01   -2,635045052e-01    3,193227351e-01   -3,941169083e-01    0,000000000e+00    0,000000000e+00    0,000000000e+00    0,000000000e+00
      870000000   -2,749377191e-01   -1,676868200e-01   -2,222387586e-03   -5,268853307e-01    0,000000000e+00    0,000000000e+00    0,000000000e+00    0,000000000e+00
      884000000   -3,216107786e-01    3,585588560e-02   -3,483309746e-01   -3,933318555e-01    0,000000000e+00    0,000000000e+00    0,000000000e+00    0,000000000e+00
      898000000   -1,916010082e-01    2,068675905e-01   -4,890372157e-01   -6,242221221e-02    0,000000000e+00    0,000000000e+00    0,000000000e+00    0,000000000e+00
      912000000    7,004400250e-03    2,185380757e-01   -4,050529599e-01    2,791912258e-01    0,000000000e+00    0,000000000e+00    0,000000000e+00    0,000000000e+00
      926000000    1,523331404e-01    1,127884313e-01   -1,673716754e-01    4,172245264e-01    0,000000000e+00    0,000000000e+00    0,000000000e+00    0,000000000e+00
      940000000    2,002483010e-01   -4,499202222e-02    6,378944963e-02    4,237330556e-01    0,000000000e+00    0,000000000e+00    0,000000000e+00    0,000000000e+00
      954000000    1,532581151e-01   -2,052032202e-01    2,614942193e-01    3,415650427e-01    0,000000000e+00    0,000000000e+00    0,000000000e+00    0,000000000e+00
      968000000    2,635657042e-02   -3,149646223e-01    4,108156562e-01    1,790907830e-01    0,000000000e+00    0,000000000e+00    0,000000000e+00    0,000000000e+00
      982000000   -1,636374891e-01   -3,333019018e-01    4,736160934e-01   -6,558804214e-02    0,000000000e+00    0,000000000e+00    0,000000000e+00    0,000000000e+00
      996000000   -3,246905506e-01   -2,060036808e-01    3,693484962e-01   -3,582723439e-01    0,000000000e+00    0,000000000e+00    0,000000000e+00    0,000000000e+00
     1010000000   -3,411341906e-01   -9,959148243e-03    4,136069492e-02   -5,238478780e-01    0,000000000e+00    0,000000000e+00    0,000000000e+00    0,000000000e+00
     1024000000   -2,031368464e-01    9,134159982e-02   -3,459515274e-01   -3,793692887e-01    0,000000000e+00    0,000000000e+00    0,000000000e+00    0,000000000e+00
     1038000000   -1,369985640e-01    1,052595302e-02   -4,814723134e-01    6,414315850e-02    0,000000000e+00    0,000000000e+00    0,000000000e+00    0,000000000e+00
     1052000000   -2,908896804e-01    5,266357586e-02   -9,627741575e-02    3,722474873e-01    0,000000000e+00    0,000000000e+00    0,000000000e+00    0,000000000e+00
     1066000000   -1,452996582e-01    2,990777791e-01    1,455783397e-01    1,329200566e-01    0,000000000e+00    0,000000000e+00    0,000000000e+00    0,000000000e+00
     1080000000    9,877300262e-02    2,514836788e-01    9,077060968e-02    2,093056589e-02    0,000000000e+00    0,000000000e+00    0,000000000e+00    0,000000000e+00
     1094000000    2,238219529e-01    8,604315668e-02    6,808897853e-02    8,820273913e-03    0,000000000e+00    0,000000000e+00    0,000000000e+00    0,000000000e+00
     1108000000    2,461829931e-01   -8,653070778e-02    8,127706498e-02    5,384329706e-04    0,000000000e+00    0,000000000e+00    0,000000000e+00    0,000000000e+00
     1122000000    1,823209673e-01   -2,533065379e-01    1,038398817e-01   -2,552932315e-02    0,000000000e+00    0,000000000e+00    0,000000000e+00    0,000000000e+00
     1136000000    5,006564409e-02   -3,792632520e-01    1,250606179e-01   -7,197141647e-02    0,000000000e+00    0,000000000e+00    0,000000000e+00    0,000000000e+00
     1150000000   -1,578277498e-01   -4,206426740e-01    1,397103816e-01   -1,479262263e-01    0,000000000e+00    0,000000000e+00    0,000000000e+00    0,000000000e+00
     1164000000   -3,827449679e-01   -3,234543204e-01    9,865991771e-02   -2,734897733e-01    0,000000000e+00    0,000000000e+00    0,000000000e+00    0,000000000e+00
     1178000000   -4,653193951e-01   -8,683956414e-02   -1,035171747e-01   -4,014488757e-01    0,000000000e+00    0,000000000e+00    0,000000000e+00    0,000000000e+00
     1192000000   -3,726712465e-01    4,412540421e-02   -4,616286457e-01   -1,941313595e-01    0,000000000e+00    0,000000000e+00    0,000000000e+00    0,000000000e+00
     1206000000   -4,170470536e-01    1,370947063e-01   -2,794876993e-01    2,389945239e-01    0,000000000e+00    0,000000000e+00    0,000000000e+00    0,000000000e+00
     1220000000   -2,723039687e-01    3,281176686e-01   -4,277724773e-03    1,611481011e-01    0,000000000e+00    0,000000000e+00    0,000000000e+00    0,000000000e+00
     1234000000   -4,289739206e-02    3,470200300e-01    2,753118984e-02    5,285132676e-02    0,000000000e+00    0,000000000e+00    0,000000000e+00    0,000000000e+00
     1248000000    1,176870242e-01    2,515832186e-01    8,648901712e-05    2,187833562e-02    0,000000000e+00    0,000000000e+00    0,000000000e+00    0,000000000e+00
     1262000000    2,104669064e-01    1,017313451e-01    3,541036043e-03    2,986999042e-02    0,000000000e+00    0,000000000e+00    0,000000000e+00    0,000000000e+00
     1276000000    2,372871935e-01   -5,967514217e-02    2,611523308e-02    2,857553586e-02    0,000000000e+00    0,000000000e+00    0,000000000e+00    0,000000000e+00
     1290000000    1,944683641e-01   -2,198306024e-01    5,471020192e-02    2,008126676e-02    0,000000000e+00    0,000000000e+00    0,000000000e+00    0,000000000e+00
     1304000000    7,941073179e-02   -3,572912514e-01    7,240871340e-02    6,598296575e-03    0,000000000e+00    0,000000000e+00    0,000000000e+00    0,000000000e+00
     1318000000   -1,024905518e-01   -4,497789741e-01    7,874882966e-02   -9,215764701e-03    0,000000000e+00    0,000000000e+00    0,000000000e+00    0,000000000e+00
     1332000000   -3,606244624e-01   -4,350803494e-01    8,627528697e-02   -1,266983151e-02    0,000000000e+00    0,000000000e+00    0,000000000e+00    0,000000000e+00
     1346000000   -5,957546830e-01   -2,455653995e-01    1,039099619e-01   -3,068992635e-03    0,000000000e+00    0,000000000e+00    0,000000000e+00    0,000000000e+00
     1360000000   -6,491588950e-01    6,900915504e-02    1,407893151e-01   -1,483767200e-02    0,000000000e+00    0,000000000e+00    0,000000000e+00    0,000000000e+00
     1374000000   -4,896640182e-01    3,274459243e-01    1,604585350e-01   -5,678003654e-02    0,000000000e+00    0,000000000e+00    0,000000000e+00    0,000000000e+00
     1388000000   -2,514949441e-01    4,212887883e-01    1,674526632e-01   -8,933718503e-02    0,000000000e+00    0,000000000e+00    0,000000000e+00    0,000000000e+00
     1402000000   -4,865287244e-02    3,894072771e-01    1,322243363e-01   -8,837435395e-02    0,000000000e+00    0,000000000e+00    0,000000000e+00    0,000000000e+00
     1416000000    1,005683690e-01    2,856453359e-01    1,152227074e-01   -9,001121670e-02    0,000000000e+00    0,000000000e+00    0,000000000e+00    0,000000000e+00
     1430000000    1,868546009e-01    1,444904357e-01    1,106975377e-01   -4,940554500e-02    0,000000000e+00    0,000000000e+00    0,000000000e+00    0,000000000e+00
     1444000000    2,135383189e-01   -8,305413648e-03    1,197916493e-01   -1,444295514e-02    0,000000000e+00    0,000000000e+00    0,000000000e+00    0,000000000e+00
     1458000000    1,844684184e-01   -1,831263602e-01    1,453108341e-01    1,615630649e-02    0,000000000e+00    0,000000000e+00    0,000000000e+00    0,000000000e+00
     1472000000    6,574495137e-02   -3,458637893e-01    1,847877353e-01    6,000708416e-02    0,000000000e+00    0,000000000e+00    0,000000000e+00    0,000000000e+00
     1486000000   -1,349541247e-01   -4,712617099e-01    2,909803987e-01    1,053986624e-01    0,000000000e+00    0,000000000e+00    0,000000000e+00    0,000000000e+00
     1500000000   -4,441466331e-01   -4,727387428e-01    3,946985900e-01    6,442428380e-02    0,000000000e+00    0,000000000e+00    0,000000000e+00    0,000000000e+00
