! NanoVNA-App
! Date: 2025-09-25 15:41:40
! Start: 100MHz Stop: 1,5GHz Points: 101
! S-Parameter data: F S11 S21 S12 S22
# Hz S RI R 50
!     Frequency           S11_Real           S11_Imag           S21_Real           S21_Imag           S12_Real           S12_Imag           S22_Real           S22_Imag
      100000000   -2,873522229e-02   -4,234111868e-03    3,739305437e-01   -7,215252519e-01    0,000000000e+00    0,000000000e+00    0,000000000e+00    0,000000000e+00
      114000000   -1,653164998e-02    1,148264110e-02   -8,910769224e-02   -8,051611185e-01    0,000000000e+00    0,000000000e+00    0,000000000e+00    0,000000000e+00
      128000000    3,473436460e-03    1,064068917e-02   -5,143950582e-01   -6,201953292e-01    0,000000000e+00    0,000000000e+00    0,000000000e+00    0,000000000e+00
      142000000    1,467976719e-02   -2,673875075e-03   -7,668741941e-01   -2,363913059e-01    0,000000000e+00    0,000000000e+00    0,000000000e+00    0,000000000e+00
      156000000    1,513895392e-02   -1,469028648e-02   -7,664721012e-01    2,182394713e-01    0,000000000e+00    0,000000000e+00    0,000000000e+00    0,000000000e+00
      170000000    1,711985096e-02   -2,253987640e-02   -5,179196000e-01    6,045478582e-01    0,000000000e+00    0,000000000e+00    0,000000000e+00    0,000000000e+00
      184000000    2,131786756e-02   -3,718793392e-02   -1,014242694e-01    7,858198881e-01    0,000000000e+00    0,000000000e+00    0,000000000e+00    0,000000000e+00
      198000000    1,326236594e-02   -6,252530962e-02    3,432123661e-01    7,119772434e-01    0,000000000e+00    0,000000000e+00    0,000000000e+00    0,000000000e+00
      212000000   -1,841935515e-02   -8,125220239e-02    6,777864099e-01    4,097896814e-01    0,000000000e+00    0,000000000e+00    0,000000000e+00    0,000000000e+00
      226000000   -6,132724136e-02   -6,922106445e-02    7,954348922e-01   -3,057778068e-02    0,000000000e+00    0,000000000e+00    0,000000000e+00    0,000000000e+00
      240000000   -8,221988380e-02   -2,584079094e-02    6,457720399e-01   -4,664590359e-01    0,000000000e+00    0,000000000e+00    0,000000000e+00    0,000000000e+00
      254000000   -6,340508908e-02    1,691449434e-02    2,762333155e-01   -7,429218292e-01    0,000000000e+00    0,000000000e+00    0,000000000e+00    0,000000000e+00
      268000000   -2,391828224e-02    2,877551131e-02   -1,777828336e-01   -7,639036179e-01    0,000000000e+00    0,000000000e+00    0,000000000e+00    0,000000000e+00
      282000000    4,109224770e-03    1,206795499e-02   -5,615446568e-01   -5,355029702e-01    0,000000000e+00    0,000000000e+00    0,000000000e+00    0,000000000e+00
      296000000    9,950933047e-03   -7,542707492e-03   -7,596008778e-01   -1,396938264e-01    0,000000000e+00    0,000000000e+00    0,000000000e+00    0,000000000e+00
      310000000    1,163062826e-02   -1,598886400e-02   -7,112033367e-01    2,983089089e-01    0,000000000e+00    0,000000000e+00    0,000000000e+00    0,000000000e+00
      324000000    2,006161399e-02   -2,667023800e-02   -4,264603853e-01    6,372738481e-01    0,000000000e+00    0,000000000e+00    0,000000000e+00    0,000000000e+00
      338000000    2,558607422e-02   -5,263307318e-02   -7,815307938e-03    7,626469135e-01    0,000000000e+00    0,000000000e+00    0,000000000e+00    0,000000000e+00
      352000000    7,493480574e-03   -8,463057876e-02    4,067447186e-01    6,399232149e-01    0,000000000e+00    0,000000000e+00    0,000000000e+00    0,000000000e+00
      366000000   -3,446624428e-02   -9,556443244e-02    6,899706721e-01    3,113076091e-01    0,000000000e+00    0,000000000e+00    0,000000000e+00    0,000000000e+00
      380000000   -7,028378546e-02   -7,111167163e-02    7,473793626e-01   -1,258897483e-01    0,000000000e+00    0,000000000e+00    0,000000000e+00    0,000000000e+00
      394000000   -7,183188945e-02   -3,277110681e-02    5,465425849e-01   -5,218214393e-01    0,000000000e+00    0,000000000e+00    0,000000000e+00    0,000000000e+00
      408000000   -4,629685357e-02   -1,655120403e-02    1,613076031e-01   -7,306656837e-01    0,000000000e+00    0,000000000e+00    0,000000000e+00    0,000000000e+00
      422000000   -2,845692635e-02   -3,202225640e-02   -2,663790286e-01   -6,946697235e-01    0,000000000e+00    0,000000000e+00    0,000000000e+00    0,000000000e+00
      436000000   -4,069220275e-02   -5,166821927e-02   -6,035566330e-01   -4,318536818e-01    0,000000000e+00    0,000000000e+00    0,000000000e+00    0,000000000e+00
      450000000   -6,725051999e-02   -4,383318126e-02   -7,396418452e-01   -2,188252099e-02    0,000000000e+00    0,000000000e+00    0,000000000e+00    0,000000000e+00
      464000000   -7,287598401e-02   -1,224695798e-02   -6,179667115e-01    3,968557715e-01    0,000000000e+00    0,000000000e+00    0,000000000e+00    0,000000000e+00
      478000000   -4,749238119e-02    1,164743770e-02   -2,828193903e-01    6,666916013e-01    0,000000000e+00    0,000000000e+00    0,000000000e+00    0,000000000e+00
      492000000   -1,593527012e-02    5,475745071e-03    1,365535855e-01    7,002916336e-01    0,000000000e+00    0,000000000e+00    0,000000000e+00    0,000000000e+00
      506000000   -2,715255832e-03   -1,568440162e-02    4,970888197e-01    5,029655099e-01    0,000000000e+00    0,000000000e+00    0,000000000e+00    0,000000000e+00
      520000000   -5,462321918e-03   -3,160280734e-02    6,872968078e-01    1,406860054e-01    0,000000000e+00    0,000000000e+00    0,000000000e+00    0,000000000e+00
      534000000   -3,673022380e-03   -3,794380277e-02    6,432804465e-01   -2,611704171e-01    0,000000000e+00    0,000000000e+00    0,000000000e+00    0,000000000e+00
      548000000    6,618279498e-03   -5,398058519e-02    3,815503120e-01   -5,669485927e-01    0,000000000e+00    0,000000000e+00    0,000000000e+00    0,000000000e+00
      562000000    2,861213405e-03   -8,931078017e-02    2,420595381e-03   -6,703414321e-01    0,000000000e+00    0,000000000e+00    0,000000000e+00    0,000000000e+00
      576000000   -3,391983360e-02   -1,241130680e-01   -3,679249883e-01   -5,576187372e-01    0,000000000e+00    0,000000000e+00    0,000000000e+00    0,000000000e+00
      590000000   -9,579832852e-02   -1,228564456e-01   -6,203317046e-01   -2,655030489e-01    0,000000000e+00    0,000000000e+00    0,000000000e+00    0,000000000e+00
      604000000   -1,387738734e-01   -7,214793563e-02   -6,637495756e-01    1,364105791e-01    0,000000000e+00    0,000000000e+00    0,000000000e+00    0,000000000e+00
      618000000   -1,288050264e-01   -1,006971486e-02   -4,642611444e-01    4,924338460e-01    0,000000000e+00    0,000000000e+00    0,000000000e+00    0,000000000e+00
      632000000   -8,495162427e-02    1,578002423e-02   -1,003971994e-01    6,628215909e-01    0,000000000e+00    0,000000000e+00    0,000000000e+00    0,000000000e+00
      646000000   -5,191835016e-02   -5,181086817e-05    2,849874794e-01    5,955926180e-01    0,000000000e+00    0,000000000e+00    0,000000000e+00    0,000000000e+00
      660000000   -5,329177901e-02   -2,093077824e-02    5,652553439e-01    3,235408068e-01    0,000000000e+00    0,000000000e+00    0,000000000e+00    0,000000000e+00
      674000000   -6,893097609e-02   -1,687554456e-02    6,409232616e-01   -6,313737482e-02    0,000000000e+00    0,000000000e+00    0,000000000e+00    0,000000000e+00
      688000000   -6,743933260e-02    8,866618387e-03    4,708816409e-01   -4,241285026e-01    0,000000000e+00    0,000000000e+00    0,000000000e+00    0,000000000e+00
      702000000   -3,583240509e-02    2,546357177e-02    1,177610159e-01   -6,026713848e-01    0,000000000e+00    0,000000000e+00    0,000000000e+00    0,000000000e+00
      716000000    3,782791318e-03    1,551034860e-02   -2,589114010e-01   -5,452069044e-01    0,000000000e+00    0,000000000e+00    0,000000000e+00    0,000000000e+00
      730000000    3,629551828e-02   -1,351814158e-02   -5,217489600e-01   -2,717939019e-01    0,000000000e+00    0,000000000e+00    0,000000000e+00    0,000000000e+00
      744000000    6,199708953e-02   -6,499778479e-02   -5,603288412e-01    9,876767546e-02    0,000000000e+00    0,000000000e+00    0,000000000e+00    0,000000000e+00
      758000000    6,090186909e-02   -1,521666199e-01   -3,660238981e-01    4,000987411e-01    0,000000000e+00    0,000000000e+00    0,000000000e+00    0,000000000e+00
      772000000   -1,713019796e-02   -2,564686537e-01   -4,476313293e-02    5,083839893e-01    0,000000000e+00    0,000000000e+00    0,000000000e+00    0,000000000e+00
      786000000   -2,016852051e-01   -2,919825017e-01    2,588721216e-01    3,992747068e-01    0,000000000e+00    0,000000000e+00    0,000000000e+00    0,000000000e+00
      800000000   -4,084819853e-01   -1,275333017e-01    4,077250063e-01    1,187619343e-01    0,000000000e+00    0,000000000e+00    0,000000000e+00    0,000000000e+00
      814000000   -3,762899935e-01    2,013005316e-01    2,966279089e-01   -1,515347213e-01    0,000000000e+00    0,000000000e+00    0,000000000e+00    0,000000000e+00
      828000000   -6,200401485e-02    3,474154472e-01    8,246921748e-02   -1,908115745e-01    0,000000000e+00    0,000000000e+00    0,000000000e+00    0,000000000e+00
      842000000    2,122973800e-01    1,857044399e-01   -3,374056891e-03   -9,269890189e-02    0,000000000e+00    0,000000000e+00    0,000000000e+00    0,000000000e+00
      856000000    2,663372159e-01   -1,056631356e-01    3,650443256e-02   -3,665261716e-02    0,000000000e+00    0,000000000e+00    0,000000000e+00    0,000000000e+00
      870000000    8,200769871e-02   -3,523158431e-01    8,891598880e-02   -9,746469557e-02    0,000000000e+00    0,000000000e+00    0,000000000e+00    0,000000000e+00
      884000000   -2,676845491e-01   -3,557869792e-01    1,165188011e-02   -2,277173996e-01    0,000000000e+00    0,000000000e+00    0,000000000e+00    0,000000000e+00
      898000000   -4,577134252e-01   -1,412498672e-02   -2,154857367e-01   -2,100103498e-01    0,000000000e+00    0,000000000e+00    0,000000000e+00    0,000000000e+00
      912000000   -2,348476648e-01    2,784765661e-01   -3,264270723e-01    7,164868712e-02    0,000000000e+00    0,000000000e+00    0,000000000e+00    0,000000000e+00
      926000000    5,599583685e-02    2,630121410e-01   -2,089318186e-01    2,633211911e-01    0,000000000e+00    0,000000000e+00    0,000000000e+00    0,000000000e+00
      940000000    2,087306082e-01    8,590814471e-02   -3,082967550e-02    3,252797723e-01    0,000000000e+00    0,000000000e+00    0,000000000e+00    0,000000000e+00
      954000000    2,192204595e-01   -1,203324869e-01    1,295079738e-01    3,014917672e-01    0,000000000e+00    0,000000000e+00    0,000000000e+00    0,000000000e+00
      968000000    1,192601100e-01   -2,938414812e-01    2,662150562e-01    2,144118398e-01    0,000000000e+00    0,000000000e+00    0,000000000e+00    0,000000000e+00
      982000000   -7,642206550e-02   -3,879696131e-01    3,606252670e-01    6,316016614e-02    0,000000000e+00    0,000000000e+00    0,000000000e+00    0,000000000e+00
      996000000   -3,079796433e-01   -3,300917447e-01    3,623066545e-01   -1,446237117e-01    0,000000000e+00    0,000000000e+00    0,000000000e+00    0,000000000e+00
     1010000000   -4,584079683e-01   -1,135679930e-01    2,203911990e-01   -3,351565003e-01    0,000000000e+00    0,000000000e+00    0,000000000e+00    0,000000000e+00
     1024000000   -4,181919992e-01    1,397415847e-01   -3,176402301e-02   -3,834567666e-01    0,000000000e+00    0,000000000e+00    0,000000000e+00    0,000000000e+00
     1038000000   -2,258109599e-01    2,910763919e-01   -2,413611263e-01   -2,568527758e-01    0,000000000e+00    0,000000000e+00    0,000000000e+00    0,000000000e+00
     1052000000   -1,698865928e-02    2,784908116e-01   -3,122874498e-01   -4,602576792e-02    0,000000000e+00    0,000000000e+00    0,000000000e+00    0,000000000e+00
     1066000000    1,329436302e-01    1,669269502e-01   -2,529834509e-01    1,378638744e-01    0,000000000e+00    0,000000000e+00    0,000000000e+00    0,000000000e+00
     1080000000    1,914290488e-01    8,325752802e-03   -1,139029711e-01    2,552035749e-01    0,000000000e+00    0,000000000e+00    0,000000000e+00    0,000000000e+00
     1094000000    1,618699431e-01   -1,608085483e-01    6,030284241e-02    2,900297046e-01    0,000000000e+00    0,000000000e+00    0,000000000e+00    0,000000000e+00
     1108000000    1,511860546e-02   -2,956234813e-01    2,630800903e-01    2,324612439e-01    0,000000000e+00    0,000000000e+00    0,000000000e+00    0,000000000e+00
     1122000000   -2,153044343e-01   -2,852865160e-01    4,401559234e-01    2,425188012e-02    0,000000000e+00    0,000000000e+00    0,000000000e+00    0,000000000e+00
     1136000000   -3,278282881e-01   -3,328013048e-02    3,990881145e-01   -3,452391326e-01    0,000000000e+00    0,000000000e+00    0,000000000e+00    0,000000000e+00
     1150000000   -1,032082066e-01    1,358638555e-01    4,719677567e-02   -5,326192975e-01    0,000000000e+00    0,000000000e+00    0,000000000e+00    0,000000000e+00
     1164000000    8,142541349e-02   -1,858373918e-02   -2,509397268e-01   -4,023183286e-01    0,000000000e+00    0,000000000e+00    0,000000000e+00    0,000000000e+00
     1178000000    2,818169817e-02   -2,526363134e-01   -3,707538545e-01   -1,794282198e-01    0,000000000e+00    0,000000000e+00    0,000000000e+00    0,000000000e+00
     1192000000   -2,196614146e-01   -3,503721356e-01   -3,421652317e-01    3,925583512e-02    0,000000000e+00    0,000000000e+00    0,000000000e+00    0,000000000e+00
     1206000000   -4,784250855e-01   -1,847271174e-01   -1,893703490e-01    1,835627258e-01    0,000000000e+00    0,000000000e+00    0,000000000e+00    0,000000000e+00
     1220000000   -5,070323348e-01    1,369511187e-01   -1,133672148e-02    1,767189950e-01    0,000000000e+00    0,000000000e+00    0,000000000e+00    0,000000000e+00
     1234000000   -3,010247350e-01    3,367598653e-01    6,884573400e-02    7,400158793e-02    0,000000000e+00    0,000000000e+00    0,000000000e+00    0,000000000e+00
     1248000000   -6,576526165e-02    3,626312613e-01    7,007760555e-02    4,278126173e-03    0,000000000e+00    0,000000000e+00    0,000000000e+00    0,000000000e+00
     1262000000    1,076283082e-01    2,563546002e-01    2,597008087e-02   -2,624177188e-02    0,000000000e+00    0,000000000e+00    0,000000000e+00    0,000000000e+00
     1276000000    2,023454607e-01    1,103979498e-01    5,551120732e-03   -5,258040037e-03    0,000000000e+00    0,000000000e+00    0,000000000e+00    0,000000000e+00
     1290000000    2,183839828e-01   -6,067483872e-02    8,494840935e-03    2,688505314e-02    0,000000000e+00    0,000000000e+00    0,000000000e+00    0,000000000e+00
     1304000000    1,674414426e-01   -2,329196930e-01    6,133495644e-02    5,541375279e-02    0,000000000e+00    0,000000000e+00    0,000000000e+00    0,000000000e+00
     1318000000    2,425624616e-02   -3,618982434e-01    1,710319668e-01    1,555254683e-02    0,000000000e+00    0,000000000e+00    0,000000000e+00    0,000000000e+00
     1332000000   -1,485704035e-01   -3,930246830e-01    9,436198324e-02   -1,785367131e-01    0,000000000e+00    0,000000000e+00    0,000000000e+00    0,000000000e+00
     1346000000   -3,548900187e-01   -3,959538043e-01   -5,655632913e-02   -2,787628770e-02    0,000000000e+00    0,000000000e+00    0,000000000e+00    0,000000000e+00
     1360000000   -5,813307762e-01   -2,055528611e-01    7,155191153e-02    8,310740441e-02    0,000000000e+00    0,000000000e+00    0,000000000e+00    0,000000000e+00
     1374000000   -6,251994371e-01    1,067157611e-01    1,855700165e-01    5,804887414e-02    0,000000000e+00    0,000000000e+00    0,000000000e+00    0,000000000e+00
     1388000000   -4,773107469e-01    3,563519418e-01    2,099542022e-01   -1,929939725e-02    0,000000000e+00    0,000000000e+00    0,000000000e+00    0,000000000e+00
     1402000000   -2,507030368e-01    4,427562058e-01    2,023010850e-01   -7,810106128e-02    0,000000000e+00    0,000000000e+00    0,000000000e+00    0,000000000e+00
     1416000000   -3,673593327e-02    4,164714217e-01    1,992058456e-01   -9,308443964e-02    0,000000000e+00    0,000000000e+00    0,000000000e+00    0,000000000e+00
     1430000000    1,156916246e-01    3,062466681e-01    1,657241881e-01   -9,548752010e-02    0,000000000e+00    0,000000000e+00    0,000000000e+00    0,000000000e+00
     1444000000    2,019453943e-01    1,535612643e-01    1,561792642e-01   -1,069870666e-01    0,000000000e+00    0,000000000e+00    0,000000000e+00    0,000000000e+00
     1458000000    2,323934734e-01   -1,230673958e-02    1,497759372e-01   -8,557995409e-02    0,000000000e+00    0,000000000e+00    0,000000000e+00    0,000000000e+00
     1472000000    1,881128252e-01   -1,866562665e-01    1,481969357e-01   -3,628856316e-02    0,000000000e+00    0,000000000e+00    0,000000000e+00    0,000000000e+00
     1486000000    7,130556554e-02   -3,612018526e-01    1,686946154e-01    1,345619280e-02    0,000000000e+00    0,000000000e+00    0,000000000e+00    0,000000000e+00
     1500000000   -1,518204063e-01   -4,920178354e-01    2,411742061e-01    8,930222690e-02    0,000000000e+00    0,000000000e+00    0,000000000e+00    0,000000000e+00
