! NanoVNA-App
! Date: 2025-09-25 15:44:35
! Start: 100MHz Stop: 1,5GHz Points: 101
! S-Parameter data: F S11 S21 S12 S22
# Hz S RI R 50
!     Frequency           S11_Real           S11_Imag           S21_Real           S21_Imag           S12_Real           S12_Imag           S22_Real           S22_Imag
      100000000   -2,873008884e-02   -4,243251868e-03    3,739525974e-01   -7,215310931e-01    0,000000000e+00    0,000000000e+00    0,000000000e+00    0,000000000e+00
      114000000   -1,649972983e-02    1,150944643e-02   -8,897645026e-02   -8,051931858e-01    0,000000000e+00    0,000000000e+00    0,000000000e+00    0,000000000e+00
      128000000    3,522649640e-03    1,069243904e-02   -5,142906308e-01   -6,202085614e-01    0,000000000e+00    0,000000000e+00    0,000000000e+00    0,000000000e+00
      142000000    1,469788793e-02   -2,670782153e-03   -7,668716908e-01   -2,365056425e-01    0,000000000e+00    0,000000000e+00    0,000000000e+00    0,000000000e+00
      156000000    1,513807196e-02   -1,472954825e-02   -7,667219043e-01    2,183277905e-01    0,000000000e+00    0,000000000e+00    0,000000000e+00    0,000000000e+00
      170000000    1,712524518e-02   -2,251355909e-02   -5,180824399e-01    6,044525504e-01    0,000000000e+00    0,000000000e+00    0,000000000e+00    0,000000000e+00
      184000000    2,134348825e-02   -3,709347546e-02   -1,015586630e-01    7,857429981e-01    0,000000000e+00    0,000000000e+00    0,000000000e+00    0,000000000e+00
      198000000    1,331428904e-02   -6,251996011e-02    3,430521786e-01    7,121276855e-01    0,000000000e+00    0,000000000e+00    0,000000000e+00    0,000000000e+00
      212000000   -1,840010844e-02   -8,133364469e-02    6,777439713e-01    4,097940922e-01    0,000000000e+00    0,000000000e+00    0,000000000e+00    0,000000000e+00
      226000000   -6,136856601e-02   -6,928031147e-02    7,953971624e-01   -3,045816906e-02    0,000000000e+00    0,000000000e+00    0,000000000e+00    0,000000000e+00
      240000000   -8,221836388e-02   -2,576984093e-02    6,457452178e-01   -4,668611586e-01    0,000000000e+00    0,000000000e+00    0,000000000e+00    0,000000000e+00
      254000000   -6,338132173e-02    1,697405428e-02    2,759531140e-01   -7,426038384e-01    0,000000000e+00    0,000000000e+00    0,000000000e+00    0,000000000e+00
      268000000   -2,390597947e-02    2,875775285e-02   -1,778062731e-01   -7,640576959e-01    0,000000000e+00    0,000000000e+00    0,000000000e+00    0,000000000e+00
      282000000    4,185689613e-03    1,200725138e-02   -5,614355206e-01   -5,352404118e-01    0,000000000e+00    0,000000000e+00    0,000000000e+00    0,000000000e+00
      296000000    9,900047444e-03   -7,667421363e-03   -7,593514919e-01   -1,395702958e-01    0,000000000e+00    0,000000000e+00    0,000000000e+00    0,000000000e+00
      310000000    1,144097000e-02   -1,601829380e-02   -7,120337486e-01    2,972841859e-01    0,000000000e+00    0,000000000e+00    0,000000000e+00    0,000000000e+00
      324000000    2,005747519e-02   -2,659988403e-02   -4,273809195e-01    6,375195980e-01    0,000000000e+00    0,000000000e+00    0,000000000e+00    0,000000000e+00
      338000000    2,577019483e-02   -5,235315487e-02   -1,060957182e-02    7,608830929e-01    0,000000000e+00    0,000000000e+00    0,000000000e+00    0,000000000e+00
      352000000    7,422477007e-03   -8,481091261e-02    4,062258303e-01    6,394394636e-01    0,000000000e+00    0,000000000e+00    0,000000000e+00    0,000000000e+00
      366000000   -3,435990959e-02   -9,570548683e-02    6,904234290e-01    3,112637103e-01    0,000000000e+00    0,000000000e+00    0,000000000e+00    0,000000000e+00
      380000000   -7,042706758e-02   -7,119347155e-02    7,469121218e-01   -1,253281385e-01    0,000000000e+00    0,000000000e+00    0,000000000e+00    0,000000000e+00
      394000000   -7,227161527e-02   -3,237943724e-02    5,465417504e-01   -5,217497945e-01    0,000000000e+00    0,000000000e+00    0,000000000e+00    0,000000000e+00
      408000000   -4,619006813e-02   -1,611901820e-02    1,621259004e-01   -7,303265929e-01    0,000000000e+00    0,000000000e+00    0,000000000e+00    0,000000000e+00
      422000000   -2,810261026e-02   -3,201428428e-02   -2,672134936e-01   -6,943274736e-01    0,000000000e+00    0,000000000e+00    0,000000000e+00    0,000000000e+00
      436000000   -4,058578238e-02   -5,158546194e-02   -6,031139493e-01   -4,320246875e-01    0,000000000e+00    0,000000000e+00    0,000000000e+00    0,000000000e+00
      450000000   -6,732147932e-02   -4,403732345e-02   -7,401192188e-01   -2,150513232e-02    0,000000000e+00    0,000000000e+00    0,000000000e+00    0,000000000e+00
      464000000   -7,276663184e-02   -1,166043803e-02   -6,182144284e-01    3,968575597e-01    0,000000000e+00    0,000000000e+00    0,000000000e+00    0,000000000e+00
      478000000   -4,751379043e-02    1,158100087e-02   -2,826142311e-01    6,668680906e-01    0,000000000e+00    0,000000000e+00    0,000000000e+00    0,000000000e+00
      492000000   -1,596994326e-02    6,079695653e-03    1,367234886e-01    7,006434798e-01    0,000000000e+00    0,000000000e+00    0,000000000e+00    0,000000000e+00
      506000000   -2,499402966e-03   -1,598902605e-02    4,978699982e-01    5,022870302e-01    0,000000000e+00    0,000000000e+00    0,000000000e+00    0,000000000e+00
      520000000   -4,948111717e-03   -3,128457442e-02    6,878576875e-01    1,414865851e-01    0,000000000e+00    0,000000000e+00    0,000000000e+00    0,000000000e+00
      534000000   -3,856348805e-03   -3,787722439e-02    6,431573629e-01   -2,612614334e-01    0,000000000e+00    0,000000000e+00    0,000000000e+00    0,000000000e+00
      548000000    6,289358251e-03   -5,364895612e-02    3,814597726e-01   -5,666517615e-01    0,000000000e+00    0,000000000e+00    0,000000000e+00    0,000000000e+00
      562000000    3,285120241e-03   -8,943676203e-02    3,578942502e-03   -6,717039943e-01    0,000000000e+00    0,000000000e+00    0,000000000e+00    0,000000000e+00
      576000000   -3,371356055e-02   -1,241988614e-01   -3,676190674e-01   -5,576756001e-01    0,000000000e+00    0,000000000e+00    0,000000000e+00    0,000000000e+00
      590000000   -9,541813284e-02   -1,227817014e-01   -6,194981933e-01   -2,659123540e-01    0,000000000e+00    0,000000000e+00    0,000000000e+00    0,000000000e+00
      604000000   -1,389449239e-01   -7,196093351e-02   -6,640264392e-01    1,373360306e-01    0,000000000e+00    0,000000000e+00    0,000000000e+00    0,000000000e+00
      618000000   -1,297039241e-01   -9,841277264e-03   -4,644688666e-01    4,937231839e-01    0,000000000e+00    0,000000000e+00    0,000000000e+00    0,000000000e+00
      632000000   -8,402553946e-02    1,625695266e-02   -9,928611666e-02    6,625872254e-01    0,000000000e+00    0,000000000e+00    0,000000000e+00    0,000000000e+00
      646000000   -5,147155747e-02    9,818400722e-04    2,854926884e-01    5,936945081e-01    0,000000000e+00    0,000000000e+00    0,000000000e+00    0,000000000e+00
      660000000   -5,385872722e-02   -2,021786571e-02    5,642023087e-01    3,233675957e-01    0,000000000e+00    0,000000000e+00    0,000000000e+00    0,000000000e+00
      674000000   -6,907948107e-02   -1,658639498e-02    6,407543421e-01   -6,291718036e-02    0,000000000e+00    0,000000000e+00    0,000000000e+00    0,000000000e+00
      688000000   -6,665994227e-02    9,718981571e-03    4,714159667e-01   -4,241963625e-01    0,000000000e+00    0,000000000e+00    0,000000000e+00    0,000000000e+00
      702000000   -3,602917492e-02    2,601104416e-02    1,200173274e-01   -6,032380462e-01    0,000000000e+00    0,000000000e+00    0,000000000e+00    0,000000000e+00
      716000000    2,988640917e-03    1,670543104e-02   -2,590367794e-01   -5,446335673e-01    0,000000000e+00    0,000000000e+00    0,000000000e+00    0,000000000e+00
      730000000    3,612725809e-02   -1,372961979e-02   -5,217497349e-01   -2,715933621e-01    0,000000000e+00    0,000000000e+00    0,000000000e+00    0,000000000e+00
      744000000    6,204264238e-02   -6,568871439e-02   -5,605682731e-01    9,819218516e-02    0,000000000e+00    0,000000000e+00    0,000000000e+00    0,000000000e+00
      758000000    6,159843132e-02   -1,520092636e-01   -3,662631512e-01    4,006791711e-01    0,000000000e+00    0,000000000e+00    0,000000000e+00    0,000000000e+00
      772000000   -1,715402864e-02   -2,554429770e-01   -4,637688771e-02    5,096199512e-01    0,000000000e+00    0,000000000e+00    0,000000000e+00    0,000000000e+00
      786000000   -2,024905384e-01   -2,913303375e-01    2,595660090e-01    3,989773095e-01    0,000000000e+00    0,000000000e+00    0,000000000e+00    0,000000000e+00
      800000000   -4,062509239e-01   -1,273567230e-01    4,074739218e-01    1,190242320e-01    0,000000000e+00    0,000000000e+00    0,000000000e+00    0,000000000e+00
      814000000   -3,766705692e-01    2,024952620e-01    2,967481613e-01   -1,512562782e-01    0,000000000e+00    0,000000000e+00    0,000000000e+00    0,000000000e+00
      828000000   -6,284744292e-02    3,471240401e-01    8,263957500e-02   -1,914730966e-01    0,000000000e+00    0,000000000e+00    0,000000000e+00    0,000000000e+00
      842000000    2,110811472e-01    1,861334890e-01   -4,019681830e-03   -9,377583116e-02    0,000000000e+00    0,000000000e+00    0,000000000e+00    0,000000000e+00
      856000000    2,662909925e-01   -1,055022031e-01    3,537490591e-02   -3,689806163e-02    0,000000000e+00    0,000000000e+00    0,000000000e+00    0,000000000e+00
      870000000    8,280310035e-02   -3,518770337e-01    8,815163374e-02   -9,690550715e-02    0,000000000e+00    0,000000000e+00    0,000000000e+00    0,000000000e+00
      884000000   -2,658618987e-01   -3,553833961e-01    1,269471738e-02   -2,273216844e-01    0,000000000e+00    0,000000000e+00    0,000000000e+00    0,000000000e+00
      898000000   -4,574617445e-01   -1,391570084e-02   -2,149168551e-01   -2,093688548e-01    0,000000000e+00    0,000000000e+00    0,000000000e+00    0,000000000e+00
      912000000   -2,346331030e-01    2,775316238e-01   -3,349224627e-01    7,990096509e-02    0,000000000e+00    0,000000000e+00    0,000000000e+00    0,000000000e+00
      926000000    5,443150550e-02    2,633087635e-01   -2,094185352e-01    2,643837333e-01    0,000000000e+00    0,000000000e+00    0,000000000e+00    0,000000000e+00
      940000000    2,106574625e-01    8,343740553e-02   -2,971193567e-02    3,249419034e-01    0,000000000e+00    0,000000000e+00    0,000000000e+00    0,000000000e+00
      954000000    2,190481722e-01   -1,226186082e-01    1,315389723e-01    3,012082279e-01    0,000000000e+00    0,000000000e+00    0,000000000e+00    0,000000000e+00
      968000000    1,179852113e-01   -2,926365435e-01    2,686325610e-01    2,137603313e-01    0,000000000e+00    0,000000000e+00    0,000000000e+00    0,000000000e+00
      982000000   -7,499494404e-02   -3,868695199e-01    3,595021367e-01    6,358390301e-02    0,000000000e+00    0,000000000e+00    0,000000000e+00    0,000000000e+00
      996000000   -3,093649149e-01   -3,283121288e-01    3,641995192e-01   -1,422924250e-01    0,000000000e+00    0,000000000e+00    0,000000000e+00    0,000000000e+00
     1010000000   -4,598292410e-01   -1,205552816e-01    2,167110145e-01   -3,374550641e-01    0,000000000e+00    0,000000000e+00    0,000000000e+00    0,000000000e+00
     1024000000   -4,200446606e-01    1,452646405e-01   -3,123937920e-02   -3,853393793e-01    0,000000000e+00    0,000000000e+00    0,000000000e+00    0,000000000e+00
     1038000000   -2,241869271e-01    2,881409526e-01   -2,401234806e-01   -2,573279738e-01    0,000000000e+00    0,000000000e+00    0,000000000e+00    0,000000000e+00
     1052000000   -1,323153451e-02    2,829063237e-01   -3,114904165e-01   -4,603380710e-02    0,000000000e+00    0,000000000e+00    0,000000000e+00    0,000000000e+00
     1066000000    1,345569640e-01    1,672070473e-01   -2,548306584e-01    1,375933141e-01    0,000000000e+00    0,000000000e+00    0,000000000e+00    0,000000000e+00
     1080000000    1,895696074e-01    6,705720909e-03   -1,165698245e-01    2,543722093e-01    0,000000000e+00    0,000000000e+00    0,000000000e+00    0,000000000e+00
     1094000000    1,597683728e-01   -1,608390659e-01    5,997676030e-02    2,915856242e-01    0,000000000e+00    0,000000000e+00    0,000000000e+00    0,000000000e+00
     1108000000    2,190980688e-02   -2,951747179e-01    2,580618560e-01    2,342776954e-01    0,000000000e+00    0,000000000e+00    0,000000000e+00    0,000000000e+00
     1122000000   -2,156341821e-01   -2,860476971e-01    4,399856627e-01    2,379694581e-02    0,000000000e+00    0,000000000e+00    0,000000000e+00    0,000000000e+00
     1136000000   -3,238803446e-01   -3,523015231e-02    3,987929821e-01   -3,443334997e-01    0,000000000e+00    0,000000000e+00    0,000000000e+00    0,000000000e+00
     1150000000   -1,033348441e-01    1,379596144e-01    5,075709522e-02   -5,277236104e-01    0,000000000e+00    0,000000000e+00    0,000000000e+00    0,000000000e+00
     1164000000    8,696135879e-02   -1,469811425e-02   -2,503258586e-01   -4,044584930e-01    0,000000000e+00    0,000000000e+00    0,000000000e+00    0,000000000e+00
     1178000000    2,917217091e-02   -2,534846961e-01   -3,712926805e-01   -1,783589125e-01    0,000000000e+00    0,000000000e+00    0,000000000e+00    0,000000000e+00
     1192000000   -2,195731401e-01   -3,468547463e-01   -3,422860503e-01    3,977718204e-02    0,000000000e+00    0,000000000e+00    0,000000000e+00    0,000000000e+00
     1206000000   -4,790499508e-01   -1,775338650e-01   -1,876924187e-01    1,823332757e-01    0,000000000e+00    0,000000000e+00    0,000000000e+00    0,000000000e+00
     1220000000   -5,039103627e-01    1,414471269e-01   -1,019034721e-02    1,746722162e-01    0,000000000e+00    0,000000000e+00    0,000000000e+00    0,000000000e+00
     1234000000   -3,041661978e-01    3,449176252e-01    7,367357612e-02    8,151719719e-02    0,000000000e+00    0,000000000e+00    0,000000000e+00    0,000000000e+00
     1248000000   -6,496052444e-02    3,547224104e-01    6,561893225e-02    3,185606096e-03    0,000000000e+00    0,000000000e+00    0,000000000e+00    0,000000000e+00
     1262000000    1,129051819e-01    2,549905777e-01    3,441577405e-02   -2,571246214e-02    0,000000000e+00    0,000000000e+00    0,000000000e+00    0,000000000e+00
     1276000000    2,000185847e-01    1,087516844e-01    2,492072294e-03   -9,337108582e-03    0,000000000e+00    0,000000000e+00    0,000000000e+00    0,000000000e+00
     1290000000    2,205201685e-01   -5,935089663e-02    1,591273770e-02    2,753631212e-02    0,000000000e+00    0,000000000e+00    0,000000000e+00    0,000000000e+00
     1304000000    1,676966250e-01   -2,307534814e-01    6,566438079e-02    5,715744197e-02    0,000000000e+00    0,000000000e+00    0,000000000e+00    0,000000000e+00
     1318000000    2,804021910e-02   -3,591129780e-01    1,736512482e-01    2,295929380e-02    0,000000000e+00    0,000000000e+00    0,000000000e+00    0,000000000e+00
     1332000000   -1,479571313e-01   -3,982538581e-01    1,061976627e-01   -1,843075007e-01    0,000000000e+00    0,000000000e+00    0,000000000e+00    0,000000000e+00
     1346000000   -3,663239479e-01   -3,904788196e-01   -6,256195903e-02   -2,787506953e-02    0,000000000e+00    0,000000000e+00    0,000000000e+00    0,000000000e+00
     1360000000   -5,883646011e-01   -1,983389258e-01    6,028662995e-02    8,581306040e-02    0,000000000e+00    0,000000000e+00    0,000000000e+00    0,000000000e+00
     1374000000   -6,233150363e-01    1,018868983e-01    1,888413876e-01    5,289529637e-02    0,000000000e+00    0,000000000e+00    0,000000000e+00    0,000000000e+00
     1388000000   -4,716804028e-01    3,556623459e-01    2,233600169e-01   -1,995045319e-02    0,000000000e+00    0,000000000e+00    0,000000000e+00    0,000000000e+00
     1402000000   -2,450796664e-01    4,409964979e-01    2,159580290e-01   -8,124019206e-02    0,000000000e+00    0,000000000e+00    0,000000000e+00    0,000000000e+00
     1416000000   -4,032390192e-02    4,058494866e-01    1,994686425e-01   -1,021335125e-01    0,000000000e+00    0,000000000e+00    0,000000000e+00    0,000000000e+00
     1430000000    1,093933731e-01    3,049917221e-01    1,747431904e-01   -8,052528650e-02    0,000000000e+00    0,000000000e+00    0,000000000e+00    0,000000000e+00
     1444000000    2,015628219e-01    1,544862837e-01    1,710753739e-01   -1,060052812e-01    0,000000000e+00    0,000000000e+00    0,000000000e+00    0,000000000e+00
     1458000000    2,318169624e-01   -1,697468013e-02    1,438830346e-01   -9,988746792e-02    0,000000000e+00    0,000000000e+00    0,000000000e+00    0,000000000e+00
     1472000000    1,949630231e-01   -1,909998804e-01    1,480535120e-01   -4,162119702e-02    0,000000000e+00    0,000000000e+00    0,000000000e+00    0,000000000e+00
     1486000000    6,574532390e-02   -3,642070591e-01    1,604642868e-01    2,768791839e-02    0,000000000e+00    0,000000000e+00    0,000000000e+00    0,000000000e+00
     1500000000   -1,622092426e-01   -4,927346408e-01    2,282212675e-01    9,062491357e-02    0,000000000e+00    0,000000000e+00    0,000000000e+00    0,000000000e+00
