! NanoVNA-App
! Date: 2025-09-25 15:45:05
! Start: 100MHz Stop: 1,5GHz Points: 101
! S-Parameter data: F S11 S21 S12 S22
# Hz S RI R 50
!     Frequency           S11_Real           S11_Imag           S21_Real           S21_Imag           S12_Real           S12_Imag           S22_Real           S22_Imag
      100000000   -2,877504937e-02   -4,242293071e-03    3,740105927e-01   -7,215130329e-01    0,000000000e+00    0,000000000e+00    0,000000000e+00    0,000000000e+00
      114000000   -1,654128172e-02    1,146714948e-02   -8,914411813e-02   -8,051740527e-01    0,000000000e+00    0,000000000e+00    0,000000000e+00    0,000000000e+00
      128000000    3,389787627e-03    1,074059494e-02   -5,143461227e-01   -6,203309894e-01    0,000000000e+00    0,000000000e+00    0,000000000e+00    0,000000000e+00
      142000000    1,465071179e-02   -2,690769266e-03   -7,667788863e-01   -2,364363819e-01    0,000000000e+00    0,000000000e+00    0,000000000e+00    0,000000000e+00
      156000000    1,511282474e-02   -1,457058266e-02   -7,655415535e-01    2,213937193e-01    0,000000000e+00    0,000000000e+00    0,000000000e+00    0,000000000e+00
      170000000    1,703423448e-02   -2,244459279e-02   -5,179447532e-01    6,043600440e-01    0,000000000e+00    0,000000000e+00    0,000000000e+00    0,000000000e+00
      184000000    2,131953463e-02   -3,711557388e-02   -1,014460921e-01    7,859001756e-01    0,000000000e+00    0,000000000e+00    0,000000000e+00    0,000000000e+00
      198000000    1,323085371e-02   -6,252301484e-02    3,431784511e-01    7,121565938e-01    0,000000000e+00    0,000000000e+00    0,000000000e+00    0,000000000e+00
      212000000   -1,840614714e-02   -8,128827065e-02    6,776359081e-01    4,096837938e-01    0,000000000e+00    0,000000000e+00    0,000000000e+00    0,000000000e+00
      226000000   -6,141708046e-02   -6,924173236e-02    7,954941988e-01   -3,036029078e-02    0,000000000e+00    0,000000000e+00    0,000000000e+00    0,000000000e+00
      240000000   -8,231651783e-02   -2,582614124e-02    6,459340453e-01   -4,664531350e-01    0,000000000e+00    0,000000000e+00    0,000000000e+00    0,000000000e+00
      254000000   -6,346091628e-02    1,695876382e-02    2,761858106e-01   -7,429569960e-01    0,000000000e+00    0,000000000e+00    0,000000000e+00    0,000000000e+00
      268000000   -2,396402881e-02    2,877521329e-02   -1,779111326e-01   -7,640103102e-01    0,000000000e+00    0,000000000e+00    0,000000000e+00    0,000000000e+00
      282000000    4,093602300e-03    1,208107080e-02   -5,613809228e-01   -5,357034802e-01    0,000000000e+00    0,000000000e+00    0,000000000e+00    0,000000000e+00
      296000000    9,874996729e-03   -7,572054863e-03   -7,596393228e-01   -1,396739930e-01    0,000000000e+00    0,000000000e+00    0,000000000e+00    0,000000000e+00
      310000000    1,140593924e-02   -1,618421450e-02   -7,124491334e-01    2,992061377e-01    0,000000000e+00    0,000000000e+00    0,000000000e+00    0,000000000e+00
      324000000    1,996457204e-02   -2,651595883e-02   -4,274787903e-01    6,377700567e-01    0,000000000e+00    0,000000000e+00    0,000000000e+00    0,000000000e+00
      338000000    2,557255886e-02   -5,218695104e-02   -7,336949464e-03    7,619845271e-01    0,000000000e+00    0,000000000e+00    0,000000000e+00    0,000000000e+00
      352000000    7,581797428e-03   -8,494737744e-02    4,064829648e-01    6,392033100e-01    0,000000000e+00    0,000000000e+00    0,000000000e+00    0,000000000e+00
      366000000   -3,467248380e-02   -9,517564625e-02    6,900465488e-01    3,110194802e-01    0,000000000e+00    0,000000000e+00    0,000000000e+00    0,000000000e+00
      380000000   -7,054127008e-02   -7,109408826e-02    7,476554513e-01   -1,257153898e-01    0,000000000e+00    0,000000000e+00    0,000000000e+00    0,000000000e+00
      394000000   -7,224268466e-02   -3,247852623e-02    5,464808941e-01   -5,203956366e-01    0,000000000e+00    0,000000000e+00    0,000000000e+00    0,000000000e+00
      408000000   -4,654086754e-02   -1,634481549e-02    1,616928577e-01   -7,321577072e-01    0,000000000e+00    0,000000000e+00    0,000000000e+00    0,000000000e+00
      422000000   -2,822145447e-02   -3,221501783e-02   -2,671004832e-01   -6,954171658e-01    0,000000000e+00    0,000000000e+00    0,000000000e+00    0,000000000e+00
      436000000   -4,058564454e-02   -5,212206393e-02   -6,032515168e-01   -4,317677915e-01    0,000000000e+00    0,000000000e+00    0,000000000e+00    0,000000000e+00
      450000000   -6,670425832e-02   -4,400592297e-02   -7,400186062e-01   -2,193906903e-02    0,000000000e+00    0,000000000e+00    0,000000000e+00    0,000000000e+00
      464000000   -7,274072617e-02   -1,172058564e-02   -6,176719069e-01    3,972334564e-01    0,000000000e+00    0,000000000e+00    0,000000000e+00    0,000000000e+00
      478000000   -4,770345986e-02    1,119140163e-02   -2,829658389e-01    6,671405435e-01    0,000000000e+00    0,000000000e+00    0,000000000e+00    0,000000000e+00
      492000000   -1,562766731e-02    5,581177771e-03    1,377284527e-01    7,003055811e-01    0,000000000e+00    0,000000000e+00    0,000000000e+00    0,000000000e+00
      506000000   -2,815339947e-03   -1,579146273e-02    4,975543022e-01    5,039223433e-01    0,000000000e+00    0,000000000e+00    0,000000000e+00    0,000000000e+00
      520000000   -5,307336804e-03   -3,166413680e-02    6,876310110e-01    1,406764090e-01    0,000000000e+00    0,000000000e+00    0,000000000e+00    0,000000000e+00
      534000000   -3,618510440e-03   -3,797647357e-02    6,434744000e-01   -2,617267966e-01    0,000000000e+00    0,000000000e+00    0,000000000e+00    0,000000000e+00
      548000000    6,257596426e-03   -5,404024944e-02    3,810981214e-01   -5,665194392e-01    0,000000000e+00    0,000000000e+00    0,000000000e+00    0,000000000e+00
      562000000    3,171217162e-03   -8,932454884e-02    2,697366290e-03   -6,708737016e-01    0,000000000e+00    0,000000000e+00    0,000000000e+00    0,000000000e+00
      576000000   -3,352438658e-02   -1,240536943e-01   -3,682133257e-01   -5,580768585e-01    0,000000000e+00    0,000000000e+00    0,000000000e+00    0,000000000e+00
      590000000   -9,561952949e-02   -1,228641346e-01   -6,206028461e-01   -2,655484378e-01    0,000000000e+00    0,000000000e+00    0,000000000e+00    0,000000000e+00
      604000000   -1,389409006e-01   -7,240256667e-02   -6,641902924e-01    1,366237402e-01    0,000000000e+00    0,000000000e+00    0,000000000e+00    0,000000000e+00
      618000000   -1,290719956e-01   -1,039249636e-02   -4,644463062e-01    4,921034276e-01    0,000000000e+00    0,000000000e+00    0,000000000e+00    0,000000000e+00
      632000000   -8,498204499e-02    1,605427824e-02   -1,003740132e-01    6,632614136e-01    0,000000000e+00    0,000000000e+00    0,000000000e+00    0,000000000e+00
      646000000   -5,191794410e-02    7,863851351e-05    2,866024971e-01    5,941057205e-01    0,000000000e+00    0,000000000e+00    0,000000000e+00    0,000000000e+00
      660000000   -5,399376899e-02   -2,040561475e-02    5,645973086e-01    3,237530291e-01    0,000000000e+00    0,000000000e+00    0,000000000e+00    0,000000000e+00
      674000000   -7,008022815e-02   -1,682755724e-02    6,411156058e-01   -6,336649507e-02    0,000000000e+00    0,000000000e+00    0,000000000e+00    0,000000000e+00
      688000000   -6,690693647e-02    9,694973938e-03    4,712833166e-01   -4,237484038e-01    0,000000000e+00    0,000000000e+00    0,000000000e+00    0,000000000e+00
      702000000   -3,563006595e-02    2,495647781e-02    1,202861965e-01   -6,046840549e-01    0,000000000e+00    0,000000000e+00    0,000000000e+00    0,000000000e+00
      716000000    4,331426695e-03    1,606339030e-02   -2,595124543e-01   -5,450704694e-01    0,000000000e+00    0,000000000e+00    0,000000000e+00    0,000000000e+00
      730000000    3,625394404e-02   -1,430877112e-02   -5,218052268e-01   -2,717619836e-01    0,000000000e+00    0,000000000e+00    0,000000000e+00    0,000000000e+00
      744000000    6,268895417e-02   -6,571020186e-02   -5,604242682e-01    9,832638502e-02    0,000000000e+00    0,000000000e+00    0,000000000e+00    0,000000000e+00
      758000000    6,039563194e-02   -1,516731828e-01   -3,669489920e-01    4,005914330e-01    0,000000000e+00    0,000000000e+00    0,000000000e+00    0,000000000e+00
      772000000   -1,718725450e-02   -2,556067705e-01   -4,660427943e-02    5,094095469e-01    0,000000000e+00    0,000000000e+00    0,000000000e+00    0,000000000e+00
      786000000   -2,021980584e-01   -2,914314866e-01    2,597534060e-01    3,997674584e-01    0,000000000e+00    0,000000000e+00    0,000000000e+00    0,000000000e+00
      800000000   -4,068585634e-01   -1,282658130e-01    4,073509574e-01    1,191845462e-01    0,000000000e+00    0,000000000e+00    0,000000000e+00    0,000000000e+00
      814000000   -3,781620562e-01    2,012596279e-01    2,972704172e-01   -1,507942379e-01    0,000000000e+00    0,000000000e+00    0,000000000e+00    0,000000000e+00
      828000000   -6,216207892e-02    3,470110297e-01    8,276565373e-02   -1,910296977e-01    0,000000000e+00    0,000000000e+00    0,000000000e+00    0,000000000e+00
      842000000    2,114992440e-01    1,859422326e-01   -4,014937207e-03   -9,352912754e-02    0,000000000e+00    0,000000000e+00    0,000000000e+00    0,000000000e+00
      856000000    2,661993802e-01   -1,056749299e-01    3,555748239e-02   -3,720399365e-02    0,000000000e+00    0,000000000e+00    0,000000000e+00    0,000000000e+00
      870000000    8,313812315e-02   -3,514040411e-01    8,830231428e-02   -9,653456509e-02    0,000000000e+00    0,000000000e+00    0,000000000e+00    0,000000000e+00
      884000000   -2,666589320e-01   -3,563622236e-01    1,243614592e-02   -2,282424569e-01    0,000000000e+00    0,000000000e+00    0,000000000e+00    0,000000000e+00
      898000000   -4,572806358e-01   -1,401564479e-02   -2,146105617e-01   -2,091872543e-01    0,000000000e+00    0,000000000e+00    0,000000000e+00    0,000000000e+00
      912000000   -2,355532944e-01    2,774269879e-01   -3,300614357e-01    6,352148205e-02    0,000000000e+00    0,000000000e+00    0,000000000e+00    0,000000000e+00
      926000000    5,624301732e-02    2,621895373e-01   -2,081760764e-01    2,611531913e-01    0,000000000e+00    0,000000000e+00    0,000000000e+00    0,000000000e+00
      940000000    2,101081759e-01    8,512350172e-02   -3,168822452e-02    3,247980475e-01    0,000000000e+00    0,000000000e+00    0,000000000e+00    0,000000000e+00
      954000000    2,231624126e-01   -1,205171049e-01    1,323234439e-01    3,015787303e-01    0,000000000e+00    0,000000000e+00    0,000000000e+00    0,000000000e+00
      968000000    1,179105267e-01   -2,918376923e-01    2,693298757e-01    2,140935659e-01    0,000000000e+00    0,000000000e+00    0,000000000e+00    0,000000000e+00
      982000000   -7,858310640e-02   -3,847055733e-01    3,604477942e-01    6,199729443e-02    0,000000000e+00    0,000000000e+00    0,000000000e+00    0,000000000e+00
      996000000   -3,086010516e-01   -3,316400051e-01    3,629553020e-01   -1,440749466e-01    0,000000000e+00    0,000000000e+00    0,000000000e+00    0,000000000e+00
     1010000000   -4,571384192e-01   -1,144764051e-01    2,197472155e-01   -3,368326724e-01    0,000000000e+00    0,000000000e+00    0,000000000e+00    0,000000000e+00
     1024000000   -4,168953598e-01    1,402797997e-01   -3,127449006e-02   -3,841024637e-01    0,000000000e+00    0,000000000e+00    0,000000000e+00    0,000000000e+00
     1038000000   -2,257187068e-01    2,921975851e-01   -2,419163287e-01   -2,578966916e-01    0,000000000e+00    0,000000000e+00    0,000000000e+00    0,000000000e+00
     1052000000   -1,640036516e-02    2,828619778e-01   -3,100146651e-01   -4,641831666e-02    0,000000000e+00    0,000000000e+00    0,000000000e+00    0,000000000e+00
     1066000000    1,292489022e-01    1,690273732e-01   -2,519308031e-01    1,382563561e-01    0,000000000e+00    0,000000000e+00    0,000000000e+00    0,000000000e+00
     1080000000    1,957316548e-01    9,660361335e-03   -1,161848158e-01    2,533552349e-01    0,000000000e+00    0,000000000e+00    0,000000000e+00    0,000000000e+00
     1094000000    1,601718962e-01   -1,606951952e-01    5,905784294e-02    2,911064625e-01    0,000000000e+00    0,000000000e+00    0,000000000e+00    0,000000000e+00
     1108000000    2,087522112e-02   -2,980949879e-01    2,589555979e-01    2,357588112e-01    0,000000000e+00    0,000000000e+00    0,000000000e+00    0,000000000e+00
     1122000000   -2,181107700e-01   -2,845607996e-01    4,405507743e-01    2,465307526e-02    0,000000000e+00    0,000000000e+00    0,000000000e+00    0,000000000e+00
     1136000000   -3,251961470e-01   -3,577315807e-02    4,019891322e-01   -3,455252945e-01    0,000000000e+00    0,000000000e+00    0,000000000e+00    0,000000000e+00
     1150000000   -1,110537574e-01    1,382396668e-01    4,992546514e-02   -5,305093527e-01    0,000000000e+00    0,000000000e+00    0,000000000e+00    0,000000000e+00
     1164000000    8,758819103e-02   -1,969089545e-02   -2,507911623e-01   -4,050091803e-01    0,000000000e+00    0,000000000e+00    0,000000000e+00    0,000000000e+00
     1178000000    2,899505198e-02   -2,508315146e-01   -3,683800995e-01   -1,812557131e-01    0,000000000e+00    0,000000000e+00    0,000000000e+00    0,000000000e+00
     1192000000   -2,229225039e-01   -3,489151597e-01   -3,432752192e-01    4,127158225e-02    0,000000000e+00    0,000000000e+00    0,000000000e+00    0,000000000e+00
     1206000000   -4,771412611e-01   -1,840962470e-01   -1,897472143e-01    1,816868782e-01    0,000000000e+00    0,000000000e+00    0,000000000e+00    0,000000000e+00
     1220000000   -5,079453588e-01    1,400961876e-01   -8,588678204e-03    1,779130697e-01    0,000000000e+00    0,000000000e+00    0,000000000e+00    0,000000000e+00
     1234000000   -2,943401337e-01    3,473495543e-01    7,663392276e-02    8,274769038e-02    0,000000000e+00    0,000000000e+00    0,000000000e+00    0,000000000e+00
     1248000000   -6,225576624e-02    3,642234504e-01    6,278977543e-02    9,602111531e-04    0,000000000e+00    0,000000000e+00    0,000000000e+00    0,000000000e+00
     1262000000    1,070343852e-01    2,634546757e-01    2,660298161e-02   -2,505182661e-02    0,000000000e+00    0,000000000e+00    0,000000000e+00    0,000000000e+00
     1276000000    2,061359137e-01    1,073815599e-01    8,734344505e-03   -1,357970946e-02    0,000000000e+00    0,000000000e+00    0,000000000e+00    0,000000000e+00
     1290000000    2,173798531e-01   -6,313204020e-02    1,233871933e-02    2,071782574e-02    0,000000000e+00    0,000000000e+00    0,000000000e+00    0,000000000e+00
     1304000000    1,663246006e-01   -2,308324426e-01    5,992807820e-02    5,347026512e-02    0,000000000e+00    0,000000000e+00    0,000000000e+00    0,000000000e+00
     1318000000    2,586843260e-02   -3,633866608e-01    1,669505239e-01    1,762337051e-02    0,000000000e+00    0,000000000e+00    0,000000000e+00    0,000000000e+00
     1332000000   -1,504613906e-01   -3,949256837e-01    1,071321294e-01   -1,758335829e-01    0,000000000e+00    0,000000000e+00    0,000000000e+00    0,000000000e+00
     1346000000   -3,598749936e-01   -3,919973373e-01   -5,831463262e-02   -1,920587383e-02    0,000000000e+00    0,000000000e+00    0,000000000e+00    0,000000000e+00
     1360000000   -5,881427526e-01   -1,984570920e-01    5,797784403e-02    9,215080738e-02    0,000000000e+00    0,000000000e+00    0,000000000e+00    0,000000000e+00
     1374000000   -6,303760409e-01    1,079810336e-01    1,705929190e-01    5,078407377e-02    0,000000000e+00    0,000000000e+00    0,000000000e+00    0,000000000e+00
     1388000000   -4,820422828e-01    3,498529494e-01    2,073949575e-01   -3,042132780e-02    0,000000000e+00    0,000000000e+00    0,000000000e+00    0,000000000e+00
     1402000000   -2,418338805e-01    4,525627792e-01    2,105860263e-01   -6,795811653e-02    0,000000000e+00    0,000000000e+00    0,000000000e+00    0,000000000e+00
     1416000000   -3,806240112e-02    4,086896777e-01    2,007685155e-01   -1,069643348e-01    0,000000000e+00    0,000000000e+00    0,000000000e+00    0,000000000e+00
     1430000000    1,073812768e-01    3,050626516e-01    1,930617690e-01   -8,954741806e-02    0,000000000e+00    0,000000000e+00    0,000000000e+00    0,000000000e+00
     1444000000    2,021386623e-01    1,566175222e-01    1,695702374e-01   -1,148251593e-01    0,000000000e+00    0,000000000e+00    0,000000000e+00    0,000000000e+00
     1458000000    2,347220480e-01   -9,350110777e-03    1,446875632e-01   -8,786157519e-02    0,000000000e+00    0,000000000e+00    0,000000000e+00    0,000000000e+00
     1472000000    1,863810867e-01   -1,964638978e-01    1,373572946e-01   -4,631557688e-02    0,000000000e+00    0,000000000e+00    0,000000000e+00    0,000000000e+00
     1486000000    7,106558979e-02   -3,653609455e-01    1,685744971e-01    1,032674219e-02    0,000000000e+00    0,000000000e+00    0,000000000e+00    0,000000000e+00
     1500000000   -1,561037153e-01   -4,760668576e-01    2,277022451e-01    9,883009642e-02    0,000000000e+00    0,000000000e+00    0,000000000e+00    0,000000000e+00
