! NanoVNA-App
! Date: 2025-09-25 15:39:11
! Start: 100MHz Stop: 1,5GHz Points: 101
! S-Parameter data: F S11 S21 S12 S22
# Hz S RI R 50
!     Frequency           S11_Real           S11_Imag           S21_Real           S21_Imag           S12_Real           S12_Imag           S22_Real           S22_Imag
      100000000   -2,863320708e-02   -4,237554967e-03    3,738052547e-01   -7,214923501e-01    0,000000000e+00    0,000000000e+00    0,000000000e+00    0,000000000e+00
      114000000   -1,642491855e-02    1,149397157e-02   -8,934480697e-02   -8,050185442e-01    0,000000000e+00    0,000000000e+00    0,000000000e+00    0,000000000e+00
      128000000    3,437398234e-03    1,068830024e-02   -5,144339204e-01   -6,200590730e-01    0,000000000e+00    0,000000000e+00    0,000000000e+00    0,000000000e+00
      142000000    1,472206600e-02   -2,625399968e-03   -7,668088675e-01   -2,363766581e-01    0,000000000e+00    0,000000000e+00    0,000000000e+00    0,000000000e+00
      156000000    1,487170812e-02   -1,465512905e-02   -7,642932534e-01    2,181390375e-01    0,000000000e+00    0,000000000e+00    0,000000000e+00    0,000000000e+00
      170000000    1,726206951e-02   -2,249938436e-02   -5,176487565e-01    6,042639017e-01    0,000000000e+00    0,000000000e+00    0,000000000e+00    0,000000000e+00
      184000000    2,141264267e-02   -3,723911569e-02   -1,012054458e-01    7,858029604e-01    0,000000000e+00    0,000000000e+00    0,000000000e+00    0,000000000e+00
      198000000    1,334256586e-02   -6,260247529e-02    3,428203464e-01    7,121187449e-01    0,000000000e+00    0,000000000e+00    0,000000000e+00    0,000000000e+00
      212000000   -1,836298592e-02   -8,134711534e-02    6,776757836e-01    4,096564353e-01    0,000000000e+00    0,000000000e+00    0,000000000e+00    0,000000000e+00
      226000000   -6,119002029e-02   -6,921315193e-02    7,951577306e-01   -3,062842786e-02    0,000000000e+00    0,000000000e+00    0,000000000e+00    0,000000000e+00
      240000000   -8,207326382e-02   -2,581413649e-02    6,457760930e-01   -4,666359127e-01    0,000000000e+00    0,000000000e+00    0,000000000e+00    0,000000000e+00
      254000000   -6,321021169e-02    1,689663902e-02    2,760493159e-01   -7,429026961e-01    0,000000000e+00    0,000000000e+00    0,000000000e+00    0,000000000e+00
      268000000   -2,387806401e-02    2,871882543e-02   -1,780219227e-01   -7,637369037e-01    0,000000000e+00    0,000000000e+00    0,000000000e+00    0,000000000e+00
      282000000    4,075805191e-03    1,203246694e-02   -5,613605976e-01   -5,352242589e-01    0,000000000e+00    0,000000000e+00    0,000000000e+00    0,000000000e+00
      296000000    1,003091037e-02   -7,509075571e-03   -7,594939470e-01   -1,396124661e-01    0,000000000e+00    0,000000000e+00    0,000000000e+00    0,000000000e+00
      310000000    1,172026899e-02   -1,608926803e-02   -7,125077248e-01    2,983422577e-01    0,000000000e+00    0,000000000e+00    0,000000000e+00    0,000000000e+00
      324000000    2,004305087e-02   -2,675006352e-02   -4,280426204e-01    6,371383667e-01    0,000000000e+00    0,000000000e+00    0,000000000e+00    0,000000000e+00
      338000000    2,578121237e-02   -5,259203911e-02   -7,830562070e-03    7,625720501e-01    0,000000000e+00    0,000000000e+00    0,000000000e+00    0,000000000e+00
      352000000    7,386324927e-03   -8,503975719e-02    4,054086208e-01    6,382398009e-01    0,000000000e+00    0,000000000e+00    0,000000000e+00    0,000000000e+00
      366000000   -3,445027396e-02   -9,561534971e-02    6,898730397e-01    3,105115592e-01    0,000000000e+00    0,000000000e+00    0,000000000e+00    0,000000000e+00
      380000000   -7,049544901e-02   -7,100564241e-02    7,464433908e-01   -1,259935945e-01    0,000000000e+00    0,000000000e+00    0,000000000e+00    0,000000000e+00
      394000000   -7,205332816e-02   -3,264840692e-02    5,452976823e-01   -5,218189359e-01    0,000000000e+00    0,000000000e+00    0,000000000e+00    0,000000000e+00
      408000000   -4,619853571e-02   -1,645154320e-02    1,613691300e-01   -7,319952846e-01    0,000000000e+00    0,000000000e+00    0,000000000e+00    0,000000000e+00
      422000000   -2,829913050e-02   -3,255951777e-02   -2,673193216e-01   -6,954878569e-01    0,000000000e+00    0,000000000e+00    0,000000000e+00    0,000000000e+00
      436000000   -4,061701894e-02   -5,161213875e-02   -6,040169001e-01   -4,317776263e-01    0,000000000e+00    0,000000000e+00    0,000000000e+00    0,000000000e+00
      450000000   -6,676457822e-02   -4,381154850e-02   -7,396824360e-01   -2,177557908e-02    0,000000000e+00    0,000000000e+00    0,000000000e+00    0,000000000e+00
      464000000   -7,286281139e-02   -1,156864502e-02   -6,181573868e-01    3,969507515e-01    0,000000000e+00    0,000000000e+00    0,000000000e+00    0,000000000e+00
      478000000   -4,773459584e-02    1,131220162e-02   -2,831943631e-01    6,661543846e-01    0,000000000e+00    0,000000000e+00    0,000000000e+00    0,000000000e+00
      492000000   -1,598352008e-02    5,221491680e-03    1,373106390e-01    7,003575563e-01    0,000000000e+00    0,000000000e+00    0,000000000e+00    0,000000000e+00
      506000000   -2,763580997e-03   -1,554431021e-02    4,977962375e-01    5,025420785e-01    0,000000000e+00    0,000000000e+00    0,000000000e+00    0,000000000e+00
      520000000   -5,083336495e-03   -3,134260327e-02    6,876516938e-01    1,412903666e-01    0,000000000e+00    0,000000000e+00    0,000000000e+00    0,000000000e+00
      534000000   -3,299558768e-03   -3,814033791e-02    6,434074640e-01   -2,620000243e-01    0,000000000e+00    0,000000000e+00    0,000000000e+00    0,000000000e+00
      548000000    6,123054307e-03   -5,443420634e-02    3,811450005e-01   -5,672085285e-01    0,000000000e+00    0,000000000e+00    0,000000000e+00    0,000000000e+00
      562000000    3,519645892e-03   -8,923316002e-02    3,311322071e-03   -6,715046167e-01    0,000000000e+00    0,000000000e+00    0,000000000e+00    0,000000000e+00
      576000000   -3,394645825e-02   -1,238138378e-01   -3,683305085e-01   -5,564873815e-01    0,000000000e+00    0,000000000e+00    0,000000000e+00    0,000000000e+00
      590000000   -9,582276642e-02   -1,228264198e-01   -6,198109388e-01   -2,619319856e-01    0,000000000e+00    0,000000000e+00    0,000000000e+00    0,000000000e+00
      604000000   -1,391562521e-01   -7,217168063e-02   -6,642475724e-01    1,371354461e-01    0,000000000e+00    0,000000000e+00    0,000000000e+00    0,000000000e+00
      618000000   -1,285405159e-01   -1,010313910e-02   -4,641009867e-01    4,924111068e-01    0,000000000e+00    0,000000000e+00    0,000000000e+00    0,000000000e+00
      632000000   -8,412496001e-02    1,601256989e-02   -9,832359850e-02    6,616815925e-01    0,000000000e+00    0,000000000e+00    0,000000000e+00    0,000000000e+00
      646000000   -5,182335153e-02   -2,306747483e-04    2,859329283e-01    5,941443443e-01    0,000000000e+00    0,000000000e+00    0,000000000e+00    0,000000000e+00
      660000000   -5,332435668e-02   -2,099361457e-02    5,649569631e-01    3,233298957e-01    0,000000000e+00    0,000000000e+00    0,000000000e+00    0,000000000e+00
      674000000   -6,943421811e-02   -1,624928601e-02    6,403267384e-01   -6,311381608e-02    0,000000000e+00    0,000000000e+00    0,000000000e+00    0,000000000e+00
      688000000   -6,653524935e-02    8,694912307e-03    4,699016511e-01   -4,239702821e-01    0,000000000e+00    0,000000000e+00    0,000000000e+00    0,000000000e+00
      702000000   -3,564046323e-02    2,629669011e-02    1,207887530e-01   -6,082816720e-01    0,000000000e+00    0,000000000e+00    0,000000000e+00    0,000000000e+00
      716000000    3,448635805e-03    1,537173428e-02   -2,590011954e-01   -5,449032784e-01    0,000000000e+00    0,000000000e+00    0,000000000e+00    0,000000000e+00
      730000000    3,638470545e-02   -1,343464945e-02   -5,220445395e-01   -2,712821066e-01    0,000000000e+00    0,000000000e+00    0,000000000e+00    0,000000000e+00
      744000000    6,298548728e-02   -6,484813243e-02   -5,602359772e-01    9,924437851e-02    0,000000000e+00    0,000000000e+00    0,000000000e+00    0,000000000e+00
      758000000    6,145818159e-02   -1,517614275e-01   -3,658261597e-01    3,998476267e-01    0,000000000e+00    0,000000000e+00    0,000000000e+00    0,000000000e+00
      772000000   -1,744407602e-02   -2,558274269e-01   -4,526754469e-02    5,088349581e-01    0,000000000e+00    0,000000000e+00    0,000000000e+00    0,000000000e+00
      786000000   -2,019698322e-01   -2,913544774e-01    2,590508759e-01    3,986727595e-01    0,000000000e+00    0,000000000e+00    0,000000000e+00    0,000000000e+00
      800000000   -4,086796641e-01   -1,269921511e-01    4,068059027e-01    1,183821857e-01    0,000000000e+00    0,000000000e+00    0,000000000e+00    0,000000000e+00
      814000000   -3,759192526e-01    2,035515308e-01    2,955574393e-01   -1,511369050e-01    0,000000000e+00    0,000000000e+00    0,000000000e+00    0,000000000e+00
      828000000   -6,214898452e-02    3,470136821e-01    8,203927428e-02   -1,902192235e-01    0,000000000e+00    0,000000000e+00    0,000000000e+00    0,000000000e+00
      842000000    2,123031765e-01    1,847048402e-01   -3,051843261e-03   -9,214103222e-02    0,000000000e+00    0,000000000e+00    0,000000000e+00    0,000000000e+00
      856000000    2,657483220e-01   -1,064546555e-01    3,706132248e-02   -3,741324693e-02    0,000000000e+00    0,000000000e+00    0,000000000e+00    0,000000000e+00
      870000000    8,145699650e-02   -3,516973555e-01    8,917525411e-02   -9,851381928e-02    0,000000000e+00    0,000000000e+00    0,000000000e+00    0,000000000e+00
      884000000   -2,674339712e-01   -3,548338115e-01    1,108043734e-02   -2,278744131e-01    0,000000000e+00    0,000000000e+00    0,000000000e+00    0,000000000e+00
      898000000   -4,568355978e-01   -1,341839228e-02   -2,154479474e-01   -2,099316567e-01    0,000000000e+00    0,000000000e+00    0,000000000e+00    0,000000000e+00
      912000000   -2,348109186e-01    2,793113589e-01   -3,250721395e-01    6,985274702e-02    0,000000000e+00    0,000000000e+00    0,000000000e+00    0,000000000e+00
      926000000    5,577378348e-02    2,635109723e-01   -2,099507302e-01    2,628504634e-01    0,000000000e+00    0,000000000e+00    0,000000000e+00    0,000000000e+00
      940000000    2,072877288e-01    8,536163718e-02   -3,182772547e-02    3,254109025e-01    0,000000000e+00    0,000000000e+00    0,000000000e+00    0,000000000e+00
      954000000    2,187348306e-01   -1,219114214e-01    1,308676749e-01    2,993468046e-01    0,000000000e+00    0,000000000e+00    0,000000000e+00    0,000000000e+00
      968000000    1,184885129e-01   -2,955426872e-01    2,690580487e-01    2,122140527e-01    0,000000000e+00    0,000000000e+00    0,000000000e+00    0,000000000e+00
      982000000   -8,042091876e-02   -3,824708164e-01    3,626610935e-01    6,265076995e-02    0,000000000e+00    0,000000000e+00    0,000000000e+00    0,000000000e+00
      996000000   -3,086793423e-01   -3,315508664e-01    3,626055121e-01   -1,437975317e-01    0,000000000e+00    0,000000000e+00    0,000000000e+00    0,000000000e+00
     1010000000   -4,567840993e-01   -1,147384420e-01    2,190379649e-01   -3,364559710e-01    0,000000000e+00    0,000000000e+00    0,000000000e+00    0,000000000e+00
     1024000000   -4,165558517e-01    1,407745630e-01   -3,407406062e-02   -3,848441243e-01    0,000000000e+00    0,000000000e+00    0,000000000e+00    0,000000000e+00
     1038000000   -2,257459909e-01    2,910955548e-01   -2,402042300e-01   -2,571884096e-01    0,000000000e+00    0,000000000e+00    0,000000000e+00    0,000000000e+00
     1052000000   -1,238187496e-02    2,784137726e-01   -3,123665750e-01   -4,629926011e-02    0,000000000e+00    0,000000000e+00    0,000000000e+00    0,000000000e+00
     1066000000    1,345231086e-01    1,710567623e-01   -2,504242063e-01    1,394456923e-01    0,000000000e+00    0,000000000e+00    0,000000000e+00    0,000000000e+00
     1080000000    1,924830675e-01    9,608360939e-03   -1,152829602e-01    2,533033490e-01    0,000000000e+00    0,000000000e+00    0,000000000e+00    0,000000000e+00
     1094000000    1,607835591e-01   -1,651402116e-01    6,109970063e-02    2,914304435e-01    0,000000000e+00    0,000000000e+00    0,000000000e+00    0,000000000e+00
     1108000000    1,592408866e-02   -2,950696945e-01    2,607466877e-01    2,356662899e-01    0,000000000e+00    0,000000000e+00    0,000000000e+00    0,000000000e+00
     1122000000   -2,101896852e-01   -2,808026671e-01    4,406913221e-01    2,348564006e-02    0,000000000e+00    0,000000000e+00    0,000000000e+00    0,000000000e+00
     1136000000   -3,211619854e-01   -3,220918030e-02    3,963038623e-01   -3,475022614e-01    0,000000000e+00    0,000000000e+00    0,000000000e+00    0,000000000e+00
     1150000000   -1,074148715e-01    1,355952024e-01    4,544680566e-02   -5,286533237e-01    0,000000000e+00    0,000000000e+00    0,000000000e+00    0,000000000e+00
     1164000000    8,703862131e-02   -1,937200874e-02   -2,498910129e-01   -4,012635946e-01    0,000000000e+00    0,000000000e+00    0,000000000e+00    0,000000000e+00
     1178000000    2,560384199e-02   -2,509127259e-01   -3,726226985e-01   -1,746740639e-01    0,000000000e+00    0,000000000e+00    0,000000000e+00    0,000000000e+00
     1192000000   -2,245878726e-01   -3,466665447e-01   -3,425946236e-01    4,328947887e-02    0,000000000e+00    0,000000000e+00    0,000000000e+00    0,000000000e+00
     1206000000   -4,830877781e-01   -1,795262694e-01   -1,919560581e-01    1,810617149e-01    0,000000000e+00    0,000000000e+00    0,000000000e+00    0,000000000e+00
     1220000000   -5,043860078e-01    1,357068270e-01   -1,091786567e-02    1,765092760e-01    0,000000000e+00    0,000000000e+00    0,000000000e+00    0,000000000e+00
     1234000000   -2,993128896e-01    3,435180783e-01    7,271333784e-02    8,140324056e-02    0,000000000e+00    0,000000000e+00    0,000000000e+00    0,000000000e+00
     1248000000   -6,651036441e-02    3,615449667e-01    6,842004508e-02   -4,962470382e-03    0,000000000e+00    0,000000000e+00    0,000000000e+00    0,000000000e+00
     1262000000    1,139956787e-01    2,592134476e-01    3,511658683e-02   -2,555754967e-02    0,000000000e+00    0,000000000e+00    0,000000000e+00    0,000000000e+00
     1276000000    2,027904093e-01    1,073151827e-01    1,044145040e-02   -7,624612190e-03    0,000000000e+00    0,000000000e+00    0,000000000e+00    0,000000000e+00
     1290000000    2,192166895e-01   -5,870459229e-02    1,047439501e-02    2,778878063e-02    0,000000000e+00    0,000000000e+00    0,000000000e+00    0,000000000e+00
     1304000000    1,659173220e-01   -2,324093431e-01    6,035919115e-02    5,492502451e-02    0,000000000e+00    0,000000000e+00    0,000000000e+00    0,000000000e+00
     1318000000    2,353931963e-02   -3,656753302e-01    1,677543819e-01    1,811907440e-02    0,000000000e+00    0,000000000e+00    0,000000000e+00    0,000000000e+00
     1332000000   -1,540007293e-01   -3,956592381e-01    1,014187112e-01   -1,898709238e-01    0,000000000e+00    0,000000000e+00    0,000000000e+00    0,000000000e+00
     1346000000   -3,663225472e-01   -3,943424821e-01   -5,902386084e-02   -2,529561892e-02    0,000000000e+00    0,000000000e+00    0,000000000e+00    0,000000000e+00
     1360000000   -5,906910896e-01   -2,098636776e-01    6,031777710e-02    8,055441082e-02    0,000000000e+00    0,000000000e+00    0,000000000e+00    0,000000000e+00
     1374000000   -6,240428686e-01    1,010166407e-01    1,791502088e-01    4,410685971e-02    0,000000000e+00    0,000000000e+00    0,000000000e+00    0,000000000e+00
     1388000000   -4,768407941e-01    3,546860516e-01    2,230816036e-01   -7,960866205e-03    0,000000000e+00    0,000000000e+00    0,000000000e+00    0,000000000e+00
     1402000000   -2,482204884e-01    4,468639493e-01    2,125941962e-01   -7,184668630e-02    0,000000000e+00    0,000000000e+00    0,000000000e+00    0,000000000e+00
     1416000000   -4,082595557e-02    4,107457101e-01    1,874802858e-01   -1,074170470e-01    0,000000000e+00    0,000000000e+00    0,000000000e+00    0,000000000e+00
     1430000000    1,133865789e-01    3,132119477e-01    2,003402710e-01   -9,837105125e-02    0,000000000e+00    0,000000000e+00    0,000000000e+00    0,000000000e+00
     1444000000    1,994953901e-01    1,584766209e-01    1,685214788e-01   -1,155917570e-01    0,000000000e+00    0,000000000e+00    0,000000000e+00    0,000000000e+00
     1458000000    2,313568592e-01   -1,156397723e-02    1,563261747e-01   -8,740016073e-02    0,000000000e+00    0,000000000e+00    0,000000000e+00    0,000000000e+00
     1472000000    1,906100661e-01   -1,925877333e-01    1,427060068e-01   -3,772837296e-02    0,000000000e+00    0,000000000e+00    0,000000000e+00    0,000000000e+00
     1486000000    6,176004559e-02   -3,621765673e-01    1,562042385e-01    2,137216181e-02    0,000000000e+00    0,000000000e+00    0,000000000e+00    0,000000000e+00
     1500000000   -1,605715752e-01   -4,805499017e-01    2,317326069e-01    1,010130197e-01    0,000000000e+00    0,000000000e+00    0,000000000e+00    0,000000000e+00
