! NanoVNA-App
! Date: 2025-09-25 15:44:20
! Start: 100MHz Stop: 1,5GHz Points: 101
! S-Parameter data: F S11 S21 S12 S22
# Hz S RI R 50
!     Frequency           S11_Real           S11_Imag           S21_Real           S21_Imag           S12_Real           S12_Imag           S22_Real           S22_Imag
      100000000   -2,877031639e-02   -4,245812539e-03    3,739618957e-01   -7,215679884e-01    0,000000000e+00    0,000000000e+00    0,000000000e+00    0,000000000e+00
      114000000   -1,655645110e-02    1,147489063e-02   -8,911877871e-02   -8,051689267e-01    0,000000000e+00    0,000000000e+00    0,000000000e+00    0,000000000e+00
      128000000    3,437370993e-03    1,070780680e-02   -5,145195127e-01   -6,202571988e-01    0,000000000e+00    0,000000000e+00    0,000000000e+00    0,000000000e+00
      142000000    1,463168114e-02   -2,647865796e-03   -7,667323947e-01   -2,364802957e-01    0,000000000e+00    0,000000000e+00    0,000000000e+00    0,000000000e+00
      156000000    1,501588803e-02   -1,476596110e-02   -7,666559219e-01    2,184001952e-01    0,000000000e+00    0,000000000e+00    0,000000000e+00    0,000000000e+00
      170000000    1,706266031e-02   -2,251095884e-02   -5,178256035e-01    6,044724584e-01    0,000000000e+00    0,000000000e+00    0,000000000e+00    0,000000000e+00
      184000000    2,131450735e-02   -3,714570031e-02   -1,014001444e-01    7,858998775e-01    0,000000000e+00    0,000000000e+00    0,000000000e+00    0,000000000e+00
      198000000    1,321334112e-02   -6,252938509e-02    3,433009982e-01    7,119147182e-01    0,000000000e+00    0,000000000e+00    0,000000000e+00    0,000000000e+00
      212000000   -1,847782731e-02   -8,126073331e-02    6,781502962e-01    4,099707603e-01    0,000000000e+00    0,000000000e+00    0,000000000e+00    0,000000000e+00
      226000000   -6,139893457e-02   -6,919582188e-02    7,954049110e-01   -3,048229218e-02    0,000000000e+00    0,000000000e+00    0,000000000e+00    0,000000000e+00
      240000000   -8,227320760e-02   -2,580026723e-02    6,458947062e-01   -4,667108059e-01    0,000000000e+00    0,000000000e+00    0,000000000e+00    0,000000000e+00
      254000000   -6,342477351e-02    1,692687534e-02    2,763091028e-01   -7,426940203e-01    0,000000000e+00    0,000000000e+00    0,000000000e+00    0,000000000e+00
      268000000   -2,395098656e-02    2,881470695e-02   -1,778978407e-01   -7,643471956e-01    0,000000000e+00    0,000000000e+00    0,000000000e+00    0,000000000e+00
      282000000    4,048322793e-03    1,211483683e-02   -5,613722205e-01   -5,357809663e-01    0,000000000e+00    0,000000000e+00    0,000000000e+00    0,000000000e+00
      296000000    9,955533780e-03   -7,601979189e-03   -7,592098117e-01   -1,394790560e-01    0,000000000e+00    0,000000000e+00    0,000000000e+00    0,000000000e+00
      310000000    1,164385397e-02   -1,603581756e-02   -7,116244435e-01    2,989985943e-01    0,000000000e+00    0,000000000e+00    0,000000000e+00    0,000000000e+00
      324000000    2,004669607e-02   -2,645497024e-02   -4,270958006e-01    6,374866962e-01    0,000000000e+00    0,000000000e+00    0,000000000e+00    0,000000000e+00
      338000000    2,572134882e-02   -5,226491764e-02   -7,221195847e-03    7,595784068e-01    0,000000000e+00    0,000000000e+00    0,000000000e+00    0,000000000e+00
      352000000    7,749157492e-03   -8,449579775e-02    4,058839381e-01    6,405012012e-01    0,000000000e+00    0,000000000e+00    0,000000000e+00    0,000000000e+00
      366000000   -3,454005346e-02   -9,532224387e-02    6,906544566e-01    3,112529516e-01    0,000000000e+00    0,000000000e+00    0,000000000e+00    0,000000000e+00
      380000000   -7,027287781e-02   -7,101956755e-02    7,471336722e-01   -1,261271983e-01    0,000000000e+00    0,000000000e+00    0,000000000e+00    0,000000000e+00
      394000000   -7,197847962e-02   -3,253744170e-02    5,459318161e-01   -5,203427672e-01    0,000000000e+00    0,000000000e+00    0,000000000e+00    0,000000000e+00
      408000000   -4,612161219e-02   -1,627040654e-02    1,607901454e-01   -7,324917912e-01    0,000000000e+00    0,000000000e+00    0,000000000e+00    0,000000000e+00
      422000000   -2,831466496e-02   -3,201168031e-02   -2,666588426e-01   -6,938370466e-01    0,000000000e+00    0,000000000e+00    0,000000000e+00    0,000000000e+00
      436000000   -4,059199244e-02   -5,165809765e-02   -6,032425165e-01   -4,320342541e-01    0,000000000e+00    0,000000000e+00    0,000000000e+00    0,000000000e+00
      450000000   -6,694598496e-02   -4,385560006e-02   -7,400150895e-01   -2,197357640e-02    0,000000000e+00    0,000000000e+00    0,000000000e+00    0,000000000e+00
      464000000   -7,311300188e-02   -1,191729121e-02   -6,183299422e-01    3,970072269e-01    0,000000000e+00    0,000000000e+00    0,000000000e+00    0,000000000e+00
      478000000   -4,778274149e-02    1,122016832e-02   -2,825058997e-01    6,672492623e-01    0,000000000e+00    0,000000000e+00    0,000000000e+00    0,000000000e+00
      492000000   -1,573167555e-02    5,885345396e-03    1,376900226e-01    7,016385794e-01    0,000000000e+00    0,000000000e+00    0,000000000e+00    0,000000000e+00
      506000000   -2,906820970e-03   -1,565613411e-02    4,973548651e-01    5,026046634e-01    0,000000000e+00    0,000000000e+00    0,000000000e+00    0,000000000e+00
      520000000   -5,177390762e-03   -3,145988286e-02    6,880621314e-01    1,416563243e-01    0,000000000e+00    0,000000000e+00    0,000000000e+00    0,000000000e+00
      534000000   -3,481566673e-03   -3,792630509e-02    6,431949139e-01   -2,615368664e-01    0,000000000e+00    0,000000000e+00    0,000000000e+00    0,000000000e+00
      548000000    6,476321723e-03   -5,409097672e-02    3,818254173e-01   -5,664510131e-01    0,000000000e+00    0,000000000e+00    0,000000000e+00    0,000000000e+00
      562000000    3,342337906e-03   -8,932404965e-02    2,555617830e-03   -6,716124415e-01    0,000000000e+00    0,000000000e+00    0,000000000e+00    0,000000000e+00
      576000000   -3,341079503e-02   -1,244664192e-01   -3,675756454e-01   -5,573031306e-01    0,000000000e+00    0,000000000e+00    0,000000000e+00    0,000000000e+00
      590000000   -9,572366625e-02   -1,226294041e-01   -6,205354333e-01   -2,654279470e-01    0,000000000e+00    0,000000000e+00    0,000000000e+00    0,000000000e+00
      604000000   -1,388371885e-01   -7,200192660e-02   -6,640925407e-01    1,371018291e-01    0,000000000e+00    0,000000000e+00    0,000000000e+00    0,000000000e+00
      618000000   -1,288085729e-01   -1,009458490e-02   -4,646204710e-01    4,923393428e-01    0,000000000e+00    0,000000000e+00    0,000000000e+00    0,000000000e+00
      632000000   -8,501157165e-02    1,593951881e-02   -1,005407497e-01    6,622036695e-01    0,000000000e+00    0,000000000e+00    0,000000000e+00    0,000000000e+00
      646000000   -5,197435617e-02    2,908862079e-04    2,855574787e-01    5,944421291e-01    0,000000000e+00    0,000000000e+00    0,000000000e+00    0,000000000e+00
      660000000   -5,397810042e-02   -2,020318061e-02    5,648016334e-01    3,236635625e-01    0,000000000e+00    0,000000000e+00    0,000000000e+00    0,000000000e+00
      674000000   -6,897139549e-02   -1,651899889e-02    6,408268809e-01   -6,260701269e-02    0,000000000e+00    0,000000000e+00    0,000000000e+00    0,000000000e+00
      688000000   -6,740749627e-02    9,034914896e-03    4,709047079e-01   -4,245130718e-01    0,000000000e+00    0,000000000e+00    0,000000000e+00    0,000000000e+00
      702000000   -3,586175293e-02    2,645197324e-02    1,247208565e-01   -6,025024056e-01    0,000000000e+00    0,000000000e+00    0,000000000e+00    0,000000000e+00
      716000000    2,864446957e-03    1,657440141e-02   -2,589112520e-01   -5,460515022e-01    0,000000000e+00    0,000000000e+00    0,000000000e+00    0,000000000e+00
      730000000    3,586950153e-02   -1,369375456e-02   -5,220267773e-01   -2,714981437e-01    0,000000000e+00    0,000000000e+00    0,000000000e+00    0,000000000e+00
      744000000    6,206069514e-02   -6,551146507e-02   -5,604234338e-01    9,845778346e-02    0,000000000e+00    0,000000000e+00    0,000000000e+00    0,000000000e+00
      758000000    6,117134169e-02   -1,509606838e-01   -3,670088053e-01    4,001939893e-01    0,000000000e+00    0,000000000e+00    0,000000000e+00    0,000000000e+00
      772000000   -1,678238809e-02   -2,559206784e-01   -4,617213085e-02    5,103204846e-01    0,000000000e+00    0,000000000e+00    0,000000000e+00    0,000000000e+00
      786000000   -2,029984891e-01   -2,910581231e-01    2,597428262e-01    3,989774287e-01    0,000000000e+00    0,000000000e+00    0,000000000e+00    0,000000000e+00
      800000000   -4,070969224e-01   -1,268144697e-01    4,073839486e-01    1,191193834e-01    0,000000000e+00    0,000000000e+00    0,000000000e+00    0,000000000e+00
      814000000   -3,762867153e-01    2,005673647e-01    2,965740263e-01   -1,508763731e-01    0,000000000e+00    0,000000000e+00    0,000000000e+00    0,000000000e+00
      828000000   -6,240931526e-02    3,473410606e-01    8,259056509e-02   -1,909010708e-01    0,000000000e+00    0,000000000e+00    0,000000000e+00    0,000000000e+00
      842000000    2,118253708e-01    1,861656457e-01   -3,581647994e-03   -9,320315719e-02    0,000000000e+00    0,000000000e+00    0,000000000e+00    0,000000000e+00
      856000000    2,661512196e-01   -1,048789620e-01    3,539083153e-02   -3,706707433e-02    0,000000000e+00    0,000000000e+00    0,000000000e+00    0,000000000e+00
      870000000    8,277918398e-02   -3,515992463e-01    8,792035282e-02   -9,679304808e-02    0,000000000e+00    0,000000000e+00    0,000000000e+00    0,000000000e+00
      884000000   -2,675403059e-01   -3,566045761e-01    1,103342604e-02   -2,266402096e-01    0,000000000e+00    0,000000000e+00    0,000000000e+00    0,000000000e+00
      898000000   -4,581126273e-01   -1,341330446e-02   -2,154297531e-01   -2,093826979e-01    0,000000000e+00    0,000000000e+00    0,000000000e+00    0,000000000e+00
      912000000   -2,351529300e-01    2,787246108e-01   -3,432647884e-01    6,696320325e-02    0,000000000e+00    0,000000000e+00    0,000000000e+00    0,000000000e+00
      926000000    5,449460819e-02    2,604944706e-01   -2,110783011e-01    2,607582211e-01    0,000000000e+00    0,000000000e+00    0,000000000e+00    0,000000000e+00
      940000000    2,071596831e-01    8,623478562e-02   -3,159288689e-02    3,259555697e-01    0,000000000e+00    0,000000000e+00    0,000000000e+00    0,000000000e+00
      954000000    2,176466137e-01   -1,210633218e-01    1,302812099e-01    3,000982404e-01    0,000000000e+00    0,000000000e+00    0,000000000e+00    0,000000000e+00
      968000000    1,169482544e-01   -2,971523404e-01    2,691951096e-01    2,147817016e-01    0,000000000e+00    0,000000000e+00    0,000000000e+00    0,000000000e+00
      982000000   -7,800028473e-02   -3,823628128e-01    3,604878783e-01    6,320931762e-02    0,000000000e+00    0,000000000e+00    0,000000000e+00    0,000000000e+00
      996000000   -3,116010427e-01   -3,277075291e-01    3,620636761e-01   -1,437573582e-01    0,000000000e+00    0,000000000e+00    0,000000000e+00    0,000000000e+00
     1010000000   -4,644978642e-01   -1,168765873e-01    2,209133357e-01   -3,358505666e-01    0,000000000e+00    0,000000000e+00    0,000000000e+00    0,000000000e+00
     1024000000   -4,149876833e-01    1,471819133e-01   -2,958458290e-02   -3,855199516e-01    0,000000000e+00    0,000000000e+00    0,000000000e+00    0,000000000e+00
     1038000000   -2,233010232e-01    2,854151428e-01   -2,419616133e-01   -2,569498122e-01    0,000000000e+00    0,000000000e+00    0,000000000e+00    0,000000000e+00
     1052000000   -1,734895632e-02    2,806158066e-01   -3,102054894e-01   -4,785155132e-02    0,000000000e+00    0,000000000e+00    0,000000000e+00    0,000000000e+00
     1066000000    1,325340420e-01    1,679254174e-01   -2,545979619e-01    1,407940835e-01    0,000000000e+00    0,000000000e+00    0,000000000e+00    0,000000000e+00
     1080000000    1,925205588e-01    9,720078669e-03   -1,167436093e-01    2,541005909e-01    0,000000000e+00    0,000000000e+00    0,000000000e+00    0,000000000e+00
     1094000000    1,634802818e-01   -1,632023454e-01    5,902457982e-02    2,914766669e-01    0,000000000e+00    0,000000000e+00    0,000000000e+00    0,000000000e+00
     1108000000    2,026568912e-02   -2,967567444e-01    2,593646049e-01    2,328261286e-01    0,000000000e+00    0,000000000e+00    0,000000000e+00    0,000000000e+00
     1122000000   -2,115482986e-01   -2,796885967e-01    4,379855692e-01    2,333573438e-02    0,000000000e+00    0,000000000e+00    0,000000000e+00    0,000000000e+00
     1136000000   -3,260460198e-01   -3,456114605e-02    4,022771418e-01   -3,441054225e-01    0,000000000e+00    0,000000000e+00    0,000000000e+00    0,000000000e+00
     1150000000   -1,094547138e-01    1,422258765e-01    4,956112802e-02   -5,308272839e-01    0,000000000e+00    0,000000000e+00    0,000000000e+00    0,000000000e+00
     1164000000    8,715026826e-02   -1,905375533e-02   -2,517468929e-01   -4,060363173e-01    0,000000000e+00    0,000000000e+00    0,000000000e+00    0,000000000e+00
     1178000000    2,703730762e-02   -2,530958056e-01   -3,727073371e-01   -1,808217317e-01    0,000000000e+00    0,000000000e+00    0,000000000e+00    0,000000000e+00
     1192000000   -2,194365859e-01   -3,488430679e-01   -3,371241689e-01    3,872443363e-02    0,000000000e+00    0,000000000e+00    0,000000000e+00    0,000000000e+00
     1206000000   -4,773252904e-01   -1,817132086e-01   -1,913424432e-01    1,845726371e-01    0,000000000e+00    0,000000000e+00    0,000000000e+00    0,000000000e+00
     1220000000   -5,046564937e-01    1,345334649e-01   -1,384533104e-02    1,750304401e-01    0,000000000e+00    0,000000000e+00    0,000000000e+00    0,000000000e+00
     1234000000   -2,991512418e-01    3,363838494e-01    7,676465809e-02    7,839055359e-02    0,000000000e+00    0,000000000e+00    0,000000000e+00    0,000000000e+00
     1248000000   -6,392199546e-02    3,560886681e-01    6,607758999e-02   -6,047700532e-03    0,000000000e+00    0,000000000e+00    0,000000000e+00    0,000000000e+00
     1262000000    1,122014821e-01    2,627745867e-01    3,121676669e-02   -2,553261258e-02    0,000000000e+00    0,000000000e+00    0,000000000e+00    0,000000000e+00
     1276000000    2,038964778e-01    1,074421480e-01    9,169579484e-03   -8,204398677e-03    0,000000000e+00    0,000000000e+00    0,000000000e+00    0,000000000e+00
     1290000000    2,229076326e-01   -6,331507862e-02    1,222439390e-02    2,639498375e-02    0,000000000e+00    0,000000000e+00    0,000000000e+00    0,000000000e+00
     1304000000    1,645781547e-01   -2,359738648e-01    6,341508776e-02    5,248446390e-02    0,000000000e+00    0,000000000e+00    0,000000000e+00    0,000000000e+00
     1318000000    2,704588696e-02   -3,604496419e-01    1,727767587e-01    1,951516047e-02    0,000000000e+00    0,000000000e+00    0,000000000e+00    0,000000000e+00
     1332000000   -1,519181132e-01   -4,026166201e-01    1,015771851e-01   -1,792132854e-01    0,000000000e+00    0,000000000e+00    0,000000000e+00    0,000000000e+00
     1346000000   -3,605991900e-01   -3,971471786e-01   -6,097038463e-02   -2,947448939e-02    0,000000000e+00    0,000000000e+00    0,000000000e+00    0,000000000e+00
     1360000000   -5,920758843e-01   -1,968919486e-01    5,447461084e-02    8,029814065e-02    0,000000000e+00    0,000000000e+00    0,000000000e+00    0,000000000e+00
     1374000000   -6,234301925e-01    1,105478406e-01    1,905567199e-01    5,401332676e-02    0,000000000e+00    0,000000000e+00    0,000000000e+00    0,000000000e+00
     1388000000   -4,777694643e-01    3,552973866e-01    2,108241171e-01   -2,161223255e-02    0,000000000e+00    0,000000000e+00    0,000000000e+00    0,000000000e+00
     1402000000   -2,375103384e-01    4,416576624e-01    2,233404368e-01   -7,608436048e-02    0,000000000e+00    0,000000000e+00    0,000000000e+00    0,000000000e+00
     1416000000   -3,663721681e-02    4,103171527e-01    1,912416667e-01   -1,052180305e-01    0,000000000e+00    0,000000000e+00    0,000000000e+00    0,000000000e+00
     1430000000    1,148605421e-01    2,962381840e-01    1,782703698e-01   -9,717893600e-02    0,000000000e+00    0,000000000e+00    0,000000000e+00    0,000000000e+00
     1444000000    1,995519400e-01    1,592016816e-01    1,718831062e-01   -1,052413061e-01    0,000000000e+00    0,000000000e+00    0,000000000e+00    0,000000000e+00
     1458000000    2,297840118e-01   -1,317642909e-02    1,408356130e-01   -7,342579961e-02    0,000000000e+00    0,000000000e+00    0,000000000e+00    0,000000000e+00
     1472000000    1,856730580e-01   -1,936404556e-01    1,335115135e-01   -4,474198818e-02    0,000000000e+00    0,000000000e+00    0,000000000e+00    0,000000000e+00
     1486000000    7,021253556e-02   -3,735150397e-01    1,651846319e-01    1,312109549e-02    0,000000000e+00    0,000000000e+00    0,000000000e+00    0,000000000e+00
     1500000000   -1,581854373e-01   -4,895685613e-01    2,421920151e-01    8,319543302e-02    0,000000000e+00    0,000000000e+00    0,000000000e+00    0,000000000e+00
