! NanoVNA-App
! Date: 2025-09-25 15:43:15
! Start: 100MHz Stop: 1,5GHz Points: 101
! S-Parameter data: F S11 S21 S12 S22
# Hz S RI R 50
!     Frequency           S11_Real           S11_Imag           S21_Real           S21_Imag           S12_Real           S12_Imag           S22_Real           S22_Imag
      100000000   -2,878699452e-02   -4,256375600e-03    3,739700317e-01   -7,216053009e-01    0,000000000e+00    0,000000000e+00    0,000000000e+00    0,000000000e+00
      114000000   -1,654970460e-02    1,147115976e-02   -8,905735612e-02   -8,054101467e-01    0,000000000e+00    0,000000000e+00    0,000000000e+00    0,000000000e+00
      128000000    3,399206791e-03    1,069274079e-02   -5,143812895e-01   -6,203111410e-01    0,000000000e+00    0,000000000e+00    0,000000000e+00    0,000000000e+00
      142000000    1,461629476e-02   -2,645982429e-03   -7,670648098e-01   -2,364505827e-01    0,000000000e+00    0,000000000e+00    0,000000000e+00    0,000000000e+00
      156000000    1,629708335e-02   -1,413691603e-02   -7,695130706e-01    2,241226137e-01    0,000000000e+00    0,000000000e+00    0,000000000e+00    0,000000000e+00
      170000000    1,706098579e-02   -2,253313176e-02   -5,179429054e-01    6,043465137e-01    0,000000000e+00    0,000000000e+00    0,000000000e+00    0,000000000e+00
      184000000    2,131080255e-02   -3,717621416e-02   -1,014268249e-01    7,857154608e-01    0,000000000e+00    0,000000000e+00    0,000000000e+00    0,000000000e+00
      198000000    1,318704803e-02   -6,251426786e-02    3,430943191e-01    7,122787237e-01    0,000000000e+00    0,000000000e+00    0,000000000e+00    0,000000000e+00
      212000000   -1,848260872e-02   -8,131017536e-02    6,780115366e-01    4,099441171e-01    0,000000000e+00    0,000000000e+00    0,000000000e+00    0,000000000e+00
      226000000   -6,145356968e-02   -6,921159476e-02    7,954736948e-01   -3,051671572e-02    0,000000000e+00    0,000000000e+00    0,000000000e+00    0,000000000e+00
      240000000   -8,229787648e-02   -2,581289038e-02    6,460194588e-01   -4,667002559e-01    0,000000000e+00    0,000000000e+00    0,000000000e+00    0,000000000e+00
      254000000   -6,343869865e-02    1,700290851e-02    2,759662569e-01   -7,427853942e-01    0,000000000e+00    0,000000000e+00    0,000000000e+00    0,000000000e+00
      268000000   -2,399719879e-02    2,880859002e-02   -1,777831912e-01   -7,641779780e-01    0,000000000e+00    0,000000000e+00    0,000000000e+00    0,000000000e+00
      282000000    4,004633520e-03    1,216829382e-02   -5,619220138e-01   -5,354701877e-01    0,000000000e+00    0,000000000e+00    0,000000000e+00    0,000000000e+00
      296000000    9,839859791e-03   -7,603998762e-03   -7,595170140e-01   -1,397368014e-01    0,000000000e+00    0,000000000e+00    0,000000000e+00    0,000000000e+00
      310000000    1,153622288e-02   -1,594386622e-02   -7,128167152e-01    2,988609672e-01    0,000000000e+00    0,000000000e+00    0,000000000e+00    0,000000000e+00
      324000000    2,008103579e-02   -2,675820142e-02   -4,265516996e-01    6,364733577e-01    0,000000000e+00    0,000000000e+00    0,000000000e+00    0,000000000e+00
      338000000    2,579745837e-02   -5,198821053e-02   -7,108522113e-03    7,609745860e-01    0,000000000e+00    0,000000000e+00    0,000000000e+00    0,000000000e+00
      352000000    7,389412727e-03   -8,491664380e-02    4,061357975e-01    6,395225525e-01    0,000000000e+00    0,000000000e+00    0,000000000e+00    0,000000000e+00
      366000000   -3,453177959e-02   -9,531072527e-02    6,896888018e-01    3,111459017e-01    0,000000000e+00    0,000000000e+00    0,000000000e+00    0,000000000e+00
      380000000   -7,038521767e-02   -7,123549283e-02    7,467257380e-01   -1,258873045e-01    0,000000000e+00    0,000000000e+00    0,000000000e+00    0,000000000e+00
      394000000   -7,235006243e-02   -3,246668354e-02    5,456630588e-01   -5,206192732e-01    0,000000000e+00    0,000000000e+00    0,000000000e+00    0,000000000e+00
      408000000   -4,637710750e-02   -1,665510237e-02    1,617642790e-01   -7,315787673e-01    0,000000000e+00    0,000000000e+00    0,000000000e+00    0,000000000e+00
      422000000   -2,848021686e-02   -3,202344105e-02   -2,674103081e-01   -6,942844987e-01    0,000000000e+00    0,000000000e+00    0,000000000e+00    0,000000000e+00
      436000000   -4,085891694e-02   -5,152086914e-02   -6,034027338e-01   -4,316173494e-01    0,000000000e+00    0,000000000e+00    0,000000000e+00    0,000000000e+00
      450000000   -6,724889576e-02   -4,387200996e-02   -7,400904298e-01   -2,204588428e-02    0,000000000e+00    0,000000000e+00    0,000000000e+00    0,000000000e+00
      464000000   -7,315085828e-02   -1,201800816e-02   -6,182245016e-01    3,964977860e-01    0,000000000e+00    0,000000000e+00    0,000000000e+00    0,000000000e+00
      478000000   -4,765646532e-02    1,115564257e-02   -2,823746502e-01    6,673048139e-01    0,000000000e+00    0,000000000e+00    0,000000000e+00    0,000000000e+00
      492000000   -1,555286348e-02    5,671189632e-03    1,372004598e-01    7,010787725e-01    0,000000000e+00    0,000000000e+00    0,000000000e+00    0,000000000e+00
      506000000   -2,412866568e-03   -1,575884596e-02    4,979130030e-01    5,025446415e-01    0,000000000e+00    0,000000000e+00    0,000000000e+00    0,000000000e+00
      520000000   -5,099167116e-03   -3,138633072e-02    6,884130836e-01    1,416305155e-01    0,000000000e+00    0,000000000e+00    0,000000000e+00    0,000000000e+00
      534000000   -3,803513711e-03   -3,811129555e-02    6,430582404e-01   -2,625432611e-01    0,000000000e+00    0,000000000e+00    0,000000000e+00    0,000000000e+00
      548000000    6,283181719e-03   -5,366700143e-02    3,811546266e-01   -5,663976073e-01    0,000000000e+00    0,000000000e+00    0,000000000e+00    0,000000000e+00
      562000000    3,645410296e-03   -8,922268450e-02    3,676595166e-03   -6,704539657e-01    0,000000000e+00    0,000000000e+00    0,000000000e+00    0,000000000e+00
      576000000   -3,429364413e-02   -1,238384992e-01   -3,686854541e-01   -5,568773150e-01    0,000000000e+00    0,000000000e+00    0,000000000e+00    0,000000000e+00
      590000000   -9,557937086e-02   -1,225575432e-01   -6,212674975e-01   -2,655018568e-01    0,000000000e+00    0,000000000e+00    0,000000000e+00    0,000000000e+00
      604000000   -1,389699131e-01   -7,264333218e-02   -6,643634439e-01    1,363384128e-01    0,000000000e+00    0,000000000e+00    0,000000000e+00    0,000000000e+00
      618000000   -1,293562055e-01   -9,520296939e-03   -4,648388028e-01    4,923805892e-01    0,000000000e+00    0,000000000e+00    0,000000000e+00    0,000000000e+00
      632000000   -8,428632468e-02    1,549339294e-02   -1,010270938e-01    6,618677974e-01    0,000000000e+00    0,000000000e+00    0,000000000e+00    0,000000000e+00
      646000000   -5,145072564e-02    3,359441180e-04    2,851457000e-01    5,932782888e-01    0,000000000e+00    0,000000000e+00    0,000000000e+00    0,000000000e+00
      660000000   -5,338039994e-02   -2,019315585e-02    5,653232336e-01    3,235477805e-01    0,000000000e+00    0,000000000e+00    0,000000000e+00    0,000000000e+00
      674000000   -6,955119967e-02   -1,712435484e-02    6,409775019e-01   -6,299046427e-02    0,000000000e+00    0,000000000e+00    0,000000000e+00    0,000000000e+00
      688000000   -6,746131182e-02    9,494050406e-03    4,711537957e-01   -4,240874648e-01    0,000000000e+00    0,000000000e+00    0,000000000e+00    0,000000000e+00
      702000000   -3,539445996e-02    2,664900944e-02    1,183549911e-01   -6,079322696e-01    0,000000000e+00    0,000000000e+00    0,000000000e+00    0,000000000e+00
      716000000    3,799443133e-03    1,683750004e-02   -2,589651644e-01   -5,447691083e-01    0,000000000e+00    0,000000000e+00    0,000000000e+00    0,000000000e+00
      730000000    3,697070479e-02   -1,433840115e-02   -5,219655037e-01   -2,716985941e-01    0,000000000e+00    0,000000000e+00    0,000000000e+00    0,000000000e+00
      744000000    6,288736314e-02   -6,544198096e-02   -5,606589913e-01    9,863399714e-02    0,000000000e+00    0,000000000e+00    0,000000000e+00    0,000000000e+00
      758000000    6,038090587e-02   -1,517431885e-01   -3,665043414e-01    4,004352987e-01    0,000000000e+00    0,000000000e+00    0,000000000e+00    0,000000000e+00
      772000000   -1,709647663e-02   -2,564023733e-01   -4,568126053e-02    5,097341537e-01    0,000000000e+00    0,000000000e+00    0,000000000e+00    0,000000000e+00
      786000000   -2,021089345e-01   -2,923834324e-01    2,593843937e-01    3,993382156e-01    0,000000000e+00    0,000000000e+00    0,000000000e+00    0,000000000e+00
      800000000   -4,084029496e-01   -1,275225729e-01    4,074037969e-01    1,186028719e-01    0,000000000e+00    0,000000000e+00    0,000000000e+00    0,000000000e+00
      814000000   -3,777187467e-01    2,026477754e-01    2,961354256e-01   -1,511580199e-01    0,000000000e+00    0,000000000e+00    0,000000000e+00    0,000000000e+00
      828000000   -6,316820532e-02    3,479262292e-01    8,223754168e-02   -1,909339875e-01    0,000000000e+00    0,000000000e+00    0,000000000e+00    0,000000000e+00
      842000000    2,117011845e-01    1,862878501e-01   -3,811484901e-03   -9,321982414e-02    0,000000000e+00    0,000000000e+00    0,000000000e+00    0,000000000e+00
      856000000    2,661873102e-01   -1,056382805e-01    3,600426763e-02   -3,677204996e-02    0,000000000e+00    0,000000000e+00    0,000000000e+00    0,000000000e+00
      870000000    8,247202635e-02   -3,516680300e-01    8,852759004e-02   -9,746007621e-02    0,000000000e+00    0,000000000e+00    0,000000000e+00    0,000000000e+00
      884000000   -2,658627033e-01   -3,568350375e-01    1,170472614e-02   -2,281291187e-01    0,000000000e+00    0,000000000e+00    0,000000000e+00    0,000000000e+00
      898000000   -4,581976533e-01   -1,410542428e-02   -2,150018215e-01   -2,099768221e-01    0,000000000e+00    0,000000000e+00    0,000000000e+00    0,000000000e+00
      912000000   -2,353836596e-01    2,789074779e-01   -3,255545795e-01    7,329108566e-02    0,000000000e+00    0,000000000e+00    0,000000000e+00    0,000000000e+00
      926000000    5,476631969e-02    2,639686763e-01   -2,091659456e-01    2,630552351e-01    0,000000000e+00    0,000000000e+00    0,000000000e+00    0,000000000e+00
      940000000    2,082915157e-01    8,682471514e-02   -3,165800124e-02    3,250600100e-01    0,000000000e+00    0,000000000e+00    0,000000000e+00    0,000000000e+00
      954000000    2,230287045e-01   -1,218367592e-01    1,334090382e-01    3,013997078e-01    0,000000000e+00    0,000000000e+00    0,000000000e+00    0,000000000e+00
      968000000    1,167125553e-01   -2,968432009e-01    2,681124806e-01    2,137491107e-01    0,000000000e+00    0,000000000e+00    0,000000000e+00    0,000000000e+00
      982000000   -7,550037652e-02   -3,864966929e-01    3,597045839e-01    6,233192608e-02    0,000000000e+00    0,000000000e+00    0,000000000e+00    0,000000000e+00
      996000000   -3,096732795e-01   -3,285859525e-01    3,632780910e-01   -1,436076611e-01    0,000000000e+00    0,000000000e+00    0,000000000e+00    0,000000000e+00
     1010000000   -4,596059918e-01   -1,191985235e-01    2,187070549e-01   -3,333562315e-01    0,000000000e+00    0,000000000e+00    0,000000000e+00    0,000000000e+00
     1024000000   -4,183739722e-01    1,438310593e-01   -3,095957451e-02   -3,852497339e-01    0,000000000e+00    0,000000000e+00    0,000000000e+00    0,000000000e+00
     1038000000   -2,218567431e-01    2,915978432e-01   -2,420768738e-01   -2,575671375e-01    0,000000000e+00    0,000000000e+00    0,000000000e+00    0,000000000e+00
     1052000000   -1,358992141e-02    2,827332020e-01   -3,116990924e-01   -4,653995112e-02    0,000000000e+00    0,000000000e+00    0,000000000e+00    0,000000000e+00
     1066000000    1,315471530e-01    1,699104011e-01   -2,510170043e-01    1,382881105e-01    0,000000000e+00    0,000000000e+00    0,000000000e+00    0,000000000e+00
     1080000000    1,912610531e-01    6,020298693e-03   -1,169900745e-01    2,545028329e-01    0,000000000e+00    0,000000000e+00    0,000000000e+00    0,000000000e+00
     1094000000    1,608484387e-01   -1,646238118e-01    6,135188788e-02    2,926252484e-01    0,000000000e+00    0,000000000e+00    0,000000000e+00    0,000000000e+00
     1108000000    2,045276947e-02   -2,993634939e-01    2,594144642e-01    2,345082313e-01    0,000000000e+00    0,000000000e+00    0,000000000e+00    0,000000000e+00
     1122000000   -2,185894996e-01   -2,838017046e-01    4,411557317e-01    2,099444717e-02    0,000000000e+00    0,000000000e+00    0,000000000e+00    0,000000000e+00
     1136000000   -3,235119879e-01   -2,816802263e-02    3,997495472e-01   -3,447611928e-01    0,000000000e+00    0,000000000e+00    0,000000000e+00    0,000000000e+00
     1150000000   -1,065900475e-01    1,429551095e-01    4,562151060e-02   -5,292892456e-01    0,000000000e+00    0,000000000e+00    0,000000000e+00    0,000000000e+00
     1164000000    8,784432709e-02   -1,936064102e-02   -2,500085533e-01   -4,039258957e-01    0,000000000e+00    0,000000000e+00    0,000000000e+00    0,000000000e+00
     1178000000    2,465798333e-02   -2,495484501e-01   -3,684826791e-01   -1,783108562e-01    0,000000000e+00    0,000000000e+00    0,000000000e+00    0,000000000e+00
     1192000000   -2,231252193e-01   -3,501531482e-01   -3,399964571e-01    3,694214672e-02    0,000000000e+00    0,000000000e+00    0,000000000e+00    0,000000000e+00
     1206000000   -4,825933278e-01   -1,783137470e-01   -1,906997710e-01    1,838775426e-01    0,000000000e+00    0,000000000e+00    0,000000000e+00    0,000000000e+00
     1220000000   -4,983993173e-01    1,364182234e-01   -1,015523914e-02    1,736350507e-01    0,000000000e+00    0,000000000e+00    0,000000000e+00    0,000000000e+00
     1234000000   -2,956044078e-01    3,440946639e-01    7,608725876e-02    8,168736845e-02    0,000000000e+00    0,000000000e+00    0,000000000e+00    0,000000000e+00
     1248000000   -6,150835007e-02    3,627309501e-01    6,687045842e-02    3,299042815e-03    0,000000000e+00    0,000000000e+00    0,000000000e+00    0,000000000e+00
     1262000000    1,133475676e-01    2,578918040e-01    3,121231683e-02   -2,535881661e-02    0,000000000e+00    0,000000000e+00    0,000000000e+00    0,000000000e+00
     1276000000    2,059254199e-01    1,103288755e-01    6,833999883e-03   -5,451350939e-03    0,000000000e+00    0,000000000e+00    0,000000000e+00    0,000000000e+00
     1290000000    2,214489430e-01   -6,646302342e-02    1,343141217e-02    2,536381409e-02    0,000000000e+00    0,000000000e+00    0,000000000e+00    0,000000000e+00
     1304000000    1,644015610e-01   -2,338263988e-01    5,579214916e-02    5,585065112e-02    0,000000000e+00    0,000000000e+00    0,000000000e+00    0,000000000e+00
     1318000000    3,107504733e-02   -3,618374467e-01    1,710532904e-01    2,158450149e-02    0,000000000e+00    0,000000000e+00    0,000000000e+00    0,000000000e+00
     1332000000   -1,523656994e-01   -3,947770596e-01    9,941916168e-02   -1,769486368e-01    0,000000000e+00    0,000000000e+00    0,000000000e+00    0,000000000e+00
     1346000000   -3,594602048e-01   -3,871101439e-01   -4,868139327e-02   -1,641189680e-02    0,000000000e+00    0,000000000e+00    0,000000000e+00    0,000000000e+00
     1360000000   -5,793150663e-01   -2,038735598e-01    7,399928570e-02    7,779315859e-02    0,000000000e+00    0,000000000e+00    0,000000000e+00    0,000000000e+00
     1374000000   -6,359552741e-01    1,059704274e-01    1,764587462e-01    4,578053951e-02    0,000000000e+00    0,000000000e+00    0,000000000e+00    0,000000000e+00
     1388000000   -4,798188806e-01    3,495727777e-01    2,130096406e-01   -2,961752936e-02    0,000000000e+00    0,000000000e+00    0,000000000e+00    0,000000000e+00
     1402000000   -2,415394783e-01    4,485161006e-01    2,099872530e-01   -6,820356846e-02    0,000000000e+00    0,000000000e+00    0,000000000e+00    0,000000000e+00
     1416000000   -4,237711057e-02    4,115198255e-01    1,823292375e-01   -1,030413732e-01    0,000000000e+00    0,000000000e+00    0,000000000e+00    0,000000000e+00
     1430000000    1,076401472e-01    3,037757576e-01    1,890038848e-01   -9,578935057e-02    0,000000000e+00    0,000000000e+00    0,000000000e+00    0,000000000e+00
     1444000000    1,983212829e-01    1,522724926e-01    1,651430875e-01   -1,179206595e-01    0,000000000e+00    0,000000000e+00    0,000000000e+00    0,000000000e+00
     1458000000    2,319790721e-01   -1,739184000e-02    1,563827097e-01   -8,632741868e-02    0,000000000e+00    0,000000000e+00    0,000000000e+00    0,000000000e+00
     1472000000    1,958174407e-01   -1,992780268e-01    1,547780782e-01   -5,636434630e-02    0,000000000e+00    0,000000000e+00    0,000000000e+00    0,000000000e+00
     1486000000    7,506766915e-02   -3,663312495e-01    1,647805274e-01    2,147717215e-02    0,000000000e+00    0,000000000e+00    0,000000000e+00    0,000000000e+00
     1500000000   -1,590639055e-01   -4,740547538e-01    2,379287928e-01    9,550116956e-02    0,000000000e+00    0,000000000e+00    0,000000000e+00    0,000000000e+00
