! NanoVNA-App
! Date: 2025-09-25 15:43:47
! Start: 100MHz Stop: 1,5GHz Points: 101
! S-Parameter data: F S11 S21 S12 S22
# Hz S RI R 50
!     Frequency           S11_Real           S11_Imag           S21_Real           S21_Imag           S12_Real           S12_Imag           S22_Real           S22_Imag
      100000000   -2,874792740e-02   -4,262104165e-03    3,739555776e-01   -7,215927243e-01    0,000000000e+00    0,000000000e+00    0,000000000e+00    0,000000000e+00
      114000000   -1,652775891e-02    1,146551501e-02   -8,917697519e-02   -8,052148819e-01    0,000000000e+00    0,000000000e+00    0,000000000e+00    0,000000000e+00
      128000000    3,399892012e-03    1,073867641e-02   -5,143995285e-01   -6,203179359e-01    0,000000000e+00    0,000000000e+00    0,000000000e+00    0,000000000e+00
      142000000    1,463214774e-02   -2,654234180e-03   -7,666339278e-01   -2,365059257e-01    0,000000000e+00    0,000000000e+00    0,000000000e+00    0,000000000e+00
      156000000    1,613909192e-02   -1,441029925e-02   -7,719466686e-01    2,234099209e-01    0,000000000e+00    0,000000000e+00    0,000000000e+00    0,000000000e+00
      170000000    1,713653468e-02   -2,245256677e-02   -5,179231763e-01    6,045781970e-01    0,000000000e+00    0,000000000e+00    0,000000000e+00    0,000000000e+00
      184000000    2,133316174e-02   -3,712817281e-02   -1,015011147e-01    7,858203650e-01    0,000000000e+00    0,000000000e+00    0,000000000e+00    0,000000000e+00
      198000000    1,321020909e-02   -6,256741285e-02    3,432078362e-01    7,121523619e-01    0,000000000e+00    0,000000000e+00    0,000000000e+00    0,000000000e+00
      212000000   -1,842440106e-02   -8,129610121e-02    6,777226329e-01    4,097527564e-01    0,000000000e+00    0,000000000e+00    0,000000000e+00    0,000000000e+00
      226000000   -6,130528450e-02   -6,919307262e-02    7,953411341e-01   -3,051236458e-02    0,000000000e+00    0,000000000e+00    0,000000000e+00    0,000000000e+00
      240000000   -8,218577504e-02   -2,577624470e-02    6,457052827e-01   -4,668070078e-01    0,000000000e+00    0,000000000e+00    0,000000000e+00    0,000000000e+00
      254000000   -6,340269744e-02    1,694501191e-02    2,762392461e-01   -7,432271838e-01    0,000000000e+00    0,000000000e+00    0,000000000e+00    0,000000000e+00
      268000000   -2,387144417e-02    2,875557914e-02   -1,779293716e-01   -7,641661167e-01    0,000000000e+00    0,000000000e+00    0,000000000e+00    0,000000000e+00
      282000000    4,050713032e-03    1,205295231e-02   -5,613801479e-01   -5,353798270e-01    0,000000000e+00    0,000000000e+00    0,000000000e+00    0,000000000e+00
      296000000    9,821069427e-03   -7,578026969e-03   -7,596225739e-01   -1,395108551e-01    0,000000000e+00    0,000000000e+00    0,000000000e+00    0,000000000e+00
      310000000    1,140625589e-02   -1,612340845e-02   -7,129842043e-01    2,981696725e-01    0,000000000e+00    0,000000000e+00    0,000000000e+00    0,000000000e+00
      324000000    1,993425377e-02   -2,665583231e-02   -4,280227125e-01    6,373170614e-01    0,000000000e+00    0,000000000e+00    0,000000000e+00    0,000000000e+00
      338000000    2,563971281e-02   -5,217495933e-02   -9,164235555e-03    7,623627782e-01    0,000000000e+00    0,000000000e+00    0,000000000e+00    0,000000000e+00
      352000000    7,700099144e-03   -8,512637764e-02    4,061734676e-01    6,387329698e-01    0,000000000e+00    0,000000000e+00    0,000000000e+00    0,000000000e+00
      366000000   -3,454625979e-02   -9,559145570e-02    6,897241473e-01    3,108073473e-01    0,000000000e+00    0,000000000e+00    0,000000000e+00    0,000000000e+00
      380000000   -7,037023455e-02   -7,119340450e-02    7,473372221e-01   -1,260031015e-01    0,000000000e+00    0,000000000e+00    0,000000000e+00    0,000000000e+00
      394000000   -7,211914659e-02   -3,274121135e-02    5,471130013e-01   -5,204908252e-01    0,000000000e+00    0,000000000e+00    0,000000000e+00    0,000000000e+00
      408000000   -4,636427388e-02   -1,639335789e-02    1,613642871e-01   -7,324546576e-01    0,000000000e+00    0,000000000e+00    0,000000000e+00    0,000000000e+00
      422000000   -2,826357633e-02   -3,229779005e-02   -2,683903277e-01   -6,956058145e-01    0,000000000e+00    0,000000000e+00    0,000000000e+00    0,000000000e+00
      436000000   -4,036359489e-02   -5,162021145e-02   -6,038321257e-01   -4,321379066e-01    0,000000000e+00    0,000000000e+00    0,000000000e+00    0,000000000e+00
      450000000   -6,746666878e-02   -4,372789338e-02   -7,407162786e-01   -2,196107805e-02    0,000000000e+00    0,000000000e+00    0,000000000e+00    0,000000000e+00
      464000000   -7,327067852e-02   -1,195234340e-02   -6,185803413e-01    3,964277506e-01    0,000000000e+00    0,000000000e+00    0,000000000e+00    0,000000000e+00
      478000000   -4,751409590e-02    1,097169705e-02   -2,818370461e-01    6,665017009e-01    0,000000000e+00    0,000000000e+00    0,000000000e+00    0,000000000e+00
      492000000   -1,554275490e-02    5,526110996e-03    1,369504035e-01    7,010161877e-01    0,000000000e+00    0,000000000e+00    0,000000000e+00    0,000000000e+00
      506000000   -2,560132649e-03   -1,576463506e-02    4,977855384e-01    5,027838945e-01    0,000000000e+00    0,000000000e+00    0,000000000e+00    0,000000000e+00
      520000000   -4,791711457e-03   -3,119637072e-02    6,874957085e-01    1,425092667e-01    0,000000000e+00    0,000000000e+00    0,000000000e+00    0,000000000e+00
      534000000   -3,548998153e-03   -3,791333735e-02    6,433882713e-01   -2,616645992e-01    0,000000000e+00    0,000000000e+00    0,000000000e+00    0,000000000e+00
      548000000    6,369161885e-03   -5,355531722e-02    3,818165958e-01   -5,658938289e-01    0,000000000e+00    0,000000000e+00    0,000000000e+00    0,000000000e+00
      562000000    3,649590304e-03   -8,964435756e-02    2,974166302e-03   -6,711934805e-01    0,000000000e+00    0,000000000e+00    0,000000000e+00    0,000000000e+00
      576000000   -3,442120552e-02   -1,243018582e-01   -3,685317338e-01   -5,574533939e-01    0,000000000e+00    0,000000000e+00    0,000000000e+00    0,000000000e+00
      590000000   -9,583006799e-02   -1,228050366e-01   -6,188902259e-01   -2,655104995e-01    0,000000000e+00    0,000000000e+00    0,000000000e+00    0,000000000e+00
      604000000   -1,392513365e-01   -7,215924561e-02   -6,642714143e-01    1,371304691e-01    0,000000000e+00    0,000000000e+00    0,000000000e+00    0,000000000e+00
      618000000   -1,287246644e-01   -9,624144994e-03   -4,642236829e-01    4,927955568e-01    0,000000000e+00    0,000000000e+00    0,000000000e+00    0,000000000e+00
      632000000   -8,444786817e-02    1,558777690e-02   -1,000117958e-01    6,625672579e-01    0,000000000e+00    0,000000000e+00    0,000000000e+00    0,000000000e+00
      646000000   -5,271138996e-02    8,645603666e-04    2,852742672e-01    5,954573154e-01    0,000000000e+00    0,000000000e+00    0,000000000e+00    0,000000000e+00
      660000000   -5,412995815e-02   -2,097076364e-02    5,644005537e-01    3,235504031e-01    0,000000000e+00    0,000000000e+00    0,000000000e+00    0,000000000e+00
      674000000   -6,985685974e-02   -1,723376289e-02    6,405332088e-01   -6,323664635e-02    0,000000000e+00    0,000000000e+00    0,000000000e+00    0,000000000e+00
      688000000   -6,762464345e-02    9,622746147e-03    4,704644084e-01   -4,237703681e-01    0,000000000e+00    0,000000000e+00    0,000000000e+00    0,000000000e+00
      702000000   -3,508486599e-02    2,606088482e-02    1,203178614e-01   -6,057649851e-01    0,000000000e+00    0,000000000e+00    0,000000000e+00    0,000000000e+00
      716000000    3,914029803e-03    1,676225103e-02   -2,590785623e-01   -5,446796417e-01    0,000000000e+00    0,000000000e+00    0,000000000e+00    0,000000000e+00
      730000000    3,654442355e-02   -1,335222926e-02   -5,218812227e-01   -2,709473073e-01    0,000000000e+00    0,000000000e+00    0,000000000e+00    0,000000000e+00
      744000000    6,287754327e-02   -6,513459235e-02   -5,602019429e-01    9,807655960e-02    0,000000000e+00    0,000000000e+00    0,000000000e+00    0,000000000e+00
      758000000    6,107286364e-02   -1,514844298e-01   -3,666021824e-01    4,000894129e-01    0,000000000e+00    0,000000000e+00    0,000000000e+00    0,000000000e+00
      772000000   -1,786412485e-02   -2,553839982e-01   -4,534660652e-02    5,085861683e-01    0,000000000e+00    0,000000000e+00    0,000000000e+00    0,000000000e+00
      786000000   -2,014058977e-01   -2,911027670e-01    2,589479387e-01    3,986084163e-01    0,000000000e+00    0,000000000e+00    0,000000000e+00    0,000000000e+00
      800000000   -4,072078466e-01   -1,266044080e-01    4,072678089e-01    1,190115884e-01    0,000000000e+00    0,000000000e+00    0,000000000e+00    0,000000000e+00
      814000000   -3,768127263e-01    2,022774667e-01    2,971219718e-01   -1,506490558e-01    0,000000000e+00    0,000000000e+00    0,000000000e+00    0,000000000e+00
      828000000   -6,198658422e-02    3,466443121e-01    8,323084563e-02   -1,910402179e-01    0,000000000e+00    0,000000000e+00    0,000000000e+00    0,000000000e+00
      842000000    2,115444243e-01    1,855443120e-01   -3,655705834e-03   -9,374846518e-02    0,000000000e+00    0,000000000e+00    0,000000000e+00    0,000000000e+00
      856000000    2,662281394e-01   -1,055547073e-01    3,575160727e-02   -3,737497330e-02    0,000000000e+00    0,000000000e+00    0,000000000e+00    0,000000000e+00
      870000000    8,209532499e-02   -3,510261774e-01    8,830405772e-02   -9,725438803e-02    0,000000000e+00    0,000000000e+00    0,000000000e+00    0,000000000e+00
      884000000   -2,674817443e-01   -3,555231392e-01    1,255476940e-02   -2,271029800e-01    0,000000000e+00    0,000000000e+00    0,000000000e+00    0,000000000e+00
      898000000   -4,576936364e-01   -1,471267920e-02   -2,148988247e-01   -2,101536095e-01    0,000000000e+00    0,000000000e+00    0,000000000e+00    0,000000000e+00
      912000000   -2,360849082e-01    2,792327404e-01   -3,261397481e-01    7,402425259e-02    0,000000000e+00    0,000000000e+00    0,000000000e+00    0,000000000e+00
      926000000    5,637771636e-02    2,601536214e-01   -2,100958526e-01    2,599207461e-01    0,000000000e+00    0,000000000e+00    0,000000000e+00    0,000000000e+00
      940000000    2,077364773e-01    8,594922721e-02   -3,134946898e-02    3,259785175e-01    0,000000000e+00    0,000000000e+00    0,000000000e+00    0,000000000e+00
      954000000    2,184105068e-01   -1,227422953e-01    1,310350448e-01    3,002229333e-01    0,000000000e+00    0,000000000e+00    0,000000000e+00    0,000000000e+00
      968000000    1,179262623e-01   -2,958404124e-01    2,683258355e-01    2,119346708e-01    0,000000000e+00    0,000000000e+00    0,000000000e+00    0,000000000e+00
      982000000   -7,931517810e-02   -3,839538693e-01    3,605168164e-01    6,388829648e-02    0,000000000e+00    0,000000000e+00    0,000000000e+00    0,000000000e+00
      996000000   -3,135082424e-01   -3,330374956e-01    3,618518114e-01   -1,446233392e-01    0,000000000e+00    0,000000000e+00    0,000000000e+00    0,000000000e+00
     1010000000   -4,600341022e-01   -1,207219660e-01    2,187983096e-01   -3,354504108e-01    0,000000000e+00    0,000000000e+00    0,000000000e+00    0,000000000e+00
     1024000000   -4,193077087e-01    1,441552341e-01   -3,100895323e-02   -3,855392635e-01    0,000000000e+00    0,000000000e+00    0,000000000e+00    0,000000000e+00
     1038000000   -2,213539630e-01    2,914058864e-01   -2,426101416e-01   -2,567256391e-01    0,000000000e+00    0,000000000e+00    0,000000000e+00    0,000000000e+00
     1052000000   -1,249609608e-02    2,786489129e-01   -3,117371798e-01   -4,553952068e-02    0,000000000e+00    0,000000000e+00    0,000000000e+00    0,000000000e+00
     1066000000    1,284084320e-01    1,709053963e-01   -2,496689856e-01    1,358123273e-01    0,000000000e+00    0,000000000e+00    0,000000000e+00    0,000000000e+00
     1080000000    1,956021190e-01    9,262855165e-03   -1,167813241e-01    2,533173263e-01    0,000000000e+00    0,000000000e+00    0,000000000e+00    0,000000000e+00
     1094000000    1,594067514e-01   -1,602552384e-01    6,112986058e-02    2,919814289e-01    0,000000000e+00    0,000000000e+00    0,000000000e+00    0,000000000e+00
     1108000000    2,123421617e-02   -2,973990142e-01    2,590045929e-01    2,358139604e-01    0,000000000e+00    0,000000000e+00    0,000000000e+00    0,000000000e+00
     1122000000   -2,100432068e-01   -2,821952105e-01    4,395557046e-01    2,213920839e-02    0,000000000e+00    0,000000000e+00    0,000000000e+00    0,000000000e+00
     1136000000   -3,252483904e-01   -2,634770982e-02    3,980244994e-01   -3,454087675e-01    0,000000000e+00    0,000000000e+00    0,000000000e+00    0,000000000e+00
     1150000000   -1,037039235e-01    1,361831278e-01    4,901959375e-02   -5,310559869e-01    0,000000000e+00    0,000000000e+00    0,000000000e+00    0,000000000e+00
     1164000000    8,926507086e-02   -1,731882431e-02   -2,486513853e-01   -4,054614007e-01    0,000000000e+00    0,000000000e+00    0,000000000e+00    0,000000000e+00
     1178000000    2,954961546e-02   -2,546364069e-01   -3,680462539e-01   -1,796325743e-01    0,000000000e+00    0,000000000e+00    0,000000000e+00    0,000000000e+00
     1192000000   -2,236016542e-01   -3,482020199e-01   -3,427944779e-01    4,036964849e-02    0,000000000e+00    0,000000000e+00    0,000000000e+00    0,000000000e+00
     1206000000   -4,836291075e-01   -1,840886623e-01   -1,928529441e-01    1,803900003e-01    0,000000000e+00    0,000000000e+00    0,000000000e+00    0,000000000e+00
     1220000000   -5,021342635e-01    1,352273673e-01   -1,075539645e-02    1,770125479e-01    0,000000000e+00    0,000000000e+00    0,000000000e+00    0,000000000e+00
     1234000000   -2,962953150e-01    3,410358727e-01    7,164023072e-02    7,816676795e-02    0,000000000e+00    0,000000000e+00    0,000000000e+00    0,000000000e+00
     1248000000   -5,718526989e-02    3,584000766e-01    6,789956987e-02    7,549982402e-04    0,000000000e+00    0,000000000e+00    0,000000000e+00    0,000000000e+00
     1262000000    1,103953421e-01    2,561843991e-01    2,673831955e-02   -2,661065571e-02    0,000000000e+00    0,000000000e+00    0,000000000e+00    0,000000000e+00
     1276000000    1,977315992e-01    1,077752262e-01    3,156694118e-03   -7,675013505e-03    0,000000000e+00    0,000000000e+00    0,000000000e+00    0,000000000e+00
     1290000000    2,220331877e-01   -6,144583225e-02    8,420932107e-03    2,649042010e-02    0,000000000e+00    0,000000000e+00    0,000000000e+00    0,000000000e+00
     1304000000    1,657088101e-01   -2,337896675e-01    6,209655479e-02    5,249021575e-02    0,000000000e+00    0,000000000e+00    0,000000000e+00    0,000000000e+00
     1318000000    3,008070588e-02   -3,678966165e-01    1,734949201e-01    1,818512566e-02    0,000000000e+00    0,000000000e+00    0,000000000e+00    0,000000000e+00
     1332000000   -1,552883685e-01   -3,972935379e-01    9,375710040e-02   -1,849280447e-01    0,000000000e+00    0,000000000e+00    0,000000000e+00    0,000000000e+00
     1346000000   -3,617460430e-01   -3,865886927e-01   -5,320473760e-02   -2,258623578e-02    0,000000000e+00    0,000000000e+00    0,000000000e+00    0,000000000e+00
     1360000000   -5,944377184e-01   -1,927959770e-01    5,736239254e-02    9,102821350e-02    0,000000000e+00    0,000000000e+00    0,000000000e+00    0,000000000e+00
     1374000000   -6,223788261e-01    1,078138575e-01    1,904813945e-01    4,407567903e-02    0,000000000e+00    0,000000000e+00    0,000000000e+00    0,000000000e+00
     1388000000   -4,804278910e-01    3,473266959e-01    2,113298625e-01   -2,467012778e-02    0,000000000e+00    0,000000000e+00    0,000000000e+00    0,000000000e+00
     1402000000   -2,458950728e-01    4,414353073e-01    2,093270570e-01   -8,177346736e-02    0,000000000e+00    0,000000000e+00    0,000000000e+00    0,000000000e+00
     1416000000   -3,627900779e-02    4,141234756e-01    1,931414455e-01   -1,066750586e-01    0,000000000e+00    0,000000000e+00    0,000000000e+00    0,000000000e+00
     1430000000    1,142255664e-01    3,112834096e-01    2,037921399e-01   -1,116435081e-01    0,000000000e+00    0,000000000e+00    0,000000000e+00    0,000000000e+00
     1444000000    1,999743283e-01    1,558537036e-01    1,749984473e-01   -1,069302112e-01    0,000000000e+00    0,000000000e+00    0,000000000e+00    0,000000000e+00
     1458000000    2,264830470e-01   -1,261876151e-02    1,445967555e-01   -8,088088036e-02    0,000000000e+00    0,000000000e+00    0,000000000e+00    0,000000000e+00
     1472000000    1,878599226e-01   -1,920894533e-01    1,378746778e-01   -4,555930197e-02    0,000000000e+00    0,000000000e+00    0,000000000e+00    0,000000000e+00
     1486000000    6,811781228e-02   -3,714419305e-01    1,718020737e-01    8,718925528e-03    0,000000000e+00    0,000000000e+00    0,000000000e+00    0,000000000e+00
     1500000000   -1,619211286e-01   -4,999777377e-01    2,408789992e-01    8,180407435e-02    0,000000000e+00    0,000000000e+00    0,000000000e+00    0,000000000e+00
