! NanoVNA-App
! Date: 2025-09-25 15:39:23
! Start: 100MHz Stop: 1,5GHz Points: 101
! S-Parameter data: F S11 S21 S12 S22
# Hz S RI R 50
!     Frequency           S11_Real           S11_Imag           S21_Real           S21_Imag           S12_Real           S12_Imag           S22_Real           S22_Imag
      100000000   -2,862260677e-02   -4,219472408e-03    3,738079369e-01   -7,214600444e-01    0,000000000e+00    0,000000000e+00    0,000000000e+00    0,000000000e+00
      114000000   -1,640997641e-02    1,148328651e-02   -8,923444152e-02   -8,050228357e-01    0,000000000e+00    0,000000000e+00    0,000000000e+00    0,000000000e+00
      128000000    3,498002421e-03    1,073188987e-02   -5,144942403e-01   -6,200114489e-01    0,000000000e+00    0,000000000e+00    0,000000000e+00    0,000000000e+00
      142000000    1,473771594e-02   -2,627096605e-03   -7,669105530e-01   -2,363555580e-01    0,000000000e+00    0,000000000e+00    0,000000000e+00    0,000000000e+00
      156000000    1,585984603e-02   -1,465175115e-02   -7,706707716e-01    2,217199951e-01    0,000000000e+00    0,000000000e+00    0,000000000e+00    0,000000000e+00
      170000000    1,721293852e-02   -2,250112221e-02   -5,177190900e-01    6,042750478e-01    0,000000000e+00    0,000000000e+00    0,000000000e+00    0,000000000e+00
      184000000    2,144705877e-02   -3,724970669e-02   -1,014606953e-01    7,856795192e-01    0,000000000e+00    0,000000000e+00    0,000000000e+00    0,000000000e+00
      198000000    1,332329027e-02   -6,253205985e-02    3,430683315e-01    7,115611434e-01    0,000000000e+00    0,000000000e+00    0,000000000e+00    0,000000000e+00
      212000000   -1,837248541e-02   -8,126277477e-02    6,778126359e-01    4,096721709e-01    0,000000000e+00    0,000000000e+00    0,000000000e+00    0,000000000e+00
      226000000   -6,127060205e-02   -6,915871799e-02    7,952184081e-01   -3,061364405e-02    0,000000000e+00    0,000000000e+00    0,000000000e+00    0,000000000e+00
      240000000   -8,209878206e-02   -2,585577779e-02    6,455836892e-01   -4,666322172e-01    0,000000000e+00    0,000000000e+00    0,000000000e+00    0,000000000e+00
      254000000   -6,325608492e-02    1,683251373e-02    2,758473158e-01   -7,424963713e-01    0,000000000e+00    0,000000000e+00    0,000000000e+00    0,000000000e+00
      268000000   -2,388172969e-02    2,864456363e-02   -1,780273169e-01   -7,636674047e-01    0,000000000e+00    0,000000000e+00    0,000000000e+00    0,000000000e+00
      282000000    4,132263828e-03    1,203646977e-02   -5,614593029e-01   -5,354100466e-01    0,000000000e+00    0,000000000e+00    0,000000000e+00    0,000000000e+00
      296000000    9,963565506e-03   -7,524188142e-03   -7,594330311e-01   -1,394274831e-01    0,000000000e+00    0,000000000e+00    0,000000000e+00    0,000000000e+00
      310000000    1,174259000e-02   -1,592692547e-02   -7,116055489e-01    2,990621328e-01    0,000000000e+00    0,000000000e+00    0,000000000e+00    0,000000000e+00
      324000000    2,019849420e-02   -2,663931809e-02   -4,268650711e-01    6,381321549e-01    0,000000000e+00    0,000000000e+00    0,000000000e+00    0,000000000e+00
      338000000    2,570717968e-02   -5,237977952e-02   -8,333350532e-03    7,582716346e-01    0,000000000e+00    0,000000000e+00    0,000000000e+00    0,000000000e+00
      352000000    7,642270066e-03   -8,471586555e-02    4,062649608e-01    6,383094192e-01    0,000000000e+00    0,000000000e+00    0,000000000e+00    0,000000000e+00
      366000000   -3,418289497e-02   -9,519536048e-02    6,902393103e-01    3,110973239e-01    0,000000000e+00    0,000000000e+00    0,000000000e+00    0,000000000e+00
      380000000   -7,036613673e-02   -7,112593204e-02    7,467603087e-01   -1,258737743e-01    0,000000000e+00    0,000000000e+00    0,000000000e+00    0,000000000e+00
      394000000   -7,210247219e-02   -3,259060904e-02    5,468178391e-01   -5,221570134e-01    0,000000000e+00    0,000000000e+00    0,000000000e+00    0,000000000e+00
      408000000   -4,619224742e-02   -1,662874222e-02    1,615951955e-01   -7,327184677e-01    0,000000000e+00    0,000000000e+00    0,000000000e+00    0,000000000e+00
      422000000   -2,817982063e-02   -3,225455061e-02   -2,676845193e-01   -6,943659782e-01    0,000000000e+00    0,000000000e+00    0,000000000e+00    0,000000000e+00
      436000000   -4,044929147e-02   -5,196218938e-02   -6,037148237e-01   -4,316602647e-01    0,000000000e+00    0,000000000e+00    0,000000000e+00    0,000000000e+00
      450000000   -6,732182950e-02   -4,383099452e-02   -7,395610809e-01   -2,167555876e-02    0,000000000e+00    0,000000000e+00    0,000000000e+00    0,000000000e+00
      464000000   -7,310132682e-02   -1,203447022e-02   -6,184676290e-01    3,969730735e-01    0,000000000e+00    0,000000000e+00    0,000000000e+00    0,000000000e+00
      478000000   -4,724305123e-02    1,135217492e-02   -2,824911773e-01    6,668162346e-01    0,000000000e+00    0,000000000e+00    0,000000000e+00    0,000000000e+00
      492000000   -1,556712762e-02    5,671127699e-03    1,369417757e-01    7,000370026e-01    0,000000000e+00    0,000000000e+00    0,000000000e+00    0,000000000e+00
      506000000   -2,868670737e-03   -1,601394080e-02    4,972365499e-01    5,026577115e-01    0,000000000e+00    0,000000000e+00    0,000000000e+00    0,000000000e+00
      520000000   -5,059553310e-03   -3,176952526e-02    6,879085302e-01    1,417396963e-01    0,000000000e+00    0,000000000e+00    0,000000000e+00    0,000000000e+00
      534000000   -3,880238393e-03   -3,808370978e-02    6,425961852e-01   -2,620081604e-01    0,000000000e+00    0,000000000e+00    0,000000000e+00    0,000000000e+00
      548000000    6,210936233e-03   -5,411666259e-02    3,811839819e-01   -5,660992861e-01    0,000000000e+00    0,000000000e+00    0,000000000e+00    0,000000000e+00
      562000000    3,147314768e-03   -8,911593258e-02    2,566775773e-03   -6,707448959e-01    0,000000000e+00    0,000000000e+00    0,000000000e+00    0,000000000e+00
      576000000   -3,361855447e-02   -1,247579679e-01   -3,674008548e-01   -5,572273731e-01    0,000000000e+00    0,000000000e+00    0,000000000e+00    0,000000000e+00
      590000000   -9,594371170e-02   -1,225768626e-01   -6,207224727e-01   -2,651910782e-01    0,000000000e+00    0,000000000e+00    0,000000000e+00    0,000000000e+00
      604000000   -1,387905627e-01   -7,202368975e-02   -6,638894081e-01    1,367702037e-01    0,000000000e+00    0,000000000e+00    0,000000000e+00    0,000000000e+00
      618000000   -1,293792576e-01   -9,784593247e-03   -4,644738138e-01    4,921704829e-01    0,000000000e+00    0,000000000e+00    0,000000000e+00    0,000000000e+00
      632000000   -8,481001109e-02    1,582580805e-02   -1,003786176e-01    6,632981896e-01    0,000000000e+00    0,000000000e+00    0,000000000e+00    0,000000000e+00
      646000000   -5,192975700e-02    9,775720537e-04    2,852235436e-01    5,942258239e-01    0,000000000e+00    0,000000000e+00    0,000000000e+00    0,000000000e+00
      660000000   -5,421276018e-02   -2,042944729e-02    5,651051402e-01    3,230246603e-01    0,000000000e+00    0,000000000e+00    0,000000000e+00    0,000000000e+00
      674000000   -6,924958527e-02   -1,625350304e-02    6,404687762e-01   -6,304597855e-02    0,000000000e+00    0,000000000e+00    0,000000000e+00    0,000000000e+00
      688000000   -6,687600911e-02    8,573835716e-03    4,705094099e-01   -4,235704243e-01    0,000000000e+00    0,000000000e+00    0,000000000e+00    0,000000000e+00
      702000000   -3,684614226e-02    2,657636441e-02    1,203046441e-01   -6,113079786e-01    0,000000000e+00    0,000000000e+00    0,000000000e+00    0,000000000e+00
      716000000    3,067833837e-03    1,596819237e-02   -2,596118152e-01   -5,438194871e-01    0,000000000e+00    0,000000000e+00    0,000000000e+00    0,000000000e+00
      730000000    3,660048917e-02   -1,444568206e-02   -5,220069885e-01   -2,711275220e-01    0,000000000e+00    0,000000000e+00    0,000000000e+00    0,000000000e+00
      744000000    6,261035055e-02   -6,609570235e-02   -5,598669648e-01    9,918881953e-02    0,000000000e+00    0,000000000e+00    0,000000000e+00    0,000000000e+00
      758000000    6,157550216e-02   -1,518833190e-01   -3,663938940e-01    4,004575014e-01    0,000000000e+00    0,000000000e+00    0,000000000e+00    0,000000000e+00
      772000000   -1,767269522e-02   -2,569826841e-01   -4,491142184e-02    5,084787011e-01    0,000000000e+00    0,000000000e+00    0,000000000e+00    0,000000000e+00
      786000000   -2,021960169e-01   -2,918045223e-01    2,597510517e-01    3,986078501e-01    0,000000000e+00    0,000000000e+00    0,000000000e+00    0,000000000e+00
      800000000   -4,075711668e-01   -1,261938363e-01    4,068655670e-01    1,173733696e-01    0,000000000e+00    0,000000000e+00    0,000000000e+00    0,000000000e+00
      814000000   -3,758672774e-01    2,014686614e-01    2,951808572e-01   -1,505222768e-01    0,000000000e+00    0,000000000e+00    0,000000000e+00    0,000000000e+00
      828000000   -6,127528846e-02    3,471027315e-01    8,196843415e-02   -1,892826408e-01    0,000000000e+00    0,000000000e+00    0,000000000e+00    0,000000000e+00
      842000000    2,116861790e-01    1,847355366e-01   -3,222791711e-03   -9,284628183e-02    0,000000000e+00    0,000000000e+00    0,000000000e+00    0,000000000e+00
      856000000    2,659309506e-01   -1,067502871e-01    3,635275364e-02   -3,730816767e-02    0,000000000e+00    0,000000000e+00    0,000000000e+00    0,000000000e+00
      870000000    8,139106631e-02   -3,520576358e-01    8,923481405e-02   -9,813875705e-02    0,000000000e+00    0,000000000e+00    0,000000000e+00    0,000000000e+00
      884000000   -2,689818144e-01   -3,545528352e-01    1,105486322e-02   -2,281100601e-01    0,000000000e+00    0,000000000e+00    0,000000000e+00    0,000000000e+00
      898000000   -4,573374391e-01   -1,210530009e-02   -2,162862271e-01   -2,091233134e-01    0,000000000e+00    0,000000000e+00    0,000000000e+00    0,000000000e+00
      912000000   -2,356295586e-01    2,774580717e-01   -3,394628167e-01    7,667674869e-02    0,000000000e+00    0,000000000e+00    0,000000000e+00    0,000000000e+00
      926000000    5,729504675e-02    2,617807388e-01   -2,076175213e-01    2,616400719e-01    0,000000000e+00    0,000000000e+00    0,000000000e+00    0,000000000e+00
      940000000    2,106267214e-01    8,511970192e-02   -3,151684627e-02    3,252895772e-01    0,000000000e+00    0,000000000e+00    0,000000000e+00    0,000000000e+00
      954000000    2,208852768e-01   -1,193262190e-01    1,316790581e-01    3,022204936e-01    0,000000000e+00    0,000000000e+00    0,000000000e+00    0,000000000e+00
      968000000    1,165160537e-01   -2,925279737e-01    2,687279284e-01    2,130659372e-01    0,000000000e+00    0,000000000e+00    0,000000000e+00    0,000000000e+00
      982000000   -7,558667660e-02   -3,845555782e-01    3,607572317e-01    6,258821487e-02    0,000000000e+00    0,000000000e+00    0,000000000e+00    0,000000000e+00
      996000000   -3,107307553e-01   -3,340367675e-01    3,619563580e-01   -1,438097954e-01    0,000000000e+00    0,000000000e+00    0,000000000e+00    0,000000000e+00
     1010000000   -4,564614594e-01   -1,180465072e-01    2,192141414e-01   -3,364490867e-01    0,000000000e+00    0,000000000e+00    0,000000000e+00    0,000000000e+00
     1024000000   -4,185783863e-01    1,414639950e-01   -3,371928260e-02   -3,855859935e-01    0,000000000e+00    0,000000000e+00    0,000000000e+00    0,000000000e+00
     1038000000   -2,232897431e-01    2,855016291e-01   -2,407333106e-01   -2,562468946e-01    0,000000000e+00    0,000000000e+00    0,000000000e+00    0,000000000e+00
     1052000000   -1,268920396e-02    2,779102623e-01   -3,105726838e-01   -4,599742964e-02    0,000000000e+00    0,000000000e+00    0,000000000e+00    0,000000000e+00
     1066000000    1,291187704e-01    1,693539768e-01   -2,491636425e-01    1,374242604e-01    0,000000000e+00    0,000000000e+00    0,000000000e+00    0,000000000e+00
     1080000000    1,914297342e-01    5,253488664e-03   -1,161821261e-01    2,534927726e-01    0,000000000e+00    0,000000000e+00    0,000000000e+00    0,000000000e+00
     1094000000    1,598669440e-01   -1,613125503e-01    6,053448841e-02    2,912824154e-01    0,000000000e+00    0,000000000e+00    0,000000000e+00    0,000000000e+00
     1108000000    2,089256421e-02   -2,976618409e-01    2,602310777e-01    2,357868701e-01    0,000000000e+00    0,000000000e+00    0,000000000e+00    0,000000000e+00
     1122000000   -2,126879841e-01   -2,794163823e-01    4,391904771e-01    2,129786462e-02    0,000000000e+00    0,000000000e+00    0,000000000e+00    0,000000000e+00
     1136000000   -3,285602629e-01   -2,630495094e-02    4,005241096e-01   -3,441389501e-01    0,000000000e+00    0,000000000e+00    0,000000000e+00    0,000000000e+00
     1150000000   -1,091038883e-01    1,379761100e-01    4,811889306e-02   -5,304049850e-01    0,000000000e+00    0,000000000e+00    0,000000000e+00    0,000000000e+00
     1164000000    8,457904309e-02   -1,536457241e-02   -2,524552643e-01   -4,039249122e-01    0,000000000e+00    0,000000000e+00    0,000000000e+00    0,000000000e+00
     1178000000    2,564351261e-02   -2,514459789e-01   -3,695641458e-01   -1,743998230e-01    0,000000000e+00    0,000000000e+00    0,000000000e+00    0,000000000e+00
     1192000000   -2,263648659e-01   -3,474530578e-01   -3,418135941e-01    4,103351012e-02    0,000000000e+00    0,000000000e+00    0,000000000e+00    0,000000000e+00
     1206000000   -4,762538075e-01   -1,788023561e-01   -1,865344793e-01    1,824739575e-01    0,000000000e+00    0,000000000e+00    0,000000000e+00    0,000000000e+00
     1220000000   -5,005816817e-01    1,409808993e-01   -7,820925675e-03    1,787340492e-01    0,000000000e+00    0,000000000e+00    0,000000000e+00    0,000000000e+00
     1234000000   -3,004145622e-01    3,362600207e-01    7,766196132e-02    7,780778408e-02    0,000000000e+00    0,000000000e+00    0,000000000e+00    0,000000000e+00
     1248000000   -6,561701000e-02    3,591212034e-01    6,166818365e-02    5,822639912e-03    0,000000000e+00    0,000000000e+00    0,000000000e+00    0,000000000e+00
     1262000000    1,166121587e-01    2,626296282e-01    3,251621872e-02   -2,047685347e-02    0,000000000e+00    0,000000000e+00    0,000000000e+00    0,000000000e+00
     1276000000    1,995934397e-01    1,040323153e-01    4,709375557e-03   -1,228638180e-02    0,000000000e+00    0,000000000e+00    0,000000000e+00    0,000000000e+00
     1290000000    2,194256932e-01   -6,609390676e-02    1,445667725e-02    2,667097747e-02    0,000000000e+00    0,000000000e+00    0,000000000e+00    0,000000000e+00
     1304000000    1,630486101e-01   -2,318748981e-01    5,745704100e-02    5,811883137e-02    0,000000000e+00    0,000000000e+00    0,000000000e+00    0,000000000e+00
     1318000000    2,492866293e-02   -3,629969060e-01    1,700338721e-01    2,024833672e-02    0,000000000e+00    0,000000000e+00    0,000000000e+00    0,000000000e+00
     1332000000   -1,492224634e-01   -3,984532952e-01    9,998106211e-02   -1,833833456e-01    0,000000000e+00    0,000000000e+00    0,000000000e+00    0,000000000e+00
     1346000000   -3,579996228e-01   -3,895775676e-01   -5,457298085e-02   -2,178987674e-02    0,000000000e+00    0,000000000e+00    0,000000000e+00    0,000000000e+00
     1360000000   -5,839093328e-01   -2,042609155e-01    6,519865245e-02    8,523078263e-02    0,000000000e+00    0,000000000e+00    0,000000000e+00    0,000000000e+00
     1374000000   -6,171942949e-01    9,882131219e-02    1,814161539e-01    4,840325937e-02    0,000000000e+00    0,000000000e+00    0,000000000e+00    0,000000000e+00
     1388000000   -4,678214788e-01    3,500660360e-01    2,199307680e-01   -2,713708393e-02    0,000000000e+00    0,000000000e+00    0,000000000e+00    0,000000000e+00
     1402000000   -2,488352656e-01    4,416226745e-01    2,081067115e-01   -8,114574105e-02    0,000000000e+00    0,000000000e+00    0,000000000e+00    0,000000000e+00
     1416000000   -3,515410423e-02    4,082329869e-01    2,013548017e-01   -1,079902574e-01    0,000000000e+00    0,000000000e+00    0,000000000e+00    0,000000000e+00
     1430000000    1,154140010e-01    2,943628728e-01    1,625842154e-01   -1,216794029e-01    0,000000000e+00    0,000000000e+00    0,000000000e+00    0,000000000e+00
     1444000000    2,012073100e-01    1,536310017e-01    1,637087911e-01   -1,109371781e-01    0,000000000e+00    0,000000000e+00    0,000000000e+00    0,000000000e+00
     1458000000    2,307677269e-01   -1,549588423e-02    1,416400820e-01   -8,556775749e-02    0,000000000e+00    0,000000000e+00    0,000000000e+00    0,000000000e+00
     1472000000    1,861396730e-01   -1,957412064e-01    1,338779032e-01   -5,386047810e-02    0,000000000e+00    0,000000000e+00    0,000000000e+00    0,000000000e+00
     1486000000    7,110770792e-02   -3,682757616e-01    1,640092432e-01    1,396834943e-02    0,000000000e+00    0,000000000e+00    0,000000000e+00    0,000000000e+00
     1500000000   -1,600592732e-01   -4,861475527e-01    2,467406094e-01    7,706428319e-02    0,000000000e+00    0,000000000e+00    0,000000000e+00    0,000000000e+00
