! NanoVNA-App
! Date: 2025-09-25 15:41:29
! Start: 100MHz Stop: 1,5GHz Points: 101
! S-Parameter data: F S11 S21 S12 S22
# Hz S RI R 50
!     Frequency           S11_Real           S11_Imag           S21_Real           S21_Imag           S12_Real           S12_Imag           S22_Real           S22_Imag
      100000000   -2,870208025e-02   -4,246038850e-03    3,738985360e-01   -7,215423584e-01    0,000000000e+00    0,000000000e+00    0,000000000e+00    0,000000000e+00
      114000000   -1,646692492e-02    1,146050543e-02   -8,916775137e-02   -8,051233888e-01    0,000000000e+00    0,000000000e+00    0,000000000e+00    0,000000000e+00
      128000000    3,412925173e-03    1,068054978e-02   -5,142223239e-01   -6,200649738e-01    0,000000000e+00    0,000000000e+00    0,000000000e+00    0,000000000e+00
      142000000    1,471002772e-02   -2,650659531e-03   -7,666185498e-01   -2,363122404e-01    0,000000000e+00    0,000000000e+00    0,000000000e+00    0,000000000e+00
      156000000    1,556481048e-02   -1,476583909e-02   -7,687386274e-01    2,196884751e-01    0,000000000e+00    0,000000000e+00    0,000000000e+00    0,000000000e+00
      170000000    1,712015830e-02   -2,253219299e-02   -5,178074837e-01    6,043792367e-01    0,000000000e+00    0,000000000e+00    0,000000000e+00    0,000000000e+00
      184000000    2,138487063e-02   -3,718465939e-02   -1,014182270e-01    7,855920196e-01    0,000000000e+00    0,000000000e+00    0,000000000e+00    0,000000000e+00
      198000000    1,327069011e-02   -6,252495944e-02    3,430984318e-01    7,120808959e-01    0,000000000e+00    0,000000000e+00    0,000000000e+00    0,000000000e+00
      212000000   -1,838890277e-02   -8,128834516e-02    6,777366996e-01    4,095910788e-01    0,000000000e+00    0,000000000e+00    0,000000000e+00    0,000000000e+00
      226000000   -6,127591431e-02   -6,923544407e-02    7,953459024e-01   -3,046325408e-02    0,000000000e+00    0,000000000e+00    0,000000000e+00    0,000000000e+00
      240000000   -8,219744265e-02   -2,581884153e-02    6,457328796e-01   -4,666315615e-01    0,000000000e+00    0,000000000e+00    0,000000000e+00    0,000000000e+00
      254000000   -6,335335225e-02    1,688958146e-02    2,757342160e-01   -7,429703474e-01    0,000000000e+00    0,000000000e+00    0,000000000e+00    0,000000000e+00
      268000000   -2,388314530e-02    2,870349586e-02   -1,776011735e-01   -7,636483312e-01    0,000000000e+00    0,000000000e+00    0,000000000e+00    0,000000000e+00
      282000000    4,103545565e-03    1,194806024e-02   -5,615372062e-01   -5,356117487e-01    0,000000000e+00    0,000000000e+00    0,000000000e+00    0,000000000e+00
      296000000    9,927420877e-03   -7,501497399e-03   -7,593892217e-01   -1,397019923e-01    0,000000000e+00    0,000000000e+00    0,000000000e+00    0,000000000e+00
      310000000    1,158759464e-02   -1,598173752e-02   -7,109308839e-01    2,975137234e-01    0,000000000e+00    0,000000000e+00    0,000000000e+00    0,000000000e+00
      324000000    2,000775374e-02   -2,646883763e-02   -4,264739156e-01    6,365138292e-01    0,000000000e+00    0,000000000e+00    0,000000000e+00    0,000000000e+00
      338000000    2,574645728e-02   -5,204379559e-02   -8,332206868e-03    7,596822977e-01    0,000000000e+00    0,000000000e+00    0,000000000e+00    0,000000000e+00
      352000000    7,451157086e-03   -8,470746130e-02    4,067815244e-01    6,390310526e-01    0,000000000e+00    0,000000000e+00    0,000000000e+00    0,000000000e+00
      366000000   -3,433493152e-02   -9,538525343e-02    6,898439527e-01    3,106479943e-01    0,000000000e+00    0,000000000e+00    0,000000000e+00    0,000000000e+00
      380000000   -7,054214180e-02   -7,132579386e-02    7,468037009e-01   -1,258834451e-01    0,000000000e+00    0,000000000e+00    0,000000000e+00    0,000000000e+00
      394000000   -7,229392976e-02   -3,268746659e-02    5,467184782e-01   -5,216339231e-01    0,000000000e+00    0,000000000e+00    0,000000000e+00    0,000000000e+00
      408000000   -4,636735842e-02   -1,629827358e-02    1,614096910e-01   -7,315349579e-01    0,000000000e+00    0,000000000e+00    0,000000000e+00    0,000000000e+00
      422000000   -2,829350717e-02   -3,199280426e-02   -2,672104537e-01   -6,942865252e-01    0,000000000e+00    0,000000000e+00    0,000000000e+00    0,000000000e+00
      436000000   -4,027989507e-02   -5,192290992e-02   -6,030644178e-01   -4,318530262e-01    0,000000000e+00    0,000000000e+00    0,000000000e+00    0,000000000e+00
      450000000   -6,709543616e-02   -4,398002476e-02   -7,402942181e-01   -2,186339535e-02    0,000000000e+00    0,000000000e+00    0,000000000e+00    0,000000000e+00
      464000000   -7,295505702e-02   -1,202237327e-02   -6,180615425e-01    3,962677121e-01    0,000000000e+00    0,000000000e+00    0,000000000e+00    0,000000000e+00
      478000000   -4,742960632e-02    1,118293777e-02   -2,828672230e-01    6,665935516e-01    0,000000000e+00    0,000000000e+00    0,000000000e+00    0,000000000e+00
      492000000   -1,618288457e-02    5,683184601e-03    1,367070079e-01    7,003069520e-01    0,000000000e+00    0,000000000e+00    0,000000000e+00    0,000000000e+00
      506000000   -2,971988404e-03   -1,601675339e-02    4,971574545e-01    5,022687912e-01    0,000000000e+00    0,000000000e+00    0,000000000e+00    0,000000000e+00
      520000000   -5,006482825e-03   -3,147847205e-02    6,874898672e-01    1,426898688e-01    0,000000000e+00    0,000000000e+00    0,000000000e+00    0,000000000e+00
      534000000   -3,809953341e-03   -3,786509484e-02    6,428025961e-01   -2,615747452e-01    0,000000000e+00    0,000000000e+00    0,000000000e+00    0,000000000e+00
      548000000    6,476792507e-03   -5,404945463e-02    3,815234900e-01   -5,665073991e-01    0,000000000e+00    0,000000000e+00    0,000000000e+00    0,000000000e+00
      562000000    3,338052658e-03   -8,948517591e-02    3,567973617e-03   -6,710587144e-01    0,000000000e+00    0,000000000e+00    0,000000000e+00    0,000000000e+00
      576000000   -3,408315405e-02   -1,242820397e-01   -3,682382107e-01   -5,576232076e-01    0,000000000e+00    0,000000000e+00    0,000000000e+00    0,000000000e+00
      590000000   -9,555549920e-02   -1,226962060e-01   -6,213763356e-01   -2,655161917e-01    0,000000000e+00    0,000000000e+00    0,000000000e+00    0,000000000e+00
      604000000   -1,388365924e-01   -7,234042883e-02   -6,636040807e-01    1,360950023e-01    0,000000000e+00    0,000000000e+00    0,000000000e+00    0,000000000e+00
      618000000   -1,288572848e-01   -1,009889971e-02   -4,643223882e-01    4,925650358e-01    0,000000000e+00    0,000000000e+00    0,000000000e+00    0,000000000e+00
      632000000   -8,493933827e-02    1,630379818e-02   -9,940977395e-02    6,622616053e-01    0,000000000e+00    0,000000000e+00    0,000000000e+00    0,000000000e+00
      646000000   -5,156677961e-02    7,360017044e-04    2,857247591e-01    5,944079757e-01    0,000000000e+00    0,000000000e+00    0,000000000e+00    0,000000000e+00
      660000000   -5,348439515e-02   -2,142171189e-02    5,642418861e-01    3,230342269e-01    0,000000000e+00    0,000000000e+00    0,000000000e+00    0,000000000e+00
      674000000   -6,913267076e-02   -1,722019911e-02    6,407698989e-01   -6,333918124e-02    0,000000000e+00    0,000000000e+00    0,000000000e+00    0,000000000e+00
      688000000   -6,632770598e-02    8,931525983e-03    4,705534279e-01   -4,232478738e-01    0,000000000e+00    0,000000000e+00    0,000000000e+00    0,000000000e+00
      702000000   -3,673922271e-02    2,575309388e-02    1,201135069e-01   -6,058548689e-01    0,000000000e+00    0,000000000e+00    0,000000000e+00    0,000000000e+00
      716000000    3,220125800e-03    1,557553187e-02   -2,589385509e-01   -5,446264744e-01    0,000000000e+00    0,000000000e+00    0,000000000e+00    0,000000000e+00
      730000000    3,648080304e-02   -1,337847579e-02   -5,220108032e-01   -2,709562480e-01    0,000000000e+00    0,000000000e+00    0,000000000e+00    0,000000000e+00
      744000000    6,177753583e-02   -6,489525735e-02   -5,600603223e-01    9,893168509e-02    0,000000000e+00    0,000000000e+00    0,000000000e+00    0,000000000e+00
      758000000    6,108154729e-02   -1,522157341e-01   -3,662780523e-01    3,998920321e-01    0,000000000e+00    0,000000000e+00    0,000000000e+00    0,000000000e+00
      772000000   -1,712516136e-02   -2,563105226e-01   -4,528320208e-02    5,093991756e-01    0,000000000e+00    0,000000000e+00    0,000000000e+00    0,000000000e+00
      786000000   -2,031490505e-01   -2,906724215e-01    2,593115866e-01    3,981178105e-01    0,000000000e+00    0,000000000e+00    0,000000000e+00    0,000000000e+00
      800000000   -4,069604278e-01   -1,266314238e-01    4,066447616e-01    1,184428856e-01    0,000000000e+00    0,000000000e+00    0,000000000e+00    0,000000000e+00
      814000000   -3,765869737e-01    2,025647759e-01    2,968596816e-01   -1,505075693e-01    0,000000000e+00    0,000000000e+00    0,000000000e+00    0,000000000e+00
      828000000   -6,170269102e-02    3,471342325e-01    8,238866925e-02   -1,903271973e-01    0,000000000e+00    0,000000000e+00    0,000000000e+00    0,000000000e+00
      842000000    2,119801342e-01    1,853943914e-01   -3,449055832e-03   -9,298908710e-02    0,000000000e+00    0,000000000e+00    0,000000000e+00    0,000000000e+00
      856000000    2,660927474e-01   -1,058558151e-01    3,646248952e-02   -3,724205866e-02    0,000000000e+00    0,000000000e+00    0,000000000e+00    0,000000000e+00
      870000000    8,175721020e-02   -3,514412045e-01    8,854041249e-02   -9,778422117e-02    0,000000000e+00    0,000000000e+00    0,000000000e+00    0,000000000e+00
      884000000   -2,675116062e-01   -3,559437990e-01    1,090320479e-02   -2,285138071e-01    0,000000000e+00    0,000000000e+00    0,000000000e+00    0,000000000e+00
      898000000   -4,565471113e-01   -1,397463772e-02   -2,152509093e-01   -2,103824168e-01    0,000000000e+00    0,000000000e+00    0,000000000e+00    0,000000000e+00
      912000000   -2,350766808e-01    2,786414623e-01   -3,342111111e-01    8,068874478e-02    0,000000000e+00    0,000000000e+00    0,000000000e+00    0,000000000e+00
      926000000    5,326451361e-02    2,617398500e-01   -2,118227780e-01    2,624280453e-01    0,000000000e+00    0,000000000e+00    0,000000000e+00    0,000000000e+00
      940000000    2,116074264e-01    8,490670472e-02   -3,171997890e-02    3,266550601e-01    0,000000000e+00    0,000000000e+00    0,000000000e+00    0,000000000e+00
      954000000    2,188137025e-01   -1,232621744e-01    1,311254501e-01    3,009737134e-01    0,000000000e+00    0,000000000e+00    0,000000000e+00    0,000000000e+00
      968000000    1,171028614e-01   -2,931821048e-01    2,671885788e-01    2,140937001e-01    0,000000000e+00    0,000000000e+00    0,000000000e+00    0,000000000e+00
      982000000   -7,980646938e-02   -3,832784891e-01    3,610185087e-01    6,210977584e-02    0,000000000e+00    0,000000000e+00    0,000000000e+00    0,000000000e+00
      996000000   -3,083222806e-01   -3,289256096e-01    3,621489704e-01   -1,442443877e-01    0,000000000e+00    0,000000000e+00    0,000000000e+00    0,000000000e+00
     1010000000   -4,624813795e-01   -1,128423512e-01    2,212381065e-01   -3,349783123e-01    0,000000000e+00    0,000000000e+00    0,000000000e+00    0,000000000e+00
     1024000000   -4,197906554e-01    1,448082030e-01   -3,087654524e-02   -3,858779669e-01    0,000000000e+00    0,000000000e+00    0,000000000e+00    0,000000000e+00
     1038000000   -2,270032614e-01    2,887406647e-01   -2,406990528e-01   -2,560873330e-01    0,000000000e+00    0,000000000e+00    0,000000000e+00    0,000000000e+00
     1052000000   -1,346126106e-02    2,782040834e-01   -3,087761104e-01   -4,673044011e-02    0,000000000e+00    0,000000000e+00    0,000000000e+00    0,000000000e+00
     1066000000    1,354070008e-01    1,688409597e-01   -2,539458275e-01    1,383135766e-01    0,000000000e+00    0,000000000e+00    0,000000000e+00    0,000000000e+00
     1080000000    1,948911697e-01    9,602298960e-03   -1,146680936e-01    2,539266050e-01    0,000000000e+00    0,000000000e+00    0,000000000e+00    0,000000000e+00
     1094000000    1,599230319e-01   -1,660964191e-01    6,202270091e-02    2,953889966e-01    0,000000000e+00    0,000000000e+00    0,000000000e+00    0,000000000e+00
     1108000000    2,157118171e-02   -2,950488925e-01    2,594100237e-01    2,337002456e-01    0,000000000e+00    0,000000000e+00    0,000000000e+00    0,000000000e+00
     1122000000   -2,157193571e-01   -2,856682539e-01    4,411413074e-01    2,423986979e-02    0,000000000e+00    0,000000000e+00    0,000000000e+00    0,000000000e+00
     1136000000   -3,284667134e-01   -2,738290280e-02    4,016431272e-01   -3,440282345e-01    0,000000000e+00    0,000000000e+00    0,000000000e+00    0,000000000e+00
     1150000000   -1,015983298e-01    1,419899762e-01    4,761206731e-02   -5,310605764e-01    0,000000000e+00    0,000000000e+00    0,000000000e+00    0,000000000e+00
     1164000000    8,582064509e-02   -1,472383644e-02   -2,515974343e-01   -4,023053348e-01    0,000000000e+00    0,000000000e+00    0,000000000e+00    0,000000000e+00
     1178000000    2,909415215e-02   -2,548385561e-01   -3,685232997e-01   -1,820271462e-01    0,000000000e+00    0,000000000e+00    0,000000000e+00    0,000000000e+00
     1192000000   -2,222698331e-01   -3,465858698e-01   -3,387072980e-01    4,052269831e-02    0,000000000e+00    0,000000000e+00    0,000000000e+00    0,000000000e+00
     1206000000   -4,790452719e-01   -1,779985428e-01   -1,886554509e-01    1,819680482e-01    0,000000000e+00    0,000000000e+00    0,000000000e+00    0,000000000e+00
     1220000000   -5,055118203e-01    1,391057968e-01   -9,139096364e-03    1,803770363e-01    0,000000000e+00    0,000000000e+00    0,000000000e+00    0,000000000e+00
     1234000000   -2,993527949e-01    3,387099504e-01    7,137278467e-02    7,604517788e-02    0,000000000e+00    0,000000000e+00    0,000000000e+00    0,000000000e+00
     1248000000   -6,484922767e-02    3,572609425e-01    6,399483979e-02    1,149408985e-03    0,000000000e+00    0,000000000e+00    0,000000000e+00    0,000000000e+00
     1262000000    1,106328741e-01    2,617679238e-01    2,863867953e-02   -2,526961640e-02    0,000000000e+00    0,000000000e+00    0,000000000e+00    0,000000000e+00
     1276000000    1,980685592e-01    1,081623584e-01    5,826364271e-03   -7,681681309e-03    0,000000000e+00    0,000000000e+00    0,000000000e+00    0,000000000e+00
     1290000000    2,231091708e-01   -6,033047661e-02    9,289877489e-03    2,795060351e-02    0,000000000e+00    0,000000000e+00    0,000000000e+00    0,000000000e+00
     1304000000    1,689286530e-01   -2,293922752e-01    6,352049857e-02    6,035678461e-02    0,000000000e+00    0,000000000e+00    0,000000000e+00    0,000000000e+00
     1318000000    2,912706882e-02   -3,640780449e-01    1,723068804e-01    1,437046845e-02    0,000000000e+00    0,000000000e+00    0,000000000e+00    0,000000000e+00
     1332000000   -1,477005184e-01   -3,949227631e-01    1,038305312e-01   -1,722914279e-01    0,000000000e+00    0,000000000e+00    0,000000000e+00    0,000000000e+00
     1346000000   -3,620683253e-01   -3,876346648e-01   -5,845973641e-02   -1,548651978e-02    0,000000000e+00    0,000000000e+00    0,000000000e+00    0,000000000e+00
     1360000000   -5,900374055e-01   -2,001769096e-01    6,433378160e-02    9,092128277e-02    0,000000000e+00    0,000000000e+00    0,000000000e+00    0,000000000e+00
     1374000000   -6,223919988e-01    1,021357030e-01    1,861945242e-01    5,303023756e-02    0,000000000e+00    0,000000000e+00    0,000000000e+00    0,000000000e+00
     1388000000   -4,767858386e-01    3,540015519e-01    2,153683305e-01   -3,566468507e-02    0,000000000e+00    0,000000000e+00    0,000000000e+00    0,000000000e+00
     1402000000   -2,482720613e-01    4,470539391e-01    2,024364173e-01   -7,235848159e-02    0,000000000e+00    0,000000000e+00    0,000000000e+00    0,000000000e+00
     1416000000   -3,973199055e-02    4,140318930e-01    1,867042631e-01   -9,839624166e-02    0,000000000e+00    0,000000000e+00    0,000000000e+00    0,000000000e+00
     1430000000    1,172619760e-01    3,041208684e-01    1,822095066e-01   -1,367304474e-01    0,000000000e+00    0,000000000e+00    0,000000000e+00    0,000000000e+00
     1444000000    2,026118338e-01    1,534196734e-01    1,708759069e-01   -1,098587960e-01    0,000000000e+00    0,000000000e+00    0,000000000e+00    0,000000000e+00
     1458000000    2,266191095e-01   -1,183630247e-02    1,388522983e-01   -8,895826340e-02    0,000000000e+00    0,000000000e+00    0,000000000e+00    0,000000000e+00
     1472000000    1,915221810e-01   -1,855426878e-01    1,436147988e-01   -3,670782223e-02    0,000000000e+00    0,000000000e+00    0,000000000e+00    0,000000000e+00
     1486000000    6,302965432e-02   -3,630979359e-01    1,547218710e-01    1,697647944e-02    0,000000000e+00    0,000000000e+00    0,000000000e+00    0,000000000e+00
     1500000000   -1,680452526e-01   -4,886949062e-01    2,320780605e-01    7,900568843e-02    0,000000000e+00    0,000000000e+00    0,000000000e+00    0,000000000e+00
