! NanoVNA-App
! Date: 2025-09-25 15:40:58
! Start: 100MHz Stop: 1,5GHz Points: 101
! S-Parameter data: F S11 S21 S12 S22
# Hz S RI R 50
!     Frequency           S11_Real           S11_Imag           S21_Real           S21_Imag           S12_Real           S12_Imag           S22_Real           S22_Imag
      100000000   -2,871331200e-02   -4,239915404e-03    3,738718033e-01   -7,215360999e-01    0,000000000e+00    0,000000000e+00    0,000000000e+00    0,000000000e+00
      114000000   -1,646996103e-02    1,147490274e-02   -8,901931345e-02   -8,051863313e-01    0,000000000e+00    0,000000000e+00    0,000000000e+00    0,000000000e+00
      128000000    3,441486275e-03    1,071980689e-02   -5,143924356e-01   -6,201897264e-01    0,000000000e+00    0,000000000e+00    0,000000000e+00    0,000000000e+00
      142000000    1,467731688e-02   -2,630885690e-03   -7,668792009e-01   -2,364021987e-01    0,000000000e+00    0,000000000e+00    0,000000000e+00    0,000000000e+00
      156000000    1,519304514e-02   -1,455272641e-02   -7,654330134e-01    2,214343548e-01    0,000000000e+00    0,000000000e+00    0,000000000e+00    0,000000000e+00
      170000000    1,719951443e-02   -2,251684107e-02   -5,177979469e-01    6,046711206e-01    0,000000000e+00    0,000000000e+00    0,000000000e+00    0,000000000e+00
      184000000    2,140363865e-02   -3,717990220e-02   -1,013717577e-01    7,856251597e-01    0,000000000e+00    0,000000000e+00    0,000000000e+00    0,000000000e+00
      198000000    1,327486336e-02   -6,255890429e-02    3,429754376e-01    7,119029164e-01    0,000000000e+00    0,000000000e+00    0,000000000e+00    0,000000000e+00
      212000000   -1,838324219e-02   -8,129899949e-02    6,776977181e-01    4,096700847e-01    0,000000000e+00    0,000000000e+00    0,000000000e+00    0,000000000e+00
      226000000   -6,134083495e-02   -6,918015331e-02    7,953747511e-01   -3,050776012e-02    0,000000000e+00    0,000000000e+00    0,000000000e+00    0,000000000e+00
      240000000   -8,217852563e-02   -2,582687140e-02    6,456726789e-01   -4,667211771e-01    0,000000000e+00    0,000000000e+00    0,000000000e+00    0,000000000e+00
      254000000   -6,335819513e-02    1,687959209e-02    2,762715518e-01   -7,426993251e-01    0,000000000e+00    0,000000000e+00    0,000000000e+00    0,000000000e+00
      268000000   -2,397907712e-02    2,872300148e-02   -1,777788103e-01   -7,641113997e-01    0,000000000e+00    0,000000000e+00    0,000000000e+00    0,000000000e+00
      282000000    4,086452536e-03    1,199361403e-02   -5,615937114e-01   -5,353405476e-01    0,000000000e+00    0,000000000e+00    0,000000000e+00    0,000000000e+00
      296000000    9,909655899e-03   -7,651465014e-03   -7,593584657e-01   -1,395199597e-01    0,000000000e+00    0,000000000e+00    0,000000000e+00    0,000000000e+00
      310000000    1,168010663e-02   -1,621116325e-02   -7,123945355e-01    2,973163426e-01    0,000000000e+00    0,000000000e+00    0,000000000e+00    0,000000000e+00
      324000000    2,005362883e-02   -2,663445100e-02   -4,267472923e-01    6,366268396e-01    0,000000000e+00    0,000000000e+00    0,000000000e+00    0,000000000e+00
      338000000    2,589438297e-02   -5,264613777e-02   -7,071681321e-03    7,623279691e-01    0,000000000e+00    0,000000000e+00    0,000000000e+00    0,000000000e+00
      352000000    7,700698916e-03   -8,485395461e-02    4,075450301e-01    6,388159394e-01    0,000000000e+00    0,000000000e+00    0,000000000e+00    0,000000000e+00
      366000000   -3,464367613e-02   -9,562739730e-02    6,904633641e-01    3,103023171e-01    0,000000000e+00    0,000000000e+00    0,000000000e+00    0,000000000e+00
      380000000   -7,041896880e-02   -7,120276242e-02    7,469487190e-01   -1,260921657e-01    0,000000000e+00    0,000000000e+00    0,000000000e+00    0,000000000e+00
      394000000   -7,208219916e-02   -3,254554421e-02    5,453382134e-01   -5,212102532e-01    0,000000000e+00    0,000000000e+00    0,000000000e+00    0,000000000e+00
      408000000   -4,632454738e-02   -1,642977260e-02    1,613142788e-01   -7,312536240e-01    0,000000000e+00    0,000000000e+00    0,000000000e+00    0,000000000e+00
      422000000   -2,825549990e-02   -3,217778355e-02   -2,665858269e-01   -6,944068670e-01    0,000000000e+00    0,000000000e+00    0,000000000e+00    0,000000000e+00
      436000000   -4,061109945e-02   -5,171355978e-02   -6,038754582e-01   -4,317942560e-01    0,000000000e+00    0,000000000e+00    0,000000000e+00    0,000000000e+00
      450000000   -6,702116877e-02   -4,398521036e-02   -7,398090959e-01   -2,188892476e-02    0,000000000e+00    0,000000000e+00    0,000000000e+00    0,000000000e+00
      464000000   -7,286129892e-02   -1,169139612e-02   -6,180247664e-01    3,968537748e-01    0,000000000e+00    0,000000000e+00    0,000000000e+00    0,000000000e+00
      478000000   -4,724166915e-02    1,109044906e-02   -2,827737033e-01    6,669086814e-01    0,000000000e+00    0,000000000e+00    0,000000000e+00    0,000000000e+00
      492000000   -1,609588601e-02    5,877127405e-03    1,366745085e-01    7,011587024e-01    0,000000000e+00    0,000000000e+00    0,000000000e+00    0,000000000e+00
      506000000   -3,019063268e-03   -1,589233428e-02    4,972878098e-01    5,022785068e-01    0,000000000e+00    0,000000000e+00    0,000000000e+00    0,000000000e+00
      520000000   -5,158821587e-03   -3,143261746e-02    6,886984706e-01    1,413840503e-01    0,000000000e+00    0,000000000e+00    0,000000000e+00    0,000000000e+00
      534000000   -3,581102705e-03   -3,783764318e-02    6,434446573e-01   -2,614623606e-01    0,000000000e+00    0,000000000e+00    0,000000000e+00    0,000000000e+00
      548000000    6,509139668e-03   -5,429747328e-02    3,813444972e-01   -5,664433241e-01    0,000000000e+00    0,000000000e+00    0,000000000e+00    0,000000000e+00
      562000000    3,110823222e-03   -8,973799646e-02    3,963570576e-03   -6,710018516e-01    0,000000000e+00    0,000000000e+00    0,000000000e+00    0,000000000e+00
      576000000   -3,389062360e-02   -1,244378164e-01   -3,684311509e-01   -5,575237870e-01    0,000000000e+00    0,000000000e+00    0,000000000e+00    0,000000000e+00
      590000000   -9,570574015e-02   -1,225814819e-01   -6,188628078e-01   -2,652374506e-01    0,000000000e+00    0,000000000e+00    0,000000000e+00    0,000000000e+00
      604000000   -1,386015564e-01   -7,219929993e-02   -6,632368565e-01    1,370024979e-01    0,000000000e+00    0,000000000e+00    0,000000000e+00    0,000000000e+00
      618000000   -1,294479668e-01   -1,040647645e-02   -4,644769728e-01    4,921247959e-01    0,000000000e+00    0,000000000e+00    0,000000000e+00    0,000000000e+00
      632000000   -8,446892351e-02    1,544306520e-02   -9,952905029e-02    6,614821553e-01    0,000000000e+00    0,000000000e+00    0,000000000e+00    0,000000000e+00
      646000000   -5,247401074e-02    7,010547561e-04    2,848851681e-01    5,940276980e-01    0,000000000e+00    0,000000000e+00    0,000000000e+00    0,000000000e+00
      660000000   -5,308671296e-02   -2,048300207e-02    5,645187497e-01    3,226904869e-01    0,000000000e+00    0,000000000e+00    0,000000000e+00    0,000000000e+00
      674000000   -6,995759159e-02   -1,710467786e-02    6,404021978e-01   -6,329962611e-02    0,000000000e+00    0,000000000e+00    0,000000000e+00    0,000000000e+00
      688000000   -6,638696790e-02    8,794722147e-03    4,708555639e-01   -4,243629575e-01    0,000000000e+00    0,000000000e+00    0,000000000e+00    0,000000000e+00
      702000000   -3,573611379e-02    2,571355179e-02    1,237363517e-01   -6,028116941e-01    0,000000000e+00    0,000000000e+00    0,000000000e+00    0,000000000e+00
      716000000    4,023648798e-03    1,693343371e-02   -2,592310309e-01   -5,444772840e-01    0,000000000e+00    0,000000000e+00    0,000000000e+00    0,000000000e+00
      730000000    3,630171716e-02   -1,352013648e-02   -5,216132402e-01   -2,709728181e-01    0,000000000e+00    0,000000000e+00    0,000000000e+00    0,000000000e+00
      744000000    6,310074031e-02   -6,489417702e-02   -5,600678325e-01    9,854187816e-02    0,000000000e+00    0,000000000e+00    0,000000000e+00    0,000000000e+00
      758000000    6,125147268e-02   -1,517297924e-01   -3,665790260e-01    4,005124271e-01    0,000000000e+00    0,000000000e+00    0,000000000e+00    0,000000000e+00
      772000000   -1,813905314e-02   -2,561440468e-01   -4,544969648e-02    5,090402365e-01    0,000000000e+00    0,000000000e+00    0,000000000e+00    0,000000000e+00
      786000000   -2,030544132e-01   -2,916762829e-01    2,596339881e-01    3,985699117e-01    0,000000000e+00    0,000000000e+00    0,000000000e+00    0,000000000e+00
      800000000   -4,084569812e-01   -1,260116249e-01    4,070676267e-01    1,180672795e-01    0,000000000e+00    0,000000000e+00    0,000000000e+00    0,000000000e+00
      814000000   -3,776633739e-01    2,028796524e-01    2,959218323e-01   -1,505259871e-01    0,000000000e+00    0,000000000e+00    0,000000000e+00    0,000000000e+00
      828000000   -6,254028529e-02    3,463694751e-01    8,252674341e-02   -1,905512810e-01    0,000000000e+00    0,000000000e+00    0,000000000e+00    0,000000000e+00
      842000000    2,114573866e-01    1,859193742e-01   -3,473350778e-03   -9,261170030e-02    0,000000000e+00    0,000000000e+00    0,000000000e+00    0,000000000e+00
      856000000    2,659338415e-01   -1,061486304e-01    3,653803095e-02   -3,757942840e-02    0,000000000e+00    0,000000000e+00    0,000000000e+00    0,000000000e+00
      870000000    8,164715022e-02   -3,515667021e-01    8,929195255e-02   -9,822083265e-02    0,000000000e+00    0,000000000e+00    0,000000000e+00    0,000000000e+00
      884000000   -2,684417367e-01   -3,566209376e-01    1,159778144e-02   -2,292132229e-01    0,000000000e+00    0,000000000e+00    0,000000000e+00    0,000000000e+00
      898000000   -4,583282173e-01   -1,267744973e-02   -2,167676091e-01   -2,097393125e-01    0,000000000e+00    0,000000000e+00    0,000000000e+00    0,000000000e+00
      912000000   -2,349268794e-01    2,796510458e-01   -3,274649978e-01    6,648850441e-02    0,000000000e+00    0,000000000e+00    0,000000000e+00    0,000000000e+00
      926000000    5,459722877e-02    2,618271708e-01   -2,109493762e-01    2,614500523e-01    0,000000000e+00    0,000000000e+00    0,000000000e+00    0,000000000e+00
      940000000    2,077159882e-01    8,328507841e-02   -2,962904423e-02    3,257727325e-01    0,000000000e+00    0,000000000e+00    0,000000000e+00    0,000000000e+00
      954000000    2,208067477e-01   -1,193464771e-01    1,317840964e-01    2,995226383e-01    0,000000000e+00    0,000000000e+00    0,000000000e+00    0,000000000e+00
      968000000    1,200385913e-01   -2,955612242e-01    2,692191601e-01    2,127521485e-01    0,000000000e+00    0,000000000e+00    0,000000000e+00    0,000000000e+00
      982000000   -7,935525477e-02   -3,866982758e-01    3,619458079e-01    6,486509740e-02    0,000000000e+00    0,000000000e+00    0,000000000e+00    0,000000000e+00
      996000000   -3,110515177e-01   -3,340733051e-01    3,625765443e-01   -1,438756436e-01    0,000000000e+00    0,000000000e+00    0,000000000e+00    0,000000000e+00
     1010000000   -4,634094536e-01   -1,147741005e-01    2,189183384e-01   -3,328967392e-01    0,000000000e+00    0,000000000e+00    0,000000000e+00    0,000000000e+00
     1024000000   -4,206663966e-01    1,449014395e-01   -2,963890880e-02   -3,844590485e-01    0,000000000e+00    0,000000000e+00    0,000000000e+00    0,000000000e+00
     1038000000   -2,194943875e-01    2,897544205e-01   -2,416498363e-01   -2,583545744e-01    0,000000000e+00    0,000000000e+00    0,000000000e+00    0,000000000e+00
     1052000000   -1,417256799e-02    2,843692899e-01   -3,116954565e-01   -4,745572433e-02    0,000000000e+00    0,000000000e+00    0,000000000e+00    0,000000000e+00
     1066000000    1,312971115e-01    1,712550372e-01   -2,518599331e-01    1,364504397e-01    0,000000000e+00    0,000000000e+00    0,000000000e+00    0,000000000e+00
     1080000000    1,916294992e-01    7,262016181e-03   -1,148402393e-01    2,550930679e-01    0,000000000e+00    0,000000000e+00    0,000000000e+00    0,000000000e+00
     1094000000    1,571393460e-01   -1,659056991e-01    5,934142321e-02    2,934525311e-01    0,000000000e+00    0,000000000e+00    0,000000000e+00    0,000000000e+00
     1108000000    1,735589094e-02   -2,904423475e-01    2,598917782e-01    2,322446406e-01    0,000000000e+00    0,000000000e+00    0,000000000e+00    0,000000000e+00
     1122000000   -2,112836242e-01   -2,830761075e-01    4,395890236e-01    2,458488010e-02    0,000000000e+00    0,000000000e+00    0,000000000e+00    0,000000000e+00
     1136000000   -3,230739534e-01   -2,535204403e-02    4,017544985e-01   -3,466689885e-01    0,000000000e+00    0,000000000e+00    0,000000000e+00    0,000000000e+00
     1150000000   -1,039263159e-01    1,351629347e-01    4,843018577e-02   -5,294778943e-01    0,000000000e+00    0,000000000e+00    0,000000000e+00    0,000000000e+00
     1164000000    8,118919283e-02   -2,001335099e-02   -2,544934452e-01   -4,025778770e-01    0,000000000e+00    0,000000000e+00    0,000000000e+00    0,000000000e+00
     1178000000    2,731797844e-02   -2,494236529e-01   -3,684550524e-01   -1,783197969e-01    0,000000000e+00    0,000000000e+00    0,000000000e+00    0,000000000e+00
     1192000000   -2,238772064e-01   -3,444384038e-01   -3,403547108e-01    4,035313427e-02    0,000000000e+00    0,000000000e+00    0,000000000e+00    0,000000000e+00
     1206000000   -4,819368422e-01   -1,806674749e-01   -1,919797510e-01    1,861914545e-01    0,000000000e+00    0,000000000e+00    0,000000000e+00    0,000000000e+00
     1220000000   -5,073087811e-01    1,367040426e-01   -1,058752555e-02    1,738331914e-01    0,000000000e+00    0,000000000e+00    0,000000000e+00    0,000000000e+00
     1234000000   -2,972401381e-01    3,476523757e-01    7,540979236e-02    7,970102131e-02    0,000000000e+00    0,000000000e+00    0,000000000e+00    0,000000000e+00
     1248000000   -6,766868383e-02    3,613000512e-01    6,674487144e-02   -7,956332411e-04    0,000000000e+00    0,000000000e+00    0,000000000e+00    0,000000000e+00
     1262000000    1,070551500e-01    2,540429831e-01    2,939019352e-02   -2,402956225e-02    0,000000000e+00    0,000000000e+00    0,000000000e+00    0,000000000e+00
     1276000000    1,996214986e-01    1,043853685e-01    6,246760488e-03   -1,098001935e-02    0,000000000e+00    0,000000000e+00    0,000000000e+00    0,000000000e+00
     1290000000    2,192237526e-01   -6,105480343e-02    3,153129015e-03    3,009046428e-02    0,000000000e+00    0,000000000e+00    0,000000000e+00    0,000000000e+00
     1304000000    1,644049883e-01   -2,339095324e-01    5,831954628e-02    5,825875327e-02    0,000000000e+00    0,000000000e+00    0,000000000e+00    0,000000000e+00
     1318000000    2,627919056e-02   -3,654859364e-01    1,688381433e-01    1,247011404e-02    0,000000000e+00    0,000000000e+00    0,000000000e+00    0,000000000e+00
     1332000000   -1,524314582e-01   -3,928497136e-01    9,763296694e-02   -1,782916039e-01    0,000000000e+00    0,000000000e+00    0,000000000e+00    0,000000000e+00
     1346000000   -3,619096875e-01   -3,955217302e-01   -4,778723791e-02   -2,299490571e-02    0,000000000e+00    0,000000000e+00    0,000000000e+00    0,000000000e+00
     1360000000   -5,919983387e-01   -2,028676271e-01    6,713128835e-02    8,356229216e-02    0,000000000e+00    0,000000000e+00    0,000000000e+00    0,000000000e+00
     1374000000   -6,317005157e-01    9,836923331e-02    1,773944050e-01    4,923687130e-02    0,000000000e+00    0,000000000e+00    0,000000000e+00    0,000000000e+00
     1388000000   -4,779754877e-01    3,548790216e-01    2,124951631e-01   -3,041052260e-02    0,000000000e+00    0,000000000e+00    0,000000000e+00    0,000000000e+00
     1402000000   -2,481199056e-01    4,465278089e-01    2,065033168e-01   -7,192051411e-02    0,000000000e+00    0,000000000e+00    0,000000000e+00    0,000000000e+00
     1416000000   -3,929194063e-02    4,059542716e-01    1,963091493e-01   -1,064517424e-01    0,000000000e+00    0,000000000e+00    0,000000000e+00    0,000000000e+00
     1430000000    1,162457317e-01    3,054497540e-01    1,651815921e-01   -1,051539555e-01    0,000000000e+00    0,000000000e+00    0,000000000e+00    0,000000000e+00
     1444000000    2,045052350e-01    1,551460028e-01    1,718710959e-01   -1,048045903e-01    0,000000000e+00    0,000000000e+00    0,000000000e+00    0,000000000e+00
     1458000000    2,296584696e-01   -1,400871668e-02    1,481970102e-01   -1,005791351e-01    0,000000000e+00    0,000000000e+00    0,000000000e+00    0,000000000e+00
     1472000000    1,913459748e-01   -1,929737628e-01    1,350885034e-01   -4,169679806e-02    0,000000000e+00    0,000000000e+00    0,000000000e+00    0,000000000e+00
     1486000000    7,039359957e-02   -3,670205176e-01    1,663129032e-01    7,543337066e-03    0,000000000e+00    0,000000000e+00    0,000000000e+00    0,000000000e+00
     1500000000   -1,537542641e-01   -4,846350253e-01    2,400516570e-01    9,362630546e-02    0,000000000e+00    0,000000000e+00    0,000000000e+00    0,000000000e+00
