! NanoVNA-App
! Date: 2025-09-25 15:43:04
! Start: 100MHz Stop: 1,5GHz Points: 101
! S-Parameter data: F S11 S21 S12 S22
# Hz S RI R 50
!     Frequency           S11_Real           S11_Imag           S21_Real           S21_Imag           S12_Real           S12_Imag           S22_Real           S22_Imag
      100000000   -2,878119610e-02   -4,257887136e-03    3,739718199e-01   -7,216437459e-01    0,000000000e+00    0,000000000e+00    0,000000000e+00    0,000000000e+00
      114000000   -1,654308662e-02    1,149304025e-02   -8,901730925e-02   -8,052854538e-01    0,000000000e+00    0,000000000e+00    0,000000000e+00    0,000000000e+00
      128000000    3,352520289e-03    1,075101271e-02   -5,145702958e-01   -6,204555035e-01    0,000000000e+00    0,000000000e+00    0,000000000e+00    0,000000000e+00
      142000000    1,460677758e-02   -2,657296369e-03   -7,666714787e-01   -2,364639640e-01    0,000000000e+00    0,000000000e+00    0,000000000e+00    0,000000000e+00
      156000000    1,577966474e-02   -1,473273523e-02   -7,709354162e-01    2,216505557e-01    0,000000000e+00    0,000000000e+00    0,000000000e+00    0,000000000e+00
      170000000    1,709457301e-02   -2,245943621e-02   -5,176956654e-01    6,045431495e-01    0,000000000e+00    0,000000000e+00    0,000000000e+00    0,000000000e+00
      184000000    2,131921239e-02   -3,717426956e-02   -1,014705300e-01    7,855827212e-01    0,000000000e+00    0,000000000e+00    0,000000000e+00    0,000000000e+00
      198000000    1,322480198e-02   -6,255500764e-02    3,431201279e-01    7,122414708e-01    0,000000000e+00    0,000000000e+00    0,000000000e+00    0,000000000e+00
      212000000   -1,849751174e-02   -8,125929534e-02    6,778085828e-01    4,098762274e-01    0,000000000e+00    0,000000000e+00    0,000000000e+00    0,000000000e+00
      226000000   -6,136439741e-02   -6,920804828e-02    7,954000235e-01   -3,049925528e-02    0,000000000e+00    0,000000000e+00    0,000000000e+00    0,000000000e+00
      240000000   -8,226595819e-02   -2,574844100e-02    6,459655166e-01   -4,669818580e-01    0,000000000e+00    0,000000000e+00    0,000000000e+00    0,000000000e+00
      254000000   -6,344108284e-02    1,693590544e-02    2,760030627e-01   -7,429320812e-01    0,000000000e+00    0,000000000e+00    0,000000000e+00    0,000000000e+00
      268000000   -2,407698520e-02    2,879749425e-02   -1,780297607e-01   -7,643374801e-01    0,000000000e+00    0,000000000e+00    0,000000000e+00    0,000000000e+00
      282000000    4,025090486e-03    1,215898339e-02   -5,615915656e-01   -5,356880426e-01    0,000000000e+00    0,000000000e+00    0,000000000e+00    0,000000000e+00
      296000000    9,878425859e-03   -7,504683919e-03   -7,595180869e-01   -1,395428479e-01    0,000000000e+00    0,000000000e+00    0,000000000e+00    0,000000000e+00
      310000000    1,151902042e-02   -1,595010608e-02   -7,111971378e-01    2,985640466e-01    0,000000000e+00    0,000000000e+00    0,000000000e+00    0,000000000e+00
      324000000    1,992588863e-02   -2,667727321e-02   -4,271706343e-01    6,367196441e-01    0,000000000e+00    0,000000000e+00    0,000000000e+00    0,000000000e+00
      338000000    2,561591007e-02   -5,219445750e-02   -1,028237399e-02    7,632021308e-01    0,000000000e+00    0,000000000e+00    0,000000000e+00    0,000000000e+00
      352000000    7,409711834e-03   -8,461975306e-02    4,060975313e-01    6,391751766e-01    0,000000000e+00    0,000000000e+00    0,000000000e+00    0,000000000e+00
      366000000   -3,452483937e-02   -9,525679052e-02    6,903218031e-01    3,109160960e-01    0,000000000e+00    0,000000000e+00    0,000000000e+00    0,000000000e+00
      380000000   -7,069782913e-02   -7,104723901e-02    7,467627525e-01   -1,258347929e-01    0,000000000e+00    0,000000000e+00    0,000000000e+00    0,000000000e+00
      394000000   -7,205656171e-02   -3,234227747e-02    5,467487574e-01   -5,202071667e-01    0,000000000e+00    0,000000000e+00    0,000000000e+00    0,000000000e+00
      408000000   -4,614776373e-02   -1,660035737e-02    1,606721133e-01   -7,318094373e-01    0,000000000e+00    0,000000000e+00    0,000000000e+00    0,000000000e+00
      422000000   -2,846046910e-02   -3,210719675e-02   -2,676213086e-01   -6,946066618e-01    0,000000000e+00    0,000000000e+00    0,000000000e+00    0,000000000e+00
      436000000   -4,062645882e-02   -5,170872435e-02   -6,041291356e-01   -4,321479797e-01    0,000000000e+00    0,000000000e+00    0,000000000e+00    0,000000000e+00
      450000000   -6,706736982e-02   -4,391118139e-02   -7,398557663e-01   -2,208799683e-02    0,000000000e+00    0,000000000e+00    0,000000000e+00    0,000000000e+00
      464000000   -7,283616066e-02   -1,219479553e-02   -6,179043651e-01    3,961776793e-01    0,000000000e+00    0,000000000e+00    0,000000000e+00    0,000000000e+00
      478000000   -4,767533392e-02    1,150714420e-02   -2,827928364e-01    6,671212912e-01    0,000000000e+00    0,000000000e+00    0,000000000e+00    0,000000000e+00
      492000000   -1,561689097e-02    5,709107500e-03    1,376310289e-01    7,015289068e-01    0,000000000e+00    0,000000000e+00    0,000000000e+00    0,000000000e+00
      506000000   -2,617209917e-03   -1,615728624e-02    4,973714948e-01    5,019653440e-01    0,000000000e+00    0,000000000e+00    0,000000000e+00    0,000000000e+00
      520000000   -4,872504622e-03   -3,133316338e-02    6,865528822e-01    1,418129355e-01    0,000000000e+00    0,000000000e+00    0,000000000e+00    0,000000000e+00
      534000000   -3,850399982e-03   -3,802470490e-02    6,427193284e-01   -2,614470124e-01    0,000000000e+00    0,000000000e+00    0,000000000e+00    0,000000000e+00
      548000000    6,100841798e-03   -5,396787077e-02    3,813922703e-01   -5,662755370e-01    0,000000000e+00    0,000000000e+00    0,000000000e+00    0,000000000e+00
      562000000    3,384158481e-03   -8,915652335e-02    2,723528771e-03   -6,717627048e-01    0,000000000e+00    0,000000000e+00    0,000000000e+00    0,000000000e+00
      576000000   -3,403333202e-02   -1,238807589e-01   -3,674903512e-01   -5,577940345e-01    0,000000000e+00    0,000000000e+00    0,000000000e+00    0,000000000e+00
      590000000   -9,563411027e-02   -1,226065159e-01   -6,192513108e-01   -2,652784884e-01    0,000000000e+00    0,000000000e+00    0,000000000e+00    0,000000000e+00
      604000000   -1,388652921e-01   -7,230888307e-02   -6,638065577e-01    1,366543621e-01    0,000000000e+00    0,000000000e+00    0,000000000e+00    0,000000000e+00
      618000000   -1,297048926e-01   -1,007355284e-02   -4,638853371e-01    4,929515719e-01    0,000000000e+00    0,000000000e+00    0,000000000e+00    0,000000000e+00
      632000000   -8,487256616e-02    1,563256234e-02   -1,000750735e-01    6,633791924e-01    0,000000000e+00    0,000000000e+00    0,000000000e+00    0,000000000e+00
      646000000   -5,203836784e-02    1,143883448e-03    2,856166363e-01    5,942251682e-01    0,000000000e+00    0,000000000e+00    0,000000000e+00    0,000000000e+00
      660000000   -5,423966423e-02   -2,082887292e-02    5,650581717e-01    3,233242929e-01    0,000000000e+00    0,000000000e+00    0,000000000e+00    0,000000000e+00
      674000000   -6,924346834e-02   -1,609322801e-02    6,407406926e-01   -6,325902045e-02    0,000000000e+00    0,000000000e+00    0,000000000e+00    0,000000000e+00
      688000000   -6,666908413e-02    9,906907566e-03    4,710023999e-01   -4,232432544e-01    0,000000000e+00    0,000000000e+00    0,000000000e+00    0,000000000e+00
      702000000   -3,520495072e-02    2,529567108e-02    1,202181652e-01   -6,074043512e-01    0,000000000e+00    0,000000000e+00    0,000000000e+00    0,000000000e+00
      716000000    4,135311116e-03    1,612519100e-02   -2,586398423e-01   -5,446332693e-01    0,000000000e+00    0,000000000e+00    0,000000000e+00    0,000000000e+00
      730000000    3,659080341e-02   -1,403933205e-02   -5,222952962e-01   -2,717544138e-01    0,000000000e+00    0,000000000e+00    0,000000000e+00    0,000000000e+00
      744000000    6,240180880e-02   -6,449165195e-02   -5,601328611e-01    9,833210707e-02    0,000000000e+00    0,000000000e+00    0,000000000e+00    0,000000000e+00
      758000000    6,157261133e-02   -1,518815756e-01   -3,667077422e-01    4,001453519e-01    0,000000000e+00    0,000000000e+00    0,000000000e+00    0,000000000e+00
      772000000   -1,772415452e-02   -2,564477921e-01   -4,544987157e-02    5,098918080e-01    0,000000000e+00    0,000000000e+00    0,000000000e+00    0,000000000e+00
      786000000   -2,031273693e-01   -2,909392416e-01    2,596400380e-01    3,988096714e-01    0,000000000e+00    0,000000000e+00    0,000000000e+00    0,000000000e+00
      800000000   -4,085585773e-01   -1,270053834e-01    4,073173106e-01    1,189177036e-01    0,000000000e+00    0,000000000e+00    0,000000000e+00    0,000000000e+00
      814000000   -3,774737716e-01    2,010472715e-01    2,965026200e-01   -1,511778086e-01    0,000000000e+00    0,000000000e+00    0,000000000e+00    0,000000000e+00
      828000000   -6,287766248e-02    3,469455242e-01    8,262413740e-02   -1,911867261e-01    0,000000000e+00    0,000000000e+00    0,000000000e+00    0,000000000e+00
      842000000    2,113404572e-01    1,859741956e-01   -4,381359555e-03   -9,340307117e-02    0,000000000e+00    0,000000000e+00    0,000000000e+00    0,000000000e+00
      856000000    2,661705017e-01   -1,056086347e-01    3,600368276e-02   -3,707898036e-02    0,000000000e+00    0,000000000e+00    0,000000000e+00    0,000000000e+00
      870000000    8,260788769e-02   -3,512092829e-01    8,876374364e-02   -9,730543196e-02    0,000000000e+00    0,000000000e+00    0,000000000e+00    0,000000000e+00
      884000000   -2,667782307e-01   -3,559144437e-01    1,082361769e-02   -2,274106443e-01    0,000000000e+00    0,000000000e+00    0,000000000e+00    0,000000000e+00
      898000000   -4,582003057e-01   -1,317470614e-02   -2,151290327e-01   -2,093152702e-01    0,000000000e+00    0,000000000e+00    0,000000000e+00    0,000000000e+00
      912000000   -2,350776345e-01    2,779510915e-01   -3,428043127e-01    7,770562172e-02    0,000000000e+00    0,000000000e+00    0,000000000e+00    0,000000000e+00
      926000000    5,477471650e-02    2,624285817e-01   -2,107903212e-01    2,619872093e-01    0,000000000e+00    0,000000000e+00    0,000000000e+00    0,000000000e+00
      940000000    2,077358812e-01    8,360263705e-02   -3,079584241e-02    3,248769939e-01    0,000000000e+00    0,000000000e+00    0,000000000e+00    0,000000000e+00
      954000000    2,202646285e-01   -1,230505854e-01    1,308571249e-01    2,998556197e-01    0,000000000e+00    0,000000000e+00    0,000000000e+00    0,000000000e+00
      968000000    1,186204329e-01   -2,967671752e-01    2,673510015e-01    2,136654407e-01    0,000000000e+00    0,000000000e+00    0,000000000e+00    0,000000000e+00
      982000000   -7,808064669e-02   -3,832314610e-01    3,595163524e-01    6,299021840e-02    0,000000000e+00    0,000000000e+00    0,000000000e+00    0,000000000e+00
      996000000   -3,124811947e-01   -3,334095180e-01    3,625483513e-01   -1,444862634e-01    0,000000000e+00    0,000000000e+00    0,000000000e+00    0,000000000e+00
     1010000000   -4,581946433e-01   -1,205487773e-01    2,193516046e-01   -3,344381750e-01    0,000000000e+00    0,000000000e+00    0,000000000e+00    0,000000000e+00
     1024000000   -4,137965441e-01    1,409034431e-01   -3,069877066e-02   -3,866497576e-01    0,000000000e+00    0,000000000e+00    0,000000000e+00    0,000000000e+00
     1038000000   -2,265548557e-01    2,890644968e-01   -2,403271198e-01   -2,574333847e-01    0,000000000e+00    0,000000000e+00    0,000000000e+00    0,000000000e+00
     1052000000   -1,460970938e-02    2,770751715e-01   -3,110874593e-01   -4,636430368e-02    0,000000000e+00    0,000000000e+00    0,000000000e+00    0,000000000e+00
     1066000000    1,315162480e-01    1,656645983e-01   -2,491205186e-01    1,394220293e-01    0,000000000e+00    0,000000000e+00    0,000000000e+00    0,000000000e+00
     1080000000    1,910877675e-01    9,940880351e-03   -1,135424823e-01    2,552683949e-01    0,000000000e+00    0,000000000e+00    0,000000000e+00    0,000000000e+00
     1094000000    1,589237303e-01   -1,605550945e-01    6,185696647e-02    2,930305898e-01    0,000000000e+00    0,000000000e+00    0,000000000e+00    0,000000000e+00
     1108000000    2,302554436e-02   -2,947936058e-01    2,575066090e-01    2,342248708e-01    0,000000000e+00    0,000000000e+00    0,000000000e+00    0,000000000e+00
     1122000000   -2,125769556e-01   -2,794165313e-01    4,412459433e-01    2,156244777e-02    0,000000000e+00    0,000000000e+00    0,000000000e+00    0,000000000e+00
     1136000000   -3,274443746e-01   -2,509596571e-02    4,020601809e-01   -3,487614393e-01    0,000000000e+00    0,000000000e+00    0,000000000e+00    0,000000000e+00
     1150000000   -1,104813069e-01    1,357871741e-01    4,943035915e-02   -5,306768417e-01    0,000000000e+00    0,000000000e+00    0,000000000e+00    0,000000000e+00
     1164000000    8,702004701e-02   -1,821295917e-02   -2,489617467e-01   -4,050848186e-01    0,000000000e+00    0,000000000e+00    0,000000000e+00    0,000000000e+00
     1178000000    2,566153184e-02   -2,523505390e-01   -3,710790873e-01   -1,777836531e-01    0,000000000e+00    0,000000000e+00    0,000000000e+00    0,000000000e+00
     1192000000   -2,235415280e-01   -3,503714502e-01   -3,427156508e-01    3,811283782e-02    0,000000000e+00    0,000000000e+00    0,000000000e+00    0,000000000e+00
     1206000000   -4,809093475e-01   -1,781730503e-01   -1,906155795e-01    1,862186641e-01    0,000000000e+00    0,000000000e+00    0,000000000e+00    0,000000000e+00
     1220000000   -5,049708486e-01    1,386547238e-01   -1,348011382e-02    1,744697094e-01    0,000000000e+00    0,000000000e+00    0,000000000e+00    0,000000000e+00
     1234000000   -3,041264117e-01    3,410867155e-01    7,213681936e-02    7,773578912e-02    0,000000000e+00    0,000000000e+00    0,000000000e+00    0,000000000e+00
     1248000000   -6,404575706e-02    3,541111946e-01    7,156991959e-02    8,563708980e-04    0,000000000e+00    0,000000000e+00    0,000000000e+00    0,000000000e+00
     1262000000    1,126063019e-01    2,648644745e-01    3,104538843e-02   -2,097187750e-02    0,000000000e+00    0,000000000e+00    0,000000000e+00    0,000000000e+00
     1276000000    2,055690885e-01    1,051635146e-01    8,963216096e-03   -1,314633340e-02    0,000000000e+00    0,000000000e+00    0,000000000e+00    0,000000000e+00
     1290000000    2,225174904e-01   -6,375966221e-02    1,752866246e-02    2,757494152e-02    0,000000000e+00    0,000000000e+00    0,000000000e+00    0,000000000e+00
     1304000000    1,666435897e-01   -2,313834876e-01    6,145186350e-02    5,953478068e-02    0,000000000e+00    0,000000000e+00    0,000000000e+00    0,000000000e+00
     1318000000    2,425168641e-02   -3,627109230e-01    1,725939512e-01    2,313114516e-02    0,000000000e+00    0,000000000e+00    0,000000000e+00    0,000000000e+00
     1332000000   -1,548498720e-01   -3,940853477e-01    9,896577150e-02   -1,764129549e-01    0,000000000e+00    0,000000000e+00    0,000000000e+00    0,000000000e+00
     1346000000   -3,661515713e-01   -3,893007934e-01   -5,788368732e-02   -2,332301065e-02    0,000000000e+00    0,000000000e+00    0,000000000e+00    0,000000000e+00
     1360000000   -5,846701264e-01   -2,026021183e-01    6,248603389e-02    9,509599954e-02    0,000000000e+00    0,000000000e+00    0,000000000e+00    0,000000000e+00
     1374000000   -6,258921623e-01    1,119723544e-01    1,764893532e-01    5,743430555e-02    0,000000000e+00    0,000000000e+00    0,000000000e+00    0,000000000e+00
     1388000000   -4,766856432e-01    3,546625376e-01    2,127161771e-01   -2,390376851e-02    0,000000000e+00    0,000000000e+00    0,000000000e+00    0,000000000e+00
     1402000000   -2,442520261e-01    4,491891265e-01    2,207849324e-01   -7,938653976e-02    0,000000000e+00    0,000000000e+00    0,000000000e+00    0,000000000e+00
     1416000000   -3,542451933e-02    4,159030318e-01    1,997658908e-01   -9,889078885e-02    0,000000000e+00    0,000000000e+00    0,000000000e+00    0,000000000e+00
     1430000000    1,128371581e-01    3,130046725e-01    1,679351777e-01   -1,112420186e-01    0,000000000e+00    0,000000000e+00    0,000000000e+00    0,000000000e+00
     1444000000    2,019553035e-01    1,572288126e-01    1,654825807e-01   -1,002665237e-01    0,000000000e+00    0,000000000e+00    0,000000000e+00    0,000000000e+00
     1458000000    2,314851284e-01   -1,557010505e-02    1,522615701e-01   -9,147093445e-02    0,000000000e+00    0,000000000e+00    0,000000000e+00    0,000000000e+00
     1472000000    1,920020282e-01   -1,957069784e-01    1,405757517e-01   -5,248427764e-02    0,000000000e+00    0,000000000e+00    0,000000000e+00    0,000000000e+00
     1486000000    7,374513894e-02   -3,647060096e-01    1,702300161e-01    1,475509722e-02    0,000000000e+00    0,000000000e+00    0,000000000e+00    0,000000000e+00
     1500000000   -1,561483592e-01   -4,948421121e-01    2,406085283e-01    8,799403906e-02    0,000000000e+00    0,000000000e+00    0,000000000e+00    0,000000000e+00
