! NanoVNA-App
! Date: 2025-09-25 15:44:44
! Start: 100MHz Stop: 1,5GHz Points: 101
! S-Parameter data: F S11 S21 S12 S22
# Hz S RI R 50
!     Frequency           S11_Real           S11_Imag           S21_Real           S21_Imag           S12_Real           S12_Imag           S22_Real           S22_Imag
      100000000   -2,875967510e-02   -4,254447296e-03    3,739688694e-01   -7,215521932e-01    0,000000000e+00    0,000000000e+00    0,000000000e+00    0,000000000e+00
      114000000   -1,652775891e-02    1,151709817e-02   -8,900198340e-02   -8,053944707e-01    0,000000000e+00    0,000000000e+00    0,000000000e+00    0,000000000e+00
      128000000    3,414038336e-03    1,069361530e-02   -5,142549872e-01   -6,201546192e-01    0,000000000e+00    0,000000000e+00    0,000000000e+00    0,000000000e+00
      142000000    1,467944309e-02   -2,661556704e-03   -7,668098807e-01   -2,364102602e-01    0,000000000e+00    0,000000000e+00    0,000000000e+00    0,000000000e+00
      156000000    1,536680199e-02   -1,486496255e-02   -7,688991427e-01    2,196210027e-01    0,000000000e+00    0,000000000e+00    0,000000000e+00    0,000000000e+00
      170000000    1,710844599e-02   -2,245581895e-02   -5,179706216e-01    6,042163968e-01    0,000000000e+00    0,000000000e+00    0,000000000e+00    0,000000000e+00
      184000000    2,135925181e-02   -3,711418062e-02   -1,015274301e-01    7,856551409e-01    0,000000000e+00    0,000000000e+00    0,000000000e+00    0,000000000e+00
      198000000    1,327472460e-02   -6,252000481e-02    3,430644572e-01    7,120695114e-01    0,000000000e+00    0,000000000e+00    0,000000000e+00    0,000000000e+00
      212000000   -1,843100041e-02   -8,128029853e-02    6,778354645e-01    4,096868932e-01    0,000000000e+00    0,000000000e+00    0,000000000e+00    0,000000000e+00
      226000000   -6,134805083e-02   -6,927343458e-02    7,954273820e-01   -3,047022410e-02    0,000000000e+00    0,000000000e+00    0,000000000e+00    0,000000000e+00
      240000000   -8,225706220e-02   -2,583638020e-02    6,458089948e-01   -4,666091800e-01    0,000000000e+00    0,000000000e+00    0,000000000e+00    0,000000000e+00
      254000000   -6,338956952e-02    1,696148887e-02    2,760070562e-01   -7,430517673e-01    0,000000000e+00    0,000000000e+00    0,000000000e+00    0,000000000e+00
      268000000   -2,388252690e-02    2,882227302e-02   -1,774964780e-01   -7,634478211e-01    0,000000000e+00    0,000000000e+00    0,000000000e+00    0,000000000e+00
      282000000    4,152131733e-03    1,209816709e-02   -5,615075827e-01   -5,356909037e-01    0,000000000e+00    0,000000000e+00    0,000000000e+00    0,000000000e+00
      296000000    9,902450256e-03   -7,574641146e-03   -7,595391273e-01   -1,396669745e-01    0,000000000e+00    0,000000000e+00    0,000000000e+00    0,000000000e+00
      310000000    1,141075976e-02   -1,591323875e-02   -7,108138800e-01    2,979831696e-01    0,000000000e+00    0,000000000e+00    0,000000000e+00    0,000000000e+00
      324000000    1,998850703e-02   -2,656711079e-02   -4,265258610e-01    6,366095543e-01    0,000000000e+00    0,000000000e+00    0,000000000e+00    0,000000000e+00
      338000000    2,548580989e-02   -5,207615718e-02   -1,131388359e-02    7,611987591e-01    0,000000000e+00    0,000000000e+00    0,000000000e+00    0,000000000e+00
      352000000    7,513626479e-03   -8,454210311e-02    4,061122537e-01    6,393023133e-01    0,000000000e+00    0,000000000e+00    0,000000000e+00    0,000000000e+00
      366000000   -3,435138986e-02   -9,555268288e-02    6,905753016e-01    3,108327687e-01    0,000000000e+00    0,000000000e+00    0,000000000e+00    0,000000000e+00
      380000000   -7,021342963e-02   -7,126288861e-02    7,474781275e-01   -1,257589012e-01    0,000000000e+00    0,000000000e+00    0,000000000e+00    0,000000000e+00
      394000000   -7,219891995e-02   -3,238619491e-02    5,467215776e-01   -5,223551393e-01    0,000000000e+00    0,000000000e+00    0,000000000e+00    0,000000000e+00
      408000000   -4,625852406e-02   -1,654425636e-02    1,609922647e-01   -7,319387197e-01    0,000000000e+00    0,000000000e+00    0,000000000e+00    0,000000000e+00
      422000000   -2,861553431e-02   -3,204940259e-02   -2,673408091e-01   -6,944867373e-01    0,000000000e+00    0,000000000e+00    0,000000000e+00    0,000000000e+00
      436000000   -4,066840932e-02   -5,178421363e-02   -6,036899686e-01   -4,318795204e-01    0,000000000e+00    0,000000000e+00    0,000000000e+00    0,000000000e+00
      450000000   -6,680165231e-02   -4,380659014e-02   -7,399747372e-01   -2,180319838e-02    0,000000000e+00    0,000000000e+00    0,000000000e+00    0,000000000e+00
      464000000   -7,318580896e-02   -1,154817175e-02   -6,179508567e-01    3,970615864e-01    0,000000000e+00    0,000000000e+00    0,000000000e+00    0,000000000e+00
      478000000   -4,779990390e-02    1,132999919e-02   -2,823072970e-01    6,673564911e-01    0,000000000e+00    0,000000000e+00    0,000000000e+00    0,000000000e+00
      492000000   -1,540563721e-02    5,885290448e-03    1,368630230e-01    7,009105682e-01    0,000000000e+00    0,000000000e+00    0,000000000e+00    0,000000000e+00
      506000000   -2,784848446e-03   -1,592665911e-02    4,969621897e-01    5,021104813e-01    0,000000000e+00    0,000000000e+00    0,000000000e+00    0,000000000e+00
      520000000   -4,743780941e-03   -3,146374226e-02    6,866217852e-01    1,420749724e-01    0,000000000e+00    0,000000000e+00    0,000000000e+00    0,000000000e+00
      534000000   -3,781934269e-03   -3,820034862e-02    6,432196498e-01   -2,620637119e-01    0,000000000e+00    0,000000000e+00    0,000000000e+00    0,000000000e+00
      548000000    6,159149110e-03   -5,429131165e-02    3,813655078e-01   -5,661268830e-01    0,000000000e+00    0,000000000e+00    0,000000000e+00    0,000000000e+00
      562000000    3,089338075e-03   -8,944835514e-02    3,005096922e-03   -6,712077260e-01    0,000000000e+00    0,000000000e+00    0,000000000e+00    0,000000000e+00
      576000000   -3,399344161e-02   -1,236932129e-01   -3,678731024e-01   -5,572338104e-01    0,000000000e+00    0,000000000e+00    0,000000000e+00    0,000000000e+00
      590000000   -9,564559162e-02   -1,229810342e-01   -6,184384823e-01   -2,645608187e-01    0,000000000e+00    0,000000000e+00    0,000000000e+00    0,000000000e+00
      604000000   -1,392646730e-01   -7,224835455e-02   -6,646446586e-01    1,366209835e-01    0,000000000e+00    0,000000000e+00    0,000000000e+00    0,000000000e+00
      618000000   -1,298114210e-01   -1,034155022e-02   -4,651378393e-01    4,930804968e-01    0,000000000e+00    0,000000000e+00    0,000000000e+00    0,000000000e+00
      632000000   -8,457045257e-02    1,670668088e-02   -1,004790738e-01    6,619085670e-01    0,000000000e+00    0,000000000e+00    0,000000000e+00    0,000000000e+00
      646000000   -5,135510862e-02    8,751265705e-05    2,860563695e-01    5,937156081e-01    0,000000000e+00    0,000000000e+00    0,000000000e+00    0,000000000e+00
      660000000   -5,401824042e-02   -2,046382427e-02    5,651597977e-01    3,235273361e-01    0,000000000e+00    0,000000000e+00    0,000000000e+00    0,000000000e+00
      674000000   -6,909966469e-02   -1,642607525e-02    6,411851048e-01   -6,333258748e-02    0,000000000e+00    0,000000000e+00    0,000000000e+00    0,000000000e+00
      688000000   -6,704888493e-02    8,508814499e-03    4,717971981e-01   -4,238766134e-01    0,000000000e+00    0,000000000e+00    0,000000000e+00    0,000000000e+00
      702000000   -3,707449511e-02    2,658207342e-02    1,259768158e-01   -6,086686850e-01    0,000000000e+00    0,000000000e+00    0,000000000e+00    0,000000000e+00
      716000000    4,223702941e-03    1,576612704e-02   -2,598746717e-01   -5,455013514e-01    0,000000000e+00    0,000000000e+00    0,000000000e+00    0,000000000e+00
      730000000    3,630558029e-02   -1,432864554e-02   -5,217132568e-01   -2,711442411e-01    0,000000000e+00    0,000000000e+00    0,000000000e+00    0,000000000e+00
      744000000    6,211740151e-02   -6,579765677e-02   -5,605310202e-01    9,795638174e-02    0,000000000e+00    0,000000000e+00    0,000000000e+00    0,000000000e+00
      758000000    6,110414863e-02   -1,511894166e-01   -3,662077487e-01    4,002375305e-01    0,000000000e+00    0,000000000e+00    0,000000000e+00    0,000000000e+00
      772000000   -1,768636890e-02   -2,554128468e-01   -4,450275376e-02    5,096378922e-01    0,000000000e+00    0,000000000e+00    0,000000000e+00    0,000000000e+00
      786000000   -2,023983151e-01   -2,912057936e-01    2,592715919e-01    3,991784453e-01    0,000000000e+00    0,000000000e+00    0,000000000e+00    0,000000000e+00
      800000000   -4,075701833e-01   -1,268846989e-01    4,078696966e-01    1,190950051e-01    0,000000000e+00    0,000000000e+00    0,000000000e+00    0,000000000e+00
      814000000   -3,779365122e-01    2,020035088e-01    2,966177464e-01   -1,515234411e-01    0,000000000e+00    0,000000000e+00    0,000000000e+00    0,000000000e+00
      828000000   -6,291727722e-02    3,471063375e-01    8,334613591e-02   -1,913465261e-01    0,000000000e+00    0,000000000e+00    0,000000000e+00    0,000000000e+00
      842000000    2,117280066e-01    1,860588938e-01   -3,758087987e-03   -9,311851114e-02    0,000000000e+00    0,000000000e+00    0,000000000e+00    0,000000000e+00
      856000000    2,662327290e-01   -1,051585674e-01    3,541114926e-02   -3,772423789e-02    0,000000000e+00    0,000000000e+00    0,000000000e+00    0,000000000e+00
      870000000    8,294682205e-02   -3,516237736e-01    8,856701851e-02   -9,728221595e-02    0,000000000e+00    0,000000000e+00    0,000000000e+00    0,000000000e+00
      884000000   -2,670517564e-01   -3,557722569e-01    1,124891639e-02   -2,270884663e-01    0,000000000e+00    0,000000000e+00    0,000000000e+00    0,000000000e+00
      898000000   -4,581585824e-01   -1,353317499e-02   -2,155275792e-01   -2,089670300e-01    0,000000000e+00    0,000000000e+00    0,000000000e+00    0,000000000e+00
      912000000   -2,354260832e-01    2,787478268e-01   -3,444711566e-01    7,464650273e-02    0,000000000e+00    0,000000000e+00    0,000000000e+00    0,000000000e+00
      926000000    5,434518307e-02    2,605901062e-01   -2,109531462e-01    2,610090673e-01    0,000000000e+00    0,000000000e+00    0,000000000e+00    0,000000000e+00
      940000000    2,094023526e-01    8,317045122e-02   -3,003608808e-02    3,240538538e-01    0,000000000e+00    0,000000000e+00    0,000000000e+00    0,000000000e+00
      954000000    2,217948288e-01   -1,233602166e-01    1,314186752e-01    3,003091216e-01    0,000000000e+00    0,000000000e+00    0,000000000e+00    0,000000000e+00
      968000000    1,206975207e-01   -2,934370041e-01    2,684817314e-01    2,119810134e-01    0,000000000e+00    0,000000000e+00    0,000000000e+00    0,000000000e+00
      982000000   -7,716293633e-02   -3,828795254e-01    3,616431952e-01    6,406582147e-02    0,000000000e+00    0,000000000e+00    0,000000000e+00    0,000000000e+00
      996000000   -3,115051091e-01   -3,288476169e-01    3,630971611e-01   -1,431613415e-01    0,000000000e+00    0,000000000e+00    0,000000000e+00    0,000000000e+00
     1010000000   -4,629266858e-01   -1,163133979e-01    2,197468579e-01   -3,347121775e-01    0,000000000e+00    0,000000000e+00    0,000000000e+00    0,000000000e+00
     1024000000   -4,196406901e-01    1,430311650e-01   -3,467557579e-02   -3,876244724e-01    0,000000000e+00    0,000000000e+00    0,000000000e+00    0,000000000e+00
     1038000000   -2,216179967e-01    2,850493491e-01   -2,421957403e-01   -2,565289140e-01    0,000000000e+00    0,000000000e+00    0,000000000e+00    0,000000000e+00
     1052000000   -1,592154801e-02    2,828653157e-01   -3,105483949e-01   -4,717267305e-02    0,000000000e+00    0,000000000e+00    0,000000000e+00    0,000000000e+00
     1066000000    1,306979656e-01    1,688176543e-01   -2,505199909e-01    1,392639130e-01    0,000000000e+00    0,000000000e+00    0,000000000e+00    0,000000000e+00
     1080000000    1,922938377e-01    6,401355844e-03   -1,117155924e-01    2,531362772e-01    0,000000000e+00    0,000000000e+00    0,000000000e+00    0,000000000e+00
     1094000000    1,572767645e-01   -1,628063023e-01    6,031909585e-02    2,898497880e-01    0,000000000e+00    0,000000000e+00    0,000000000e+00    0,000000000e+00
     1108000000    2,238296345e-02   -2,952574193e-01    2,609271407e-01    2,342172116e-01    0,000000000e+00    0,000000000e+00    0,000000000e+00    0,000000000e+00
     1122000000   -2,130975127e-01   -2,788845003e-01    4,377946854e-01    2,578912489e-02    0,000000000e+00    0,000000000e+00    0,000000000e+00    0,000000000e+00
     1136000000   -3,278863728e-01   -2,803270333e-02    4,016156495e-01   -3,458966315e-01    0,000000000e+00    0,000000000e+00    0,000000000e+00    0,000000000e+00
     1150000000   -1,111444086e-01    1,383572817e-01    4,734719917e-02   -5,291356444e-01    0,000000000e+00    0,000000000e+00    0,000000000e+00    0,000000000e+00
     1164000000    8,546794951e-02   -2,011144720e-02   -2,535881400e-01   -4,043240249e-01    0,000000000e+00    0,000000000e+00    0,000000000e+00    0,000000000e+00
     1178000000    2,954138257e-02   -2,497348934e-01   -3,666127622e-01   -1,796049327e-01    0,000000000e+00    0,000000000e+00    0,000000000e+00    0,000000000e+00
     1192000000   -2,231613547e-01   -3,486489356e-01   -3,444531858e-01    3,863042966e-02    0,000000000e+00    0,000000000e+00    0,000000000e+00    0,000000000e+00
     1206000000   -4,794662893e-01   -1,796578318e-01   -1,869744658e-01    1,879214644e-01    0,000000000e+00    0,000000000e+00    0,000000000e+00    0,000000000e+00
     1220000000   -5,055741072e-01    1,402185857e-01   -1,446297206e-02    1,779717803e-01    0,000000000e+00    0,000000000e+00    0,000000000e+00    0,000000000e+00
     1234000000   -2,960024774e-01    3,454671502e-01    7,702427357e-02    7,905881852e-02    0,000000000e+00    0,000000000e+00    0,000000000e+00    0,000000000e+00
     1248000000   -6,008763611e-02    3,621944785e-01    6,904930621e-02    1,274448121e-03    0,000000000e+00    0,000000000e+00    0,000000000e+00    0,000000000e+00
     1262000000    1,117307842e-01    2,537149191e-01    3,500924632e-02   -2,742312476e-02    0,000000000e+00    0,000000000e+00    0,000000000e+00    0,000000000e+00
     1276000000    2,025112212e-01    1,045244262e-01    8,107355796e-03   -1,007553842e-02    0,000000000e+00    0,000000000e+00    0,000000000e+00    0,000000000e+00
     1290000000    2,228776366e-01   -6,079798192e-02    1,413604803e-02    2,353185415e-02    0,000000000e+00    0,000000000e+00    0,000000000e+00    0,000000000e+00
     1304000000    1,682246029e-01   -2,349983752e-01    6,140436977e-02    6,050553173e-02    0,000000000e+00    0,000000000e+00    0,000000000e+00    0,000000000e+00
     1318000000    2,939509787e-02   -3,636195660e-01    1,794206351e-01    1,606530696e-02    0,000000000e+00    0,000000000e+00    0,000000000e+00    0,000000000e+00
     1332000000   -1,509348601e-01   -3,937820494e-01    1,058272347e-01   -1,784389466e-01    0,000000000e+00    0,000000000e+00    0,000000000e+00    0,000000000e+00
     1346000000   -3,555901349e-01   -3,912388682e-01   -4,925750196e-02   -2,426951751e-02    0,000000000e+00    0,000000000e+00    0,000000000e+00    0,000000000e+00
     1360000000   -5,848742127e-01   -2,009623349e-01    6,095876917e-02    9,243442863e-02    0,000000000e+00    0,000000000e+00    0,000000000e+00    0,000000000e+00
     1374000000   -6,346770525e-01    1,100502461e-01    1,697534323e-01    5,842082575e-02    0,000000000e+00    0,000000000e+00    0,000000000e+00    0,000000000e+00
     1388000000   -4,759329557e-01    3,499619067e-01    2,286092937e-01   -3,076529130e-02    0,000000000e+00    0,000000000e+00    0,000000000e+00    0,000000000e+00
     1402000000   -2,443063110e-01    4,436353743e-01    2,085205317e-01   -8,027625084e-02    0,000000000e+00    0,000000000e+00    0,000000000e+00    0,000000000e+00
     1416000000   -3,379911557e-02    4,107190967e-01    2,037283778e-01   -1,125745922e-01    0,000000000e+00    0,000000000e+00    0,000000000e+00    0,000000000e+00
     1430000000    1,120543778e-01    3,087697327e-01    1,709577888e-01   -1,054212078e-01    0,000000000e+00    0,000000000e+00    0,000000000e+00    0,000000000e+00
     1444000000    2,001122385e-01    1,584340483e-01    1,640682966e-01   -1,132398620e-01    0,000000000e+00    0,000000000e+00    0,000000000e+00    0,000000000e+00
     1458000000    2,346008718e-01   -1,632364839e-02    1,529681236e-01   -8,851276338e-02    0,000000000e+00    0,000000000e+00    0,000000000e+00    0,000000000e+00
     1472000000    1,905878782e-01   -1,954612732e-01    1,396474540e-01   -5,366763473e-02    0,000000000e+00    0,000000000e+00    0,000000000e+00    0,000000000e+00
     1486000000    7,149329036e-02   -3,663268685e-01    1,658024043e-01    1,199125312e-02    0,000000000e+00    0,000000000e+00    0,000000000e+00    0,000000000e+00
     1500000000   -1,584853977e-01   -4,889432192e-01    2,391923219e-01    8,591764420e-02    0,000000000e+00    0,000000000e+00    0,000000000e+00    0,000000000e+00
