! NanoVNA-App
! Date: 2025-09-25 15:38:39
! Start: 100MHz Stop: 1,5GHz Points: 101
! S-Parameter data: F S11 S21 S12 S22
# Hz S RI R 50
!     Frequency           S11_Real           S11_Imag           S21_Real           S21_Imag           S12_Real           S12_Imag           S22_Real           S22_Imag
      100000000   -2,866824530e-02   -4,245394375e-03    3,738657236e-01   -7,215576172e-01    0,000000000e+00    0,000000000e+00    0,000000000e+00    0,000000000e+00
      114000000   -1,646152325e-02    1,146804355e-02   -8,913038671e-02   -8,052434921e-01    0,000000000e+00    0,000000000e+00    0,000000000e+00    0,000000000e+00
      128000000    3,464178182e-03    1,068633795e-02   -5,144271851e-01   -6,201371551e-01    0,000000000e+00    0,000000000e+00    0,000000000e+00    0,000000000e+00
      142000000    1,469335612e-02   -2,607658040e-03   -7,667212486e-01   -2,363697290e-01    0,000000000e+00    0,000000000e+00    0,000000000e+00    0,000000000e+00
      156000000    1,607744768e-02   -1,418893971e-02   -7,685565352e-01    2,236309350e-01    0,000000000e+00    0,000000000e+00    0,000000000e+00    0,000000000e+00
      170000000    1,716803201e-02   -2,246901579e-02   -5,174752474e-01    6,043391824e-01    0,000000000e+00    0,000000000e+00    0,000000000e+00    0,000000000e+00
      184000000    2,138681337e-02   -3,719472885e-02   -1,009118259e-01    7,859176397e-01    0,000000000e+00    0,000000000e+00    0,000000000e+00    0,000000000e+00
      198000000    1,326933969e-02   -6,258978695e-02    3,432071507e-01    7,120049596e-01    0,000000000e+00    0,000000000e+00    0,000000000e+00    0,000000000e+00
      212000000   -1,843891665e-02   -8,123928308e-02    6,777975559e-01    4,097987115e-01    0,000000000e+00    0,000000000e+00    0,000000000e+00    0,000000000e+00
      226000000   -6,126296520e-02   -6,919785589e-02    7,953322530e-01   -3,058646806e-02    0,000000000e+00    0,000000000e+00    0,000000000e+00    0,000000000e+00
      240000000   -8,210054785e-02   -2,586770244e-02    6,456587911e-01   -4,666726589e-01    0,000000000e+00    0,000000000e+00    0,000000000e+00    0,000000000e+00
      254000000   -6,329426914e-02    1,686681435e-02    2,758476138e-01   -7,427403927e-01    0,000000000e+00    0,000000000e+00    0,000000000e+00    0,000000000e+00
      268000000   -2,391510457e-02    2,863094024e-02   -1,778780520e-01   -7,639536262e-01    0,000000000e+00    0,000000000e+00    0,000000000e+00    0,000000000e+00
      282000000    4,068147391e-03    1,203052700e-02   -5,615460873e-01   -5,349696279e-01    0,000000000e+00    0,000000000e+00    0,000000000e+00    0,000000000e+00
      296000000    9,809806012e-03   -7,594052237e-03   -7,592713237e-01   -1,392723769e-01    0,000000000e+00    0,000000000e+00    0,000000000e+00    0,000000000e+00
      310000000    1,150519773e-02   -1,602060720e-02   -7,113639116e-01    2,987044752e-01    0,000000000e+00    0,000000000e+00    0,000000000e+00    0,000000000e+00
      324000000    1,988568902e-02   -2,684754133e-02   -4,272877276e-01    6,373625398e-01    0,000000000e+00    0,000000000e+00    0,000000000e+00    0,000000000e+00
      338000000    2,570795827e-02   -5,249618739e-02   -8,323205635e-03    7,629507780e-01    0,000000000e+00    0,000000000e+00    0,000000000e+00    0,000000000e+00
      352000000    7,521834224e-03   -8,485449106e-02    4,057842493e-01    6,389781237e-01    0,000000000e+00    0,000000000e+00    0,000000000e+00    0,000000000e+00
      366000000   -3,433147445e-02   -9,544536471e-02    6,908108592e-01    3,109830022e-01    0,000000000e+00    0,000000000e+00    0,000000000e+00    0,000000000e+00
      380000000   -7,013789564e-02   -7,107917964e-02    7,469036579e-01   -1,261215061e-01    0,000000000e+00    0,000000000e+00    0,000000000e+00    0,000000000e+00
      394000000   -7,223147899e-02   -3,289310634e-02    5,463120937e-01   -5,207906365e-01    0,000000000e+00    0,000000000e+00    0,000000000e+00    0,000000000e+00
      408000000   -4,633736610e-02   -1,652381197e-02    1,598110497e-01   -7,315916419e-01    0,000000000e+00    0,000000000e+00    0,000000000e+00    0,000000000e+00
      422000000   -2,817026153e-02   -3,248640522e-02   -2,669331729e-01   -6,947456598e-01    0,000000000e+00    0,000000000e+00    0,000000000e+00    0,000000000e+00
      436000000   -4,049885646e-02   -5,181559175e-02   -6,028307676e-01   -4,318640232e-01    0,000000000e+00    0,000000000e+00    0,000000000e+00    0,000000000e+00
      450000000   -6,720015407e-02   -4,379468039e-02   -7,400012016e-01   -2,146886289e-02    0,000000000e+00    0,000000000e+00    0,000000000e+00    0,000000000e+00
      464000000   -7,274535298e-02   -1,168216765e-02   -6,181243658e-01    3,969912529e-01    0,000000000e+00    0,000000000e+00    0,000000000e+00    0,000000000e+00
      478000000   -4,742867872e-02    1,093289815e-02   -2,831048965e-01    6,664619446e-01    0,000000000e+00    0,000000000e+00    0,000000000e+00    0,000000000e+00
      492000000   -1,606330089e-02    5,680792499e-03    1,365758032e-01    7,008319497e-01    0,000000000e+00    0,000000000e+00    0,000000000e+00    0,000000000e+00
      506000000   -2,566537820e-03   -1,571247168e-02    4,980396926e-01    5,018046498e-01    0,000000000e+00    0,000000000e+00    0,000000000e+00    0,000000000e+00
      520000000   -5,034527276e-03   -3,146151453e-02    6,883159280e-01    1,408204734e-01    0,000000000e+00    0,000000000e+00    0,000000000e+00    0,000000000e+00
      534000000   -3,636059118e-03   -3,826270625e-02    6,426814795e-01   -2,619462013e-01    0,000000000e+00    0,000000000e+00    0,000000000e+00    0,000000000e+00
      548000000    6,123016123e-03   -5,373558402e-02    3,807539642e-01   -5,655826926e-01    0,000000000e+00    0,000000000e+00    0,000000000e+00    0,000000000e+00
      562000000    3,488118062e-03   -8,961822093e-02    2,427740023e-03   -6,716717482e-01    0,000000000e+00    0,000000000e+00    0,000000000e+00    0,000000000e+00
      576000000   -3,351315483e-02   -1,242497340e-01   -3,685885072e-01   -5,568177700e-01    0,000000000e+00    0,000000000e+00    0,000000000e+00    0,000000000e+00
      590000000   -9,583843499e-02   -1,226921082e-01   -6,202947497e-01   -2,626290917e-01    0,000000000e+00    0,000000000e+00    0,000000000e+00    0,000000000e+00
      604000000   -1,384414881e-01   -7,222483307e-02   -6,636295915e-01    1,370542198e-01    0,000000000e+00    0,000000000e+00    0,000000000e+00    0,000000000e+00
      618000000   -1,293741614e-01   -1,056994498e-02   -4,646117687e-01    4,932178855e-01    0,000000000e+00    0,000000000e+00    0,000000000e+00    0,000000000e+00
      632000000   -8,397358656e-02    1,548778545e-02   -1,005949527e-01    6,620146632e-01    0,000000000e+00    0,000000000e+00    0,000000000e+00    0,000000000e+00
      646000000   -5,152747035e-02   -4,724297833e-05    2,855737507e-01    5,951085091e-01    0,000000000e+00    0,000000000e+00    0,000000000e+00    0,000000000e+00
      660000000   -5,300714821e-02   -2,072962001e-02    5,644311309e-01    3,228274286e-01    0,000000000e+00    0,000000000e+00    0,000000000e+00    0,000000000e+00
      674000000   -6,921455264e-02   -1,625408046e-02    6,404673457e-01   -6,343068182e-02    0,000000000e+00    0,000000000e+00    0,000000000e+00    0,000000000e+00
      688000000   -6,651821733e-02    9,726517834e-03    4,710377455e-01   -4,240888059e-01    0,000000000e+00    0,000000000e+00    0,000000000e+00    0,000000000e+00
      702000000   -3,585047647e-02    2,685149573e-02    1,204940826e-01   -6,099482775e-01    0,000000000e+00    0,000000000e+00    0,000000000e+00    0,000000000e+00
      716000000    4,246375524e-03    1,591185294e-02   -2,581991851e-01   -5,453777313e-01    0,000000000e+00    0,000000000e+00    0,000000000e+00    0,000000000e+00
      730000000    3,731770441e-02   -1,349094883e-02   -5,225349665e-01   -2,713853419e-01    0,000000000e+00    0,000000000e+00    0,000000000e+00    0,000000000e+00
      744000000    6,321337074e-02   -6,453251094e-02   -5,601522923e-01    9,886899590e-02    0,000000000e+00    0,000000000e+00    0,000000000e+00    0,000000000e+00
      758000000    6,104236096e-02   -1,514435709e-01   -3,654704988e-01    4,000289738e-01    0,000000000e+00    0,000000000e+00    0,000000000e+00    0,000000000e+00
      772000000   -1,677984186e-02   -2,557175756e-01   -4,584294185e-02    5,078032017e-01    0,000000000e+00    0,000000000e+00    0,000000000e+00    0,000000000e+00
      786000000   -2,032340914e-01   -2,911287248e-01    2,589872181e-01    3,982143998e-01    0,000000000e+00    0,000000000e+00    0,000000000e+00    0,000000000e+00
      800000000   -4,072873890e-01   -1,269840598e-01    4,062810242e-01    1,184005961e-01    0,000000000e+00    0,000000000e+00    0,000000000e+00    0,000000000e+00
      814000000   -3,755249679e-01    2,027675807e-01    2,956305146e-01   -1,512186378e-01    0,000000000e+00    0,000000000e+00    0,000000000e+00    0,000000000e+00
      828000000   -6,272468716e-02    3,473682702e-01    8,233097941e-02   -1,896694005e-01    0,000000000e+00    0,000000000e+00    0,000000000e+00    0,000000000e+00
      842000000    2,120010704e-01    1,845038980e-01   -3,146057017e-03   -9,277138114e-02    0,000000000e+00    0,000000000e+00    0,000000000e+00    0,000000000e+00
      856000000    2,658044100e-01   -1,064538807e-01    3,719439358e-02   -3,725404292e-02    0,000000000e+00    0,000000000e+00    0,000000000e+00    0,000000000e+00
      870000000    8,163957298e-02   -3,515120745e-01    8,907976747e-02   -9,780473262e-02    0,000000000e+00    0,000000000e+00    0,000000000e+00    0,000000000e+00
      884000000   -2,680323422e-01   -3,554958701e-01    1,131746452e-02   -2,280211598e-01    0,000000000e+00    0,000000000e+00    0,000000000e+00    0,000000000e+00
      898000000   -4,572820365e-01   -1,236665435e-02   -2,162150443e-01   -2,093633711e-01    0,000000000e+00    0,000000000e+00    0,000000000e+00    0,000000000e+00
      912000000   -2,345318943e-01    2,789765596e-01   -3,413372338e-01    8,110278845e-02    0,000000000e+00    0,000000000e+00    0,000000000e+00    0,000000000e+00
      926000000    5,403517559e-02    2,619376183e-01   -2,098395377e-01    2,625886798e-01    0,000000000e+00    0,000000000e+00    0,000000000e+00    0,000000000e+00
      940000000    2,094009817e-01    8,565173298e-02   -3,075812198e-02    3,262599111e-01    0,000000000e+00    0,000000000e+00    0,000000000e+00    0,000000000e+00
      954000000    2,218764871e-01   -1,226518601e-01    1,335676312e-01    2,997304797e-01    0,000000000e+00    0,000000000e+00    0,000000000e+00    0,000000000e+00
      968000000    1,194290444e-01   -2,925049961e-01    2,684434950e-01    2,125152051e-01    0,000000000e+00    0,000000000e+00    0,000000000e+00    0,000000000e+00
      982000000   -7,655163854e-02   -3,882810771e-01    3,617706895e-01    6,165236980e-02    0,000000000e+00    0,000000000e+00    0,000000000e+00    0,000000000e+00
      996000000   -3,105027378e-01   -3,333037198e-01    3,625054955e-01   -1,437917054e-01    0,000000000e+00    0,000000000e+00    0,000000000e+00    0,000000000e+00
     1010000000   -4,646728635e-01   -1,183361486e-01    2,200099975e-01   -3,355506361e-01    0,000000000e+00    0,000000000e+00    0,000000000e+00    0,000000000e+00
     1024000000   -4,123574793e-01    1,460915357e-01   -3,300966322e-02   -3,863773048e-01    0,000000000e+00    0,000000000e+00    0,000000000e+00    0,000000000e+00
     1038000000   -2,247108221e-01    2,920653224e-01   -2,426562905e-01   -2,562305927e-01    0,000000000e+00    0,000000000e+00    0,000000000e+00    0,000000000e+00
     1052000000   -1,697372086e-02    2,819699943e-01   -3,112472594e-01   -4,585491866e-02    0,000000000e+00    0,000000000e+00    0,000000000e+00    0,000000000e+00
     1066000000    1,308953762e-01    1,664235741e-01   -2,513878345e-01    1,366532445e-01    0,000000000e+00    0,000000000e+00    0,000000000e+00    0,000000000e+00
     1080000000    1,942762882e-01    1,071317587e-02   -1,155136451e-01    2,538750172e-01    0,000000000e+00    0,000000000e+00    0,000000000e+00    0,000000000e+00
     1094000000    1,584192961e-01   -1,616905928e-01    5,874031410e-02    2,910271883e-01    0,000000000e+00    0,000000000e+00    0,000000000e+00    0,000000000e+00
     1108000000    2,179136313e-02   -2,954878509e-01    2,563233078e-01    2,343171090e-01    0,000000000e+00    0,000000000e+00    0,000000000e+00    0,000000000e+00
     1122000000   -2,177294940e-01   -2,845293880e-01    4,412651658e-01    2,297248878e-02    0,000000000e+00    0,000000000e+00    0,000000000e+00    0,000000000e+00
     1136000000   -3,249542117e-01   -2,618966252e-02    4,002850354e-01   -3,437602520e-01    0,000000000e+00    0,000000000e+00    0,000000000e+00    0,000000000e+00
     1150000000   -1,007982641e-01    1,351735741e-01    4,479216412e-02   -5,294788480e-01    0,000000000e+00    0,000000000e+00    0,000000000e+00    0,000000000e+00
     1164000000    8,673215657e-02   -2,046492882e-02   -2,529760897e-01   -4,045709670e-01    0,000000000e+00    0,000000000e+00    0,000000000e+00    0,000000000e+00
     1178000000    2,772695385e-02   -2,542885244e-01   -3,678618968e-01   -1,766722649e-01    0,000000000e+00    0,000000000e+00    0,000000000e+00    0,000000000e+00
     1192000000   -2,226763368e-01   -3,484583795e-01   -3,383823931e-01    3,853247687e-02    0,000000000e+00    0,000000000e+00    0,000000000e+00    0,000000000e+00
     1206000000   -4,859304726e-01   -1,814091653e-01   -1,915757954e-01    1,839095801e-01    0,000000000e+00    0,000000000e+00    0,000000000e+00    0,000000000e+00
     1220000000   -5,052323937e-01    1,385744363e-01   -1,321298629e-02    1,750366539e-01    0,000000000e+00    0,000000000e+00    0,000000000e+00    0,000000000e+00
     1234000000   -2,973252237e-01    3,380245864e-01    7,475300133e-02    7,424773276e-02    0,000000000e+00    0,000000000e+00    0,000000000e+00    0,000000000e+00
     1248000000   -5,625401437e-02    3,584697545e-01    6,833343208e-02    6,738472148e-04    0,000000000e+00    0,000000000e+00    0,000000000e+00    0,000000000e+00
     1262000000    1,091295183e-01    2,567310333e-01    3,097030334e-02   -2,485339157e-02    0,000000000e+00    0,000000000e+00    0,000000000e+00    0,000000000e+00
     1276000000    1,996106803e-01    1,071069241e-01    4,748700652e-03   -6,779642776e-03    0,000000000e+00    0,000000000e+00    0,000000000e+00    0,000000000e+00
     1290000000    2,170868665e-01   -6,275490671e-02    1,045337692e-02    3,005784564e-02    0,000000000e+00    0,000000000e+00    0,000000000e+00    0,000000000e+00
     1304000000    1,662093550e-01   -2,344446033e-01    5,699097365e-02    5,224524438e-02    0,000000000e+00    0,000000000e+00    0,000000000e+00    0,000000000e+00
     1318000000    2,229475789e-02   -3,654196858e-01    1,637741178e-01    6,803666241e-03    0,000000000e+00    0,000000000e+00    0,000000000e+00    0,000000000e+00
     1332000000   -1,484227777e-01   -3,959754407e-01    9,372754395e-02   -1,778258532e-01    0,000000000e+00    0,000000000e+00    0,000000000e+00    0,000000000e+00
     1346000000   -3,666622639e-01   -3,867171109e-01   -6,697463989e-02   -2,099597268e-02    0,000000000e+00    0,000000000e+00    0,000000000e+00    0,000000000e+00
     1360000000   -5,890110731e-01   -2,035162747e-01    5,880568922e-02    7,989601791e-02    0,000000000e+00    0,000000000e+00    0,000000000e+00    0,000000000e+00
     1374000000   -6,272720695e-01    1,144097820e-01    1,874892861e-01    5,354698747e-02    0,000000000e+00    0,000000000e+00    0,000000000e+00    0,000000000e+00
     1388000000   -4,744725525e-01    3,573576808e-01    2,181295753e-01   -1,988441870e-02    0,000000000e+00    0,000000000e+00    0,000000000e+00    0,000000000e+00
     1402000000   -2,492834330e-01    4,478038549e-01    2,039350867e-01   -7,569292933e-02    0,000000000e+00    0,000000000e+00    0,000000000e+00    0,000000000e+00
     1416000000   -3,446638584e-02    4,141610265e-01    1,981492788e-01   -9,529467672e-02    0,000000000e+00    0,000000000e+00    0,000000000e+00    0,000000000e+00
     1430000000    1,123437211e-01    2,939566374e-01    1,712013930e-01   -1,061069816e-01    0,000000000e+00    0,000000000e+00    0,000000000e+00    0,000000000e+00
     1444000000    2,008798867e-01    1,565627456e-01    1,613259912e-01   -1,106419414e-01    0,000000000e+00    0,000000000e+00    0,000000000e+00    0,000000000e+00
     1458000000    2,309783846e-01   -1,150924060e-02    1,457609832e-01   -8,302123845e-02    0,000000000e+00    0,000000000e+00    0,000000000e+00    0,000000000e+00
     1472000000    1,873296350e-01   -1,889185458e-01    1,352862865e-01   -4,184326157e-02    0,000000000e+00    0,000000000e+00    0,000000000e+00    0,000000000e+00
     1486000000    6,457648426e-02   -3,635198176e-01    1,503996551e-01    2,254461125e-02    0,000000000e+00    0,000000000e+00    0,000000000e+00    0,000000000e+00
     1500000000   -1,621719599e-01   -4,749190211e-01    2,294553518e-01    9,979956597e-02    0,000000000e+00    0,000000000e+00    0,000000000e+00    0,000000000e+00
