! NanoVNA-App
! Date: 2025-09-25 15:41:09
! Start: 100MHz Stop: 1,5GHz Points: 101
! S-Parameter data: F S11 S21 S12 S22
# Hz S RI R 50
!     Frequency           S11_Real           S11_Imag           S21_Real           S21_Imag           S12_Real           S12_Imag           S22_Real           S22_Imag
      100000000   -2,870986052e-02   -4,246997647e-03    3,739337325e-01   -7,215355635e-01    0,000000000e+00    0,000000000e+00    0,000000000e+00    0,000000000e+00
      114000000   -1,647429913e-02    1,147531159e-02   -8,924818784e-02   -8,050916195e-01    0,000000000e+00    0,000000000e+00    0,000000000e+00    0,000000000e+00
      128000000    3,443637630e-03    1,072935667e-02   -5,143984556e-01   -6,202650666e-01    0,000000000e+00    0,000000000e+00    0,000000000e+00    0,000000000e+00
      142000000    1,467352360e-02   -2,642855048e-03   -7,669083476e-01   -2,365328968e-01    0,000000000e+00    0,000000000e+00    0,000000000e+00    0,000000000e+00
      156000000    1,485384256e-02   -1,453904808e-02   -7,641647458e-01    2,200735062e-01    0,000000000e+00    0,000000000e+00    0,000000000e+00    0,000000000e+00
      170000000    1,716509648e-02   -2,245008200e-02   -5,178797841e-01    6,045820713e-01    0,000000000e+00    0,000000000e+00    0,000000000e+00    0,000000000e+00
      184000000    2,134587057e-02   -3,713677078e-02   -1,011328548e-01    7,856173515e-01    0,000000000e+00    0,000000000e+00    0,000000000e+00    0,000000000e+00
      198000000    1,329698693e-02   -6,257854402e-02    3,429128230e-01    7,119129896e-01    0,000000000e+00    0,000000000e+00    0,000000000e+00    0,000000000e+00
      212000000   -1,844629832e-02   -8,132083714e-02    6,778491735e-01    4,097016156e-01    0,000000000e+00    0,000000000e+00    0,000000000e+00    0,000000000e+00
      226000000   -6,127692387e-02   -6,917688251e-02    7,954058051e-01   -3,056127951e-02    0,000000000e+00    0,000000000e+00    0,000000000e+00    0,000000000e+00
      240000000   -8,218970150e-02   -2,578936331e-02    6,458658576e-01   -4,665648639e-01    0,000000000e+00    0,000000000e+00    0,000000000e+00    0,000000000e+00
      254000000   -6,335145980e-02    1,689675450e-02    2,759475112e-01   -7,431061268e-01    0,000000000e+00    0,000000000e+00    0,000000000e+00    0,000000000e+00
      268000000   -2,396292426e-02    2,877473645e-02   -1,779533923e-01   -7,643444538e-01    0,000000000e+00    0,000000000e+00    0,000000000e+00    0,000000000e+00
      282000000    4,018170759e-03    1,204154640e-02   -5,617232919e-01   -5,355998278e-01    0,000000000e+00    0,000000000e+00    0,000000000e+00    0,000000000e+00
      296000000    9,800328873e-03   -7,616871502e-03   -7,594767809e-01   -1,395425647e-01    0,000000000e+00    0,000000000e+00    0,000000000e+00    0,000000000e+00
      310000000    1,176348422e-02   -1,605033875e-02   -7,115461826e-01    2,992098331e-01    0,000000000e+00    0,000000000e+00    0,000000000e+00    0,000000000e+00
      324000000    1,999657229e-02   -2,671409398e-02   -4,275042415e-01    6,382921934e-01    0,000000000e+00    0,000000000e+00    0,000000000e+00    0,000000000e+00
      338000000    2,577647567e-02   -5,244155228e-02   -9,007518180e-03    7,610022426e-01    0,000000000e+00    0,000000000e+00    0,000000000e+00    0,000000000e+00
      352000000    7,292855065e-03   -8,469291031e-02    4,059523344e-01    6,388942599e-01    0,000000000e+00    0,000000000e+00    0,000000000e+00    0,000000000e+00
      366000000   -3,426999226e-02   -9,562274814e-02    6,900106072e-01    3,111885190e-01    0,000000000e+00    0,000000000e+00    0,000000000e+00    0,000000000e+00
      380000000   -7,036786526e-02   -7,098051906e-02    7,472100854e-01   -1,250768602e-01    0,000000000e+00    0,000000000e+00    0,000000000e+00    0,000000000e+00
      394000000   -7,185895741e-02   -3,240200505e-02    5,471512079e-01   -5,212169290e-01    0,000000000e+00    0,000000000e+00    0,000000000e+00    0,000000000e+00
      408000000   -4,641168937e-02   -1,640401408e-02    1,599856466e-01   -7,311623096e-01    0,000000000e+00    0,000000000e+00    0,000000000e+00    0,000000000e+00
      422000000   -2,803329192e-02   -3,213443235e-02   -2,674699128e-01   -6,935294867e-01    0,000000000e+00    0,000000000e+00    0,000000000e+00    0,000000000e+00
      436000000   -4,065463319e-02   -5,200161785e-02   -6,033870578e-01   -4,320894182e-01    0,000000000e+00    0,000000000e+00    0,000000000e+00    0,000000000e+00
      450000000   -6,701258570e-02   -4,423918203e-02   -7,395884395e-01   -2,203916386e-02    0,000000000e+00    0,000000000e+00    0,000000000e+00    0,000000000e+00
      464000000   -7,295456529e-02   -1,181087550e-02   -6,186288595e-01    3,966230154e-01    0,000000000e+00    0,000000000e+00    0,000000000e+00    0,000000000e+00
      478000000   -4,744738340e-02    1,141511183e-02   -2,823925018e-01    6,674880981e-01    0,000000000e+00    0,000000000e+00    0,000000000e+00    0,000000000e+00
      492000000   -1,566305384e-02    5,472861230e-03    1,373300701e-01    7,014702559e-01    0,000000000e+00    0,000000000e+00    0,000000000e+00    0,000000000e+00
      506000000   -2,532016020e-03   -1,603931375e-02    4,973583221e-01    5,022221804e-01    0,000000000e+00    0,000000000e+00    0,000000000e+00    0,000000000e+00
      520000000   -5,329086911e-03   -3,150062263e-02    6,888052821e-01    1,411520988e-01    0,000000000e+00    0,000000000e+00    0,000000000e+00    0,000000000e+00
      534000000   -3,667047946e-03   -3,845078498e-02    6,428166628e-01   -2,619254887e-01    0,000000000e+00    0,000000000e+00    0,000000000e+00    0,000000000e+00
      548000000    6,621737033e-03   -5,386212096e-02    3,812015653e-01   -5,660993457e-01    0,000000000e+00    0,000000000e+00    0,000000000e+00    0,000000000e+00
      562000000    3,099216148e-03   -8,986605704e-02    3,058542730e-03   -6,710908413e-01    0,000000000e+00    0,000000000e+00    0,000000000e+00    0,000000000e+00
      576000000   -3,375168145e-02   -1,246538758e-01   -3,666154146e-01   -5,574372411e-01    0,000000000e+00    0,000000000e+00    0,000000000e+00    0,000000000e+00
      590000000   -9,571035951e-02   -1,228353381e-01   -6,201531887e-01   -2,629959583e-01    0,000000000e+00    0,000000000e+00    0,000000000e+00    0,000000000e+00
      604000000   -1,384816319e-01   -7,232913375e-02   -6,635537744e-01    1,366003305e-01    0,000000000e+00    0,000000000e+00    0,000000000e+00    0,000000000e+00
      618000000   -1,295701116e-01   -1,000025216e-02   -4,645329416e-01    4,927075803e-01    0,000000000e+00    0,000000000e+00    0,000000000e+00    0,000000000e+00
      632000000   -8,433166146e-02    1,553249452e-02   -9,954808652e-02    6,619166136e-01    0,000000000e+00    0,000000000e+00    0,000000000e+00    0,000000000e+00
      646000000   -5,169424787e-02    9,832856449e-06    2,862903774e-01    5,937595963e-01    0,000000000e+00    0,000000000e+00    0,000000000e+00    0,000000000e+00
      660000000   -5,430046842e-02   -2,062601410e-02    5,650544167e-01    3,237900734e-01    0,000000000e+00    0,000000000e+00    0,000000000e+00    0,000000000e+00
      674000000   -7,014332712e-02   -1,671293564e-02    6,405577660e-01   -6,323862821e-02    0,000000000e+00    0,000000000e+00    0,000000000e+00    0,000000000e+00
      688000000   -6,696687639e-02    9,798591025e-03    4,706147313e-01   -4,229155779e-01    0,000000000e+00    0,000000000e+00    0,000000000e+00    0,000000000e+00
      702000000   -3,499368206e-02    2,605168708e-02    1,216813698e-01   -6,079054475e-01    0,000000000e+00    0,000000000e+00    0,000000000e+00    0,000000000e+00
      716000000    4,207457416e-03    1,672430336e-02   -2,592726350e-01   -5,435492396e-01    0,000000000e+00    0,000000000e+00    0,000000000e+00    0,000000000e+00
      730000000    3,714067489e-02   -1,438135654e-02   -5,214415789e-01   -2,714908421e-01    0,000000000e+00    0,000000000e+00    0,000000000e+00    0,000000000e+00
      744000000    6,190093979e-02   -6,500230730e-02   -5,602114797e-01    9,834109247e-02    0,000000000e+00    0,000000000e+00    0,000000000e+00    0,000000000e+00
      758000000    6,073645130e-02   -1,525640637e-01   -3,668771684e-01    4,001637697e-01    0,000000000e+00    0,000000000e+00    0,000000000e+00    0,000000000e+00
      772000000   -1,679374836e-02   -2,557932138e-01   -4,585660622e-02    5,090475678e-01    0,000000000e+00    0,000000000e+00    0,000000000e+00    0,000000000e+00
      786000000   -2,022715956e-01   -2,906554043e-01    2,590932846e-01    3,980387449e-01    0,000000000e+00    0,000000000e+00    0,000000000e+00    0,000000000e+00
      800000000   -4,074760973e-01   -1,277001947e-01    4,074316025e-01    1,184230074e-01    0,000000000e+00    0,000000000e+00    0,000000000e+00    0,000000000e+00
      814000000   -3,753083050e-01    2,025364637e-01    2,962785065e-01   -1,508196443e-01    0,000000000e+00    0,000000000e+00    0,000000000e+00    0,000000000e+00
      828000000   -6,202314049e-02    3,482415378e-01    8,220699430e-02   -1,899917722e-01    0,000000000e+00    0,000000000e+00    0,000000000e+00    0,000000000e+00
      842000000    2,115490586e-01    1,853559464e-01   -3,092207946e-03   -9,269210696e-02    0,000000000e+00    0,000000000e+00    0,000000000e+00    0,000000000e+00
      856000000    2,657678425e-01   -1,060903892e-01    3,644322231e-02   -3,717352077e-02    0,000000000e+00    0,000000000e+00    0,000000000e+00    0,000000000e+00
      870000000    8,236174285e-02   -3,508196771e-01    8,930166811e-02   -9,782534093e-02    0,000000000e+00    0,000000000e+00    0,000000000e+00    0,000000000e+00
      884000000   -2,681297660e-01   -3,566682935e-01    1,077161171e-02   -2,274963856e-01    0,000000000e+00    0,000000000e+00    0,000000000e+00    0,000000000e+00
      898000000   -4,575734138e-01   -1,393269189e-02   -2,149549872e-01   -2,101586610e-01    0,000000000e+00    0,000000000e+00    0,000000000e+00    0,000000000e+00
      912000000   -2,361138016e-01    2,797900736e-01   -3,251728714e-01    7,343359292e-02    0,000000000e+00    0,000000000e+00    0,000000000e+00    0,000000000e+00
      926000000    5,567426607e-02    2,595074177e-01   -2,122726142e-01    2,602397203e-01    0,000000000e+00    0,000000000e+00    0,000000000e+00    0,000000000e+00
      940000000    2,080576420e-01    8,588797599e-02   -3,206192702e-02    3,264193833e-01    0,000000000e+00    0,000000000e+00    0,000000000e+00    0,000000000e+00
      954000000    2,177502811e-01   -1,214960292e-01    1,329671890e-01    2,999901474e-01    0,000000000e+00    0,000000000e+00    0,000000000e+00    0,000000000e+00
      968000000    1,197973043e-01   -2,937868237e-01    2,686355114e-01    2,148141712e-01    0,000000000e+00    0,000000000e+00    0,000000000e+00    0,000000000e+00
      982000000   -7,773210853e-02   -3,826147318e-01    3,611664176e-01    6,220744550e-02    0,000000000e+00    0,000000000e+00    0,000000000e+00    0,000000000e+00
      996000000   -3,098038435e-01   -3,343636990e-01    3,619701862e-01   -1,445979029e-01    0,000000000e+00    0,000000000e+00    0,000000000e+00    0,000000000e+00
     1010000000   -4,637805820e-01   -1,174968183e-01    2,187156230e-01   -3,366516531e-01    0,000000000e+00    0,000000000e+00    0,000000000e+00    0,000000000e+00
     1024000000   -4,194872975e-01    1,411463618e-01   -3,041396849e-02   -3,863561451e-01    0,000000000e+00    0,000000000e+00    0,000000000e+00    0,000000000e+00
     1038000000   -2,267783433e-01    2,919299603e-01   -2,424190342e-01   -2,557606995e-01    0,000000000e+00    0,000000000e+00    0,000000000e+00    0,000000000e+00
     1052000000   -1,735429838e-02    2,812174261e-01   -3,115648031e-01   -4,741754755e-02    0,000000000e+00    0,000000000e+00    0,000000000e+00    0,000000000e+00
     1066000000    1,285354793e-01    1,675828397e-01   -2,488100529e-01    1,385076046e-01    0,000000000e+00    0,000000000e+00    0,000000000e+00    0,000000000e+00
     1080000000    1,926614493e-01    1,112983748e-02   -1,165533364e-01    2,542527616e-01    0,000000000e+00    0,000000000e+00    0,000000000e+00    0,000000000e+00
     1094000000    1,592286080e-01   -1,609155536e-01    5,887085199e-02    2,929415405e-01    0,000000000e+00    0,000000000e+00    0,000000000e+00    0,000000000e+00
     1108000000    2,113092877e-02   -2,953211367e-01    2,609589696e-01    2,360668331e-01    0,000000000e+00    0,000000000e+00    0,000000000e+00    0,000000000e+00
     1122000000   -2,111760676e-01   -2,800788283e-01    4,400082529e-01    2,319558524e-02    0,000000000e+00    0,000000000e+00    0,000000000e+00    0,000000000e+00
     1136000000   -3,232879639e-01   -3,466197476e-02    3,989672959e-01   -3,456290662e-01    0,000000000e+00    0,000000000e+00    0,000000000e+00    0,000000000e+00
     1150000000   -1,033683196e-01    1,333329082e-01    4,858102277e-02   -5,303752422e-01    0,000000000e+00    0,000000000e+00    0,000000000e+00    0,000000000e+00
     1164000000    8,846905082e-02   -1,939469762e-02   -2,490995824e-01   -4,010897875e-01    0,000000000e+00    0,000000000e+00    0,000000000e+00    0,000000000e+00
     1178000000    2,759983949e-02   -2,526845932e-01   -3,699318171e-01   -1,816607714e-01    0,000000000e+00    0,000000000e+00    0,000000000e+00    0,000000000e+00
     1192000000   -2,209455371e-01   -3,505010307e-01   -3,402593434e-01    4,095676541e-02    0,000000000e+00    0,000000000e+00    0,000000000e+00    0,000000000e+00
     1206000000   -4,736615121e-01   -1,801385581e-01   -1,889741570e-01    1,805508435e-01    0,000000000e+00    0,000000000e+00    0,000000000e+00    0,000000000e+00
     1220000000   -5,053611994e-01    1,345181167e-01   -1,391881797e-02    1,752387881e-01    0,000000000e+00    0,000000000e+00    0,000000000e+00    0,000000000e+00
     1234000000   -2,996852994e-01    3,371042311e-01    7,578054816e-02    7,601363212e-02    0,000000000e+00    0,000000000e+00    0,000000000e+00    0,000000000e+00
     1248000000   -5,647151917e-02    3,596422374e-01    6,939555705e-02    2,356751123e-03    0,000000000e+00    0,000000000e+00    0,000000000e+00    0,000000000e+00
     1262000000    1,140672639e-01    2,597138882e-01    3,407515585e-02   -2,298428118e-02    0,000000000e+00    0,000000000e+00    0,000000000e+00    0,000000000e+00
     1276000000    2,017723024e-01    1,030217260e-01    3,402454546e-03   -1,004829817e-02    0,000000000e+00    0,000000000e+00    0,000000000e+00    0,000000000e+00
     1290000000    2,236298770e-01   -6,235930696e-02    1,414014678e-02    2,326228283e-02    0,000000000e+00    0,000000000e+00    0,000000000e+00    0,000000000e+00
     1304000000    1,663669050e-01   -2,311612070e-01    6,458005309e-02    6,042283773e-02    0,000000000e+00    0,000000000e+00    0,000000000e+00    0,000000000e+00
     1318000000    2,774548903e-02   -3,667318821e-01    1,676598340e-01    8,013793267e-03    0,000000000e+00    0,000000000e+00    0,000000000e+00    0,000000000e+00
     1332000000   -1,487521976e-01   -3,980522752e-01    9,603542835e-02   -1,843646020e-01    0,000000000e+00    0,000000000e+00    0,000000000e+00    0,000000000e+00
     1346000000   -3,637910485e-01   -3,937745392e-01   -6,145476550e-02   -2,011984959e-02    0,000000000e+00    0,000000000e+00    0,000000000e+00    0,000000000e+00
     1360000000   -5,897425413e-01   -2,122151107e-01    6,324920058e-02    7,345902175e-02    0,000000000e+00    0,000000000e+00    0,000000000e+00    0,000000000e+00
     1374000000   -6,266879439e-01    1,033432782e-01    1,855260134e-01    4,960193858e-02    0,000000000e+00    0,000000000e+00    0,000000000e+00    0,000000000e+00
     1388000000   -4,705245495e-01    3,525862098e-01    2,239164710e-01   -1,803376526e-02    0,000000000e+00    0,000000000e+00    0,000000000e+00    0,000000000e+00
     1402000000   -2,459074706e-01    4,499484599e-01    2,056925446e-01   -7,440705597e-02    0,000000000e+00    0,000000000e+00    0,000000000e+00    0,000000000e+00
     1416000000   -3,148351610e-02    4,132759273e-01    2,020993233e-01   -1,032858416e-01    0,000000000e+00    0,000000000e+00    0,000000000e+00    0,000000000e+00
     1430000000    1,128405556e-01    3,063714504e-01    2,005141824e-01   -9,272964299e-02    0,000000000e+00    0,000000000e+00    0,000000000e+00    0,000000000e+00
     1444000000    1,989506036e-01    1,562756002e-01    1,600389630e-01   -1,070125848e-01    0,000000000e+00    0,000000000e+00    0,000000000e+00    0,000000000e+00
     1458000000    2,337959409e-01   -1,662591286e-02    1,397201717e-01   -8,932437748e-02    0,000000000e+00    0,000000000e+00    0,000000000e+00    0,000000000e+00
     1472000000    1,996960342e-01   -1,974662095e-01    1,523023546e-01   -5,687067658e-02    0,000000000e+00    0,000000000e+00    0,000000000e+00    0,000000000e+00
     1486000000    6,223625690e-02   -3,595380485e-01    1,527961344e-01    1,544938050e-02    0,000000000e+00    0,000000000e+00    0,000000000e+00    0,000000000e+00
     1500000000   -1,586358547e-01   -4,827602208e-01    2,316748351e-01    1,037954390e-01    0,000000000e+00    0,000000000e+00    0,000000000e+00    0,000000000e+00
