! NanoVNA-App
! Date: 2025-09-25 15:43:46
! Start: 100MHz Stop: 1,5GHz Points: 101
! S-Parameter data: F S11 S21 S12 S22
# Hz S RI R 50
!     Frequency           S11_Real           S11_Imag           S21_Real           S21_Imag           S12_Real           S12_Imag           S22_Real           S22_Imag
      100000000   -2,874383703e-02   -4,258381203e-03    3,739263713e-01   -7,215586901e-01    0,000000000e+00    0,000000000e+00    0,000000000e+00    0,000000000e+00
      114000000   -1,651722006e-02    1,148618292e-02   -8,902099729e-02   -8,050404191e-01    0,000000000e+00    0,000000000e+00    0,000000000e+00    0,000000000e+00
      128000000    3,440843197e-03    1,067668200e-02   -5,145176649e-01   -6,204990745e-01    0,000000000e+00    0,000000000e+00    0,000000000e+00    0,000000000e+00
      142000000    1,465147827e-02   -2,658819780e-03   -7,668505907e-01   -2,364848852e-01    0,000000000e+00    0,000000000e+00    0,000000000e+00    0,000000000e+00
      156000000    1,643030345e-02   -1,414467208e-02   -7,719829082e-01    2,245007604e-01    0,000000000e+00    0,000000000e+00    0,000000000e+00    0,000000000e+00
      170000000    1,712601632e-02   -2,245554514e-02   -5,178150535e-01    6,044046879e-01    0,000000000e+00    0,000000000e+00    0,000000000e+00    0,000000000e+00
      184000000    2,134304494e-02   -3,712315857e-02   -1,013114825e-01    7,857136130e-01    0,000000000e+00    0,000000000e+00    0,000000000e+00    0,000000000e+00
      198000000    1,323935762e-02   -6,256184727e-02    3,433112502e-01    7,121636868e-01    0,000000000e+00    0,000000000e+00    0,000000000e+00    0,000000000e+00
      212000000   -1,842669025e-02   -8,129701763e-02    6,778160334e-01    4,098112583e-01    0,000000000e+00    0,000000000e+00    0,000000000e+00    0,000000000e+00
      226000000   -6,137018278e-02   -6,926312298e-02    7,954358459e-01   -3,042157739e-02    0,000000000e+00    0,000000000e+00    0,000000000e+00    0,000000000e+00
      240000000   -8,224130422e-02   -2,584848553e-02    6,459332108e-01   -4,666637182e-01    0,000000000e+00    0,000000000e+00    0,000000000e+00    0,000000000e+00
      254000000   -6,340576708e-02    1,692323014e-02    2,762673497e-01   -7,430067062e-01    0,000000000e+00    0,000000000e+00    0,000000000e+00    0,000000000e+00
      268000000   -2,398762479e-02    2,875139937e-02   -1,776684672e-01   -7,640269399e-01    0,000000000e+00    0,000000000e+00    0,000000000e+00    0,000000000e+00
      282000000    4,130139481e-03    1,214047149e-02   -5,619980097e-01   -5,353977680e-01    0,000000000e+00    0,000000000e+00    0,000000000e+00    0,000000000e+00
      296000000    9,816399775e-03   -7,583236787e-03   -7,594372630e-01   -1,396380812e-01    0,000000000e+00    0,000000000e+00    0,000000000e+00    0,000000000e+00
      310000000    1,169742644e-02   -1,622670144e-02   -7,120603919e-01    2,991945744e-01    0,000000000e+00    0,000000000e+00    0,000000000e+00    0,000000000e+00
      324000000    1,987783797e-02   -2,666435018e-02   -4,273275137e-01    6,372289658e-01    0,000000000e+00    0,000000000e+00    0,000000000e+00    0,000000000e+00
      338000000    2,596007474e-02   -5,248819664e-02   -8,704299107e-03    7,630386353e-01    0,000000000e+00    0,000000000e+00    0,000000000e+00    0,000000000e+00
      352000000    7,459392305e-03   -8,453132957e-02    4,064972997e-01    6,399939656e-01    0,000000000e+00    0,000000000e+00    0,000000000e+00    0,000000000e+00
      366000000   -3,444838524e-02   -9,517133236e-02    6,902180910e-01    3,116198778e-01    0,000000000e+00    0,000000000e+00    0,000000000e+00    0,000000000e+00
      380000000   -7,015228271e-02   -7,102239132e-02    7,475396991e-01   -1,260476410e-01    0,000000000e+00    0,000000000e+00    0,000000000e+00    0,000000000e+00
      394000000   -7,226303965e-02   -3,246599808e-02    5,463923216e-01   -5,208338499e-01    0,000000000e+00    0,000000000e+00    0,000000000e+00    0,000000000e+00
      408000000   -4,630058631e-02   -1,648804918e-02    1,611329317e-01   -7,320265770e-01    0,000000000e+00    0,000000000e+00    0,000000000e+00    0,000000000e+00
      422000000   -2,806368843e-02   -3,219953179e-02   -2,675012648e-01   -6,941577196e-01    0,000000000e+00    0,000000000e+00    0,000000000e+00    0,000000000e+00
      436000000   -4,044435173e-02   -5,160173401e-02   -6,034663320e-01   -4,316649437e-01    0,000000000e+00    0,000000000e+00    0,000000000e+00    0,000000000e+00
      450000000   -6,722592562e-02   -4,360773042e-02   -7,402488589e-01   -2,153456211e-02    0,000000000e+00    0,000000000e+00    0,000000000e+00    0,000000000e+00
      464000000   -7,266935706e-02   -1,185795851e-02   -6,179391146e-01    3,970584571e-01    0,000000000e+00    0,000000000e+00    0,000000000e+00    0,000000000e+00
      478000000   -4,790365696e-02    1,131038647e-02   -2,827835679e-01    6,668605804e-01    0,000000000e+00    0,000000000e+00    0,000000000e+00    0,000000000e+00
      492000000   -1,551782712e-02    5,879845470e-03    1,373651773e-01    7,015011311e-01    0,000000000e+00    0,000000000e+00    0,000000000e+00    0,000000000e+00
      506000000   -2,398483921e-03   -1,587274857e-02    4,974389076e-01    5,025516748e-01    0,000000000e+00    0,000000000e+00    0,000000000e+00    0,000000000e+00
      520000000   -4,657875281e-03   -3,121672757e-02    6,877226233e-01    1,424545497e-01    0,000000000e+00    0,000000000e+00    0,000000000e+00    0,000000000e+00
      534000000   -3,381016199e-03   -3,778564930e-02    6,430677176e-01   -2,613817453e-01    0,000000000e+00    0,000000000e+00    0,000000000e+00    0,000000000e+00
      548000000    6,415129174e-03   -5,426750705e-02    3,813351691e-01   -5,660477877e-01    0,000000000e+00    0,000000000e+00    0,000000000e+00    0,000000000e+00
      562000000    2,994341776e-03   -8,945940435e-02    2,873023506e-03   -6,719344258e-01    0,000000000e+00    0,000000000e+00    0,000000000e+00    0,000000000e+00
      576000000   -3,384689987e-02   -1,241641119e-01   -3,679330051e-01   -5,575764775e-01    0,000000000e+00    0,000000000e+00    0,000000000e+00    0,000000000e+00
      590000000   -9,564030170e-02   -1,226432472e-01   -6,196285486e-01   -2,653850019e-01    0,000000000e+00    0,000000000e+00    0,000000000e+00    0,000000000e+00
      604000000   -1,386352479e-01   -7,247488946e-02   -6,638038158e-01    1,367425919e-01    0,000000000e+00    0,000000000e+00    0,000000000e+00    0,000000000e+00
      618000000   -1,295146346e-01   -1,011498272e-02   -4,651947021e-01    4,927971065e-01    0,000000000e+00    0,000000000e+00    0,000000000e+00    0,000000000e+00
      632000000   -8,460272104e-02    1,555118617e-02   -1,011688262e-01    6,624818444e-01    0,000000000e+00    0,000000000e+00    0,000000000e+00    0,000000000e+00
      646000000   -5,148915574e-02    2,149353968e-04    2,861538827e-01    5,939912200e-01    0,000000000e+00    0,000000000e+00    0,000000000e+00    0,000000000e+00
      660000000   -5,301766470e-02   -2,034894004e-02    5,647909045e-01    3,231205642e-01    0,000000000e+00    0,000000000e+00    0,000000000e+00    0,000000000e+00
      674000000   -6,943079829e-02   -1,595555432e-02    6,408044696e-01   -6,297815591e-02    0,000000000e+00    0,000000000e+00    0,000000000e+00    0,000000000e+00
      688000000   -6,690391898e-02    9,704235941e-03    4,704922140e-01   -4,243806005e-01    0,000000000e+00    0,000000000e+00    0,000000000e+00    0,000000000e+00
      702000000   -3,691193461e-02    2,556870133e-02    1,230541617e-01   -6,028180718e-01    0,000000000e+00    0,000000000e+00    0,000000000e+00    0,000000000e+00
      716000000    2,864548005e-03    1,619062573e-02   -2,587864697e-01   -5,448410511e-01    0,000000000e+00    0,000000000e+00    0,000000000e+00    0,000000000e+00
      730000000    3,622651845e-02   -1,417463925e-02   -5,222716331e-01   -2,716722488e-01    0,000000000e+00    0,000000000e+00    0,000000000e+00    0,000000000e+00
      744000000    6,234534830e-02   -6,460487843e-02   -5,599738359e-01    9,839582443e-02    0,000000000e+00    0,000000000e+00    0,000000000e+00    0,000000000e+00
      758000000    6,075632572e-02   -1,515895873e-01   -3,660854101e-01    4,006005824e-01    0,000000000e+00    0,000000000e+00    0,000000000e+00    0,000000000e+00
      772000000   -1,733671874e-02   -2,556581497e-01   -4,614467546e-02    5,096438527e-01    0,000000000e+00    0,000000000e+00    0,000000000e+00    0,000000000e+00
      786000000   -2,027279884e-01   -2,920570970e-01    2,592037022e-01    3,991445899e-01    0,000000000e+00    0,000000000e+00    0,000000000e+00    0,000000000e+00
      800000000   -4,082073569e-01   -1,268358231e-01    4,077887833e-01    1,187894270e-01    0,000000000e+00    0,000000000e+00    0,000000000e+00    0,000000000e+00
      814000000   -3,776674271e-01    2,009259760e-01    2,968127131e-01   -1,514518410e-01    0,000000000e+00    0,000000000e+00    0,000000000e+00    0,000000000e+00
      828000000   -6,360633671e-02    3,467679620e-01    8,245288581e-02   -1,910855025e-01    0,000000000e+00    0,000000000e+00    0,000000000e+00    0,000000000e+00
      842000000    2,113514990e-01    1,857060343e-01   -3,928987775e-03   -9,356495738e-02    0,000000000e+00    0,000000000e+00    0,000000000e+00    0,000000000e+00
      856000000    2,662108839e-01   -1,055994630e-01    3,582670912e-02   -3,719403967e-02    0,000000000e+00    0,000000000e+00    0,000000000e+00    0,000000000e+00
      870000000    8,245752752e-02   -3,507659137e-01    8,820373565e-02   -9,675250202e-02    0,000000000e+00    0,000000000e+00    0,000000000e+00    0,000000000e+00
      884000000   -2,665441930e-01   -3,558047116e-01    1,227257773e-02   -2,285693586e-01    0,000000000e+00    0,000000000e+00    0,000000000e+00    0,000000000e+00
      898000000   -4,585777521e-01   -1,443550736e-02   -2,156012654e-01   -2,090028226e-01    0,000000000e+00    0,000000000e+00    0,000000000e+00    0,000000000e+00
      912000000   -2,352608144e-01    2,787975371e-01   -3,260577023e-01    7,660084218e-02    0,000000000e+00    0,000000000e+00    0,000000000e+00    0,000000000e+00
      926000000    5,481082946e-02    2,639568150e-01   -2,098180205e-01    2,632088661e-01    0,000000000e+00    0,000000000e+00    0,000000000e+00    0,000000000e+00
      940000000    2,106326967e-01    8,383759856e-02   -3,164774179e-02    3,251730502e-01    0,000000000e+00    0,000000000e+00    0,000000000e+00    0,000000000e+00
      954000000    2,179172486e-01   -1,223770827e-01    1,301230639e-01    3,027684391e-01    0,000000000e+00    0,000000000e+00    0,000000000e+00    0,000000000e+00
      968000000    1,171272695e-01   -2,927855849e-01    2,697778046e-01    2,145554870e-01    0,000000000e+00    0,000000000e+00    0,000000000e+00    0,000000000e+00
      982000000   -7,572496682e-02   -3,855631649e-01    3,611843586e-01    6,343632191e-02    0,000000000e+00    0,000000000e+00    0,000000000e+00    0,000000000e+00
      996000000   -3,123600483e-01   -3,299590349e-01    3,630318046e-01   -1,450246274e-01    0,000000000e+00    0,000000000e+00    0,000000000e+00    0,000000000e+00
     1010000000   -4,572336078e-01   -1,174675301e-01    2,183898240e-01   -3,345060945e-01    0,000000000e+00    0,000000000e+00    0,000000000e+00    0,000000000e+00
     1024000000   -4,147117734e-01    1,460170001e-01   -3,004271910e-02   -3,870114386e-01    0,000000000e+00    0,000000000e+00    0,000000000e+00    0,000000000e+00
     1038000000   -2,261766493e-01    2,904502749e-01   -2,421867996e-01   -2,562233806e-01    0,000000000e+00    0,000000000e+00    0,000000000e+00    0,000000000e+00
     1052000000   -1,766435802e-02    2,793090045e-01   -3,106567860e-01   -4,748983681e-02    0,000000000e+00    0,000000000e+00    0,000000000e+00    0,000000000e+00
     1066000000    1,330997199e-01    1,716385037e-01   -2,497227639e-01    1,386929601e-01    0,000000000e+00    0,000000000e+00    0,000000000e+00    0,000000000e+00
     1080000000    1,934558451e-01    1,037377585e-02   -1,164780259e-01    2,526986897e-01    0,000000000e+00    0,000000000e+00    0,000000000e+00    0,000000000e+00
     1094000000    1,632632017e-01   -1,651872844e-01    5,990348384e-02    2,914963961e-01    0,000000000e+00    0,000000000e+00    0,000000000e+00    0,000000000e+00
     1108000000    1,654499955e-02   -2,988107502e-01    2,601971626e-01    2,358877510e-01    0,000000000e+00    0,000000000e+00    0,000000000e+00    0,000000000e+00
     1122000000   -2,150408328e-01   -2,795510590e-01    4,381428957e-01    2,459774911e-02    0,000000000e+00    0,000000000e+00    0,000000000e+00    0,000000000e+00
     1136000000   -3,292919099e-01   -2,886991762e-02    4,000589848e-01   -3,455579281e-01    0,000000000e+00    0,000000000e+00    0,000000000e+00    0,000000000e+00
     1150000000   -1,023921892e-01    1,382974386e-01    4,935370013e-02   -5,345751047e-01    0,000000000e+00    0,000000000e+00    0,000000000e+00    0,000000000e+00
     1164000000    8,654333651e-02   -1,536847930e-02   -2,528639734e-01   -4,022452533e-01    0,000000000e+00    0,000000000e+00    0,000000000e+00    0,000000000e+00
     1178000000    2,827825770e-02   -2,524970174e-01   -3,669947684e-01   -1,832740009e-01    0,000000000e+00    0,000000000e+00    0,000000000e+00    0,000000000e+00
     1192000000   -2,173937112e-01   -3,457565308e-01   -3,410248458e-01    4,138491675e-02    0,000000000e+00    0,000000000e+00    0,000000000e+00    0,000000000e+00
     1206000000   -4,806215763e-01   -1,792630553e-01   -1,940027326e-01    1,840403676e-01    0,000000000e+00    0,000000000e+00    0,000000000e+00    0,000000000e+00
     1220000000   -5,037421584e-01    1,427483261e-01   -1,121798251e-02    1,808199435e-01    0,000000000e+00    0,000000000e+00    0,000000000e+00    0,000000000e+00
     1234000000   -2,948188782e-01    3,393299580e-01    7,366690785e-02    8,177351952e-02    0,000000000e+00    0,000000000e+00    0,000000000e+00    0,000000000e+00
     1248000000   -5,825347081e-02    3,588755429e-01    7,089377940e-02   -8,677725564e-04    0,000000000e+00    0,000000000e+00    0,000000000e+00    0,000000000e+00
     1262000000    1,147343293e-01    2,611069977e-01    3,204795718e-02   -2,419889532e-02    0,000000000e+00    0,000000000e+00    0,000000000e+00    0,000000000e+00
     1276000000    2,026821673e-01    1,059210673e-01    3,991116770e-03   -9,896791540e-03    0,000000000e+00    0,000000000e+00    0,000000000e+00    0,000000000e+00
     1290000000    2,184024900e-01   -6,327995658e-02    9,994416498e-03    2,316117845e-02    0,000000000e+00    0,000000000e+00    0,000000000e+00    0,000000000e+00
     1304000000    1,661938429e-01   -2,347277105e-01    6,228362024e-02    5,476694554e-02    0,000000000e+00    0,000000000e+00    0,000000000e+00    0,000000000e+00
     1318000000    2,613863908e-02   -3,625560105e-01    1,723274440e-01    1,577902772e-02    0,000000000e+00    0,000000000e+00    0,000000000e+00    0,000000000e+00
     1332000000   -1,446550637e-01   -3,944029808e-01    1,077046543e-01   -1,797451824e-01    0,000000000e+00    0,000000000e+00    0,000000000e+00    0,000000000e+00
     1346000000   -3,576505780e-01   -3,845905662e-01   -6,018642336e-02   -1,981381513e-02    0,000000000e+00    0,000000000e+00    0,000000000e+00    0,000000000e+00
     1360000000   -5,818616748e-01   -2,063317895e-01    6,474588066e-02    9,037519246e-02    0,000000000e+00    0,000000000e+00    0,000000000e+00    0,000000000e+00
     1374000000   -6,279932857e-01    1,094436049e-01    1,813528389e-01    6,121101230e-02    0,000000000e+00    0,000000000e+00    0,000000000e+00    0,000000000e+00
     1388000000   -4,777288735e-01    3,536269963e-01    2,270071805e-01   -1,498057786e-02    0,000000000e+00    0,000000000e+00    0,000000000e+00    0,000000000e+00
     1402000000   -2,449276447e-01    4,420204163e-01    2,135734260e-01   -8,066759259e-02    0,000000000e+00    0,000000000e+00    0,000000000e+00    0,000000000e+00
     1416000000   -3,862066194e-02    4,135233760e-01    1,948269010e-01   -1,032018512e-01    0,000000000e+00    0,000000000e+00    0,000000000e+00    0,000000000e+00
     1430000000    1,086004153e-01    3,036060631e-01    2,032167017e-01   -1,005193666e-01    0,000000000e+00    0,000000000e+00    0,000000000e+00    0,000000000e+00
     1444000000    2,056745440e-01    1,551732272e-01    1,681632698e-01   -1,037864611e-01    0,000000000e+00    0,000000000e+00    0,000000000e+00    0,000000000e+00
     1458000000    2,348292917e-01   -1,679509878e-02    1,524354964e-01   -9,658486396e-02    0,000000000e+00    0,000000000e+00    0,000000000e+00    0,000000000e+00
     1472000000    1,897735447e-01   -1,910415888e-01    1,383880377e-01   -4,389640316e-02    0,000000000e+00    0,000000000e+00    0,000000000e+00    0,000000000e+00
     1486000000    6,989020109e-02   -3,628300130e-01    1,650080830e-01    2,485821210e-02    0,000000000e+00    0,000000000e+00    0,000000000e+00    0,000000000e+00
     1500000000   -1,671235114e-01   -4,769968390e-01    2,256729752e-01    8,628722280e-02    0,000000000e+00    0,000000000e+00    0,000000000e+00    0,000000000e+00
