! NanoVNA-App
! Date: 2025-09-25 15:38:31
! Start: 100MHz Stop: 1,5GHz Points: 101
! S-Parameter data: F S11 S21 S12 S22
# Hz S RI R 50
!     Frequency           S11_Real           S11_Imag           S21_Real           S21_Imag           S12_Real           S12_Imag           S22_Real           S22_Imag
      100000000   -2,849996090e-02   -4,180112388e-03    3,736790121e-01   -7,213865519e-01    0,000000000e+00    0,000000000e+00    0,000000000e+00    0,000000000e+00
      114000000   -1,627012715e-02    1,151875220e-02   -8,930553496e-02   -8,050318956e-01    0,000000000e+00    0,000000000e+00    0,000000000e+00    0,000000000e+00
      128000000    3,594765672e-03    1,073176693e-02   -5,144286156e-01   -6,200128198e-01    0,000000000e+00    0,000000000e+00    0,000000000e+00    0,000000000e+00
      142000000    1,483319700e-02   -2,613530261e-03   -7,665002346e-01   -2,361599654e-01    0,000000000e+00    0,000000000e+00    0,000000000e+00    0,000000000e+00
      156000000    1,561759692e-02   -1,479656156e-02   -7,686508298e-01    2,197580040e-01    0,000000000e+00    0,000000000e+00    0,000000000e+00    0,000000000e+00
      170000000    1,733963750e-02   -2,248991095e-02   -5,177658200e-01    6,043744683e-01    0,000000000e+00    0,000000000e+00    0,000000000e+00    0,000000000e+00
      184000000    2,152011916e-02   -3,724759817e-02   -1,010285169e-01    7,855999470e-01    0,000000000e+00    0,000000000e+00    0,000000000e+00    0,000000000e+00
      198000000    1,336643286e-02   -6,250737607e-02    3,431364596e-01    7,117367387e-01    0,000000000e+00    0,000000000e+00    0,000000000e+00    0,000000000e+00
      212000000   -1,822147332e-02   -8,132582158e-02    6,775726080e-01    4,094308615e-01    0,000000000e+00    0,000000000e+00    0,000000000e+00    0,000000000e+00
      226000000   -6,107250229e-02   -6,922913343e-02    7,951076031e-01   -3,065712936e-02    0,000000000e+00    0,000000000e+00    0,000000000e+00    0,000000000e+00
      240000000   -8,199182898e-02   -2,587300353e-02    6,457428932e-01   -4,665855467e-01    0,000000000e+00    0,000000000e+00    0,000000000e+00    0,000000000e+00
      254000000   -6,314320117e-02    1,686705835e-02    2,758652866e-01   -7,423143983e-01    0,000000000e+00    0,000000000e+00    0,000000000e+00    0,000000000e+00
      268000000   -2,382569574e-02    2,859984338e-02   -1,774309278e-01   -7,634965181e-01    0,000000000e+00    0,000000000e+00    0,000000000e+00    0,000000000e+00
      282000000    4,152180627e-03    1,194333378e-02   -5,617898107e-01   -5,350922346e-01    0,000000000e+00    0,000000000e+00    0,000000000e+00    0,000000000e+00
      296000000    1,004510839e-02   -7,643010933e-03   -7,591828108e-01   -1,395445764e-01    0,000000000e+00    0,000000000e+00    0,000000000e+00    0,000000000e+00
      310000000    1,167226024e-02   -1,613062434e-02   -7,110856771e-01    2,990098298e-01    0,000000000e+00    0,000000000e+00    0,000000000e+00    0,000000000e+00
      324000000    2,024171874e-02   -2,680028230e-02   -4,265145361e-01    6,373047829e-01    0,000000000e+00    0,000000000e+00    0,000000000e+00    0,000000000e+00
      338000000    2,585439011e-02   -5,243469030e-02   -9,087800048e-03    7,617477775e-01    0,000000000e+00    0,000000000e+00    0,000000000e+00    0,000000000e+00
      352000000    7,685486227e-03   -8,496001363e-02    4,058595300e-01    6,384855509e-01    0,000000000e+00    0,000000000e+00    0,000000000e+00    0,000000000e+00
      366000000   -3,455577046e-02   -9,558852017e-02    6,893216968e-01    3,108890057e-01    0,000000000e+00    0,000000000e+00    0,000000000e+00    0,000000000e+00
      380000000   -7,037268579e-02   -7,126928121e-02    7,463779449e-01   -1,259195507e-01    0,000000000e+00    0,000000000e+00    0,000000000e+00    0,000000000e+00
      394000000   -7,218469679e-02   -3,299963847e-02    5,455898046e-01   -5,220683217e-01    0,000000000e+00    0,000000000e+00    0,000000000e+00    0,000000000e+00
      408000000   -4,617540911e-02   -1,657448150e-02    1,615190506e-01   -7,312026620e-01    0,000000000e+00    0,000000000e+00    0,000000000e+00    0,000000000e+00
      422000000   -2,825800702e-02   -3,236694261e-02   -2,672028542e-01   -6,942746639e-01    0,000000000e+00    0,000000000e+00    0,000000000e+00    0,000000000e+00
      436000000   -4,022459686e-02   -5,168279260e-02   -6,037424207e-01   -4,315280318e-01    0,000000000e+00    0,000000000e+00    0,000000000e+00    0,000000000e+00
      450000000   -6,711085886e-02   -4,403268173e-02   -7,396684885e-01   -2,142073587e-02    0,000000000e+00    0,000000000e+00    0,000000000e+00    0,000000000e+00
      464000000   -7,277342677e-02   -1,234259922e-02   -6,178986430e-01    3,967082798e-01    0,000000000e+00    0,000000000e+00    0,000000000e+00    0,000000000e+00
      478000000   -4,775163531e-02    1,110298838e-02   -2,823371887e-01    6,665169597e-01    0,000000000e+00    0,000000000e+00    0,000000000e+00    0,000000000e+00
      492000000   -1,588829607e-02    5,236525089e-03    1,368181556e-01    7,009494305e-01    0,000000000e+00    0,000000000e+00    0,000000000e+00    0,000000000e+00
      506000000   -2,334930701e-03   -1,615718566e-02    4,977115989e-01    5,020948648e-01    0,000000000e+00    0,000000000e+00    0,000000000e+00    0,000000000e+00
      520000000   -4,866377451e-03   -3,137953952e-02    6,871403456e-01    1,424245536e-01    0,000000000e+00    0,000000000e+00    0,000000000e+00    0,000000000e+00
      534000000   -3,506294684e-03   -3,805777803e-02    6,429958344e-01   -2,610283494e-01    0,000000000e+00    0,000000000e+00    0,000000000e+00    0,000000000e+00
      548000000    6,571640726e-03   -5,450193584e-02    3,807444870e-01   -5,662074089e-01    0,000000000e+00    0,000000000e+00    0,000000000e+00    0,000000000e+00
      562000000    3,155183047e-03   -8,960993588e-02    3,108584322e-03   -6,709799170e-01    0,000000000e+00    0,000000000e+00    0,000000000e+00    0,000000000e+00
      576000000   -3,356225789e-02   -1,242753342e-01   -3,677125275e-01   -5,564734936e-01    0,000000000e+00    0,000000000e+00    0,000000000e+00    0,000000000e+00
      590000000   -9,568312019e-02   -1,227227151e-01   -6,183814406e-01   -2,633746266e-01    0,000000000e+00    0,000000000e+00    0,000000000e+00    0,000000000e+00
      604000000   -1,385389566e-01   -7,263825089e-02   -6,638246179e-01    1,366813779e-01    0,000000000e+00    0,000000000e+00    0,000000000e+00    0,000000000e+00
      618000000   -1,288497597e-01   -1,050730981e-02   -4,637589753e-01    4,931458831e-01    0,000000000e+00    0,000000000e+00    0,000000000e+00    0,000000000e+00
      632000000   -8,392661065e-02    1,603208855e-02   -1,009433568e-01    6,614868045e-01    0,000000000e+00    0,000000000e+00    0,000000000e+00    0,000000000e+00
      646000000   -5,155237019e-02    8,333315491e-04    2,854737341e-01    5,938442945e-01    0,000000000e+00    0,000000000e+00    0,000000000e+00    0,000000000e+00
      660000000   -5,331483483e-02   -2,168670297e-02    5,639973879e-01    3,235016763e-01    0,000000000e+00    0,000000000e+00    0,000000000e+00    0,000000000e+00
      674000000   -6,901588291e-02   -1,683891378e-02    6,404283047e-01   -6,312692910e-02    0,000000000e+00    0,000000000e+00    0,000000000e+00    0,000000000e+00
      688000000   -6,643045694e-02    9,056012146e-03    4,710230827e-01   -4,243207276e-01    0,000000000e+00    0,000000000e+00    0,000000000e+00    0,000000000e+00
      702000000   -3,521907330e-02    2,654973418e-02    1,188552454e-01   -6,073700786e-01    0,000000000e+00    0,000000000e+00    0,000000000e+00    0,000000000e+00
      716000000    3,992913291e-03    1,535326708e-02   -2,588487566e-01   -5,445316434e-01    0,000000000e+00    0,000000000e+00    0,000000000e+00    0,000000000e+00
      730000000    3,740889952e-02   -1,382221747e-02   -5,215475559e-01   -2,709006071e-01    0,000000000e+00    0,000000000e+00    0,000000000e+00    0,000000000e+00
      744000000    6,239340082e-02   -6,582882255e-02   -5,598362684e-01    9,891231358e-02    0,000000000e+00    0,000000000e+00    0,000000000e+00    0,000000000e+00
      758000000    6,107020751e-02   -1,524612010e-01   -3,661585152e-01    4,002088010e-01    0,000000000e+00    0,000000000e+00    0,000000000e+00    0,000000000e+00
      772000000   -1,698692143e-02   -2,564379275e-01   -4,559958726e-02    5,091445446e-01    0,000000000e+00    0,000000000e+00    0,000000000e+00    0,000000000e+00
      786000000   -2,025513649e-01   -2,907245755e-01    2,597968876e-01    3,986136615e-01    0,000000000e+00    0,000000000e+00    0,000000000e+00    0,000000000e+00
      800000000   -4,080443680e-01   -1,260922998e-01    4,066855609e-01    1,176848635e-01    0,000000000e+00    0,000000000e+00    0,000000000e+00    0,000000000e+00
      814000000   -3,756595850e-01    2,013691366e-01    2,955693007e-01   -1,506852359e-01    0,000000000e+00    0,000000000e+00    0,000000000e+00    0,000000000e+00
      828000000   -6,091750786e-02    3,470035195e-01    8,222056180e-02   -1,892073005e-01    0,000000000e+00    0,000000000e+00    0,000000000e+00    0,000000000e+00
      842000000    2,117637247e-01    1,846565902e-01   -2,604081063e-03   -9,236824512e-02    0,000000000e+00    0,000000000e+00    0,000000000e+00    0,000000000e+00
      856000000    2,655598223e-01   -1,061080322e-01    3,633131832e-02   -3,693785518e-02    0,000000000e+00    0,000000000e+00    0,000000000e+00    0,000000000e+00
      870000000    8,159497380e-02   -3,511953950e-01    8,880309016e-02   -9,796875715e-02    0,000000000e+00    0,000000000e+00    0,000000000e+00    0,000000000e+00
      884000000   -2,672708631e-01   -3,556514680e-01    1,133138500e-02   -2,285263836e-01    0,000000000e+00    0,000000000e+00    0,000000000e+00    0,000000000e+00
      898000000   -4,565863609e-01   -1,287716907e-02   -2,150220722e-01   -2,099199295e-01    0,000000000e+00    0,000000000e+00    0,000000000e+00    0,000000000e+00
      912000000   -2,343163490e-01    2,780957818e-01   -3,430067599e-01    7,632354647e-02    0,000000000e+00    0,000000000e+00    0,000000000e+00    0,000000000e+00
      926000000    5,457435548e-02    2,593000829e-01   -2,100972086e-01    2,601492703e-01    0,000000000e+00    0,000000000e+00    0,000000000e+00    0,000000000e+00
      940000000    2,090196908e-01    8,272988349e-02   -3,083175980e-02    3,242667913e-01    0,000000000e+00    0,000000000e+00    0,000000000e+00    0,000000000e+00
      954000000    2,232555002e-01   -1,222621799e-01    1,329821050e-01    3,016194403e-01    0,000000000e+00    0,000000000e+00    0,000000000e+00    0,000000000e+00
      968000000    1,166656688e-01   -2,967159748e-01    2,679624856e-01    2,134822458e-01    0,000000000e+00    0,000000000e+00    0,000000000e+00    0,000000000e+00
      982000000   -7,764665782e-02   -3,824735284e-01    3,612011373e-01    6,182774156e-02    0,000000000e+00    0,000000000e+00    0,000000000e+00    0,000000000e+00
      996000000   -3,082385957e-01   -3,328821361e-01    3,630472720e-01   -1,449104100e-01    0,000000000e+00    0,000000000e+00    0,000000000e+00    0,000000000e+00
     1010000000   -4,639597833e-01   -1,178238690e-01    2,195637226e-01   -3,357228041e-01    0,000000000e+00    0,000000000e+00    0,000000000e+00    0,000000000e+00
     1024000000   -4,177298248e-01    1,471017599e-01   -3,332905099e-02   -3,859763443e-01    0,000000000e+00    0,000000000e+00    0,000000000e+00    0,000000000e+00
     1038000000   -2,190229744e-01    2,893122435e-01   -2,428898513e-01   -2,544443607e-01    0,000000000e+00    0,000000000e+00    0,000000000e+00    0,000000000e+00
     1052000000   -1,378950011e-02    2,823082507e-01   -3,115119338e-01   -4,688936472e-02    0,000000000e+00    0,000000000e+00    0,000000000e+00    0,000000000e+00
     1066000000    1,337437332e-01    1,658636034e-01   -2,484132648e-01    1,429044306e-01    0,000000000e+00    0,000000000e+00    0,000000000e+00    0,000000000e+00
     1080000000    1,916293651e-01    7,029467262e-03   -1,172511280e-01    2,544672191e-01    0,000000000e+00    0,000000000e+00    0,000000000e+00    0,000000000e+00
     1094000000    1,610229909e-01   -1,662920713e-01    5,993409827e-02    2,930171490e-01    0,000000000e+00    0,000000000e+00    0,000000000e+00    0,000000000e+00
     1108000000    2,119741589e-02   -2,956979573e-01    2,612902820e-01    2,357619107e-01    0,000000000e+00    0,000000000e+00    0,000000000e+00    0,000000000e+00
     1122000000   -2,165744901e-01   -2,848319113e-01    4,414092004e-01    2,600621618e-02    0,000000000e+00    0,000000000e+00    0,000000000e+00    0,000000000e+00
     1136000000   -3,251656294e-01   -2,529525384e-02    3,999193609e-01   -3,449677527e-01    0,000000000e+00    0,000000000e+00    0,000000000e+00    0,000000000e+00
     1150000000   -1,077416763e-01    1,405580938e-01    4,694006965e-02   -5,287016034e-01    0,000000000e+00    0,000000000e+00    0,000000000e+00    0,000000000e+00
     1164000000    8,484686911e-02   -2,091083117e-02   -2,525579035e-01   -4,068608880e-01    0,000000000e+00    0,000000000e+00    0,000000000e+00    0,000000000e+00
     1178000000    3,017998487e-02   -2,534271777e-01   -3,683924675e-01   -1,792345941e-01    0,000000000e+00    0,000000000e+00    0,000000000e+00    0,000000000e+00
     1192000000   -2,199205607e-01   -3,468343318e-01   -3,355729878e-01    4,045303911e-02    0,000000000e+00    0,000000000e+00    0,000000000e+00    0,000000000e+00
     1206000000   -4,826896191e-01   -1,845448911e-01   -1,963516325e-01    1,829884499e-01    0,000000000e+00    0,000000000e+00    0,000000000e+00    0,000000000e+00
     1220000000   -5,009065270e-01    1,346757263e-01   -1,080930606e-02    1,729079932e-01    0,000000000e+00    0,000000000e+00    0,000000000e+00    0,000000000e+00
     1234000000   -3,026131690e-01    3,454664946e-01    6,924502552e-02    8,214309067e-02    0,000000000e+00    0,000000000e+00    0,000000000e+00    0,000000000e+00
     1248000000   -6,458155066e-02    3,550912440e-01    6,377566606e-02    1,266720938e-03    0,000000000e+00    0,000000000e+00    0,000000000e+00    0,000000000e+00
     1262000000    1,127828658e-01    2,633630335e-01    3,056439944e-02   -2,158693410e-02    0,000000000e+00    0,000000000e+00    0,000000000e+00    0,000000000e+00
     1276000000    2,025779337e-01    1,076803431e-01    5,875693634e-03   -4,622632172e-03    0,000000000e+00    0,000000000e+00    0,000000000e+00    0,000000000e+00
     1290000000    2,169594765e-01   -6,635071337e-02    1,472852938e-02    2,676452696e-02    0,000000000e+00    0,000000000e+00    0,000000000e+00    0,000000000e+00
     1304000000    1,672406048e-01   -2,332715839e-01    6,335537136e-02    5,410601199e-02    0,000000000e+00    0,000000000e+00    0,000000000e+00    0,000000000e+00
     1318000000    2,738727070e-02   -3,647596538e-01    1,725099087e-01    1,780880243e-02    0,000000000e+00    0,000000000e+00    0,000000000e+00    0,000000000e+00
     1332000000   -1,484805793e-01   -3,974063396e-01    1,045280173e-01   -1,846753806e-01    0,000000000e+00    0,000000000e+00    0,000000000e+00    0,000000000e+00
     1346000000   -3,527539670e-01   -3,860613406e-01   -5,775772780e-02   -2,118076384e-02    0,000000000e+00    0,000000000e+00    0,000000000e+00    0,000000000e+00
     1360000000   -5,858340263e-01   -2,099744827e-01    5,818789825e-02    8,800944686e-02    0,000000000e+00    0,000000000e+00    0,000000000e+00    0,000000000e+00
     1374000000   -6,233813167e-01    1,010711268e-01    1,845095009e-01    4,953239113e-02    0,000000000e+00    0,000000000e+00    0,000000000e+00    0,000000000e+00
     1388000000   -4,670497477e-01    3,500237465e-01    2,223980129e-01   -2,191392146e-02    0,000000000e+00    0,000000000e+00    0,000000000e+00    0,000000000e+00
     1402000000   -2,476380765e-01    4,401853681e-01    2,100935578e-01   -8,343981206e-02    0,000000000e+00    0,000000000e+00    0,000000000e+00    0,000000000e+00
     1416000000   -3,852743655e-02    4,150517285e-01    1,953795552e-01   -9,567134827e-02    0,000000000e+00    0,000000000e+00    0,000000000e+00    0,000000000e+00
     1430000000    1,063903943e-01    3,018743694e-01    1,775143296e-01   -9,966639429e-02    0,000000000e+00    0,000000000e+00    0,000000000e+00    0,000000000e+00
     1444000000    2,002292126e-01    1,498695612e-01    1,648167074e-01   -1,144575700e-01    0,000000000e+00    0,000000000e+00    0,000000000e+00    0,000000000e+00
     1458000000    2,352853119e-01   -1,616818644e-02    1,537172794e-01   -8,977605402e-02    0,000000000e+00    0,000000000e+00    0,000000000e+00    0,000000000e+00
     1472000000    1,879417896e-01   -1,943439394e-01    1,324180663e-01   -4,765657336e-02    0,000000000e+00    0,000000000e+00    0,000000000e+00    0,000000000e+00
     1486000000    6,135225296e-02   -3,614233434e-01    1,628068238e-01    2,602971159e-02    0,000000000e+00    0,000000000e+00    0,000000000e+00    0,000000000e+00
     1500000000   -1,561254859e-01   -4,889048636e-01    2,391136885e-01    8,059103042e-02    0,000000000e+00    0,000000000e+00    0,000000000e+00    0,000000000e+00
