! NanoVNA-App
! Date: 2025-09-25 15:41:21
! Start: 100MHz Stop: 1,5GHz Points: 101
! S-Parameter data: F S11 S21 S12 S22
# Hz S RI R 50
!     Frequency           S11_Real           S11_Imag           S21_Real           S21_Imag           S12_Real           S12_Imag           S22_Real           S22_Imag
      100000000   -2,873013727e-02   -4,254580475e-03    3,738763928e-01   -7,215103507e-01    0,000000000e+00    0,000000000e+00    0,000000000e+00    0,000000000e+00
      114000000   -1,649694890e-02    1,144635957e-02   -8,918184787e-02   -8,051915169e-01    0,000000000e+00    0,000000000e+00    0,000000000e+00    0,000000000e+00
      128000000    3,457030049e-03    1,065499149e-02   -5,146560073e-01   -6,202759147e-01    0,000000000e+00    0,000000000e+00    0,000000000e+00    0,000000000e+00
      142000000    1,467885450e-02   -2,645638539e-03   -7,668101788e-01   -2,363249213e-01    0,000000000e+00    0,000000000e+00    0,000000000e+00    0,000000000e+00
      156000000    1,624613628e-02   -1,412795298e-02   -7,694931626e-01    2,241434902e-01    0,000000000e+00    0,000000000e+00    0,000000000e+00    0,000000000e+00
      170000000    1,712194458e-02   -2,247840725e-02   -5,181518793e-01    6,046620607e-01    0,000000000e+00    0,000000000e+00    0,000000000e+00    0,000000000e+00
      184000000    2,134912461e-02   -3,718266636e-02   -1,014616415e-01    7,860125303e-01    0,000000000e+00    0,000000000e+00    0,000000000e+00    0,000000000e+00
      198000000    1,319797803e-02   -6,255068630e-02    3,432237506e-01    7,121302485e-01    0,000000000e+00    0,000000000e+00    0,000000000e+00    0,000000000e+00
      212000000   -1,843845285e-02   -8,132309467e-02    6,779428124e-01    4,097950757e-01    0,000000000e+00    0,000000000e+00    0,000000000e+00    0,000000000e+00
      226000000   -6,135512143e-02   -6,921320409e-02    7,953968048e-01   -3,045337461e-02    0,000000000e+00    0,000000000e+00    0,000000000e+00    0,000000000e+00
      240000000   -8,219095320e-02   -2,573088184e-02    6,458670497e-01   -4,666956067e-01    0,000000000e+00    0,000000000e+00    0,000000000e+00    0,000000000e+00
      254000000   -6,337340176e-02    1,690124348e-02    2,761898935e-01   -7,428996563e-01    0,000000000e+00    0,000000000e+00    0,000000000e+00    0,000000000e+00
      268000000   -2,385869808e-02    2,869795263e-02   -1,780111343e-01   -7,639053464e-01    0,000000000e+00    0,000000000e+00    0,000000000e+00    0,000000000e+00
      282000000    4,025556613e-03    1,205560286e-02   -5,616523623e-01   -5,352515578e-01    0,000000000e+00    0,000000000e+00    0,000000000e+00    0,000000000e+00
      296000000    9,770271368e-03   -7,567011751e-03   -7,592868805e-01   -1,394923478e-01    0,000000000e+00    0,000000000e+00    0,000000000e+00    0,000000000e+00
      310000000    1,168204751e-02   -1,624345593e-02   -7,126504779e-01    2,971355021e-01    0,000000000e+00    0,000000000e+00    0,000000000e+00    0,000000000e+00
      324000000    2,002971806e-02   -2,680407837e-02   -4,270654023e-01    6,384289265e-01    0,000000000e+00    0,000000000e+00    0,000000000e+00    0,000000000e+00
      338000000    2,577277832e-02   -5,242677778e-02   -1,062182989e-02    7,590714097e-01    0,000000000e+00    0,000000000e+00    0,000000000e+00    0,000000000e+00
      352000000    7,643122226e-03   -8,483450860e-02    4,065353870e-01    6,392028332e-01    0,000000000e+00    0,000000000e+00    0,000000000e+00    0,000000000e+00
      366000000   -3,434275463e-02   -9,564347565e-02    6,903419495e-01    3,114834130e-01    0,000000000e+00    0,000000000e+00    0,000000000e+00    0,000000000e+00
      380000000   -7,028169930e-02   -7,093580067e-02    7,472869754e-01   -1,255311817e-01    0,000000000e+00    0,000000000e+00    0,000000000e+00    0,000000000e+00
      394000000   -7,226853818e-02   -3,266863897e-02    5,461158752e-01   -5,207448602e-01    0,000000000e+00    0,000000000e+00    0,000000000e+00    0,000000000e+00
      408000000   -4,640303552e-02   -1,662577316e-02    1,604216248e-01   -7,319500446e-01    0,000000000e+00    0,000000000e+00    0,000000000e+00    0,000000000e+00
      422000000   -2,838278934e-02   -3,231842443e-02   -2,667422593e-01   -6,951802373e-01    0,000000000e+00    0,000000000e+00    0,000000000e+00    0,000000000e+00
      436000000   -4,044286162e-02   -5,179601535e-02   -6,029295921e-01   -4,316740632e-01    0,000000000e+00    0,000000000e+00    0,000000000e+00    0,000000000e+00
      450000000   -6,687034667e-02   -4,367111251e-02   -7,399582267e-01   -2,165962011e-02    0,000000000e+00    0,000000000e+00    0,000000000e+00    0,000000000e+00
      464000000   -7,292153686e-02   -1,176654547e-02   -6,181364059e-01    3,968554735e-01    0,000000000e+00    0,000000000e+00    0,000000000e+00    0,000000000e+00
      478000000   -4,703070596e-02    1,108303294e-02   -2,825414836e-01    6,670509577e-01    0,000000000e+00    0,000000000e+00    0,000000000e+00    0,000000000e+00
      492000000   -1,556814928e-02    5,902362987e-03    1,371510327e-01    7,009028792e-01    0,000000000e+00    0,000000000e+00    0,000000000e+00    0,000000000e+00
      506000000   -2,817959059e-03   -1,619065925e-02    4,977016449e-01    5,024069548e-01    0,000000000e+00    0,000000000e+00    0,000000000e+00    0,000000000e+00
      520000000   -4,835739732e-03   -3,149126470e-02    6,870189309e-01    1,402097791e-01    0,000000000e+00    0,000000000e+00    0,000000000e+00    0,000000000e+00
      534000000   -3,756763181e-03   -3,801834956e-02    6,427750587e-01   -2,617694438e-01    0,000000000e+00    0,000000000e+00    0,000000000e+00    0,000000000e+00
      548000000    6,816701032e-03   -5,398831144e-02    3,816308081e-01   -5,656120777e-01    0,000000000e+00    0,000000000e+00    0,000000000e+00    0,000000000e+00
      562000000    3,483905457e-03   -8,964541554e-02    3,614376765e-03   -6,716449261e-01    0,000000000e+00    0,000000000e+00    0,000000000e+00    0,000000000e+00
      576000000   -3,374483436e-02   -1,244642437e-01   -3,680820465e-01   -5,563922524e-01    0,000000000e+00    0,000000000e+00    0,000000000e+00    0,000000000e+00
      590000000   -9,568214417e-02   -1,227480397e-01   -6,188490987e-01   -2,655038834e-01    0,000000000e+00    0,000000000e+00    0,000000000e+00    0,000000000e+00
      604000000   -1,390784383e-01   -7,227141410e-02   -6,643648744e-01    1,365403682e-01    0,000000000e+00    0,000000000e+00    0,000000000e+00    0,000000000e+00
      618000000   -1,288301498e-01   -9,641625918e-03   -4,643782079e-01    4,926902056e-01    0,000000000e+00    0,000000000e+00    0,000000000e+00    0,000000000e+00
      632000000   -8,474528790e-02    1,650707982e-02   -1,003125012e-01    6,608419418e-01    0,000000000e+00    0,000000000e+00    0,000000000e+00    0,000000000e+00
      646000000   -5,215892941e-02    3,026787308e-04    2,861871421e-01    5,947474241e-01    0,000000000e+00    0,000000000e+00    0,000000000e+00    0,000000000e+00
      660000000   -5,350646749e-02   -2,035772242e-02    5,653207302e-01    3,233759701e-01    0,000000000e+00    0,000000000e+00    0,000000000e+00    0,000000000e+00
      674000000   -7,007388026e-02   -1,614654437e-02    6,408700943e-01   -6,307997555e-02    0,000000000e+00    0,000000000e+00    0,000000000e+00    0,000000000e+00
      688000000   -6,635257602e-02    9,035681374e-03    4,699610174e-01   -4,231424034e-01    0,000000000e+00    0,000000000e+00    0,000000000e+00    0,000000000e+00
      702000000   -3,616300970e-02    2,580043487e-02    1,200862229e-01   -6,046029925e-01    0,000000000e+00    0,000000000e+00    0,000000000e+00    0,000000000e+00
      716000000    3,069019876e-03    1,568881236e-02   -2,595562339e-01   -5,452239513e-01    0,000000000e+00    0,000000000e+00    0,000000000e+00    0,000000000e+00
      730000000    3,683942929e-02   -1,437359024e-02   -5,216971040e-01   -2,708868980e-01    0,000000000e+00    0,000000000e+00    0,000000000e+00    0,000000000e+00
      744000000    6,179305166e-02   -6,480979174e-02   -5,597571731e-01    9,884503484e-02    0,000000000e+00    0,000000000e+00    0,000000000e+00    0,000000000e+00
      758000000    6,091631204e-02   -1,523539871e-01   -3,663672507e-01    4,005146325e-01    0,000000000e+00    0,000000000e+00    0,000000000e+00    0,000000000e+00
      772000000   -1,682074554e-02   -2,560684681e-01   -4,515538737e-02    5,089892149e-01    0,000000000e+00    0,000000000e+00    0,000000000e+00    0,000000000e+00
      786000000   -2,022094876e-01   -2,912618220e-01    2,591502964e-01    3,986136019e-01    0,000000000e+00    0,000000000e+00    0,000000000e+00    0,000000000e+00
      800000000   -4,073482752e-01   -1,263537258e-01    4,073253572e-01    1,183632240e-01    0,000000000e+00    0,000000000e+00    0,000000000e+00    0,000000000e+00
      814000000   -3,767884076e-01    2,016210705e-01    2,963312864e-01   -1,505655050e-01    0,000000000e+00    0,000000000e+00    0,000000000e+00    0,000000000e+00
      828000000   -6,258214265e-02    3,479229212e-01    8,242448419e-02   -1,899137646e-01    0,000000000e+00    0,000000000e+00    0,000000000e+00    0,000000000e+00
      842000000    2,117716670e-01    1,853504777e-01   -3,304285696e-03   -9,281115234e-02    0,000000000e+00    0,000000000e+00    0,000000000e+00    0,000000000e+00
      856000000    2,659853995e-01   -1,065784767e-01    3,598257899e-02   -3,709649667e-02    0,000000000e+00    0,000000000e+00    0,000000000e+00    0,000000000e+00
      870000000    8,269259334e-02   -3,518192768e-01    8,905282617e-02   -9,751617163e-02    0,000000000e+00    0,000000000e+00    0,000000000e+00    0,000000000e+00
      884000000   -2,679780424e-01   -3,564044535e-01    1,116561983e-02   -2,276547849e-01    0,000000000e+00    0,000000000e+00    0,000000000e+00    0,000000000e+00
      898000000   -4,579755962e-01   -1,262918115e-02   -2,151821554e-01   -2,085156143e-01    0,000000000e+00    0,000000000e+00    0,000000000e+00    0,000000000e+00
      912000000   -2,358070910e-01    2,791491747e-01   -3,280329108e-01    7,647258043e-02    0,000000000e+00    0,000000000e+00    0,000000000e+00    0,000000000e+00
      926000000    5,478855595e-02    2,635546923e-01   -2,101927102e-01    2,650085986e-01    0,000000000e+00    0,000000000e+00    0,000000000e+00    0,000000000e+00
      940000000    2,106903195e-01    8,296761662e-02   -3,228126839e-02    3,251110911e-01    0,000000000e+00    0,000000000e+00    0,000000000e+00    0,000000000e+00
      954000000    2,178045809e-01   -1,210855022e-01    1,304358542e-01    3,016207218e-01    0,000000000e+00    0,000000000e+00    0,000000000e+00    0,000000000e+00
      968000000    1,196812913e-01   -2,934674323e-01    2,683776915e-01    2,142084390e-01    0,000000000e+00    0,000000000e+00    0,000000000e+00    0,000000000e+00
      982000000   -7,774890214e-02   -3,869737089e-01    3,618013859e-01    6,165254861e-02    0,000000000e+00    0,000000000e+00    0,000000000e+00    0,000000000e+00
      996000000   -3,080829084e-01   -3,338301182e-01    3,623955548e-01   -1,439555585e-01    0,000000000e+00    0,000000000e+00    0,000000000e+00    0,000000000e+00
     1010000000   -4,632947147e-01   -1,177267060e-01    2,190762162e-01   -3,347861767e-01    0,000000000e+00    0,000000000e+00    0,000000000e+00    0,000000000e+00
     1024000000   -4,190434515e-01    1,405556202e-01   -3,250497207e-02   -3,847708106e-01    0,000000000e+00    0,000000000e+00    0,000000000e+00    0,000000000e+00
     1038000000   -2,252773494e-01    2,843138576e-01   -2,429266274e-01   -2,577432990e-01    0,000000000e+00    0,000000000e+00    0,000000000e+00    0,000000000e+00
     1052000000   -1,067165565e-02    2,791180015e-01   -3,121101856e-01   -4,819771275e-02    0,000000000e+00    0,000000000e+00    0,000000000e+00    0,000000000e+00
     1066000000    1,337585300e-01    1,716329604e-01   -2,510721385e-01    1,376397461e-01    0,000000000e+00    0,000000000e+00    0,000000000e+00    0,000000000e+00
     1080000000    1,937016845e-01    4,600071814e-03   -1,156881824e-01    2,542510927e-01    0,000000000e+00    0,000000000e+00    0,000000000e+00    0,000000000e+00
     1094000000    1,573552936e-01   -1,628021896e-01    5,993230268e-02    2,929059863e-01    0,000000000e+00    0,000000000e+00    0,000000000e+00    0,000000000e+00
     1108000000    1,700543426e-02   -2,968599796e-01    2,607108057e-01    2,360943258e-01    0,000000000e+00    0,000000000e+00    0,000000000e+00    0,000000000e+00
     1122000000   -2,143887281e-01   -2,866644263e-01    4,391140938e-01    2,313173562e-02    0,000000000e+00    0,000000000e+00    0,000000000e+00    0,000000000e+00
     1136000000   -3,212591112e-01   -3,044266440e-02    4,007957280e-01   -3,458444178e-01    0,000000000e+00    0,000000000e+00    0,000000000e+00    0,000000000e+00
     1150000000   -1,028188989e-01    1,423382312e-01    4,993559048e-02   -5,310238004e-01    0,000000000e+00    0,000000000e+00    0,000000000e+00    0,000000000e+00
     1164000000    8,709970117e-02   -2,102421783e-02   -2,514776886e-01   -4,030517042e-01    0,000000000e+00    0,000000000e+00    0,000000000e+00    0,000000000e+00
     1178000000    2,917211689e-02   -2,530843616e-01   -3,687119186e-01   -1,787131429e-01    0,000000000e+00    0,000000000e+00    0,000000000e+00    0,000000000e+00
     1192000000   -2,227524817e-01   -3,476160467e-01   -3,435040414e-01    3,880882636e-02    0,000000000e+00    0,000000000e+00    0,000000000e+00    0,000000000e+00
     1206000000   -4,800456464e-01   -1,829267591e-01   -1,875945628e-01    1,820985228e-01    0,000000000e+00    0,000000000e+00    0,000000000e+00    0,000000000e+00
     1220000000   -5,060051084e-01    1,432622373e-01   -1,106216665e-02    1,769121736e-01    0,000000000e+00    0,000000000e+00    0,000000000e+00    0,000000000e+00
     1234000000   -3,039464056e-01    3,442116082e-01    7,254473120e-02    8,085763454e-02    0,000000000e+00    0,000000000e+00    0,000000000e+00    0,000000000e+00
     1248000000   -6,809753180e-02    3,585687578e-01    6,911788881e-02    2,125154948e-03    0,000000000e+00    0,000000000e+00    0,000000000e+00    0,000000000e+00
     1262000000    1,086064875e-01    2,542127669e-01    3,278826550e-02   -2,605977841e-02    0,000000000e+00    0,000000000e+00    0,000000000e+00    0,000000000e+00
     1276000000    1,978996545e-01    1,077067256e-01    2,769327955e-03   -9,135057218e-03    0,000000000e+00    0,000000000e+00    0,000000000e+00    0,000000000e+00
     1290000000    2,190232128e-01   -6,484154612e-02    9,003799409e-03    2,666135505e-02    0,000000000e+00    0,000000000e+00    0,000000000e+00    0,000000000e+00
     1304000000    1,657723933e-01   -2,312254757e-01    6,206437573e-02    6,229929999e-02    0,000000000e+00    0,000000000e+00    0,000000000e+00    0,000000000e+00
     1318000000    2,674679644e-02   -3,612952232e-01    1,673694700e-01    2,119650505e-02    0,000000000e+00    0,000000000e+00    0,000000000e+00    0,000000000e+00
     1332000000   -1,501365006e-01   -3,973698020e-01    9,601871669e-02   -1,793096662e-01    0,000000000e+00    0,000000000e+00    0,000000000e+00    0,000000000e+00
     1346000000   -3,569370806e-01   -3,973211646e-01   -5,155207217e-02   -2,885335125e-02    0,000000000e+00    0,000000000e+00    0,000000000e+00    0,000000000e+00
     1360000000   -5,832011104e-01   -2,017968744e-01    7,634057105e-02    9,077502042e-02    0,000000000e+00    0,000000000e+00    0,000000000e+00    0,000000000e+00
     1374000000   -6,291978359e-01    1,074134707e-01    1,873693764e-01    5,597503483e-02    0,000000000e+00    0,000000000e+00    0,000000000e+00    0,000000000e+00
     1388000000   -4,802613556e-01    3,538551331e-01    2,140165120e-01   -3,861038014e-02    0,000000000e+00    0,000000000e+00    0,000000000e+00    0,000000000e+00
     1402000000   -2,409665883e-01    4,430684745e-01    2,199950516e-01   -8,283887058e-02    0,000000000e+00    0,000000000e+00    0,000000000e+00    0,000000000e+00
     1416000000   -4,269572347e-02    4,084538817e-01    1,898126006e-01   -1,082940251e-01    0,000000000e+00    0,000000000e+00    0,000000000e+00    0,000000000e+00
     1430000000    1,171199903e-01    3,126472533e-01    1,980881691e-01   -9,422003478e-02    0,000000000e+00    0,000000000e+00    0,000000000e+00    0,000000000e+00
     1444000000    1,968456507e-01    1,599747092e-01    1,531317979e-01   -1,150955558e-01    0,000000000e+00    0,000000000e+00    0,000000000e+00    0,000000000e+00
     1458000000    2,282566726e-01   -1,171691529e-02    1,425370574e-01   -8,764236420e-02    0,000000000e+00    0,000000000e+00    0,000000000e+00    0,000000000e+00
     1472000000    1,917428672e-01   -1,964501292e-01    1,457308084e-01   -4,531370848e-02    0,000000000e+00    0,000000000e+00    0,000000000e+00    0,000000000e+00
     1486000000    6,360466033e-02   -3,689118922e-01    1,705626696e-01    7,727216929e-03    0,000000000e+00    0,000000000e+00    0,000000000e+00    0,000000000e+00
     1500000000   -1,672045141e-01   -4,896557033e-01    2,199654877e-01    8,793579042e-02    0,000000000e+00    0,000000000e+00    0,000000000e+00    0,000000000e+00
