! NanoVNA-App
! Date: 2025-09-25 15:41:58
! Start: 100MHz Stop: 1,5GHz Points: 101
! S-Parameter data: F S11 S21 S12 S22
# Hz S RI R 50
!     Frequency           S11_Real           S11_Imag           S21_Real           S21_Imag           S12_Real           S12_Imag           S22_Real           S22_Imag
      100000000   -2,872759104e-02   -4,244232085e-03    3,739722073e-01   -7,215692997e-01    0,000000000e+00    0,000000000e+00    0,000000000e+00    0,000000000e+00
      114000000   -1,648594998e-02    1,149368845e-02   -8,912670612e-02   -8,050118089e-01    0,000000000e+00    0,000000000e+00    0,000000000e+00    0,000000000e+00
      128000000    3,391991137e-03    1,069557853e-02   -5,146002769e-01   -6,203004122e-01    0,000000000e+00    0,000000000e+00    0,000000000e+00    0,000000000e+00
      142000000    1,467883028e-02   -2,637406113e-03   -7,668361068e-01   -2,365656793e-01    0,000000000e+00    0,000000000e+00    0,000000000e+00    0,000000000e+00
      156000000    1,640104130e-02   -1,412530150e-02   -7,697818875e-01    2,242404968e-01    0,000000000e+00    0,000000000e+00    0,000000000e+00    0,000000000e+00
      170000000    1,708510891e-02   -2,246724442e-02   -5,175744891e-01    6,041915417e-01    0,000000000e+00    0,000000000e+00    0,000000000e+00    0,000000000e+00
      184000000    2,135880105e-02   -3,714055195e-02   -1,013437286e-01    7,857699394e-01    0,000000000e+00    0,000000000e+00    0,000000000e+00    0,000000000e+00
      198000000    1,325377449e-02   -6,254217774e-02    3,431675136e-01    7,122244835e-01    0,000000000e+00    0,000000000e+00    0,000000000e+00    0,000000000e+00
      212000000   -1,839956455e-02   -8,128153533e-02    6,776636243e-01    4,097227752e-01    0,000000000e+00    0,000000000e+00    0,000000000e+00    0,000000000e+00
      226000000   -6,137008220e-02   -6,921128184e-02    7,954481244e-01   -3,046657518e-02    0,000000000e+00    0,000000000e+00    0,000000000e+00    0,000000000e+00
      240000000   -8,218774945e-02   -2,578636259e-02    6,458910108e-01   -4,667812288e-01    0,000000000e+00    0,000000000e+00    0,000000000e+00    0,000000000e+00
      254000000   -6,339399517e-02    1,694963686e-02    2,761074007e-01   -7,426536083e-01    0,000000000e+00    0,000000000e+00    0,000000000e+00    0,000000000e+00
      268000000   -2,392496914e-02    2,870213240e-02   -1,779492199e-01   -7,641304731e-01    0,000000000e+00    0,000000000e+00    0,000000000e+00    0,000000000e+00
      282000000    4,061894491e-03    1,209140662e-02   -5,616520047e-01   -5,359305143e-01    0,000000000e+00    0,000000000e+00    0,000000000e+00    0,000000000e+00
      296000000    9,872388095e-03   -7,473185193e-03   -7,594774365e-01   -1,396592408e-01    0,000000000e+00    0,000000000e+00    0,000000000e+00    0,000000000e+00
      310000000    1,150056720e-02   -1,614165306e-02   -7,129592896e-01    2,977435291e-01    0,000000000e+00    0,000000000e+00    0,000000000e+00    0,000000000e+00
      324000000    2,011359110e-02   -2,666937374e-02   -4,274574220e-01    6,368137598e-01    0,000000000e+00    0,000000000e+00    0,000000000e+00    0,000000000e+00
      338000000    2,545161545e-02   -5,220778286e-02   -6,836443208e-03    7,636926174e-01    0,000000000e+00    0,000000000e+00    0,000000000e+00    0,000000000e+00
      352000000    7,590631023e-03   -8,487285674e-02    4,067462981e-01    6,396871805e-01    0,000000000e+00    0,000000000e+00    0,000000000e+00    0,000000000e+00
      366000000   -3,458172455e-02   -9,540361911e-02    6,898044944e-01    3,104030192e-01    0,000000000e+00    0,000000000e+00    0,000000000e+00    0,000000000e+00
      380000000   -7,036070526e-02   -7,108202577e-02    7,469319701e-01   -1,258743554e-01    0,000000000e+00    0,000000000e+00    0,000000000e+00    0,000000000e+00
      394000000   -7,240737230e-02   -3,247548267e-02    5,453020334e-01   -5,207857490e-01    0,000000000e+00    0,000000000e+00    0,000000000e+00    0,000000000e+00
      408000000   -4,653761536e-02   -1,636900753e-02    1,600626856e-01   -7,313306928e-01    0,000000000e+00    0,000000000e+00    0,000000000e+00    0,000000000e+00
      422000000   -2,830132097e-02   -3,242494911e-02   -2,662062049e-01   -6,948305368e-01    0,000000000e+00    0,000000000e+00    0,000000000e+00    0,000000000e+00
      436000000   -4,067249596e-02   -5,174382776e-02   -6,031433940e-01   -4,320466220e-01    0,000000000e+00    0,000000000e+00    0,000000000e+00    0,000000000e+00
      450000000   -6,746277958e-02   -4,404729232e-02   -7,398343682e-01   -2,184765600e-02    0,000000000e+00    0,000000000e+00    0,000000000e+00    0,000000000e+00
      464000000   -7,285015285e-02   -1,173377596e-02   -6,182935834e-01    3,971235454e-01    0,000000000e+00    0,000000000e+00    0,000000000e+00    0,000000000e+00
      478000000   -4,741363600e-02    1,142906118e-02   -2,825142443e-01    6,668448448e-01    0,000000000e+00    0,000000000e+00    0,000000000e+00    0,000000000e+00
      492000000   -1,579904556e-02    5,556589458e-03    1,375194341e-01    7,004041672e-01    0,000000000e+00    0,000000000e+00    0,000000000e+00    0,000000000e+00
      506000000   -2,565630944e-03   -1,577842794e-02    4,979895055e-01    5,021707416e-01    0,000000000e+00    0,000000000e+00    0,000000000e+00    0,000000000e+00
      520000000   -5,397608969e-03   -3,163942322e-02    6,862154603e-01    1,408569664e-01    0,000000000e+00    0,000000000e+00    0,000000000e+00    0,000000000e+00
      534000000   -3,659745678e-03   -3,836818039e-02    6,429197788e-01   -2,623048127e-01    0,000000000e+00    0,000000000e+00    0,000000000e+00    0,000000000e+00
      548000000    6,294232793e-03   -5,396533757e-02    3,810562193e-01   -5,661598444e-01    0,000000000e+00    0,000000000e+00    0,000000000e+00    0,000000000e+00
      562000000    3,129415680e-03   -8,945374936e-02    3,390905214e-03   -6,714320183e-01    0,000000000e+00    0,000000000e+00    0,000000000e+00    0,000000000e+00
      576000000   -3,402171656e-02   -1,244569197e-01   -3,678631186e-01   -5,569828749e-01    0,000000000e+00    0,000000000e+00    0,000000000e+00    0,000000000e+00
      590000000   -9,547131509e-02   -1,227547899e-01   -6,183829308e-01   -2,648135126e-01    0,000000000e+00    0,000000000e+00    0,000000000e+00    0,000000000e+00
      604000000   -1,388060451e-01   -7,206713408e-02   -6,637709141e-01    1,375112385e-01    0,000000000e+00    0,000000000e+00    0,000000000e+00    0,000000000e+00
      618000000   -1,291730106e-01   -9,702746756e-03   -4,645494223e-01    4,929513037e-01    0,000000000e+00    0,000000000e+00    0,000000000e+00    0,000000000e+00
      632000000   -8,487701416e-02    1,631915197e-02   -1,004851088e-01    6,620752811e-01    0,000000000e+00    0,000000000e+00    0,000000000e+00    0,000000000e+00
      646000000   -5,256349966e-02    7,272521616e-04    2,855978012e-01    5,942120552e-01    0,000000000e+00    0,000000000e+00    0,000000000e+00    0,000000000e+00
      660000000   -5,321430787e-02   -2,007888816e-02    5,654599071e-01    3,235642314e-01    0,000000000e+00    0,000000000e+00    0,000000000e+00    0,000000000e+00
      674000000   -7,008520514e-02   -1,621933281e-02    6,406385899e-01   -6,328085065e-02    0,000000000e+00    0,000000000e+00    0,000000000e+00    0,000000000e+00
      688000000   -6,769062579e-02    9,135404602e-03    4,705914259e-01   -4,239597023e-01    0,000000000e+00    0,000000000e+00    0,000000000e+00    0,000000000e+00
      702000000   -3,542739898e-02    2,595701814e-02    1,205848902e-01   -6,020960808e-01    0,000000000e+00    0,000000000e+00    0,000000000e+00    0,000000000e+00
      716000000    3,649107181e-03    1,677221246e-02   -2,592409551e-01   -5,440329909e-01    0,000000000e+00    0,000000000e+00    0,000000000e+00    0,000000000e+00
      730000000    3,724597022e-02   -1,391790714e-02   -5,217926502e-01   -2,717116773e-01    0,000000000e+00    0,000000000e+00    0,000000000e+00    0,000000000e+00
      744000000    6,190037727e-02   -6,542217731e-02   -5,604487658e-01    9,863653034e-02    0,000000000e+00    0,000000000e+00    0,000000000e+00    0,000000000e+00
      758000000    6,134052575e-02   -1,514386088e-01   -3,670435250e-01    4,003403783e-01    0,000000000e+00    0,000000000e+00    0,000000000e+00    0,000000000e+00
      772000000   -1,705493964e-02   -2,563709319e-01   -4,687229916e-02    5,096479654e-01    0,000000000e+00    0,000000000e+00    0,000000000e+00    0,000000000e+00
      786000000   -2,017540038e-01   -2,907953560e-01    2,599855363e-01    3,993592262e-01    0,000000000e+00    0,000000000e+00    0,000000000e+00    0,000000000e+00
      800000000   -4,077038467e-01   -1,263768822e-01    4,073450267e-01    1,185838729e-01    0,000000000e+00    0,000000000e+00    0,000000000e+00    0,000000000e+00
      814000000   -3,762943149e-01    2,012217492e-01    2,962290347e-01   -1,511692405e-01    0,000000000e+00    0,000000000e+00    0,000000000e+00    0,000000000e+00
      828000000   -6,154547259e-02    3,472791910e-01    8,211681992e-02   -1,902514100e-01    0,000000000e+00    0,000000000e+00    0,000000000e+00    0,000000000e+00
      842000000    2,116120607e-01    1,854045540e-01   -3,296581563e-03   -9,300497174e-02    0,000000000e+00    0,000000000e+00    0,000000000e+00    0,000000000e+00
      856000000    2,663200796e-01   -1,061232835e-01    3,631187975e-02   -3,719433770e-02    0,000000000e+00    0,000000000e+00    0,000000000e+00    0,000000000e+00
      870000000    8,228460699e-02   -3,514991999e-01    8,821006864e-02   -9,720779955e-02    0,000000000e+00    0,000000000e+00    0,000000000e+00    0,000000000e+00
      884000000   -2,677909434e-01   -3,553031683e-01    1,092811208e-02   -2,272855341e-01    0,000000000e+00    0,000000000e+00    0,000000000e+00    0,000000000e+00
      898000000   -4,571264982e-01   -1,398405433e-02   -2,147032619e-01   -2,107789218e-01    0,000000000e+00    0,000000000e+00    0,000000000e+00    0,000000000e+00
      912000000   -2,352010012e-01    2,794084847e-01   -3,343794942e-01    8,008728921e-02    0,000000000e+00    0,000000000e+00    0,000000000e+00    0,000000000e+00
      926000000    5,443444103e-02    2,629652321e-01   -2,095581144e-01    2,643159926e-01    0,000000000e+00    0,000000000e+00    0,000000000e+00    0,000000000e+00
      940000000    2,076118886e-01    8,392621577e-02   -3,043277003e-02    3,237932026e-01    0,000000000e+00    0,000000000e+00    0,000000000e+00    0,000000000e+00
      954000000    2,207095325e-01   -1,240432709e-01    1,319012791e-01    3,007488251e-01    0,000000000e+00    0,000000000e+00    0,000000000e+00    0,000000000e+00
      968000000    1,181824654e-01   -2,943116426e-01    2,696926296e-01    2,127826959e-01    0,000000000e+00    0,000000000e+00    0,000000000e+00    0,000000000e+00
      982000000   -7,683698833e-02   -3,831144869e-01    3,609932959e-01    6,299077719e-02    0,000000000e+00    0,000000000e+00    0,000000000e+00    0,000000000e+00
      996000000   -3,130882978e-01   -3,265469670e-01    3,631873429e-01   -1,436316669e-01    0,000000000e+00    0,000000000e+00    0,000000000e+00    0,000000000e+00
     1010000000   -4,569536448e-01   -1,159917861e-01    2,186935246e-01   -3,351254761e-01    0,000000000e+00    0,000000000e+00    0,000000000e+00    0,000000000e+00
     1024000000   -4,189640284e-01    1,405628473e-01   -3,082351200e-02   -3,843805194e-01    0,000000000e+00    0,000000000e+00    0,000000000e+00    0,000000000e+00
     1038000000   -2,215677947e-01    2,859143019e-01   -2,410921454e-01   -2,561680377e-01    0,000000000e+00    0,000000000e+00    0,000000000e+00    0,000000000e+00
     1052000000   -1,671503298e-02    2,811019123e-01   -3,104761541e-01   -4,643394426e-02    0,000000000e+00    0,000000000e+00    0,000000000e+00    0,000000000e+00
     1066000000    1,347841024e-01    1,704228669e-01   -2,524073720e-01    1,386797875e-01    0,000000000e+00    0,000000000e+00    0,000000000e+00    0,000000000e+00
     1080000000    1,927706599e-01    1,053690352e-02   -1,152807176e-01    2,536335886e-01    0,000000000e+00    0,000000000e+00    0,000000000e+00    0,000000000e+00
     1094000000    1,632169783e-01   -1,632373631e-01    5,925775319e-02    2,907489240e-01    0,000000000e+00    0,000000000e+00    0,000000000e+00    0,000000000e+00
     1108000000    1,708169654e-02   -2,992316484e-01    2,596964538e-01    2,344407588e-01    0,000000000e+00    0,000000000e+00    0,000000000e+00    0,000000000e+00
     1122000000   -2,111213356e-01   -2,854976952e-01    4,367853999e-01    2,057592571e-02    0,000000000e+00    0,000000000e+00    0,000000000e+00    0,000000000e+00
     1136000000   -3,293460906e-01   -2,866961062e-02    3,992238939e-01   -3,449864984e-01    0,000000000e+00    0,000000000e+00    0,000000000e+00    0,000000000e+00
     1150000000   -1,047926098e-01    1,424761862e-01    4,720824584e-02   -5,319877863e-01    0,000000000e+00    0,000000000e+00    0,000000000e+00    0,000000000e+00
     1164000000    8,749224991e-02   -2,015773021e-02   -2,530958354e-01   -4,024795294e-01    0,000000000e+00    0,000000000e+00    0,000000000e+00    0,000000000e+00
     1178000000    2,549781278e-02   -2,537965178e-01   -3,728508651e-01   -1,777802408e-01    0,000000000e+00    0,000000000e+00    0,000000000e+00    0,000000000e+00
     1192000000   -2,230406404e-01   -3,507634997e-01   -3,412257135e-01    3,786819428e-02    0,000000000e+00    0,000000000e+00    0,000000000e+00    0,000000000e+00
     1206000000   -4,807770848e-01   -1,852940470e-01   -1,875118166e-01    1,810105592e-01    0,000000000e+00    0,000000000e+00    0,000000000e+00    0,000000000e+00
     1220000000   -5,059127212e-01    1,370742768e-01   -9,533752687e-03    1,756024957e-01    0,000000000e+00    0,000000000e+00    0,000000000e+00    0,000000000e+00
     1234000000   -3,011529446e-01    3,388071060e-01    7,163335383e-02    7,418987155e-02    0,000000000e+00    0,000000000e+00    0,000000000e+00    0,000000000e+00
     1248000000   -6,585252285e-02    3,626517653e-01    7,140934467e-02    1,063008793e-03    0,000000000e+00    0,000000000e+00    0,000000000e+00    0,000000000e+00
     1262000000    1,074327603e-01    2,554798722e-01    2,628952451e-02   -2,651702613e-02    0,000000000e+00    0,000000000e+00    0,000000000e+00    0,000000000e+00
     1276000000    2,033741623e-01    1,057417542e-01    4,476571456e-03   -9,678176604e-03    0,000000000e+00    0,000000000e+00    0,000000000e+00    0,000000000e+00
     1290000000    2,176402956e-01   -6,254929304e-02    7,977486588e-03    2,544329315e-02    0,000000000e+00    0,000000000e+00    0,000000000e+00    0,000000000e+00
     1304000000    1,672266722e-01   -2,322895229e-01    6,489178538e-02    5,921264365e-02    0,000000000e+00    0,000000000e+00    0,000000000e+00    0,000000000e+00
     1318000000    2,716140077e-02   -3,630331457e-01    1,728636920e-01    1,163223200e-02    0,000000000e+00    0,000000000e+00    0,000000000e+00    0,000000000e+00
     1332000000   -1,534660459e-01   -3,941844702e-01    9,645500779e-02   -1,747726202e-01    0,000000000e+00    0,000000000e+00    0,000000000e+00    0,000000000e+00
     1346000000   -3,645512462e-01   -3,935827613e-01   -5,944612250e-02   -1,200844254e-02    0,000000000e+00    0,000000000e+00    0,000000000e+00    0,000000000e+00
     1360000000   -5,907431841e-01   -2,014463395e-01    5,568648875e-02    9,255198389e-02    0,000000000e+00    0,000000000e+00    0,000000000e+00    0,000000000e+00
     1374000000   -6,250913739e-01    1,105844155e-01    1,742656678e-01    6,142378971e-02    0,000000000e+00    0,000000000e+00    0,000000000e+00    0,000000000e+00
     1388000000   -4,666672349e-01    3,521411717e-01    2,231600732e-01   -3,381280974e-02    0,000000000e+00    0,000000000e+00    0,000000000e+00    0,000000000e+00
     1402000000   -2,486992776e-01    4,439012110e-01    2,105503678e-01   -8,572459966e-02    0,000000000e+00    0,000000000e+00    0,000000000e+00    0,000000000e+00
     1416000000   -3,673490509e-02    4,037047923e-01    1,913912743e-01   -1,082770303e-01    0,000000000e+00    0,000000000e+00    0,000000000e+00    0,000000000e+00
     1430000000    1,117956191e-01    3,099238276e-01    1,964119226e-01   -1,008777991e-01    0,000000000e+00    0,000000000e+00    0,000000000e+00    0,000000000e+00
     1444000000    2,025390267e-01    1,553189009e-01    1,719187051e-01   -9,985449910e-02    0,000000000e+00    0,000000000e+00    0,000000000e+00    0,000000000e+00
     1458000000    2,272000313e-01   -1,206536498e-02    1,535521597e-01   -8,952189982e-02    0,000000000e+00    0,000000000e+00    0,000000000e+00    0,000000000e+00
     1472000000    1,893176585e-01   -1,913659424e-01    1,350063384e-01   -4,699516296e-02    0,000000000e+00    0,000000000e+00    0,000000000e+00    0,000000000e+00
     1486000000    7,393365353e-02   -3,656250238e-01    1,673358828e-01    2,522586286e-02    0,000000000e+00    0,000000000e+00    0,000000000e+00    0,000000000e+00
     1500000000   -1,522679627e-01   -4,895370901e-01    2,347082645e-01    8,011349291e-02    0,000000000e+00    0,000000000e+00    0,000000000e+00    0,000000000e+00
