! NanoVNA-App
! Date: 2025-09-25 15:38:26
! Start: 100MHz Stop: 1,5GHz Points: 101
! S-Parameter data: F S11 S21 S12 S22
# Hz S RI R 50
!     Frequency           S11_Real           S11_Imag           S21_Real           S21_Imag           S12_Real           S12_Imag           S22_Real           S22_Imag
      100000000   -2,873172797e-02   -4,270692822e-03    3,738901913e-01   -7,215386033e-01    0,000000000e+00    0,000000000e+00    0,000000000e+00    0,000000000e+00
      114000000   -1,650863141e-02    1,145655010e-02   -8,918756992e-02   -8,052599430e-01    0,000000000e+00    0,000000000e+00    0,000000000e+00    0,000000000e+00
      128000000    3,403662238e-03    1,070347708e-02   -5,145801902e-01   -6,203959584e-01    0,000000000e+00    0,000000000e+00    0,000000000e+00    0,000000000e+00
      142000000    1,466032676e-02   -2,617541933e-03   -7,669512033e-01   -2,364120781e-01    0,000000000e+00    0,000000000e+00    0,000000000e+00    0,000000000e+00
      156000000    1,512765419e-02   -1,464569569e-02   -7,664271593e-01    2,183737606e-01    0,000000000e+00    0,000000000e+00    0,000000000e+00    0,000000000e+00
      170000000    1,718132198e-02   -2,242284454e-02   -5,177294612e-01    6,043308973e-01    0,000000000e+00    0,000000000e+00    0,000000000e+00    0,000000000e+00
      184000000    2,136531658e-02   -3,722568974e-02   -1,011298820e-01    7,861416936e-01    0,000000000e+00    0,000000000e+00    0,000000000e+00    0,000000000e+00
      198000000    1,317805424e-02   -6,255276501e-02    3,430166841e-01    7,116184831e-01    0,000000000e+00    0,000000000e+00    0,000000000e+00    0,000000000e+00
      212000000   -1,846582256e-02   -8,126665652e-02    6,778002381e-01    4,098249972e-01    0,000000000e+00    0,000000000e+00    0,000000000e+00    0,000000000e+00
      226000000   -6,131859869e-02   -6,917593628e-02    7,952977419e-01   -3,051074594e-02    0,000000000e+00    0,000000000e+00    0,000000000e+00    0,000000000e+00
      240000000   -8,207225055e-02   -2,582521178e-02    6,458145976e-01   -4,670360088e-01    0,000000000e+00    0,000000000e+00    0,000000000e+00    0,000000000e+00
      254000000   -6,337772310e-02    1,682782173e-02    2,756431699e-01   -7,431273460e-01    0,000000000e+00    0,000000000e+00    0,000000000e+00    0,000000000e+00
      268000000   -2,397853881e-02    2,875832841e-02   -1,782358289e-01   -7,638125420e-01    0,000000000e+00    0,000000000e+00    0,000000000e+00    0,000000000e+00
      282000000    4,047803581e-03    1,207380369e-02   -5,617946982e-01   -5,352766514e-01    0,000000000e+00    0,000000000e+00    0,000000000e+00    0,000000000e+00
      296000000    9,825249203e-03   -7,456405554e-03   -7,595357299e-01   -1,394383758e-01    0,000000000e+00    0,000000000e+00    0,000000000e+00    0,000000000e+00
      310000000    1,166376378e-02   -1,599818096e-02   -7,105073333e-01    2,981720269e-01    0,000000000e+00    0,000000000e+00    0,000000000e+00    0,000000000e+00
      324000000    2,000908740e-02   -2,670586668e-02   -4,273178279e-01    6,370224357e-01    0,000000000e+00    0,000000000e+00    0,000000000e+00    0,000000000e+00
      338000000    2,572146803e-02   -5,236939341e-02   -9,314351715e-03    7,627272010e-01    0,000000000e+00    0,000000000e+00    0,000000000e+00    0,000000000e+00
      352000000    7,462563459e-03   -8,462242037e-02    4,075084031e-01    6,393243670e-01    0,000000000e+00    0,000000000e+00    0,000000000e+00    0,000000000e+00
      366000000   -3,462189808e-02   -9,538616240e-02    6,898984909e-01    3,106353283e-01    0,000000000e+00    0,000000000e+00    0,000000000e+00    0,000000000e+00
      380000000   -6,995441765e-02   -7,119175047e-02    7,475239038e-01   -1,262142360e-01    0,000000000e+00    0,000000000e+00    0,000000000e+00    0,000000000e+00
      394000000   -7,231026888e-02   -3,255349025e-02    5,460572839e-01   -5,213519931e-01    0,000000000e+00    0,000000000e+00    0,000000000e+00    0,000000000e+00
      408000000   -4,638628289e-02   -1,685515046e-02    1,596238017e-01   -7,328014970e-01    0,000000000e+00    0,000000000e+00    0,000000000e+00    0,000000000e+00
      422000000   -2,823946252e-02   -3,256389126e-02   -2,665299773e-01   -6,945976019e-01    0,000000000e+00    0,000000000e+00    0,000000000e+00    0,000000000e+00
      436000000   -4,050340131e-02   -5,171811208e-02   -6,036347151e-01   -4,308627248e-01    0,000000000e+00    0,000000000e+00    0,000000000e+00    0,000000000e+00
      450000000   -6,697595865e-02   -4,340004176e-02   -7,396222949e-01   -2,149889618e-02    0,000000000e+00    0,000000000e+00    0,000000000e+00    0,000000000e+00
      464000000   -7,305522263e-02   -1,168052293e-02   -6,182250977e-01    3,968875408e-01    0,000000000e+00    0,000000000e+00    0,000000000e+00    0,000000000e+00
      478000000   -4,710699990e-02    1,095747016e-02   -2,828489244e-01    6,663454771e-01    0,000000000e+00    0,000000000e+00    0,000000000e+00    0,000000000e+00
      492000000   -1,554672606e-02    5,674512591e-03    1,366824508e-01    7,009551525e-01    0,000000000e+00    0,000000000e+00    0,000000000e+00    0,000000000e+00
      506000000   -2,833872102e-03   -1,584546082e-02    4,973484278e-01    5,022665858e-01    0,000000000e+00    0,000000000e+00    0,000000000e+00    0,000000000e+00
      520000000   -5,076526664e-03   -3,136957064e-02    6,873049140e-01    1,407161802e-01    0,000000000e+00    0,000000000e+00    0,000000000e+00    0,000000000e+00
      534000000   -3,694365034e-03   -3,766806051e-02    6,427979469e-01   -2,617593110e-01    0,000000000e+00    0,000000000e+00    0,000000000e+00    0,000000000e+00
      548000000    6,248175167e-03   -5,383471772e-02    3,812200725e-01   -5,664691925e-01    0,000000000e+00    0,000000000e+00    0,000000000e+00    0,000000000e+00
      562000000    3,578095231e-03   -8,923325688e-02    3,734743223e-03   -6,713810563e-01    0,000000000e+00    0,000000000e+00    0,000000000e+00    0,000000000e+00
      576000000   -3,398962691e-02   -1,246870980e-01   -3,676171303e-01   -5,572172999e-01    0,000000000e+00    0,000000000e+00    0,000000000e+00    0,000000000e+00
      590000000   -9,576626867e-02   -1,226856560e-01   -6,185933352e-01   -2,650375962e-01    0,000000000e+00    0,000000000e+00    0,000000000e+00    0,000000000e+00
      604000000   -1,391002089e-01   -7,231883705e-02   -6,642104983e-01    1,371654719e-01    0,000000000e+00    0,000000000e+00    0,000000000e+00    0,000000000e+00
      618000000   -1,293956339e-01   -1,033771597e-02   -4,644377828e-01    4,926585853e-01    0,000000000e+00    0,000000000e+00    0,000000000e+00    0,000000000e+00
      632000000   -8,451667428e-02    1,525119692e-02   -1,003754586e-01    6,626058221e-01    0,000000000e+00    0,000000000e+00    0,000000000e+00    0,000000000e+00
      646000000   -5,188132823e-02    1,298192947e-04    2,841533720e-01    5,940613151e-01    0,000000000e+00    0,000000000e+00    0,000000000e+00    0,000000000e+00
      660000000   -5,416249111e-02   -2,097010240e-02    5,648792386e-01    3,225616813e-01    0,000000000e+00    0,000000000e+00    0,000000000e+00    0,000000000e+00
      674000000   -6,992144138e-02   -1,707803644e-02    6,408085823e-01   -6,335688382e-02    0,000000000e+00    0,000000000e+00    0,000000000e+00    0,000000000e+00
      688000000   -6,744872034e-02    9,740131907e-03    4,706540108e-01   -4,242307246e-01    0,000000000e+00    0,000000000e+00    0,000000000e+00    0,000000000e+00
      702000000   -3,550547361e-02    2,575892769e-02    1,218775734e-01   -6,027718782e-01    0,000000000e+00    0,000000000e+00    0,000000000e+00    0,000000000e+00
      716000000    4,000072367e-03    1,668289863e-02   -2,594020069e-01   -5,446019173e-01    0,000000000e+00    0,000000000e+00    0,000000000e+00    0,000000000e+00
      730000000    3,724428639e-02   -1,414427534e-02   -5,218320489e-01   -2,711250782e-01    0,000000000e+00    0,000000000e+00    0,000000000e+00    0,000000000e+00
      744000000    6,313855946e-02   -6,531468034e-02   -5,600445867e-01    9,918435663e-02    0,000000000e+00    0,000000000e+00    0,000000000e+00    0,000000000e+00
      758000000    6,100854278e-02   -1,525340825e-01   -3,661378026e-01    4,005144536e-01    0,000000000e+00    0,000000000e+00    0,000000000e+00    0,000000000e+00
      772000000   -1,728580706e-02   -2,566715479e-01   -4,493433610e-02    5,084491968e-01    0,000000000e+00    0,000000000e+00    0,000000000e+00    0,000000000e+00
      786000000   -2,030009180e-01   -2,922081649e-01    2,598138750e-01    3,988212049e-01    0,000000000e+00    0,000000000e+00    0,000000000e+00    0,000000000e+00
      800000000   -4,080478251e-01   -1,257510334e-01    4,068650305e-01    1,177739277e-01    0,000000000e+00    0,000000000e+00    0,000000000e+00    0,000000000e+00
      814000000   -3,754801452e-01    2,018845379e-01    2,959405184e-01   -1,511251777e-01    0,000000000e+00    0,000000000e+00    0,000000000e+00    0,000000000e+00
      828000000   -6,106086075e-02    3,466262817e-01    8,205654472e-02   -1,898838729e-01    0,000000000e+00    0,000000000e+00    0,000000000e+00    0,000000000e+00
      842000000    2,121882290e-01    1,851683259e-01   -2,916499740e-03   -9,281926602e-02    0,000000000e+00    0,000000000e+00    0,000000000e+00    0,000000000e+00
      856000000    2,660234272e-01   -1,065573394e-01    3,670368716e-02   -3,742451966e-02    0,000000000e+00    0,000000000e+00    0,000000000e+00    0,000000000e+00
      870000000    8,159097284e-02   -3,514300287e-01    8,891767263e-02   -9,786719829e-02    0,000000000e+00    0,000000000e+00    0,000000000e+00    0,000000000e+00
      884000000   -2,676145136e-01   -3,553489447e-01    1,170103718e-02   -2,287048399e-01    0,000000000e+00    0,000000000e+00    0,000000000e+00    0,000000000e+00
      898000000   -4,582592547e-01   -1,312127989e-02   -2,164689004e-01   -2,098509818e-01    0,000000000e+00    0,000000000e+00    0,000000000e+00    0,000000000e+00
      912000000   -2,345558256e-01    2,776391506e-01   -3,404462934e-01    7,906841487e-02    0,000000000e+00    0,000000000e+00    0,000000000e+00    0,000000000e+00
      926000000    5,528147519e-02    2,635681927e-01   -2,101041824e-01    2,634942830e-01    0,000000000e+00    0,000000000e+00    0,000000000e+00    0,000000000e+00
      940000000    2,098479718e-01    8,211868256e-02   -3,087989055e-02    3,241173327e-01    0,000000000e+00    0,000000000e+00    0,000000000e+00    0,000000000e+00
      954000000    2,222600132e-01   -1,219586954e-01    1,334566623e-01    3,005876839e-01    0,000000000e+00    0,000000000e+00    0,000000000e+00    0,000000000e+00
      968000000    1,168144345e-01   -2,922503650e-01    2,679384649e-01    2,136111408e-01    0,000000000e+00    0,000000000e+00    0,000000000e+00    0,000000000e+00
      982000000   -7,588249445e-02   -3,848921657e-01    3,614099920e-01    6,282994151e-02    0,000000000e+00    0,000000000e+00    0,000000000e+00    0,000000000e+00
      996000000   -3,135651350e-01   -3,309339285e-01    3,623355925e-01   -1,437382549e-01    0,000000000e+00    0,000000000e+00    0,000000000e+00    0,000000000e+00
     1010000000   -4,610314667e-01   -1,203082502e-01    2,198276073e-01   -3,343261182e-01    0,000000000e+00    0,000000000e+00    0,000000000e+00    0,000000000e+00
     1024000000   -4,135532379e-01    1,397629827e-01   -3,038284928e-02   -3,831445277e-01    0,000000000e+00    0,000000000e+00    0,000000000e+00    0,000000000e+00
     1038000000   -2,265083045e-01    2,898592055e-01   -2,411956638e-01   -2,556432188e-01    0,000000000e+00    0,000000000e+00    0,000000000e+00    0,000000000e+00
     1052000000   -1,333277393e-02    2,838141918e-01   -3,116889596e-01   -4,932428524e-02    0,000000000e+00    0,000000000e+00    0,000000000e+00    0,000000000e+00
     1066000000    1,338005662e-01    1,681110114e-01   -2,509257495e-01    1,370891631e-01    0,000000000e+00    0,000000000e+00    0,000000000e+00    0,000000000e+00
     1080000000    1,946727186e-01    9,563411586e-03   -1,163932607e-01    2,528823614e-01    0,000000000e+00    0,000000000e+00    0,000000000e+00    0,000000000e+00
     1094000000    1,600432545e-01   -1,664239317e-01    6,118664891e-02    2,938801348e-01    0,000000000e+00    0,000000000e+00    0,000000000e+00    0,000000000e+00
     1108000000    2,076482773e-02   -2,987980247e-01    2,606495917e-01    2,371678352e-01    0,000000000e+00    0,000000000e+00    0,000000000e+00    0,000000000e+00
     1122000000   -2,179892957e-01   -2,828481197e-01    4,387151897e-01    2,135274000e-02    0,000000000e+00    0,000000000e+00    0,000000000e+00    0,000000000e+00
     1136000000   -3,273434043e-01   -3,388408571e-02    4,041237235e-01   -3,445492387e-01    0,000000000e+00    0,000000000e+00    0,000000000e+00    0,000000000e+00
     1150000000   -1,008107960e-01    1,379288435e-01    4,849956185e-02   -5,312434435e-01    0,000000000e+00    0,000000000e+00    0,000000000e+00    0,000000000e+00
     1164000000    8,363365382e-02   -2,108124644e-02   -2,518896759e-01   -4,058732986e-01    0,000000000e+00    0,000000000e+00    0,000000000e+00    0,000000000e+00
     1178000000    2,859682590e-02   -2,525499165e-01   -3,677624762e-01   -1,799349785e-01    0,000000000e+00    0,000000000e+00    0,000000000e+00    0,000000000e+00
     1192000000   -2,185468972e-01   -3,450488150e-01   -3,393135071e-01    4,054089636e-02    0,000000000e+00    0,000000000e+00    0,000000000e+00    0,000000000e+00
     1206000000   -4,809610546e-01   -1,784310788e-01   -1,902202368e-01    1,818023622e-01    0,000000000e+00    0,000000000e+00    0,000000000e+00    0,000000000e+00
     1220000000   -5,032779574e-01    1,442761868e-01   -9,982748888e-03    1,731827557e-01    0,000000000e+00    0,000000000e+00    0,000000000e+00    0,000000000e+00
     1234000000   -2,935723662e-01    3,424158394e-01    7,886224985e-02    7,858377695e-02    0,000000000e+00    0,000000000e+00    0,000000000e+00    0,000000000e+00
     1248000000   -6,356752664e-02    3,555645943e-01    6,618788093e-02    1,009747386e-03    0,000000000e+00    0,000000000e+00    0,000000000e+00    0,000000000e+00
     1262000000    1,082749516e-01    2,609531283e-01    2,800684422e-02   -1,916158199e-02    0,000000000e+00    0,000000000e+00    0,000000000e+00    0,000000000e+00
     1276000000    1,992925256e-01    1,062262803e-01    3,022944089e-03   -8,609515615e-03    0,000000000e+00    0,000000000e+00    0,000000000e+00    0,000000000e+00
     1290000000    2,191129625e-01   -6,073478982e-02    1,374826208e-02    3,046464175e-02    0,000000000e+00    0,000000000e+00    0,000000000e+00    0,000000000e+00
     1304000000    1,649762392e-01   -2,310969532e-01    6,223393977e-02    6,161457300e-02    0,000000000e+00    0,000000000e+00    0,000000000e+00    0,000000000e+00
     1318000000    2,882729284e-02   -3,595894277e-01    1,711496860e-01    2,013262175e-02    0,000000000e+00    0,000000000e+00    0,000000000e+00    0,000000000e+00
     1332000000   -1,491993219e-01   -3,925781548e-01    1,069051921e-01   -1,805383414e-01    0,000000000e+00    0,000000000e+00    0,000000000e+00    0,000000000e+00
     1346000000   -3,598017097e-01   -3,881711066e-01   -5,050616711e-02   -1,915589906e-02    0,000000000e+00    0,000000000e+00    0,000000000e+00    0,000000000e+00
     1360000000   -5,896027088e-01   -2,078493983e-01    6,630036980e-02    8,515548706e-02    0,000000000e+00    0,000000000e+00    0,000000000e+00    0,000000000e+00
     1374000000   -6,252615452e-01    1,057069972e-01    1,806434840e-01    5,569750816e-02    0,000000000e+00    0,000000000e+00    0,000000000e+00    0,000000000e+00
     1388000000   -4,801906943e-01    3,569109738e-01    2,098915279e-01   -2,026351541e-02    0,000000000e+00    0,000000000e+00    0,000000000e+00    0,000000000e+00
     1402000000   -2,501423955e-01    4,455634952e-01    2,073428184e-01   -7,759371400e-02    0,000000000e+00    0,000000000e+00    0,000000000e+00    0,000000000e+00
     1416000000   -3,742456436e-02    4,075559378e-01    1,915348023e-01   -1,080869064e-01    0,000000000e+00    0,000000000e+00    0,000000000e+00    0,000000000e+00
     1430000000    1,241224930e-01    2,976325154e-01    1,625973880e-01   -1,296697259e-01    0,000000000e+00    0,000000000e+00    0,000000000e+00    0,000000000e+00
     1444000000    2,024561763e-01    1,577002555e-01    1,700013131e-01   -1,036254019e-01    0,000000000e+00    0,000000000e+00    0,000000000e+00    0,000000000e+00
     1458000000    2,334980667e-01   -1,179702394e-02    1,457599103e-01   -9,487187862e-02    0,000000000e+00    0,000000000e+00    0,000000000e+00    0,000000000e+00
     1472000000    1,901976466e-01   -1,980258375e-01    1,471093148e-01   -4,693261907e-02    0,000000000e+00    0,000000000e+00    0,000000000e+00    0,000000000e+00
     1486000000    6,419447064e-02   -3,645797372e-01    1,609190106e-01    1,474353299e-02    0,000000000e+00    0,000000000e+00    0,000000000e+00    0,000000000e+00
     1500000000   -1,590773463e-01   -4,885358810e-01    2,429403216e-01    9,485558420e-02    0,000000000e+00    0,000000000e+00    0,000000000e+00    0,000000000e+00
