! NanoVNA-App
! Date: 2025-09-25 15:41:21
! Start: 100MHz Stop: 1,5GHz Points: 101
! S-Parameter data: F S11 S21 S12 S22
# Hz S RI R 50
!     Frequency           S11_Real           S11_Imag           S21_Real           S21_Imag           S12_Real           S12_Imag           S22_Real           S22_Imag
      100000000   -2,872143500e-02   -4,254038446e-03    3,739460111e-01   -7,215180397e-01    0,000000000e+00    0,000000000e+00    0,000000000e+00    0,000000000e+00
      114000000   -1,651964150e-02    1,149098761e-02   -8,898925781e-02   -8,052520156e-01    0,000000000e+00    0,000000000e+00    0,000000000e+00    0,000000000e+00
      128000000    3,414755687e-03    1,068499032e-02   -5,145835876e-01   -6,202362180e-01    0,000000000e+00    0,000000000e+00    0,000000000e+00    0,000000000e+00
      142000000    1,466789190e-02   -2,631426323e-03   -7,669817209e-01   -2,363840193e-01    0,000000000e+00    0,000000000e+00    0,000000000e+00    0,000000000e+00
      156000000    1,605143398e-02   -1,424893923e-02   -7,686988711e-01    2,236457318e-01    0,000000000e+00    0,000000000e+00    0,000000000e+00    0,000000000e+00
      170000000    1,712203026e-02   -2,253518440e-02   -5,178012848e-01    6,042695045e-01    0,000000000e+00    0,000000000e+00    0,000000000e+00    0,000000000e+00
      184000000    2,134457231e-02   -3,720664978e-02   -1,014590934e-01    7,855334282e-01    0,000000000e+00    0,000000000e+00    0,000000000e+00    0,000000000e+00
      198000000    1,327831298e-02   -6,253349781e-02    3,430463374e-01    7,119591236e-01    0,000000000e+00    0,000000000e+00    0,000000000e+00    0,000000000e+00
      212000000   -1,840975508e-02   -8,126784861e-02    6,777791381e-01    4,096437395e-01    0,000000000e+00    0,000000000e+00    0,000000000e+00    0,000000000e+00
      226000000   -6,132889166e-02   -6,918372214e-02    7,953827381e-01   -3,053954802e-02    0,000000000e+00    0,000000000e+00    0,000000000e+00    0,000000000e+00
      240000000   -8,221613616e-02   -2,578467689e-02    6,456156969e-01   -4,667532146e-01    0,000000000e+00    0,000000000e+00    0,000000000e+00    0,000000000e+00
      254000000   -6,337390840e-02    1,690025814e-02    2,760513127e-01   -7,429043055e-01    0,000000000e+00    0,000000000e+00    0,000000000e+00    0,000000000e+00
      268000000   -2,396444790e-02    2,874928899e-02   -1,776964962e-01   -7,639735937e-01    0,000000000e+00    0,000000000e+00    0,000000000e+00    0,000000000e+00
      282000000    4,048187751e-03    1,210876834e-02   -5,617853999e-01   -5,357572436e-01    0,000000000e+00    0,000000000e+00    0,000000000e+00    0,000000000e+00
      296000000    9,849324822e-03   -7,493362296e-03   -7,596182227e-01   -1,394778639e-01    0,000000000e+00    0,000000000e+00    0,000000000e+00    0,000000000e+00
      310000000    1,146638207e-02   -1,624675654e-02   -7,127195001e-01    2,975733876e-01    0,000000000e+00    0,000000000e+00    0,000000000e+00    0,000000000e+00
      324000000    2,017470077e-02   -2,660565637e-02   -4,269272685e-01    6,365198493e-01    0,000000000e+00    0,000000000e+00    0,000000000e+00    0,000000000e+00
      338000000    2,561541088e-02   -5,199756473e-02   -9,227094240e-03    7,592818737e-01    0,000000000e+00    0,000000000e+00    0,000000000e+00    0,000000000e+00
      352000000    7,549799513e-03   -8,495251834e-02    4,057452679e-01    6,396113634e-01    0,000000000e+00    0,000000000e+00    0,000000000e+00    0,000000000e+00
      366000000   -3,459475935e-02   -9,540215135e-02    6,899291277e-01    3,108997345e-01    0,000000000e+00    0,000000000e+00    0,000000000e+00    0,000000000e+00
      380000000   -7,034943998e-02   -7,098578662e-02    7,468132377e-01   -1,255974770e-01    0,000000000e+00    0,000000000e+00    0,000000000e+00    0,000000000e+00
      394000000   -7,207469642e-02   -3,249061480e-02    5,464180112e-01   -5,209157467e-01    0,000000000e+00    0,000000000e+00    0,000000000e+00    0,000000000e+00
      408000000   -4,617301375e-02   -1,651875116e-02    1,619090885e-01   -7,323712707e-01    0,000000000e+00    0,000000000e+00    0,000000000e+00    0,000000000e+00
      422000000   -2,807695046e-02   -3,226862103e-02   -2,672022581e-01   -6,957409382e-01    0,000000000e+00    0,000000000e+00    0,000000000e+00    0,000000000e+00
      436000000   -4,045531154e-02   -5,187847838e-02   -6,032338142e-01   -4,313501716e-01    0,000000000e+00    0,000000000e+00    0,000000000e+00    0,000000000e+00
      450000000   -6,709475070e-02   -4,380842671e-02   -7,396357059e-01   -2,159658819e-02    0,000000000e+00    0,000000000e+00    0,000000000e+00    0,000000000e+00
      464000000   -7,278264314e-02   -1,166040357e-02   -6,181554198e-01    3,969486356e-01    0,000000000e+00    0,000000000e+00    0,000000000e+00    0,000000000e+00
      478000000   -4,763093218e-02    1,137059741e-02   -2,829725742e-01    6,669288874e-01    0,000000000e+00    0,000000000e+00    0,000000000e+00    0,000000000e+00
      492000000   -1,544408686e-02    5,780246574e-03    1,376387626e-01    7,008500099e-01    0,000000000e+00    0,000000000e+00    0,000000000e+00    0,000000000e+00
      506000000   -2,566571115e-03   -1,564178430e-02    4,978564382e-01    5,029025078e-01    0,000000000e+00    0,000000000e+00    0,000000000e+00    0,000000000e+00
      520000000   -4,897390958e-03   -3,142879531e-02    6,871234775e-01    1,417280138e-01    0,000000000e+00    0,000000000e+00    0,000000000e+00    0,000000000e+00
      534000000   -3,759878688e-03   -3,789908811e-02    6,426762342e-01   -2,615171373e-01    0,000000000e+00    0,000000000e+00    0,000000000e+00    0,000000000e+00
      548000000    6,813892163e-03   -5,370471999e-02    3,818701506e-01   -5,662694573e-01    0,000000000e+00    0,000000000e+00    0,000000000e+00    0,000000000e+00
      562000000    3,008748870e-03   -8,981115371e-02    2,649123780e-03   -6,719633937e-01    0,000000000e+00    0,000000000e+00    0,000000000e+00    0,000000000e+00
      576000000   -3,370592371e-02   -1,244876236e-01   -3,675789535e-01   -5,575187802e-01    0,000000000e+00    0,000000000e+00    0,000000000e+00    0,000000000e+00
      590000000   -9,589665383e-02   -1,226134300e-01   -6,208461523e-01   -2,648265362e-01    0,000000000e+00    0,000000000e+00    0,000000000e+00    0,000000000e+00
      604000000   -1,386809200e-01   -7,211889327e-02   -6,640823483e-01    1,372153908e-01    0,000000000e+00    0,000000000e+00    0,000000000e+00    0,000000000e+00
      618000000   -1,290192306e-01   -1,022534352e-02   -4,651018083e-01    4,929076135e-01    0,000000000e+00    0,000000000e+00    0,000000000e+00    0,000000000e+00
      632000000   -8,489893377e-02    1,608454995e-02   -9,978760034e-02    6,621091962e-01    0,000000000e+00    0,000000000e+00    0,000000000e+00    0,000000000e+00
      646000000   -5,143828318e-02    8,127567125e-04    2,851244807e-01    5,941825509e-01    0,000000000e+00    0,000000000e+00    0,000000000e+00    0,000000000e+00
      660000000   -5,362751707e-02   -2,122972347e-02    5,642311573e-01    3,231830597e-01    0,000000000e+00    0,000000000e+00    0,000000000e+00    0,000000000e+00
      674000000   -7,056859136e-02   -1,632250100e-02    6,408276558e-01   -6,319291145e-02    0,000000000e+00    0,000000000e+00    0,000000000e+00    0,000000000e+00
      688000000   -6,778699905e-02    8,910693228e-03    4,703597724e-01   -4,235843718e-01    0,000000000e+00    0,000000000e+00    0,000000000e+00    0,000000000e+00
      702000000   -3,606501222e-02    2,643927932e-02    1,264077276e-01   -6,085055470e-01    0,000000000e+00    0,000000000e+00    0,000000000e+00    0,000000000e+00
      716000000    3,400263377e-03    1,672154479e-02   -2,602449358e-01   -5,440343618e-01    0,000000000e+00    0,000000000e+00    0,000000000e+00    0,000000000e+00
      730000000    3,750701249e-02   -1,355958264e-02   -5,215356350e-01   -2,713581026e-01    0,000000000e+00    0,000000000e+00    0,000000000e+00    0,000000000e+00
      744000000    6,217086315e-02   -6,580343843e-02   -5,604817867e-01    9,889987856e-02    0,000000000e+00    0,000000000e+00    0,000000000e+00    0,000000000e+00
      758000000    6,131900474e-02   -1,523613930e-01   -3,662028313e-01    4,007962346e-01    0,000000000e+00    0,000000000e+00    0,000000000e+00    0,000000000e+00
      772000000   -1,667256281e-02   -2,557128370e-01   -4,426168278e-02    5,083194971e-01    0,000000000e+00    0,000000000e+00    0,000000000e+00    0,000000000e+00
      786000000   -2,025048584e-01   -2,909341156e-01    2,596208155e-01    3,982706070e-01    0,000000000e+00    0,000000000e+00    0,000000000e+00    0,000000000e+00
      800000000   -4,073342681e-01   -1,264094710e-01    4,070139229e-01    1,185751557e-01    0,000000000e+00    0,000000000e+00    0,000000000e+00    0,000000000e+00
      814000000   -3,771002293e-01    2,027894706e-01    2,962813377e-01   -1,514012665e-01    0,000000000e+00    0,000000000e+00    0,000000000e+00    0,000000000e+00
      828000000   -6,210651621e-02    3,479618430e-01    8,177428693e-02   -1,900779605e-01    0,000000000e+00    0,000000000e+00    0,000000000e+00    0,000000000e+00
      842000000    2,118939906e-01    1,854096949e-01   -3,131001955e-03   -9,334658831e-02    0,000000000e+00    0,000000000e+00    0,000000000e+00    0,000000000e+00
      856000000    2,660974264e-01   -1,059108078e-01    3,632926196e-02   -3,722731024e-02    0,000000000e+00    0,000000000e+00    0,000000000e+00    0,000000000e+00
      870000000    8,190221339e-02   -3,508958817e-01    8,927533776e-02   -9,753152728e-02    0,000000000e+00    0,000000000e+00    0,000000000e+00    0,000000000e+00
      884000000   -2,673643827e-01   -3,561452031e-01    1,097358763e-02   -2,291646600e-01    0,000000000e+00    0,000000000e+00    0,000000000e+00    0,000000000e+00
      898000000   -4,582479596e-01   -1,296393480e-02   -2,155327648e-01   -2,095826715e-01    0,000000000e+00    0,000000000e+00    0,000000000e+00    0,000000000e+00
      912000000   -2,348054498e-01    2,781471312e-01   -3,414194286e-01    6,774836034e-02    0,000000000e+00    0,000000000e+00    0,000000000e+00    0,000000000e+00
      926000000    5,440577865e-02    2,596652210e-01   -2,094917744e-01    2,613081634e-01    0,000000000e+00    0,000000000e+00    0,000000000e+00    0,000000000e+00
      940000000    2,092999965e-01    8,304170519e-02   -3,032302856e-02    3,243518472e-01    0,000000000e+00    0,000000000e+00    0,000000000e+00    0,000000000e+00
      954000000    2,192243040e-01   -1,226643175e-01    1,311990470e-01    3,004885912e-01    0,000000000e+00    0,000000000e+00    0,000000000e+00    0,000000000e+00
      968000000    1,176826283e-01   -2,961839437e-01    2,692496777e-01    2,129497677e-01    0,000000000e+00    0,000000000e+00    0,000000000e+00    0,000000000e+00
      982000000   -7,936175913e-02   -3,836924732e-01    3,617337942e-01    6,292342395e-02    0,000000000e+00    0,000000000e+00    0,000000000e+00    0,000000000e+00
      996000000   -3,084195256e-01   -3,301756978e-01    3,623833358e-01   -1,433849931e-01    0,000000000e+00    0,000000000e+00    0,000000000e+00    0,000000000e+00
     1010000000   -4,588795304e-01   -1,141564846e-01    2,199313045e-01   -3,356350362e-01    0,000000000e+00    0,000000000e+00    0,000000000e+00    0,000000000e+00
     1024000000   -4,179471135e-01    1,464098394e-01   -3,269851580e-02   -3,859605789e-01    0,000000000e+00    0,000000000e+00    0,000000000e+00    0,000000000e+00
     1038000000   -2,264207900e-01    2,891381383e-01   -2,430396974e-01   -2,561697364e-01    0,000000000e+00    0,000000000e+00    0,000000000e+00    0,000000000e+00
     1052000000   -1,450795867e-02    2,785224915e-01   -3,120192885e-01   -4,445984960e-02    0,000000000e+00    0,000000000e+00    0,000000000e+00    0,000000000e+00
     1066000000    1,332470030e-01    1,720116884e-01   -2,520655096e-01    1,371619403e-01    0,000000000e+00    0,000000000e+00    0,000000000e+00    0,000000000e+00
     1080000000    1,918976456e-01    1,049957424e-02   -1,167924479e-01    2,534240782e-01    0,000000000e+00    0,000000000e+00    0,000000000e+00    0,000000000e+00
     1094000000    1,581601053e-01   -1,622531563e-01    6,119700149e-02    2,919224203e-01    0,000000000e+00    0,000000000e+00    0,000000000e+00    0,000000000e+00
     1108000000    2,161026001e-02   -2,951913178e-01    2,602605820e-01    2,338267863e-01    0,000000000e+00    0,000000000e+00    0,000000000e+00    0,000000000e+00
     1122000000   -2,119297683e-01   -2,797154784e-01    4,384198189e-01    2,154810540e-02    0,000000000e+00    0,000000000e+00    0,000000000e+00    0,000000000e+00
     1136000000   -3,269737363e-01   -2,519349754e-02    3,970314562e-01   -3,418621421e-01    0,000000000e+00    0,000000000e+00    0,000000000e+00    0,000000000e+00
     1150000000   -1,013934761e-01    1,363974512e-01    4,803514108e-02   -5,292510390e-01    0,000000000e+00    0,000000000e+00    0,000000000e+00    0,000000000e+00
     1164000000    8,728600293e-02   -1,682179235e-02   -2,497461736e-01   -4,034813643e-01    0,000000000e+00    0,000000000e+00    0,000000000e+00    0,000000000e+00
     1178000000    2,800547332e-02   -2,508653998e-01   -3,683776557e-01   -1,772978604e-01    0,000000000e+00    0,000000000e+00    0,000000000e+00    0,000000000e+00
     1192000000   -2,185320705e-01   -3,510271013e-01   -3,414751589e-01    4,144022614e-02    0,000000000e+00    0,000000000e+00    0,000000000e+00    0,000000000e+00
     1206000000   -4,818139374e-01   -1,789651513e-01   -1,920218468e-01    1,837958544e-01    0,000000000e+00    0,000000000e+00    0,000000000e+00    0,000000000e+00
     1220000000   -5,090725422e-01    1,377844661e-01   -1,435100939e-02    1,735514998e-01    0,000000000e+00    0,000000000e+00    0,000000000e+00    0,000000000e+00
     1234000000   -2,960740030e-01    3,470290601e-01    7,063142955e-02    7,932601124e-02    0,000000000e+00    0,000000000e+00    0,000000000e+00    0,000000000e+00
     1248000000   -6,267173588e-02    3,543688953e-01    6,891633570e-02   -2,862232737e-03    0,000000000e+00    0,000000000e+00    0,000000000e+00    0,000000000e+00
     1262000000    1,138428301e-01    2,579021752e-01    2,973604575e-02   -2,676626109e-02    0,000000000e+00    0,000000000e+00    0,000000000e+00    0,000000000e+00
     1276000000    1,969885826e-01    1,083083376e-01    3,982814029e-03   -6,194162183e-03    0,000000000e+00    0,000000000e+00    0,000000000e+00    0,000000000e+00
     1290000000    2,196704298e-01   -6,432130188e-02    6,891863886e-03    2,315446921e-02    0,000000000e+00    0,000000000e+00    0,000000000e+00    0,000000000e+00
     1304000000    1,674402803e-01   -2,353897393e-01    6,186166033e-02    5,340647697e-02    0,000000000e+00    0,000000000e+00    0,000000000e+00    0,000000000e+00
     1318000000    2,633673325e-02   -3,647048175e-01    1,699697822e-01    1,671499200e-02    0,000000000e+00    0,000000000e+00    0,000000000e+00    0,000000000e+00
     1332000000   -1,526832432e-01   -3,986898363e-01    9,938891977e-02   -1,849785000e-01    0,000000000e+00    0,000000000e+00    0,000000000e+00    0,000000000e+00
     1346000000   -3,611707985e-01   -3,920447826e-01   -5,627318472e-02   -3,026683070e-02    0,000000000e+00    0,000000000e+00    0,000000000e+00    0,000000000e+00
     1360000000   -5,837302208e-01   -1,969114393e-01    6,111076474e-02    9,136884660e-02    0,000000000e+00    0,000000000e+00    0,000000000e+00    0,000000000e+00
     1374000000   -6,334102750e-01    1,059693992e-01    1,694356352e-01    4,254283756e-02    0,000000000e+00    0,000000000e+00    0,000000000e+00    0,000000000e+00
     1388000000   -4,738707542e-01    3,549814820e-01    2,193468064e-01   -1,554682944e-02    0,000000000e+00    0,000000000e+00    0,000000000e+00    0,000000000e+00
     1402000000   -2,431272417e-01    4,440621138e-01    2,230556160e-01   -8,159929514e-02    0,000000000e+00    0,000000000e+00    0,000000000e+00    0,000000000e+00
     1416000000   -3,966331109e-02    4,109640121e-01    1,919433624e-01   -1,058122143e-01    0,000000000e+00    0,000000000e+00    0,000000000e+00    0,000000000e+00
     1430000000    1,064591631e-01    3,037483096e-01    1,784792393e-01   -1,020094231e-01    0,000000000e+00    0,000000000e+00    0,000000000e+00    0,000000000e+00
     1444000000    1,985576302e-01    1,529886872e-01    1,608647406e-01   -1,098977923e-01    0,000000000e+00    0,000000000e+00    0,000000000e+00    0,000000000e+00
     1458000000    2,298810482e-01   -1,259868033e-02    1,504056305e-01   -9,446429461e-02    0,000000000e+00    0,000000000e+00    0,000000000e+00    0,000000000e+00
     1472000000    1,918990165e-01   -1,920535266e-01    1,493114233e-01   -4,218399152e-02    0,000000000e+00    0,000000000e+00    0,000000000e+00    0,000000000e+00
     1486000000    6,767868251e-02   -3,606260717e-01    1,619029045e-01    2,504819632e-02    0,000000000e+00    0,000000000e+00    0,000000000e+00    0,000000000e+00
     1500000000   -1,683606952e-01   -4,879682362e-01    2,173921913e-01    9,891863912e-02    0,000000000e+00    0,000000000e+00    0,000000000e+00    0,000000000e+00
