! NanoVNA-App
! Date: 2025-09-25 15:41:47
! Start: 100MHz Stop: 1,5GHz Points: 101
! S-Parameter data: F S11 S21 S12 S22
# Hz S RI R 50
!     Frequency           S11_Real           S11_Imag           S21_Real           S21_Imag           S12_Real           S12_Imag           S22_Real           S22_Imag
      100000000   -2,874162048e-02   -4,255685024e-03    3,739108741e-01   -7,215389609e-01    0,000000000e+00    0,000000000e+00    0,000000000e+00    0,000000000e+00
      114000000   -1,654137857e-02    1,146944892e-02   -8,907987177e-02   -8,050807118e-01    0,000000000e+00    0,000000000e+00    0,000000000e+00    0,000000000e+00
      128000000    3,448807634e-03    1,073913742e-02   -5,146061182e-01   -6,203290224e-01    0,000000000e+00    0,000000000e+00    0,000000000e+00    0,000000000e+00
      142000000    1,466714498e-02   -2,653218107e-03   -7,667998672e-01   -2,365231216e-01    0,000000000e+00    0,000000000e+00    0,000000000e+00    0,000000000e+00
      156000000    1,593358442e-02   -1,427362207e-02   -7,685667276e-01    2,235731632e-01    0,000000000e+00    0,000000000e+00    0,000000000e+00    0,000000000e+00
      170000000    1,715066284e-02   -2,245839871e-02   -5,180581212e-01    6,043988466e-01    0,000000000e+00    0,000000000e+00    0,000000000e+00    0,000000000e+00
      184000000    2,134813182e-02   -3,719044477e-02   -1,012600958e-01    7,859930396e-01    0,000000000e+00    0,000000000e+00    0,000000000e+00    0,000000000e+00
      198000000    1,323747262e-02   -6,251847744e-02    3,435163200e-01    7,119202018e-01    0,000000000e+00    0,000000000e+00    0,000000000e+00    0,000000000e+00
      212000000   -1,839254797e-02   -8,129745722e-02    6,776621342e-01    4,098149836e-01    0,000000000e+00    0,000000000e+00    0,000000000e+00    0,000000000e+00
      226000000   -6,139468029e-02   -6,921706349e-02    7,954334021e-01   -3,049545176e-02    0,000000000e+00    0,000000000e+00    0,000000000e+00    0,000000000e+00
      240000000   -8,225506544e-02   -2,582627162e-02    6,459704041e-01   -4,667789936e-01    0,000000000e+00    0,000000000e+00    0,000000000e+00    0,000000000e+00
      254000000   -6,336240470e-02    1,692293026e-02    2,760221958e-01   -7,431446314e-01    0,000000000e+00    0,000000000e+00    0,000000000e+00    0,000000000e+00
      268000000   -2,387065440e-02    2,870668657e-02   -1,776590794e-01   -7,639626861e-01    0,000000000e+00    0,000000000e+00    0,000000000e+00    0,000000000e+00
      282000000    4,145449027e-03    1,206362713e-02   -5,614393353e-01   -5,357145071e-01    0,000000000e+00    0,000000000e+00    0,000000000e+00    0,000000000e+00
      296000000    9,878125973e-03   -7,579791825e-03   -7,591861486e-01   -1,395705044e-01    0,000000000e+00    0,000000000e+00    0,000000000e+00    0,000000000e+00
      310000000    1,149301417e-02   -1,604203321e-02   -7,128701210e-01    2,972143590e-01    0,000000000e+00    0,000000000e+00    0,000000000e+00    0,000000000e+00
      324000000    1,982258074e-02   -2,650984935e-02   -4,274294078e-01    6,367696524e-01    0,000000000e+00    0,000000000e+00    0,000000000e+00    0,000000000e+00
      338000000    2,569545247e-02   -5,233407766e-02   -9,316044860e-03    7,595962882e-01    0,000000000e+00    0,000000000e+00    0,000000000e+00    0,000000000e+00
      352000000    7,340732031e-03   -8,472689241e-02    4,055834711e-01    6,389145255e-01    0,000000000e+00    0,000000000e+00    0,000000000e+00    0,000000000e+00
      366000000   -3,443671763e-02   -9,534770995e-02    6,905237436e-01    3,115157783e-01    0,000000000e+00    0,000000000e+00    0,000000000e+00    0,000000000e+00
      380000000   -7,037910819e-02   -7,134103775e-02    7,472968698e-01   -1,260501593e-01    0,000000000e+00    0,000000000e+00    0,000000000e+00    0,000000000e+00
      394000000   -7,202958316e-02   -3,245980665e-02    5,464068651e-01   -5,198961496e-01    0,000000000e+00    0,000000000e+00    0,000000000e+00    0,000000000e+00
      408000000   -4,620561004e-02   -1,644754969e-02    1,627574414e-01   -7,318767905e-01    0,000000000e+00    0,000000000e+00    0,000000000e+00    0,000000000e+00
      422000000   -2,825368755e-02   -3,217720985e-02   -2,673892081e-01   -6,944773793e-01    0,000000000e+00    0,000000000e+00    0,000000000e+00    0,000000000e+00
      436000000   -4,047262296e-02   -5,185850337e-02   -6,032729745e-01   -4,320496023e-01    0,000000000e+00    0,000000000e+00    0,000000000e+00    0,000000000e+00
      450000000   -6,729847193e-02   -4,374206066e-02   -7,397968173e-01   -2,122815698e-02    0,000000000e+00    0,000000000e+00    0,000000000e+00    0,000000000e+00
      464000000   -7,260632515e-02   -1,186647173e-02   -6,181611419e-01    3,961419761e-01    0,000000000e+00    0,000000000e+00    0,000000000e+00    0,000000000e+00
      478000000   -4,719122872e-02    1,132351626e-02   -2,826392353e-01    6,672785282e-01    0,000000000e+00    0,000000000e+00    0,000000000e+00    0,000000000e+00
      492000000   -1,549946889e-02    5,824952386e-03    1,370795816e-01    7,006986141e-01    0,000000000e+00    0,000000000e+00    0,000000000e+00    0,000000000e+00
      506000000   -2,716931747e-03   -1,614509523e-02    4,978899658e-01    5,026723146e-01    0,000000000e+00    0,000000000e+00    0,000000000e+00    0,000000000e+00
      520000000   -4,708985332e-03   -3,136822581e-02    6,862648726e-01    1,414449960e-01    0,000000000e+00    0,000000000e+00    0,000000000e+00    0,000000000e+00
      534000000   -3,620831296e-03   -3,825166449e-02    6,427370310e-01   -2,613526881e-01    0,000000000e+00    0,000000000e+00    0,000000000e+00    0,000000000e+00
      548000000    6,639443338e-03   -5,376912281e-02    3,818432391e-01   -5,656957030e-01    0,000000000e+00    0,000000000e+00    0,000000000e+00    0,000000000e+00
      562000000    3,427320393e-03   -8,901709318e-02    3,268497298e-03   -6,712895036e-01    0,000000000e+00    0,000000000e+00    0,000000000e+00    0,000000000e+00
      576000000   -3,428361565e-02   -1,240365133e-01   -3,678504527e-01   -5,574654937e-01    0,000000000e+00    0,000000000e+00    0,000000000e+00    0,000000000e+00
      590000000   -9,581812471e-02   -1,225776151e-01   -6,188209653e-01   -2,626866400e-01    0,000000000e+00    0,000000000e+00    0,000000000e+00    0,000000000e+00
      604000000   -1,389931887e-01   -7,190327346e-02   -6,642258167e-01    1,369671226e-01    0,000000000e+00    0,000000000e+00    0,000000000e+00    0,000000000e+00
      618000000   -1,286998540e-01   -1,036738139e-02   -4,649417102e-01    4,924671948e-01    0,000000000e+00    0,000000000e+00    0,000000000e+00    0,000000000e+00
      632000000   -8,480977267e-02    1,570267417e-02   -9,973572940e-02    6,619621515e-01    0,000000000e+00    0,000000000e+00    0,000000000e+00    0,000000000e+00
      646000000   -5,179556832e-02    1,669026678e-04    2,853294611e-01    5,941965580e-01    0,000000000e+00    0,000000000e+00    0,000000000e+00    0,000000000e+00
      660000000   -5,297095701e-02   -2,086353675e-02    5,648056865e-01    3,227499425e-01    0,000000000e+00    0,000000000e+00    0,000000000e+00    0,000000000e+00
      674000000   -7,020222396e-02   -1,675689593e-02    6,414105296e-01   -6,279874593e-02    0,000000000e+00    0,000000000e+00    0,000000000e+00    0,000000000e+00
      688000000   -6,750733405e-02    8,717168123e-03    4,705021977e-01   -4,238751829e-01    0,000000000e+00    0,000000000e+00    0,000000000e+00    0,000000000e+00
      702000000   -3,525884822e-02    2,676565759e-02    1,193062365e-01   -6,041111350e-01    0,000000000e+00    0,000000000e+00    0,000000000e+00    0,000000000e+00
      716000000    3,842837643e-03    1,552237011e-02   -2,593685687e-01   -5,451679230e-01    0,000000000e+00    0,000000000e+00    0,000000000e+00    0,000000000e+00
      730000000    3,732683882e-02   -1,349147689e-02   -5,217110515e-01   -2,706705928e-01    0,000000000e+00    0,000000000e+00    0,000000000e+00    0,000000000e+00
      744000000    6,244705617e-02   -6,458125263e-02   -5,599967241e-01    9,903297573e-02    0,000000000e+00    0,000000000e+00    0,000000000e+00    0,000000000e+00
      758000000    6,191069260e-02   -1,521828026e-01   -3,665717542e-01    4,001139104e-01    0,000000000e+00    0,000000000e+00    0,000000000e+00    0,000000000e+00
      772000000   -1,695444249e-02   -2,559562325e-01   -4,562427104e-02    5,094189644e-01    0,000000000e+00    0,000000000e+00    0,000000000e+00    0,000000000e+00
      786000000   -2,024942786e-01   -2,916474342e-01    2,598175108e-01    3,995541334e-01    0,000000000e+00    0,000000000e+00    0,000000000e+00    0,000000000e+00
      800000000   -4,076612592e-01   -1,259430498e-01    4,073264301e-01    1,183045730e-01    0,000000000e+00    0,000000000e+00    0,000000000e+00    0,000000000e+00
      814000000   -3,757979870e-01    2,016584128e-01    2,963036299e-01   -1,499792039e-01    0,000000000e+00    0,000000000e+00    0,000000000e+00    0,000000000e+00
      828000000   -6,194440648e-02    3,478542268e-01    8,252695948e-02   -1,900292933e-01    0,000000000e+00    0,000000000e+00    0,000000000e+00    0,000000000e+00
      842000000    2,118375152e-01    1,857120991e-01   -3,292381531e-03   -9,288488328e-02    0,000000000e+00    0,000000000e+00    0,000000000e+00    0,000000000e+00
      856000000    2,660300136e-01   -1,061190739e-01    3,639579564e-02   -3,729739413e-02    0,000000000e+00    0,000000000e+00    0,000000000e+00    0,000000000e+00
      870000000    8,224330842e-02   -3,515429497e-01    8,914157748e-02   -9,737646580e-02    0,000000000e+00    0,000000000e+00    0,000000000e+00    0,000000000e+00
      884000000   -2,673402429e-01   -3,549788594e-01    1,149027050e-02   -2,276953161e-01    0,000000000e+00    0,000000000e+00    0,000000000e+00    0,000000000e+00
      898000000   -4,569338262e-01   -1,369795948e-02   -2,153274268e-01   -2,104452848e-01    0,000000000e+00    0,000000000e+00    0,000000000e+00    0,000000000e+00
      912000000   -2,349462211e-01    2,794985473e-01   -3,261024058e-01    7,191566378e-02    0,000000000e+00    0,000000000e+00    0,000000000e+00    0,000000000e+00
      926000000    5,514163151e-02    2,607524991e-01   -2,101960927e-01    2,575619221e-01    0,000000000e+00    0,000000000e+00    0,000000000e+00    0,000000000e+00
      940000000    2,072585076e-01    8,566215634e-02   -3,039826080e-02    3,259472549e-01    0,000000000e+00    0,000000000e+00    0,000000000e+00    0,000000000e+00
      954000000    2,227279246e-01   -1,201744899e-01    1,331091374e-01    3,012503982e-01    0,000000000e+00    0,000000000e+00    0,000000000e+00    0,000000000e+00
      968000000    1,183743700e-01   -2,964844406e-01    2,678643763e-01    2,137060463e-01    0,000000000e+00    0,000000000e+00    0,000000000e+00    0,000000000e+00
      982000000   -7,498466223e-02   -3,850128055e-01    3,606588542e-01    6,345010549e-02    0,000000000e+00    0,000000000e+00    0,000000000e+00    0,000000000e+00
      996000000   -3,117973506e-01   -3,348217607e-01    3,613807261e-01   -1,435320824e-01    0,000000000e+00    0,000000000e+00    0,000000000e+00    0,000000000e+00
     1010000000   -4,622662365e-01   -1,149142906e-01    2,213893682e-01   -3,331216276e-01    0,000000000e+00    0,000000000e+00    0,000000000e+00    0,000000000e+00
     1024000000   -4,123928845e-01    1,442748308e-01   -3,348775208e-02   -3,843291700e-01    0,000000000e+00    0,000000000e+00    0,000000000e+00    0,000000000e+00
     1038000000   -2,247448415e-01    2,854872346e-01   -2,422921509e-01   -2,563264072e-01    0,000000000e+00    0,000000000e+00    0,000000000e+00    0,000000000e+00
     1052000000   -1,617227308e-02    2,823111117e-01   -3,098883331e-01   -4,663741589e-02    0,000000000e+00    0,000000000e+00    0,000000000e+00    0,000000000e+00
     1066000000    1,305155605e-01    1,673669666e-01   -2,512366176e-01    1,426478177e-01    0,000000000e+00    0,000000000e+00    0,000000000e+00    0,000000000e+00
     1080000000    1,940336227e-01    9,934400208e-03   -1,158434525e-01    2,526110709e-01    0,000000000e+00    0,000000000e+00    0,000000000e+00    0,000000000e+00
     1094000000    1,621140540e-01   -1,669569910e-01    5,617713556e-02    2,914893627e-01    0,000000000e+00    0,000000000e+00    0,000000000e+00    0,000000000e+00
     1108000000    2,049562521e-02   -2,953066826e-01    2,592852116e-01    2,327777296e-01    0,000000000e+00    0,000000000e+00    0,000000000e+00    0,000000000e+00
     1122000000   -2,129050493e-01   -2,777454853e-01    4,400199950e-01    2,489846013e-02    0,000000000e+00    0,000000000e+00    0,000000000e+00    0,000000000e+00
     1136000000   -3,245758712e-01   -3,273867443e-02    3,990068734e-01   -3,470727801e-01    0,000000000e+00    0,000000000e+00    0,000000000e+00    0,000000000e+00
     1150000000   -1,093372554e-01    1,412860006e-01    4,442381486e-02   -5,288551450e-01    0,000000000e+00    0,000000000e+00    0,000000000e+00    0,000000000e+00
     1164000000    8,619223535e-02   -1,518213004e-02   -2,524681091e-01   -4,015920460e-01    0,000000000e+00    0,000000000e+00    0,000000000e+00    0,000000000e+00
     1178000000    2,658722363e-02   -2,510029674e-01   -3,694118261e-01   -1,770956218e-01    0,000000000e+00    0,000000000e+00    0,000000000e+00    0,000000000e+00
     1192000000   -2,169573307e-01   -3,455331922e-01   -3,395258784e-01    3,928120062e-02    0,000000000e+00    0,000000000e+00    0,000000000e+00    0,000000000e+00
     1206000000   -4,786695838e-01   -1,854964048e-01   -1,881921738e-01    1,796391755e-01    0,000000000e+00    0,000000000e+00    0,000000000e+00    0,000000000e+00
     1220000000   -4,984169900e-01    1,395173520e-01   -5,328804720e-03    1,738450527e-01    0,000000000e+00    0,000000000e+00    0,000000000e+00    0,000000000e+00
     1234000000   -2,975828946e-01    3,425868452e-01    7,801954448e-02    7,886736840e-02    0,000000000e+00    0,000000000e+00    0,000000000e+00    0,000000000e+00
     1248000000   -6,271328777e-02    3,630951047e-01    6,758826971e-02    4,945266992e-03    0,000000000e+00    0,000000000e+00    0,000000000e+00    0,000000000e+00
     1262000000    1,065184176e-01    2,601601481e-01    2,600286156e-02   -2,276777849e-02    0,000000000e+00    0,000000000e+00    0,000000000e+00    0,000000000e+00
     1276000000    2,038865685e-01    1,072588563e-01    7,623475976e-03   -1,044563111e-02    0,000000000e+00    0,000000000e+00    0,000000000e+00    0,000000000e+00
     1290000000    2,227590382e-01   -6,349937618e-02    1,379749831e-02    2,525041625e-02    0,000000000e+00    0,000000000e+00    0,000000000e+00    0,000000000e+00
     1304000000    1,659002006e-01   -2,350465506e-01    6,212868169e-02    5,455316976e-02    0,000000000e+00    0,000000000e+00    0,000000000e+00    0,000000000e+00
     1318000000    2,712450363e-02   -3,640650809e-01    1,695480794e-01    1,882824302e-02    0,000000000e+00    0,000000000e+00    0,000000000e+00    0,000000000e+00
     1332000000   -1,510799676e-01   -3,962348104e-01    9,598670155e-02   -1,762376428e-01    0,000000000e+00    0,000000000e+00    0,000000000e+00    0,000000000e+00
     1346000000   -3,595089912e-01   -3,875585496e-01   -6,172028929e-02   -2,676269040e-02    0,000000000e+00    0,000000000e+00    0,000000000e+00    0,000000000e+00
     1360000000   -5,931175351e-01   -2,113590091e-01    5,964594707e-02    8,345594257e-02    0,000000000e+00    0,000000000e+00    0,000000000e+00    0,000000000e+00
     1374000000   -6,288984418e-01    1,020842493e-01    1,807749122e-01    4,392264038e-02    0,000000000e+00    0,000000000e+00    0,000000000e+00    0,000000000e+00
     1388000000   -4,714881182e-01    3,506693244e-01    2,270833850e-01   -2,972059697e-02    0,000000000e+00    0,000000000e+00    0,000000000e+00    0,000000000e+00
     1402000000   -2,497352362e-01    4,420621991e-01    2,086452246e-01   -8,622325957e-02    0,000000000e+00    0,000000000e+00    0,000000000e+00    0,000000000e+00
     1416000000   -4,052113369e-02    4,088354409e-01    1,942630261e-01   -1,101314798e-01    0,000000000e+00    0,000000000e+00    0,000000000e+00    0,000000000e+00
     1430000000    1,120699793e-01    3,019078076e-01    2,025166750e-01   -1,044996455e-01    0,000000000e+00    0,000000000e+00    0,000000000e+00    0,000000000e+00
     1444000000    1,966058165e-01    1,574416459e-01    1,581432670e-01   -1,111275777e-01    0,000000000e+00    0,000000000e+00    0,000000000e+00    0,000000000e+00
     1458000000    2,270307839e-01   -1,201411430e-02    1,506487131e-01   -9,319110215e-02    0,000000000e+00    0,000000000e+00    0,000000000e+00    0,000000000e+00
     1472000000    1,900659204e-01   -1,965285838e-01    1,461315602e-01   -4,938806966e-02    0,000000000e+00    0,000000000e+00    0,000000000e+00    0,000000000e+00
     1486000000    6,825419515e-02   -3,689723611e-01    1,768782735e-01    1,082226355e-02    0,000000000e+00    0,000000000e+00    0,000000000e+00    0,000000000e+00
     1500000000   -1,560475975e-01   -4,806758463e-01    2,220981568e-01    9,248254448e-02    0,000000000e+00    0,000000000e+00    0,000000000e+00    0,000000000e+00
