! NanoVNA-App
! Date: 2025-09-25 15:40:43
! Start: 100MHz Stop: 1,5GHz Points: 101
! S-Parameter data: F S11 S21 S12 S22
# Hz S RI R 50
!     Frequency           S11_Real           S11_Imag           S21_Real           S21_Imag           S12_Real           S12_Imag           S22_Real           S22_Imag
      100000000   -2,868603170e-02   -4,235641565e-03    3,738937080e-01   -7,215387821e-01    0,000000000e+00    0,000000000e+00    0,000000000e+00    0,000000000e+00
      114000000   -1,645966992e-02    1,146990526e-02   -8,906300366e-02   -8,050076365e-01    0,000000000e+00    0,000000000e+00    0,000000000e+00    0,000000000e+00
      128000000    3,454116639e-03    1,070578676e-02   -5,145732760e-01   -6,201637983e-01    0,000000000e+00    0,000000000e+00    0,000000000e+00    0,000000000e+00
      142000000    1,469941158e-02   -2,633556025e-03   -7,668146491e-01   -2,363829911e-01    0,000000000e+00    0,000000000e+00    0,000000000e+00    0,000000000e+00
      156000000    1,611071825e-02   -1,432767883e-02   -7,685424685e-01    2,236362249e-01    0,000000000e+00    0,000000000e+00    0,000000000e+00    0,000000000e+00
      170000000    1,714430191e-02   -2,246941999e-02   -5,181159973e-01    6,046521068e-01    0,000000000e+00    0,000000000e+00    0,000000000e+00    0,000000000e+00
      184000000    2,142381296e-02   -3,721100837e-02   -1,013855189e-01    7,855819464e-01    0,000000000e+00    0,000000000e+00    0,000000000e+00    0,000000000e+00
      198000000    1,327503566e-02   -6,256131828e-02    3,429813981e-01    7,121813893e-01    0,000000000e+00    0,000000000e+00    0,000000000e+00    0,000000000e+00
      212000000   -1,839151233e-02   -8,131217211e-02    6,775679588e-01    4,098237157e-01    0,000000000e+00    0,000000000e+00    0,000000000e+00    0,000000000e+00
      226000000   -6,133646518e-02   -6,922761351e-02    7,954046130e-01   -3,059450537e-02    0,000000000e+00    0,000000000e+00    0,000000000e+00    0,000000000e+00
      240000000   -8,211565018e-02   -2,583144046e-02    6,455937624e-01   -4,666475654e-01    0,000000000e+00    0,000000000e+00    0,000000000e+00    0,000000000e+00
      254000000   -6,332238019e-02    1,690428890e-02    2,759267092e-01   -7,431306243e-01    0,000000000e+00    0,000000000e+00    0,000000000e+00    0,000000000e+00
      268000000   -2,402598783e-02    2,870805748e-02   -1,777556688e-01   -7,638313174e-01    0,000000000e+00    0,000000000e+00    0,000000000e+00    0,000000000e+00
      282000000    4,101129249e-03    1,207390986e-02   -5,614972711e-01   -5,356491208e-01    0,000000000e+00    0,000000000e+00    0,000000000e+00    0,000000000e+00
      296000000    9,836051613e-03   -7,499118336e-03   -7,592633963e-01   -1,396057308e-01    0,000000000e+00    0,000000000e+00    0,000000000e+00    0,000000000e+00
      310000000    1,156134065e-02   -1,616873220e-02   -7,118944526e-01    2,994874418e-01    0,000000000e+00    0,000000000e+00    0,000000000e+00    0,000000000e+00
      324000000    2,010597475e-02   -2,681376413e-02   -4,269390404e-01    6,369583011e-01    0,000000000e+00    0,000000000e+00    0,000000000e+00    0,000000000e+00
      338000000    2,580896579e-02   -5,231021717e-02   -1,008457039e-02    7,621192336e-01    0,000000000e+00    0,000000000e+00    0,000000000e+00    0,000000000e+00
      352000000    7,366134785e-03   -8,462165296e-02    4,057003856e-01    6,378887892e-01    0,000000000e+00    0,000000000e+00    0,000000000e+00    0,000000000e+00
      366000000   -3,454684466e-02   -9,556312859e-02    6,897310615e-01    3,108414710e-01    0,000000000e+00    0,000000000e+00    0,000000000e+00    0,000000000e+00
      380000000   -7,016251236e-02   -7,102458924e-02    7,473066449e-01   -1,259769499e-01    0,000000000e+00    0,000000000e+00    0,000000000e+00    0,000000000e+00
      394000000   -7,232070714e-02   -3,247472644e-02    5,459364653e-01   -5,206236839e-01    0,000000000e+00    0,000000000e+00    0,000000000e+00    0,000000000e+00
      408000000   -4,618312046e-02   -1,639622264e-02    1,621036232e-01   -7,319935560e-01    0,000000000e+00    0,000000000e+00    0,000000000e+00    0,000000000e+00
      422000000   -2,826756239e-02   -3,229273483e-02   -2,669187188e-01   -6,941123009e-01    0,000000000e+00    0,000000000e+00    0,000000000e+00    0,000000000e+00
      436000000   -4,042036459e-02   -5,193831027e-02   -6,028712392e-01   -4,321512580e-01    0,000000000e+00    0,000000000e+00    0,000000000e+00    0,000000000e+00
      450000000   -6,697250903e-02   -4,388042539e-02   -7,396031618e-01   -2,172806486e-02    0,000000000e+00    0,000000000e+00    0,000000000e+00    0,000000000e+00
      464000000   -7,313954085e-02   -1,199066732e-02   -6,184009910e-01    3,966633379e-01    0,000000000e+00    0,000000000e+00    0,000000000e+00    0,000000000e+00
      478000000   -4,747039825e-02    1,107135881e-02   -2,829666436e-01    6,666827202e-01    0,000000000e+00    0,000000000e+00    0,000000000e+00    0,000000000e+00
      492000000   -1,571587287e-02    5,478787702e-03    1,372642070e-01    7,011104226e-01    0,000000000e+00    0,000000000e+00    0,000000000e+00    0,000000000e+00
      506000000   -2,446894767e-03   -1,579400711e-02    4,981391132e-01    5,022983551e-01    0,000000000e+00    0,000000000e+00    0,000000000e+00    0,000000000e+00
      520000000   -4,694546573e-03   -3,162707388e-02    6,886010170e-01    1,418917477e-01    0,000000000e+00    0,000000000e+00    0,000000000e+00    0,000000000e+00
      534000000   -3,281342797e-03   -3,788075596e-02    6,432904601e-01   -2,616404891e-01    0,000000000e+00    0,000000000e+00    0,000000000e+00    0,000000000e+00
      548000000    6,404963788e-03   -5,421431735e-02    3,816727698e-01   -5,662591457e-01    0,000000000e+00    0,000000000e+00    0,000000000e+00    0,000000000e+00
      562000000    3,651613602e-03   -8,951491117e-02    3,024948994e-03   -6,713860035e-01    0,000000000e+00    0,000000000e+00    0,000000000e+00    0,000000000e+00
      576000000   -3,384441137e-02   -1,243223324e-01   -3,686450422e-01   -5,566040874e-01    0,000000000e+00    0,000000000e+00    0,000000000e+00    0,000000000e+00
      590000000   -9,564359486e-02   -1,228857785e-01   -6,189875603e-01   -2,650482655e-01    0,000000000e+00    0,000000000e+00    0,000000000e+00    0,000000000e+00
      604000000   -1,386005729e-01   -7,255361229e-02   -6,637670994e-01    1,365460008e-01    0,000000000e+00    0,000000000e+00    0,000000000e+00    0,000000000e+00
      618000000   -1,295372695e-01   -1,001070160e-02   -4,644226432e-01    4,921824634e-01    0,000000000e+00    0,000000000e+00    0,000000000e+00    0,000000000e+00
      632000000   -8,478888869e-02    1,560618822e-02   -9,909325093e-02    6,625181437e-01    0,000000000e+00    0,000000000e+00    0,000000000e+00    0,000000000e+00
      646000000   -5,215957388e-02    9,557480225e-04    2,852670848e-01    5,944423079e-01    0,000000000e+00    0,000000000e+00    0,000000000e+00    0,000000000e+00
      660000000   -5,398179218e-02   -2,046582103e-02    5,647174120e-01    3,229331374e-01    0,000000000e+00    0,000000000e+00    0,000000000e+00    0,000000000e+00
      674000000   -7,026046515e-02   -1,661325991e-02    6,406852603e-01   -6,317941099e-02    0,000000000e+00    0,000000000e+00    0,000000000e+00    0,000000000e+00
      688000000   -6,734047085e-02    8,806088939e-03    4,701942801e-01   -4,232808053e-01    0,000000000e+00    0,000000000e+00    0,000000000e+00    0,000000000e+00
      702000000   -3,634598851e-02    2,525443025e-02    1,270124763e-01   -6,035145521e-01    0,000000000e+00    0,000000000e+00    0,000000000e+00    0,000000000e+00
      716000000    4,108449444e-03    1,636361331e-02   -2,590833008e-01   -5,448906422e-01    0,000000000e+00    0,000000000e+00    0,000000000e+00    0,000000000e+00
      730000000    3,700580448e-02   -1,317986939e-02   -5,220114589e-01   -2,709926069e-01    0,000000000e+00    0,000000000e+00    0,000000000e+00    0,000000000e+00
      744000000    6,216255575e-02   -6,481415033e-02   -5,599642396e-01    9,886862338e-02    0,000000000e+00    0,000000000e+00    0,000000000e+00    0,000000000e+00
      758000000    6,033697352e-02   -1,517825872e-01   -3,662518263e-01    4,007866085e-01    0,000000000e+00    0,000000000e+00    0,000000000e+00    0,000000000e+00
      772000000   -1,737124659e-02   -2,558357716e-01   -4,528819025e-02    5,094836950e-01    0,000000000e+00    0,000000000e+00    0,000000000e+00    0,000000000e+00
      786000000   -2,029959112e-01   -2,913111746e-01    2,591624856e-01    3,982089162e-01    0,000000000e+00    0,000000000e+00    0,000000000e+00    0,000000000e+00
      800000000   -4,082289040e-01   -1,266441047e-01    4,073830545e-01    1,185111254e-01    0,000000000e+00    0,000000000e+00    0,000000000e+00    0,000000000e+00
      814000000   -3,770575225e-01    2,019683719e-01    2,958706319e-01   -1,512085050e-01    0,000000000e+00    0,000000000e+00    0,000000000e+00    0,000000000e+00
      828000000   -6,196151674e-02    3,463097811e-01    8,216731995e-02   -1,900291592e-01    0,000000000e+00    0,000000000e+00    0,000000000e+00    0,000000000e+00
      842000000    2,116705477e-01    1,853175163e-01   -3,236384830e-03   -9,264498204e-02    0,000000000e+00    0,000000000e+00    0,000000000e+00    0,000000000e+00
      856000000    2,660353780e-01   -1,062008962e-01    3,651983291e-02   -3,687244654e-02    0,000000000e+00    0,000000000e+00    0,000000000e+00    0,000000000e+00
      870000000    8,162771165e-02   -3,514921069e-01    8,878172189e-02   -9,761702269e-02    0,000000000e+00    0,000000000e+00    0,000000000e+00    0,000000000e+00
      884000000   -2,675989270e-01   -3,558460772e-01    1,214967761e-02   -2,290960401e-01    0,000000000e+00    0,000000000e+00    0,000000000e+00    0,000000000e+00
      898000000   -4,568588734e-01   -1,285933889e-02   -2,148861736e-01   -2,087421566e-01    0,000000000e+00    0,000000000e+00    0,000000000e+00    0,000000000e+00
      912000000   -2,331841439e-01    2,779775858e-01   -3,335124552e-01    7,947268337e-02    0,000000000e+00    0,000000000e+00    0,000000000e+00    0,000000000e+00
      926000000    5,471086130e-02    2,632363141e-01   -2,118079364e-01    2,640391290e-01    0,000000000e+00    0,000000000e+00    0,000000000e+00    0,000000000e+00
      940000000    2,107711136e-01    8,327023685e-02   -2,949257195e-02    3,239049911e-01    0,000000000e+00    0,000000000e+00    0,000000000e+00    0,000000000e+00
      954000000    2,224520296e-01   -1,207305416e-01    1,318337768e-01    3,009245098e-01    0,000000000e+00    0,000000000e+00    0,000000000e+00    0,000000000e+00
      968000000    1,177282631e-01   -2,933257222e-01    2,682407796e-01    2,139571160e-01    0,000000000e+00    0,000000000e+00    0,000000000e+00    0,000000000e+00
      982000000   -7,437691092e-02   -3,869907260e-01    3,611660302e-01    6,242361292e-02    0,000000000e+00    0,000000000e+00    0,000000000e+00    0,000000000e+00
      996000000   -3,130038381e-01   -3,309782445e-01    3,619317710e-01   -1,434122771e-01    0,000000000e+00    0,000000000e+00    0,000000000e+00    0,000000000e+00
     1010000000   -4,590256214e-01   -1,131045446e-01    2,201151401e-01   -3,369307518e-01    0,000000000e+00    0,000000000e+00    0,000000000e+00    0,000000000e+00
     1024000000   -4,185108244e-01    1,453997791e-01   -3,390286490e-02   -3,845496476e-01    0,000000000e+00    0,000000000e+00    0,000000000e+00    0,000000000e+00
     1038000000   -2,262340784e-01    2,869465351e-01   -2,433309704e-01   -2,563453913e-01    0,000000000e+00    0,000000000e+00    0,000000000e+00    0,000000000e+00
     1052000000   -1,170286909e-02    2,767591476e-01   -3,120865822e-01   -4,517292231e-02    0,000000000e+00    0,000000000e+00    0,000000000e+00    0,000000000e+00
     1066000000    1,340110451e-01    1,688015312e-01   -2,514831126e-01    1,366912127e-01    0,000000000e+00    0,000000000e+00    0,000000000e+00    0,000000000e+00
     1080000000    1,929878145e-01    1,211617235e-02   -1,181013882e-01    2,552055717e-01    0,000000000e+00    0,000000000e+00    0,000000000e+00    0,000000000e+00
     1094000000    1,566835642e-01   -1,623538435e-01    6,130551919e-02    2,927629054e-01    0,000000000e+00    0,000000000e+00    0,000000000e+00    0,000000000e+00
     1108000000    2,087283693e-02   -2,950234115e-01    2,619017959e-01    2,313719839e-01    0,000000000e+00    0,000000000e+00    0,000000000e+00    0,000000000e+00
     1122000000   -2,130970210e-01   -2,860777378e-01    4,392992556e-01    2,469062991e-02    0,000000000e+00    0,000000000e+00    0,000000000e+00    0,000000000e+00
     1136000000   -3,282319307e-01   -3,127047047e-02    4,002703726e-01   -3,454934061e-01    0,000000000e+00    0,000000000e+00    0,000000000e+00    0,000000000e+00
     1150000000   -1,072079316e-01    1,359124929e-01    4,789930582e-02   -5,317978859e-01    0,000000000e+00    0,000000000e+00    0,000000000e+00    0,000000000e+00
     1164000000    8,530843258e-02   -2,141085640e-02   -2,523069680e-01   -4,035342634e-01    0,000000000e+00    0,000000000e+00    0,000000000e+00    0,000000000e+00
     1178000000    2,782226168e-02   -2,542499602e-01   -3,689642549e-01   -1,788771749e-01    0,000000000e+00    0,000000000e+00    0,000000000e+00    0,000000000e+00
     1192000000   -2,178164721e-01   -3,471762538e-01   -3,405214250e-01    4,086700827e-02    0,000000000e+00    0,000000000e+00    0,000000000e+00    0,000000000e+00
     1206000000   -4,783992171e-01   -1,800902337e-01   -1,870098859e-01    1,834486276e-01    0,000000000e+00    0,000000000e+00    0,000000000e+00    0,000000000e+00
     1220000000   -5,001442432e-01    1,338818073e-01   -9,061560966e-03    1,748647690e-01    0,000000000e+00    0,000000000e+00    0,000000000e+00    0,000000000e+00
     1234000000   -2,952437699e-01    3,423254788e-01    7,474859804e-02    7,670569420e-02    0,000000000e+00    0,000000000e+00    0,000000000e+00    0,000000000e+00
     1248000000   -5,964315310e-02    3,579730988e-01    7,102890313e-02   -4,760710988e-03    0,000000000e+00    0,000000000e+00    0,000000000e+00    0,000000000e+00
     1262000000    1,056672558e-01    2,611422837e-01    2,797860652e-02   -2,074007690e-02    0,000000000e+00    0,000000000e+00    0,000000000e+00    0,000000000e+00
     1276000000    1,978726685e-01    1,053439379e-01    4,143157508e-03   -7,123011630e-03    0,000000000e+00    0,000000000e+00    0,000000000e+00    0,000000000e+00
     1290000000    2,204190791e-01   -6,477323174e-02    1,202013250e-02    1,982288994e-02    0,000000000e+00    0,000000000e+00    0,000000000e+00    0,000000000e+00
     1304000000    1,667910069e-01   -2,358048707e-01    6,374967098e-02    5,713027716e-02    0,000000000e+00    0,000000000e+00    0,000000000e+00    0,000000000e+00
     1318000000    2,637991495e-02   -3,606413007e-01    1,646655053e-01    1,738751680e-02    0,000000000e+00    0,000000000e+00    0,000000000e+00    0,000000000e+00
     1332000000   -1,454159319e-01   -3,959701061e-01    1,062262729e-01   -1,756396443e-01    0,000000000e+00    0,000000000e+00    0,000000000e+00    0,000000000e+00
     1346000000   -3,624159992e-01   -3,949812949e-01   -5,766217783e-02   -2,938805521e-02    0,000000000e+00    0,000000000e+00    0,000000000e+00    0,000000000e+00
     1360000000   -5,929206014e-01   -2,077382505e-01    5,286290497e-02    8,829652518e-02    0,000000000e+00    0,000000000e+00    0,000000000e+00    0,000000000e+00
     1374000000   -6,227226257e-01    9,840090573e-02    1,807336509e-01    5,239669234e-02    0,000000000e+00    0,000000000e+00    0,000000000e+00    0,000000000e+00
     1388000000   -4,749495983e-01    3,464314938e-01    2,177299708e-01   -2,757442184e-02    0,000000000e+00    0,000000000e+00    0,000000000e+00    0,000000000e+00
     1402000000   -2,434916794e-01    4,408167899e-01    2,225906998e-01   -8,501525223e-02    0,000000000e+00    0,000000000e+00    0,000000000e+00    0,000000000e+00
     1416000000   -3,414453194e-02    4,122988880e-01    1,917695552e-01   -1,011066437e-01    0,000000000e+00    0,000000000e+00    0,000000000e+00    0,000000000e+00
     1430000000    1,089717001e-01    3,111783564e-01    2,003683597e-01   -1,063857153e-01    0,000000000e+00    0,000000000e+00    0,000000000e+00    0,000000000e+00
     1444000000    1,967236996e-01    1,567434669e-01    1,561108083e-01   -1,044714898e-01    0,000000000e+00    0,000000000e+00    0,000000000e+00    0,000000000e+00
     1458000000    2,285289317e-01   -1,075368654e-02    1,424281895e-01   -7,856739312e-02    0,000000000e+00    0,000000000e+00    0,000000000e+00    0,000000000e+00
     1472000000    1,879124194e-01   -1,947931796e-01    1,328344196e-01   -4,283686727e-02    0,000000000e+00    0,000000000e+00    0,000000000e+00    0,000000000e+00
     1486000000    5,847205594e-02   -3,672091961e-01    1,553156078e-01    1,235106401e-02    0,000000000e+00    0,000000000e+00    0,000000000e+00    0,000000000e+00
     1500000000   -1,510740966e-01   -4,885093272e-01    2,342905551e-01    7,063984871e-02    0,000000000e+00    0,000000000e+00    0,000000000e+00    0,000000000e+00
