! NanoVNA-App
! Date: 2025-09-25 15:44:49
! Start: 100MHz Stop: 1,5GHz Points: 101
! S-Parameter data: F S11 S21 S12 S22
# Hz S RI R 50
!     Frequency           S11_Real           S11_Imag           S21_Real           S21_Imag           S12_Real           S12_Imag           S22_Real           S22_Imag
      100000000   -2,875482477e-02   -4,247507080e-03    3,739433289e-01   -7,215512991e-01    0,000000000e+00    0,000000000e+00    0,000000000e+00    0,000000000e+00
      114000000   -1,651178859e-02    1,149094198e-02   -8,924169838e-02   -8,051716685e-01    0,000000000e+00    0,000000000e+00    0,000000000e+00    0,000000000e+00
      128000000    3,449478652e-03    1,069935039e-02   -5,145232677e-01   -6,204316020e-01    0,000000000e+00    0,000000000e+00    0,000000000e+00    0,000000000e+00
      142000000    1,466970984e-02   -2,672223840e-03   -7,668747306e-01   -2,364254445e-01    0,000000000e+00    0,000000000e+00    0,000000000e+00    0,000000000e+00
      156000000    1,506467164e-02   -1,474651881e-02   -7,664846182e-01    2,183310986e-01    0,000000000e+00    0,000000000e+00    0,000000000e+00    0,000000000e+00
      170000000    1,704435050e-02   -2,249175310e-02   -5,179846883e-01    6,044170260e-01    0,000000000e+00    0,000000000e+00    0,000000000e+00    0,000000000e+00
      184000000    2,132812887e-02   -3,713515028e-02   -1,011630148e-01    7,855996490e-01    0,000000000e+00    0,000000000e+00    0,000000000e+00    0,000000000e+00
      198000000    1,325724553e-02   -6,251635402e-02    3,430705667e-01    7,120766640e-01    0,000000000e+00    0,000000000e+00    0,000000000e+00    0,000000000e+00
      212000000   -1,842937246e-02   -8,131657541e-02    6,778600216e-01    4,098190367e-01    0,000000000e+00    0,000000000e+00    0,000000000e+00    0,000000000e+00
      226000000   -6,134430319e-02   -6,921822578e-02    7,954232693e-01   -3,042484447e-02    0,000000000e+00    0,000000000e+00    0,000000000e+00    0,000000000e+00
      240000000   -8,228253573e-02   -2,579622343e-02    6,459891200e-01   -4,666837156e-01    0,000000000e+00    0,000000000e+00    0,000000000e+00    0,000000000e+00
      254000000   -6,343970448e-02    1,697124168e-02    2,763198614e-01   -7,429891825e-01    0,000000000e+00    0,000000000e+00    0,000000000e+00    0,000000000e+00
      268000000   -2,383568697e-02    2,883339301e-02   -1,778537631e-01   -7,641662359e-01    0,000000000e+00    0,000000000e+00    0,000000000e+00    0,000000000e+00
      282000000    4,122542217e-03    1,204522792e-02   -5,615689754e-01   -5,353379846e-01    0,000000000e+00    0,000000000e+00    0,000000000e+00    0,000000000e+00
      296000000    9,870331734e-03   -7,529826369e-03   -7,595979571e-01   -1,397784054e-01    0,000000000e+00    0,000000000e+00    0,000000000e+00    0,000000000e+00
      310000000    1,146839466e-02   -1,592283696e-02   -7,128329277e-01    2,981580794e-01    0,000000000e+00    0,000000000e+00    0,000000000e+00    0,000000000e+00
      324000000    2,009283938e-02   -2,653665282e-02   -4,274663329e-01    6,376417279e-01    0,000000000e+00    0,000000000e+00    0,000000000e+00    0,000000000e+00
      338000000    2,580970153e-02   -5,203425512e-02   -9,062869474e-03    7,593973279e-01    0,000000000e+00    0,000000000e+00    0,000000000e+00    0,000000000e+00
      352000000    7,660154253e-03   -8,462402970e-02    4,062156677e-01    6,387190819e-01    0,000000000e+00    0,000000000e+00    0,000000000e+00    0,000000000e+00
      366000000   -3,446971998e-02   -9,560912102e-02    6,895523667e-01    3,111510575e-01    0,000000000e+00    0,000000000e+00    0,000000000e+00    0,000000000e+00
      380000000   -7,033117115e-02   -7,110593468e-02    7,474811077e-01   -1,256144047e-01    0,000000000e+00    0,000000000e+00    0,000000000e+00    0,000000000e+00
      394000000   -7,236979902e-02   -3,248090670e-02    5,465996265e-01   -5,210896134e-01    0,000000000e+00    0,000000000e+00    0,000000000e+00    0,000000000e+00
      408000000   -4,643799737e-02   -1,637068763e-02    1,620695740e-01   -7,313588262e-01    0,000000000e+00    0,000000000e+00    0,000000000e+00    0,000000000e+00
      422000000   -2,833999507e-02   -3,197206557e-02   -2,678305805e-01   -6,948697567e-01    0,000000000e+00    0,000000000e+00    0,000000000e+00    0,000000000e+00
      436000000   -4,037350789e-02   -5,188062787e-02   -6,030830145e-01   -4,325022399e-01    0,000000000e+00    0,000000000e+00    0,000000000e+00    0,000000000e+00
      450000000   -6,704598665e-02   -4,371926934e-02   -7,401059270e-01   -2,173725516e-02    0,000000000e+00    0,000000000e+00    0,000000000e+00    0,000000000e+00
      464000000   -7,325700670e-02   -1,172718033e-02   -6,186141968e-01    3,967590928e-01    0,000000000e+00    0,000000000e+00    0,000000000e+00    0,000000000e+00
      478000000   -4,736306146e-02    1,130540203e-02   -2,823313177e-01    6,675000787e-01    0,000000000e+00    0,000000000e+00    0,000000000e+00    0,000000000e+00
      492000000   -1,546843350e-02    5,715575535e-03    1,368844509e-01    7,011165023e-01    0,000000000e+00    0,000000000e+00    0,000000000e+00    0,000000000e+00
      506000000   -2,852321137e-03   -1,575806364e-02    4,980889559e-01    5,024335384e-01    0,000000000e+00    0,000000000e+00    0,000000000e+00    0,000000000e+00
      520000000   -4,837417975e-03   -3,165359423e-02    6,896535158e-01    1,420678049e-01    0,000000000e+00    0,000000000e+00    0,000000000e+00    0,000000000e+00
      534000000   -3,605275182e-03   -3,796951100e-02    6,432955265e-01   -2,618358433e-01    0,000000000e+00    0,000000000e+00    0,000000000e+00    0,000000000e+00
      548000000    6,521739531e-03   -5,398039520e-02    3,824045658e-01   -5,663320422e-01    0,000000000e+00    0,000000000e+00    0,000000000e+00    0,000000000e+00
      562000000    3,270161571e-03   -8,916179836e-02    3,424208378e-03   -6,706342697e-01    0,000000000e+00    0,000000000e+00    0,000000000e+00    0,000000000e+00
      576000000   -3,394925594e-02   -1,241019070e-01   -3,690178990e-01   -5,570768118e-01    0,000000000e+00    0,000000000e+00    0,000000000e+00    0,000000000e+00
      590000000   -9,586106986e-02   -1,224647611e-01   -6,209229827e-01   -2,628823519e-01    0,000000000e+00    0,000000000e+00    0,000000000e+00    0,000000000e+00
      604000000   -1,394536644e-01   -7,246195525e-02   -6,646700501e-01    1,370652765e-01    0,000000000e+00    0,000000000e+00    0,000000000e+00    0,000000000e+00
      618000000   -1,292832643e-01   -9,657614864e-03   -4,652490616e-01    4,935253859e-01    0,000000000e+00    0,000000000e+00    0,000000000e+00    0,000000000e+00
      632000000   -8,443623781e-02    1,652110741e-02   -1,002334505e-01    6,628563404e-01    0,000000000e+00    0,000000000e+00    0,000000000e+00    0,000000000e+00
      646000000   -5,196227133e-02    9,605963132e-04    2,860197425e-01    5,941956639e-01    0,000000000e+00    0,000000000e+00    0,000000000e+00    0,000000000e+00
      660000000   -5,417820811e-02   -2,063989267e-02    5,649932623e-01    3,239137530e-01    0,000000000e+00    0,000000000e+00    0,000000000e+00    0,000000000e+00
      674000000   -7,001551241e-02   -1,720519736e-02    6,408507228e-01   -6,296151876e-02    0,000000000e+00    0,000000000e+00    0,000000000e+00    0,000000000e+00
      688000000   -6,711887568e-02    9,680762887e-03    4,707733393e-01   -4,234352112e-01    0,000000000e+00    0,000000000e+00    0,000000000e+00    0,000000000e+00
      702000000   -3,578198329e-02    2,607707866e-02    1,280544847e-01   -6,070153117e-01    0,000000000e+00    0,000000000e+00    0,000000000e+00    0,000000000e+00
      716000000    3,233863274e-03    1,541205589e-02   -2,591621578e-01   -5,447156429e-01    0,000000000e+00    0,000000000e+00    0,000000000e+00    0,000000000e+00
      730000000    3,646093979e-02   -1,436559949e-02   -5,223025680e-01   -2,716501951e-01    0,000000000e+00    0,000000000e+00    0,000000000e+00    0,000000000e+00
      744000000    6,156867370e-02   -6,495832652e-02   -5,605176091e-01    9,812348336e-02    0,000000000e+00    0,000000000e+00    0,000000000e+00    0,000000000e+00
      758000000    6,081139296e-02   -1,520303339e-01   -3,667102158e-01    3,997979462e-01    0,000000000e+00    0,000000000e+00    0,000000000e+00    0,000000000e+00
      772000000   -1,742075570e-02   -2,556097806e-01   -4,607556015e-02    5,093284249e-01    0,000000000e+00    0,000000000e+00    0,000000000e+00    0,000000000e+00
      786000000   -2,028782219e-01   -2,908785939e-01    2,593560517e-01    3,991809785e-01    0,000000000e+00    0,000000000e+00    0,000000000e+00    0,000000000e+00
      800000000   -4,081474543e-01   -1,276344359e-01    4,074606895e-01    1,187358126e-01    0,000000000e+00    0,000000000e+00    0,000000000e+00    0,000000000e+00
      814000000   -3,772791624e-01    2,004004717e-01    2,968755066e-01   -1,504837126e-01    0,000000000e+00    0,000000000e+00    0,000000000e+00    0,000000000e+00
      828000000   -6,279674917e-02    3,471451402e-01    8,305465430e-02   -1,907176524e-01    0,000000000e+00    0,000000000e+00    0,000000000e+00    0,000000000e+00
      842000000    2,112385333e-01    1,862330288e-01   -3,898217808e-03   -9,361226112e-02    0,000000000e+00    0,000000000e+00    0,000000000e+00    0,000000000e+00
      856000000    2,660617530e-01   -1,050299853e-01    3,575810790e-02   -3,664493561e-02    0,000000000e+00    0,000000000e+00    0,000000000e+00    0,000000000e+00
      870000000    8,308700472e-02   -3,512771726e-01    8,809029311e-02   -9,719219804e-02    0,000000000e+00    0,000000000e+00    0,000000000e+00    0,000000000e+00
      884000000   -2,662782967e-01   -3,563908637e-01    1,189867221e-02   -2,277808785e-01    0,000000000e+00    0,000000000e+00    0,000000000e+00    0,000000000e+00
      898000000   -4,578584433e-01   -1,475465018e-02   -2,142308801e-01   -2,106474638e-01    0,000000000e+00    0,000000000e+00    0,000000000e+00    0,000000000e+00
      912000000   -2,359614670e-01    2,787840068e-01   -3,268296421e-01    7,438899577e-02    0,000000000e+00    0,000000000e+00    0,000000000e+00    0,000000000e+00
      926000000    5,464546382e-02    2,640159130e-01   -2,096246481e-01    2,646277845e-01    0,000000000e+00    0,000000000e+00    0,000000000e+00    0,000000000e+00
      940000000    2,077929080e-01    8,593720943e-02   -3,107285127e-02    3,270391524e-01    0,000000000e+00    0,000000000e+00    0,000000000e+00    0,000000000e+00
      954000000    2,231287658e-01   -1,220709980e-01    1,323338002e-01    3,013013303e-01    0,000000000e+00    0,000000000e+00    0,000000000e+00    0,000000000e+00
      968000000    1,165755019e-01   -2,969472706e-01    2,686361969e-01    2,144333273e-01    0,000000000e+00    0,000000000e+00    0,000000000e+00    0,000000000e+00
      982000000   -7,879733294e-02   -3,869962990e-01    3,609199524e-01    6,264130026e-02    0,000000000e+00    0,000000000e+00    0,000000000e+00    0,000000000e+00
      996000000   -3,110004663e-01   -3,283609450e-01    3,622880280e-01   -1,431115568e-01    0,000000000e+00    0,000000000e+00    0,000000000e+00    0,000000000e+00
     1010000000   -4,621941447e-01   -1,145072132e-01    2,201579213e-01   -3,344532847e-01    0,000000000e+00    0,000000000e+00    0,000000000e+00    0,000000000e+00
     1024000000   -4,199486673e-01    1,436411291e-01   -3,115680255e-02   -3,873056471e-01    0,000000000e+00    0,000000000e+00    0,000000000e+00    0,000000000e+00
     1038000000   -2,210014164e-01    2,922834456e-01   -2,412691414e-01   -2,555739880e-01    0,000000000e+00    0,000000000e+00    0,000000000e+00    0,000000000e+00
     1052000000   -1,533215959e-02    2,776497006e-01   -3,107567132e-01   -4,627945647e-02    0,000000000e+00    0,000000000e+00    0,000000000e+00    0,000000000e+00
     1066000000    1,311749220e-01    1,705754995e-01   -2,543524802e-01    1,385493129e-01    0,000000000e+00    0,000000000e+00    0,000000000e+00    0,000000000e+00
     1080000000    1,905425787e-01    8,365198970e-03   -1,177211255e-01    2,555112839e-01    0,000000000e+00    0,000000000e+00    0,000000000e+00    0,000000000e+00
     1094000000    1,573973894e-01   -1,654038280e-01    5,893371254e-02    2,925402224e-01    0,000000000e+00    0,000000000e+00    0,000000000e+00    0,000000000e+00
     1108000000    1,958201639e-02   -2,995761335e-01    2,608769834e-01    2,347194999e-01    0,000000000e+00    0,000000000e+00    0,000000000e+00    0,000000000e+00
     1122000000   -2,124238014e-01   -2,859212160e-01    4,401142895e-01    2,502641082e-02    0,000000000e+00    0,000000000e+00    0,000000000e+00    0,000000000e+00
     1136000000   -3,208943009e-01   -3,012741357e-02    3,987341523e-01   -3,438954949e-01    0,000000000e+00    0,000000000e+00    0,000000000e+00    0,000000000e+00
     1150000000   -1,098622903e-01    1,362544596e-01    5,326453596e-02   -5,305758715e-01    0,000000000e+00    0,000000000e+00    0,000000000e+00    0,000000000e+00
     1164000000    8,458907157e-02   -1,314909384e-02   -2,527559698e-01   -4,041205347e-01    0,000000000e+00    0,000000000e+00    0,000000000e+00    0,000000000e+00
     1178000000    2,860662527e-02   -2,491216362e-01   -3,707894981e-01   -1,780099422e-01    0,000000000e+00    0,000000000e+00    0,000000000e+00    0,000000000e+00
     1192000000   -2,205358297e-01   -3,507792950e-01   -3,445934951e-01    4,195582867e-02    0,000000000e+00    0,000000000e+00    0,000000000e+00    0,000000000e+00
     1206000000   -4,819265902e-01   -1,824899912e-01   -1,906007826e-01    1,851937473e-01    0,000000000e+00    0,000000000e+00    0,000000000e+00    0,000000000e+00
     1220000000   -5,035070777e-01    1,420940757e-01   -8,958393708e-03    1,789001822e-01    0,000000000e+00    0,000000000e+00    0,000000000e+00    0,000000000e+00
     1234000000   -2,995771766e-01    3,413090408e-01    7,733224332e-02    7,722258568e-02    0,000000000e+00    0,000000000e+00    0,000000000e+00    0,000000000e+00
     1248000000   -7,252371311e-02    3,585933149e-01    7,142556459e-02    7,068036357e-04    0,000000000e+00    0,000000000e+00    0,000000000e+00    0,000000000e+00
     1262000000    1,118078530e-01    2,559327185e-01    3,257507831e-02   -2,875729091e-02    0,000000000e+00    0,000000000e+00    0,000000000e+00    0,000000000e+00
     1276000000    2,048330307e-01    1,061487198e-01    4,959200043e-03   -1,541829947e-02    0,000000000e+00    0,000000000e+00    0,000000000e+00    0,000000000e+00
     1290000000    2,253540754e-01   -6,289691478e-02    1,287919655e-02    2,348903380e-02    0,000000000e+00    0,000000000e+00    0,000000000e+00    0,000000000e+00
     1304000000    1,658915728e-01   -2,327378392e-01    6,096918881e-02    5,592690408e-02    0,000000000e+00    0,000000000e+00    0,000000000e+00    0,000000000e+00
     1318000000    2,502210997e-02   -3,673395813e-01    1,699827164e-01    1,933117770e-02    0,000000000e+00    0,000000000e+00    0,000000000e+00    0,000000000e+00
     1332000000   -1,508418322e-01   -3,944987059e-01    1,037897542e-01   -1,801259220e-01    0,000000000e+00    0,000000000e+00    0,000000000e+00    0,000000000e+00
     1346000000   -3,604830205e-01   -3,859975040e-01   -5,702536553e-02   -1,790367253e-02    0,000000000e+00    0,000000000e+00    0,000000000e+00    0,000000000e+00
     1360000000   -5,843114853e-01   -2,040785849e-01    7,115141302e-02    8,466511220e-02    0,000000000e+00    0,000000000e+00    0,000000000e+00    0,000000000e+00
     1374000000   -6,312864423e-01    1,091619134e-01    1,665261984e-01    5,570642278e-02    0,000000000e+00    0,000000000e+00    0,000000000e+00    0,000000000e+00
     1388000000   -4,681647420e-01    3,503538072e-01    2,287091762e-01   -1,550967339e-02    0,000000000e+00    0,000000000e+00    0,000000000e+00    0,000000000e+00
     1402000000   -2,461268455e-01    4,483241141e-01    2,029314935e-01   -7,027726620e-02    0,000000000e+00    0,000000000e+00    0,000000000e+00    0,000000000e+00
     1416000000   -3,806868941e-02    4,123280048e-01    2,018593103e-01   -1,026127785e-01    0,000000000e+00    0,000000000e+00    0,000000000e+00    0,000000000e+00
     1430000000    9,954161197e-02    3,012396097e-01    1,662570089e-01   -1,016836092e-01    0,000000000e+00    0,000000000e+00    0,000000000e+00    0,000000000e+00
     1444000000    2,025742084e-01    1,601323485e-01    1,602544338e-01   -9,885516763e-02    0,000000000e+00    0,000000000e+00    0,000000000e+00    0,000000000e+00
     1458000000    2,350315899e-01   -1,173194777e-02    1,542629451e-01   -9,273404628e-02    0,000000000e+00    0,000000000e+00    0,000000000e+00    0,000000000e+00
     1472000000    1,908262819e-01   -1,957599521e-01    1,332154721e-01   -4,723019153e-02    0,000000000e+00    0,000000000e+00    0,000000000e+00    0,000000000e+00
     1486000000    6,743790209e-02   -3,651365042e-01    1,609748602e-01    5,790369585e-03    0,000000000e+00    0,000000000e+00    0,000000000e+00    0,000000000e+00
     1500000000   -1,519788653e-01   -4,937098026e-01    2,387636602e-01    8,910486847e-02    0,000000000e+00    0,000000000e+00    0,000000000e+00    0,000000000e+00
