! NanoVNA-App
! Date: 2025-09-25 15:45:08
! Start: 100MHz Stop: 1,5GHz Points: 101
! S-Parameter data: F S11 S21 S12 S22
# Hz S RI R 50
!     Frequency           S11_Real           S11_Imag           S21_Real           S21_Imag           S12_Real           S12_Imag           S22_Real           S22_Imag
      100000000   -2,879048139e-02   -4,252617247e-03    3,739813268e-01   -7,215992808e-01    0,000000000e+00    0,000000000e+00    0,000000000e+00    0,000000000e+00
      114000000   -1,653728262e-02    1,150050201e-02   -8,901310712e-02   -8,052614331e-01    0,000000000e+00    0,000000000e+00    0,000000000e+00    0,000000000e+00
      128000000    3,411010839e-03    1,072362531e-02   -5,143627524e-01   -6,202822328e-01    0,000000000e+00    0,000000000e+00    0,000000000e+00    0,000000000e+00
      142000000    1,465250924e-02   -2,672950272e-03   -7,670598030e-01   -2,366059422e-01    0,000000000e+00    0,000000000e+00    0,000000000e+00    0,000000000e+00
      156000000    1,510195993e-02   -1,460878644e-02   -7,656898499e-01    2,215966135e-01    0,000000000e+00    0,000000000e+00    0,000000000e+00    0,000000000e+00
      170000000    1,709540747e-02   -2,245746553e-02   -5,178771019e-01    6,044052839e-01    0,000000000e+00    0,000000000e+00    0,000000000e+00    0,000000000e+00
      184000000    2,132615075e-02   -3,716420010e-02   -1,011428684e-01    7,858705521e-01    0,000000000e+00    0,000000000e+00    0,000000000e+00    0,000000000e+00
      198000000    1,325601619e-02   -6,251344085e-02    3,431154490e-01    7,122562528e-01    0,000000000e+00    0,000000000e+00    0,000000000e+00    0,000000000e+00
      212000000   -1,845364459e-02   -8,132017404e-02    6,777374148e-01    4,097225964e-01    0,000000000e+00    0,000000000e+00    0,000000000e+00    0,000000000e+00
      226000000   -6,142253429e-02   -6,925709546e-02    7,955213189e-01   -3,038396314e-02    0,000000000e+00    0,000000000e+00    0,000000000e+00    0,000000000e+00
      240000000   -8,230071515e-02   -2,582620457e-02    6,459084153e-01   -4,664323330e-01    0,000000000e+00    0,000000000e+00    0,000000000e+00    0,000000000e+00
      254000000   -6,344950199e-02    1,697274111e-02    2,762073278e-01   -7,425951958e-01    0,000000000e+00    0,000000000e+00    0,000000000e+00    0,000000000e+00
      268000000   -2,397728898e-02    2,881660312e-02   -1,779621691e-01   -7,637169957e-01    0,000000000e+00    0,000000000e+00    0,000000000e+00    0,000000000e+00
      282000000    4,040106665e-03    1,205345895e-02   -5,618886948e-01   -5,356940627e-01    0,000000000e+00    0,000000000e+00    0,000000000e+00    0,000000000e+00
      296000000    9,847863577e-03   -7,686812896e-03   -7,595369816e-01   -1,396971196e-01    0,000000000e+00    0,000000000e+00    0,000000000e+00    0,000000000e+00
      310000000    1,132932026e-02   -1,591155306e-02   -7,130406499e-01    2,985562980e-01    0,000000000e+00    0,000000000e+00    0,000000000e+00    0,000000000e+00
      324000000    2,002254874e-02   -2,660824358e-02   -4,279623032e-01    6,371572018e-01    0,000000000e+00    0,000000000e+00    0,000000000e+00    0,000000000e+00
      338000000    2,585174143e-02   -5,208897591e-02   -1,061603427e-02    7,622831464e-01    0,000000000e+00    0,000000000e+00    0,000000000e+00    0,000000000e+00
      352000000    7,378836162e-03   -8,449931443e-02    4,070941210e-01    6,391936541e-01    0,000000000e+00    0,000000000e+00    0,000000000e+00    0,000000000e+00
      366000000   -3,414716572e-02   -9,543802589e-02    6,900772452e-01    3,109125495e-01    0,000000000e+00    0,000000000e+00    0,000000000e+00    0,000000000e+00
      380000000   -7,027078420e-02   -7,090032101e-02    7,475156784e-01   -1,257061213e-01    0,000000000e+00    0,000000000e+00    0,000000000e+00    0,000000000e+00
      394000000   -7,237056643e-02   -3,246467933e-02    5,477366447e-01   -5,211568475e-01    0,000000000e+00    0,000000000e+00    0,000000000e+00    0,000000000e+00
      408000000   -4,634370655e-02   -1,646616310e-02    1,601495594e-01   -7,331594825e-01    0,000000000e+00    0,000000000e+00    0,000000000e+00    0,000000000e+00
      422000000   -2,843237855e-02   -3,244246915e-02   -2,668662369e-01   -6,951756477e-01    0,000000000e+00    0,000000000e+00    0,000000000e+00    0,000000000e+00
      436000000   -4,043017700e-02   -5,203470960e-02   -6,037815213e-01   -4,324542880e-01    0,000000000e+00    0,000000000e+00    0,000000000e+00    0,000000000e+00
      450000000   -6,716232747e-02   -4,382330924e-02   -7,399632335e-01   -2,175047249e-02    0,000000000e+00    0,000000000e+00    0,000000000e+00    0,000000000e+00
      464000000   -7,281523943e-02   -1,209874079e-02   -6,181806922e-01    3,969455063e-01    0,000000000e+00    0,000000000e+00    0,000000000e+00    0,000000000e+00
      478000000   -4,764173925e-02    1,133874618e-02   -2,832720876e-01    6,676681638e-01    0,000000000e+00    0,000000000e+00    0,000000000e+00    0,000000000e+00
      492000000   -1,607604884e-02    5,404302385e-03    1,363631785e-01    7,007818222e-01    0,000000000e+00    0,000000000e+00    0,000000000e+00    0,000000000e+00
      506000000   -2,312660217e-03   -1,579641923e-02    4,980438948e-01    5,026839972e-01    0,000000000e+00    0,000000000e+00    0,000000000e+00    0,000000000e+00
      520000000   -4,890111741e-03   -3,128291667e-02    6,879422665e-01    1,412307620e-01    0,000000000e+00    0,000000000e+00    0,000000000e+00    0,000000000e+00
      534000000   -3,883479163e-03   -3,827895224e-02    6,428928375e-01   -2,617263198e-01    0,000000000e+00    0,000000000e+00    0,000000000e+00    0,000000000e+00
      548000000    6,129287183e-03   -5,379672721e-02    3,811583221e-01   -5,663120747e-01    0,000000000e+00    0,000000000e+00    0,000000000e+00    0,000000000e+00
      562000000    3,145507537e-03   -8,959825337e-02    1,897895476e-03   -6,729112267e-01    0,000000000e+00    0,000000000e+00    0,000000000e+00    0,000000000e+00
      576000000   -3,388428316e-02   -1,238097399e-01   -3,664226830e-01   -5,577607155e-01    0,000000000e+00    0,000000000e+00    0,000000000e+00    0,000000000e+00
      590000000   -9,535820782e-02   -1,225818098e-01   -6,204342842e-01   -2,657048106e-01    0,000000000e+00    0,000000000e+00    0,000000000e+00    0,000000000e+00
      604000000   -1,389784217e-01   -7,218912989e-02   -6,644551158e-01    1,373363286e-01    0,000000000e+00    0,000000000e+00    0,000000000e+00    0,000000000e+00
      618000000   -1,289541721e-01   -9,994152933e-03   -4,642756581e-01    4,935444891e-01    0,000000000e+00    0,000000000e+00    0,000000000e+00    0,000000000e+00
      632000000   -8,492866158e-02    1,579237916e-02   -1,005833298e-01    6,630139947e-01    0,000000000e+00    0,000000000e+00    0,000000000e+00    0,000000000e+00
      646000000   -5,207009614e-02   -6,211243453e-05    2,861332297e-01    5,944973826e-01    0,000000000e+00    0,000000000e+00    0,000000000e+00    0,000000000e+00
      660000000   -5,329416320e-02   -2,091972530e-02    5,648132563e-01    3,235079348e-01    0,000000000e+00    0,000000000e+00    0,000000000e+00    0,000000000e+00
      674000000   -6,906343251e-02   -1,643966883e-02    6,413248181e-01   -6,324069202e-02    0,000000000e+00    0,000000000e+00    0,000000000e+00    0,000000000e+00
      688000000   -6,662029773e-02    9,666960686e-03    4,713675976e-01   -4,238677621e-01    0,000000000e+00    0,000000000e+00    0,000000000e+00    0,000000000e+00
      702000000   -3,593307734e-02    2,645350806e-02    1,262970567e-01   -6,061357856e-01    0,000000000e+00    0,000000000e+00    0,000000000e+00    0,000000000e+00
      716000000    2,719037468e-03    1,661550067e-02   -2,594751120e-01   -5,446033478e-01    0,000000000e+00    0,000000000e+00    0,000000000e+00    0,000000000e+00
      730000000    3,615588695e-02   -1,367013901e-02   -5,218305588e-01   -2,724325955e-01    0,000000000e+00    0,000000000e+00    0,000000000e+00    0,000000000e+00
      744000000    6,215070188e-02   -6,570518762e-02   -5,611813664e-01    9,844583273e-02    0,000000000e+00    0,000000000e+00    0,000000000e+00    0,000000000e+00
      758000000    6,079783291e-02   -1,514569372e-01   -3,664512038e-01    4,000402391e-01    0,000000000e+00    0,000000000e+00    0,000000000e+00    0,000000000e+00
      772000000   -1,682257093e-02   -2,555043995e-01   -4,640275985e-02    5,095852613e-01    0,000000000e+00    0,000000000e+00    0,000000000e+00    0,000000000e+00
      786000000   -2,017674446e-01   -2,904739082e-01    2,592142224e-01    3,991731405e-01    0,000000000e+00    0,000000000e+00    0,000000000e+00    0,000000000e+00
      800000000   -4,077145457e-01   -1,269621998e-01    4,078823924e-01    1,187977046e-01    0,000000000e+00    0,000000000e+00    0,000000000e+00    0,000000000e+00
      814000000   -3,762480319e-01    2,014326155e-01    2,968655229e-01   -1,511454284e-01    0,000000000e+00    0,000000000e+00    0,000000000e+00    0,000000000e+00
      828000000   -6,249798462e-02    3,471628129e-01    8,307608962e-02   -1,906666160e-01    0,000000000e+00    0,000000000e+00    0,000000000e+00    0,000000000e+00
      842000000    2,116634250e-01    1,859892756e-01   -3,715323284e-03   -9,360289574e-02    0,000000000e+00    0,000000000e+00    0,000000000e+00    0,000000000e+00
      856000000    2,664553821e-01   -1,053274497e-01    3,515133634e-02   -3,689909354e-02    0,000000000e+00    0,000000000e+00    0,000000000e+00    0,000000000e+00
      870000000    8,301846683e-02   -3,506398499e-01    8,830650151e-02   -9,651434422e-02    0,000000000e+00    0,000000000e+00    0,000000000e+00    0,000000000e+00
      884000000   -2,666669786e-01   -3,567050099e-01    1,197766047e-02   -2,263332754e-01    0,000000000e+00    0,000000000e+00    0,000000000e+00    0,000000000e+00
      898000000   -4,573820233e-01   -1,390117314e-02   -2,144424617e-01   -2,092818469e-01    0,000000000e+00    0,000000000e+00    0,000000000e+00    0,000000000e+00
      912000000   -2,353158891e-01    2,800430954e-01   -3,300248086e-01    6,365963072e-02    0,000000000e+00    0,000000000e+00    0,000000000e+00    0,000000000e+00
      926000000    5,401727185e-02    2,629972994e-01   -2,107015550e-01    2,631697655e-01    0,000000000e+00    0,000000000e+00    0,000000000e+00    0,000000000e+00
      940000000    2,070497572e-01    8,339457214e-02   -3,246328607e-02    3,242065907e-01    0,000000000e+00    0,000000000e+00    0,000000000e+00    0,000000000e+00
      954000000    2,222049981e-01   -1,235257536e-01    1,312788129e-01    3,012382090e-01    0,000000000e+00    0,000000000e+00    0,000000000e+00    0,000000000e+00
      968000000    1,197960228e-01   -2,962999046e-01    2,684592605e-01    2,140313983e-01    0,000000000e+00    0,000000000e+00    0,000000000e+00    0,000000000e+00
      982000000   -7,825080305e-02   -3,861930072e-01    3,602447510e-01    6,227050722e-02    0,000000000e+00    0,000000000e+00    0,000000000e+00    0,000000000e+00
      996000000   -3,121006787e-01   -3,275449872e-01    3,620309830e-01   -1,440281570e-01    0,000000000e+00    0,000000000e+00    0,000000000e+00    0,000000000e+00
     1010000000   -4,643776715e-01   -1,155664176e-01    2,207309455e-01   -3,342220187e-01    0,000000000e+00    0,000000000e+00    0,000000000e+00    0,000000000e+00
     1024000000   -4,149697721e-01    1,464602649e-01   -3,184340149e-02   -3,862515092e-01    0,000000000e+00    0,000000000e+00    0,000000000e+00    0,000000000e+00
     1038000000   -2,230029106e-01    2,866461575e-01   -2,386418134e-01   -2,558846474e-01    0,000000000e+00    0,000000000e+00    0,000000000e+00    0,000000000e+00
     1052000000   -1,059932355e-02    2,805006206e-01   -3,125467896e-01   -4,670692235e-02    0,000000000e+00    0,000000000e+00    0,000000000e+00    0,000000000e+00
     1066000000    1,303142160e-01    1,683625728e-01   -2,489691228e-01    1,394945234e-01    0,000000000e+00    0,000000000e+00    0,000000000e+00    0,000000000e+00
     1080000000    1,944768429e-01    9,990664199e-03   -1,164254546e-01    2,542876005e-01    0,000000000e+00    0,000000000e+00    0,000000000e+00    0,000000000e+00
     1094000000    1,588497460e-01   -1,595148146e-01    5,902161077e-02    2,928037047e-01    0,000000000e+00    0,000000000e+00    0,000000000e+00    0,000000000e+00
     1108000000    2,121782489e-02   -2,965357006e-01    2,597940862e-01    2,340439260e-01    0,000000000e+00    0,000000000e+00    0,000000000e+00    0,000000000e+00
     1122000000   -2,160326242e-01   -2,869211137e-01    4,376117587e-01    2,596963011e-02    0,000000000e+00    0,000000000e+00    0,000000000e+00    0,000000000e+00
     1136000000   -3,240769804e-01   -2,837404422e-02    4,012085795e-01   -3,428787291e-01    0,000000000e+00    0,000000000e+00    0,000000000e+00    0,000000000e+00
     1150000000   -1,066293791e-01    1,351146847e-01    4,956632853e-02   -5,248782039e-01    0,000000000e+00    0,000000000e+00    0,000000000e+00    0,000000000e+00
     1164000000    8,598776162e-02   -1,597716846e-02   -2,506819963e-01   -4,030454755e-01    0,000000000e+00    0,000000000e+00    0,000000000e+00    0,000000000e+00
     1178000000    2,921626717e-02   -2,529705167e-01   -3,711968958e-01   -1,789035648e-01    0,000000000e+00    0,000000000e+00    0,000000000e+00    0,000000000e+00
     1192000000   -2,222508788e-01   -3,441763818e-01   -3,440608382e-01    4,332086444e-02    0,000000000e+00    0,000000000e+00    0,000000000e+00    0,000000000e+00
     1206000000   -4,818219244e-01   -1,795306802e-01   -1,900838166e-01    1,857830137e-01    0,000000000e+00    0,000000000e+00    0,000000000e+00    0,000000000e+00
     1220000000   -5,085146427e-01    1,366563290e-01   -9,239863604e-03    1,772793233e-01    0,000000000e+00    0,000000000e+00    0,000000000e+00    0,000000000e+00
     1234000000   -3,020186126e-01    3,351633549e-01    6,935325265e-02    7,929916680e-02    0,000000000e+00    0,000000000e+00    0,000000000e+00    0,000000000e+00
     1248000000   -6,301234663e-02    3,663547635e-01    7,123663276e-02    4,525009077e-03    0,000000000e+00    0,000000000e+00    0,000000000e+00    0,000000000e+00
     1262000000    1,065624654e-01    2,600108385e-01    3,162802756e-02   -2,482472546e-02    0,000000000e+00    0,000000000e+00    0,000000000e+00    0,000000000e+00
     1276000000    1,996903121e-01    1,045222506e-01    2,213694621e-03   -1,150021236e-02    0,000000000e+00    0,000000000e+00    0,000000000e+00    0,000000000e+00
     1290000000    2,202722877e-01   -6,216916069e-02    8,491138928e-03    2,404116653e-02    0,000000000e+00    0,000000000e+00    0,000000000e+00    0,000000000e+00
     1304000000    1,696584821e-01   -2,292894274e-01    6,464380026e-02    6,110058725e-02    0,000000000e+00    0,000000000e+00    0,000000000e+00    0,000000000e+00
     1318000000    2,837179415e-02   -3,613114357e-01    1,760592461e-01    2,173504233e-02    0,000000000e+00    0,000000000e+00    0,000000000e+00    0,000000000e+00
     1332000000   -1,533289105e-01   -3,929903805e-01    9,738807380e-02   -1,787488014e-01    0,000000000e+00    0,000000000e+00    0,000000000e+00    0,000000000e+00
     1346000000   -3,610447645e-01   -3,944659531e-01   -5,265367404e-02   -2,201077901e-02    0,000000000e+00    0,000000000e+00    0,000000000e+00    0,000000000e+00
     1360000000   -5,798977017e-01   -2,012825608e-01    6,277526915e-02    9,407982230e-02    0,000000000e+00    0,000000000e+00    0,000000000e+00    0,000000000e+00
     1374000000   -6,275950670e-01    1,108891666e-01    1,843194664e-01    6,260451674e-02    0,000000000e+00    0,000000000e+00    0,000000000e+00    0,000000000e+00
     1388000000   -4,778946042e-01    3,569429219e-01    2,164860815e-01   -2,067594230e-02    0,000000000e+00    0,000000000e+00    0,000000000e+00    0,000000000e+00
     1402000000   -2,474495322e-01    4,425695539e-01    2,097942233e-01   -7,532405108e-02    0,000000000e+00    0,000000000e+00    0,000000000e+00    0,000000000e+00
     1416000000   -4,214575887e-02    4,122618139e-01    1,924384981e-01   -1,101496369e-01    0,000000000e+00    0,000000000e+00    0,000000000e+00    0,000000000e+00
     1430000000    1,076233983e-01    3,017536998e-01    1,747143269e-01   -9,135138243e-02    0,000000000e+00    0,000000000e+00    0,000000000e+00    0,000000000e+00
     1444000000    2,010397017e-01    1,597586423e-01    1,664726883e-01   -1,108422652e-01    0,000000000e+00    0,000000000e+00    0,000000000e+00    0,000000000e+00
     1458000000    2,318036258e-01   -1,069790777e-02    1,553249508e-01   -7,819696516e-02    0,000000000e+00    0,000000000e+00    0,000000000e+00    0,000000000e+00
     1472000000    1,902851462e-01   -1,939319372e-01    1,502562016e-01   -4,595498741e-02    0,000000000e+00    0,000000000e+00    0,000000000e+00    0,000000000e+00
     1486000000    7,183980942e-02   -3,635576665e-01    1,670461893e-01    2,340077236e-02    0,000000000e+00    0,000000000e+00    0,000000000e+00    0,000000000e+00
     1500000000   -1,634814590e-01   -4,809315205e-01    2,240584791e-01    9,323842078e-02    0,000000000e+00    0,000000000e+00    0,000000000e+00    0,000000000e+00
