! NanoVNA-App
! Date: 2025-09-25 15:44:07
! Start: 100MHz Stop: 1,5GHz Points: 101
! S-Parameter data: F S11 S21 S12 S22
# Hz S RI R 50
!     Frequency           S11_Real           S11_Imag           S21_Real           S21_Imag           S12_Real           S12_Imag           S22_Real           S22_Imag
      100000000   -2,873560786e-02   -4,251998384e-03    3,739421368e-01   -7,215433717e-01    0,000000000e+00    0,000000000e+00    0,000000000e+00    0,000000000e+00
      114000000   -1,653008908e-02    1,146074850e-02   -8,917067945e-02   -8,052210808e-01    0,000000000e+00    0,000000000e+00    0,000000000e+00    0,000000000e+00
      128000000    3,392197890e-03    1,065318845e-02   -5,143914819e-01   -6,200577021e-01    0,000000000e+00    0,000000000e+00    0,000000000e+00    0,000000000e+00
      142000000    1,465761475e-02   -2,639800776e-03   -7,667031288e-01   -2,363981605e-01    0,000000000e+00    0,000000000e+00    0,000000000e+00    0,000000000e+00
      156000000    1,472831890e-02   -1,456494536e-02   -7,635439634e-01    2,188203633e-01    0,000000000e+00    0,000000000e+00    0,000000000e+00    0,000000000e+00
      170000000    1,708079875e-02   -2,250007167e-02   -5,176370144e-01    6,043139100e-01    0,000000000e+00    0,000000000e+00    0,000000000e+00    0,000000000e+00
      184000000    2,134323493e-02   -3,716942295e-02   -1,013491005e-01    7,857130170e-01    0,000000000e+00    0,000000000e+00    0,000000000e+00    0,000000000e+00
      198000000    1,323082484e-02   -6,254939735e-02    3,430792391e-01    7,121655345e-01    0,000000000e+00    0,000000000e+00    0,000000000e+00    0,000000000e+00
      212000000   -1,845330372e-02   -8,127918839e-02    6,779464483e-01    4,097555280e-01    0,000000000e+00    0,000000000e+00    0,000000000e+00    0,000000000e+00
      226000000   -6,133302301e-02   -6,925632060e-02    7,953397036e-01   -3,043853305e-02    0,000000000e+00    0,000000000e+00    0,000000000e+00    0,000000000e+00
      240000000   -8,216569573e-02   -2,579921484e-02    6,457678676e-01   -4,668225646e-01    0,000000000e+00    0,000000000e+00    0,000000000e+00    0,000000000e+00
      254000000   -6,339083612e-02    1,696342789e-02    2,762251794e-01   -7,425665855e-01    0,000000000e+00    0,000000000e+00    0,000000000e+00    0,000000000e+00
      268000000   -2,398333512e-02    2,873605862e-02   -1,778157800e-01   -7,640770078e-01    0,000000000e+00    0,000000000e+00    0,000000000e+00    0,000000000e+00
      282000000    4,056936130e-03    1,207428519e-02   -5,618341565e-01   -5,354726911e-01    0,000000000e+00    0,000000000e+00    0,000000000e+00    0,000000000e+00
      296000000    9,887579829e-03   -7,584203966e-03   -7,594200373e-01   -1,395001709e-01    0,000000000e+00    0,000000000e+00    0,000000000e+00    0,000000000e+00
      310000000    1,155853365e-02   -1,608150266e-02   -7,131492496e-01    2,984175682e-01    0,000000000e+00    0,000000000e+00    0,000000000e+00    0,000000000e+00
      324000000    2,007934451e-02   -2,681021765e-02   -4,278089106e-01    6,372042298e-01    0,000000000e+00    0,000000000e+00    0,000000000e+00    0,000000000e+00
      338000000    2,575265989e-02   -5,222157761e-02   -1,010182314e-02    7,624183297e-01    0,000000000e+00    0,000000000e+00    0,000000000e+00    0,000000000e+00
      352000000    7,464912720e-03   -8,472977579e-02    4,058148861e-01    6,400456429e-01    0,000000000e+00    0,000000000e+00    0,000000000e+00    0,000000000e+00
      366000000   -3,431739286e-02   -9,578181803e-02    6,901997924e-01    3,113180399e-01    0,000000000e+00    0,000000000e+00    0,000000000e+00    0,000000000e+00
      380000000   -7,045974582e-02   -7,118496299e-02    7,468291521e-01   -1,259671748e-01    0,000000000e+00    0,000000000e+00    0,000000000e+00    0,000000000e+00
      394000000   -7,202089578e-02   -3,239928186e-02    5,463322401e-01   -5,212211013e-01    0,000000000e+00    0,000000000e+00    0,000000000e+00    0,000000000e+00
      408000000   -4,616250098e-02   -1,625903323e-02    1,607308090e-01   -7,324240208e-01    0,000000000e+00    0,000000000e+00    0,000000000e+00    0,000000000e+00
      422000000   -2,822647989e-02   -3,228655830e-02   -2,671704888e-01   -6,944153309e-01    0,000000000e+00    0,000000000e+00    0,000000000e+00    0,000000000e+00
      436000000   -4,042110220e-02   -5,162081495e-02   -6,028984785e-01   -4,315299988e-01    0,000000000e+00    0,000000000e+00    0,000000000e+00    0,000000000e+00
      450000000   -6,697531044e-02   -4,365915805e-02   -7,395944595e-01   -2,154900506e-02    0,000000000e+00    0,000000000e+00    0,000000000e+00    0,000000000e+00
      464000000   -7,284533978e-02   -1,168854441e-02   -6,187723875e-01    3,969947100e-01    0,000000000e+00    0,000000000e+00    0,000000000e+00    0,000000000e+00
      478000000   -4,760168120e-02    1,139852498e-02   -2,828143537e-01    6,675124764e-01    0,000000000e+00    0,000000000e+00    0,000000000e+00    0,000000000e+00
      492000000   -1,576047391e-02    5,532100331e-03    1,372348368e-01    7,005690336e-01    0,000000000e+00    0,000000000e+00    0,000000000e+00    0,000000000e+00
      506000000   -2,502031159e-03   -1,614524797e-02    4,975720346e-01    5,019488335e-01    0,000000000e+00    0,000000000e+00    0,000000000e+00    0,000000000e+00
      520000000   -4,951226525e-03   -3,118183650e-02    6,873118281e-01    1,407609135e-01    0,000000000e+00    0,000000000e+00    0,000000000e+00    0,000000000e+00
      534000000   -3,397834022e-03   -3,818664327e-02    6,431083083e-01   -2,620831728e-01    0,000000000e+00    0,000000000e+00    0,000000000e+00    0,000000000e+00
      548000000    6,423620507e-03   -5,397650972e-02    3,818151355e-01   -5,664628148e-01    0,000000000e+00    0,000000000e+00    0,000000000e+00    0,000000000e+00
      562000000    3,737241030e-03   -8,932407200e-02    3,793204203e-03   -6,709872484e-01    0,000000000e+00    0,000000000e+00    0,000000000e+00    0,000000000e+00
      576000000   -3,394592553e-02   -1,243506297e-01   -3,680351079e-01   -5,579490066e-01    0,000000000e+00    0,000000000e+00    0,000000000e+00    0,000000000e+00
      590000000   -9,580329806e-02   -1,228097528e-01   -6,187781692e-01   -2,649926841e-01    0,000000000e+00    0,000000000e+00    0,000000000e+00    0,000000000e+00
      604000000   -1,385632306e-01   -7,211251557e-02   -6,636756063e-01    1,368300021e-01    0,000000000e+00    0,000000000e+00    0,000000000e+00    0,000000000e+00
      618000000   -1,290260851e-01   -9,720434435e-03   -4,644656181e-01    4,921481907e-01    0,000000000e+00    0,000000000e+00    0,000000000e+00    0,000000000e+00
      632000000   -8,444603533e-02    1,638569869e-02   -9,928329289e-02    6,616703868e-01    0,000000000e+00    0,000000000e+00    0,000000000e+00    0,000000000e+00
      646000000   -5,137418211e-02    4,401999176e-04    2,857557833e-01    5,942555070e-01    0,000000000e+00    0,000000000e+00    0,000000000e+00    0,000000000e+00
      660000000   -5,413640290e-02   -2,097502723e-02    5,644419193e-01    3,233602345e-01    0,000000000e+00    0,000000000e+00    0,000000000e+00    0,000000000e+00
      674000000   -6,988760829e-02   -1,599069685e-02    6,409265399e-01   -6,289417297e-02    0,000000000e+00    0,000000000e+00    0,000000000e+00    0,000000000e+00
      688000000   -6,629503518e-02    8,525930345e-03    4,716118276e-01   -4,236932993e-01    0,000000000e+00    0,000000000e+00    0,000000000e+00    0,000000000e+00
      702000000   -3,653778508e-02    2,585623600e-02    1,264122874e-01   -6,121501923e-01    0,000000000e+00    0,000000000e+00    0,000000000e+00    0,000000000e+00
      716000000    3,250074340e-03    1,692007110e-02   -2,593402565e-01   -5,446690321e-01    0,000000000e+00    0,000000000e+00    0,000000000e+00    0,000000000e+00
      730000000    3,728505224e-02   -1,419010758e-02   -5,219281316e-01   -2,710935473e-01    0,000000000e+00    0,000000000e+00    0,000000000e+00    0,000000000e+00
      744000000    6,193358079e-02   -6,520683318e-02   -5,604948997e-01    9,874399751e-02    0,000000000e+00    0,000000000e+00    0,000000000e+00    0,000000000e+00
      758000000    6,083368510e-02   -1,521094888e-01   -3,670827746e-01    4,003697932e-01    0,000000000e+00    0,000000000e+00    0,000000000e+00    0,000000000e+00
      772000000   -1,740766317e-02   -2,552156746e-01   -4,593885690e-02    5,087262988e-01    0,000000000e+00    0,000000000e+00    0,000000000e+00    0,000000000e+00
      786000000   -2,026210725e-01   -2,909601629e-01    2,599033117e-01    3,984859884e-01    0,000000000e+00    0,000000000e+00    0,000000000e+00    0,000000000e+00
      800000000   -4,079218507e-01   -1,281655580e-01    4,078294933e-01    1,184612140e-01    0,000000000e+00    0,000000000e+00    0,000000000e+00    0,000000000e+00
      814000000   -3,775126934e-01    2,024503052e-01    2,966907620e-01   -1,512785852e-01    0,000000000e+00    0,000000000e+00    0,000000000e+00    0,000000000e+00
      828000000   -6,336475164e-02    3,465296924e-01    8,235976845e-02   -1,905977130e-01    0,000000000e+00    0,000000000e+00    0,000000000e+00    0,000000000e+00
      842000000    2,113947868e-01    1,858635843e-01   -3,576297080e-03   -9,355338663e-02    0,000000000e+00    0,000000000e+00    0,000000000e+00    0,000000000e+00
      856000000    2,662921548e-01   -1,052468047e-01    3,559957817e-02   -3,659170493e-02    0,000000000e+00    0,000000000e+00    0,000000000e+00    0,000000000e+00
      870000000    8,203195035e-02   -3,516261280e-01    8,862460405e-02   -9,702636302e-02    0,000000000e+00    0,000000000e+00    0,000000000e+00    0,000000000e+00
      884000000   -2,666639090e-01   -3,571203053e-01    1,248470414e-02   -2,279071808e-01    0,000000000e+00    0,000000000e+00    0,000000000e+00    0,000000000e+00
      898000000   -4,579529464e-01   -1,354872994e-02   -2,153220773e-01   -2,093193680e-01    0,000000000e+00    0,000000000e+00    0,000000000e+00    0,000000000e+00
      912000000   -2,356509864e-01    2,781507671e-01   -3,451296389e-01    7,356019318e-02    0,000000000e+00    0,000000000e+00    0,000000000e+00    0,000000000e+00
      926000000    5,435511097e-02    2,594609559e-01   -2,100748569e-01    2,611765563e-01    0,000000000e+00    0,000000000e+00    0,000000000e+00    0,000000000e+00
      940000000    2,108865082e-01    8,424504101e-02   -3,123580478e-02    3,252238929e-01    0,000000000e+00    0,000000000e+00    0,000000000e+00    0,000000000e+00
      954000000    2,186073363e-01   -1,219402999e-01    1,310857832e-01    3,006334901e-01    0,000000000e+00    0,000000000e+00    0,000000000e+00    0,000000000e+00
      968000000    1,185695231e-01   -2,929237485e-01    2,687917054e-01    2,142969519e-01    0,000000000e+00    0,000000000e+00    0,000000000e+00    0,000000000e+00
      982000000   -7,839880139e-02   -3,823294640e-01    3,595534265e-01    6,227926910e-02    0,000000000e+00    0,000000000e+00    0,000000000e+00    0,000000000e+00
      996000000   -3,133549392e-01   -3,334169388e-01    3,635534942e-01   -1,448434591e-01    0,000000000e+00    0,000000000e+00    0,000000000e+00    0,000000000e+00
     1010000000   -4,615873694e-01   -1,148303971e-01    2,206759453e-01   -3,362443447e-01    0,000000000e+00    0,000000000e+00    0,000000000e+00    0,000000000e+00
     1024000000   -4,130780399e-01    1,461244971e-01   -2,923123911e-02   -3,875995874e-01    0,000000000e+00    0,000000000e+00    0,000000000e+00    0,000000000e+00
     1038000000   -2,220391184e-01    2,868486941e-01   -2,411060482e-01   -2,547886670e-01    0,000000000e+00    0,000000000e+00    0,000000000e+00    0,000000000e+00
     1052000000   -1,726331934e-02    2,813784182e-01   -3,110326827e-01   -4,879125953e-02    0,000000000e+00    0,000000000e+00    0,000000000e+00    0,000000000e+00
     1066000000    1,314304620e-01    1,676930487e-01   -2,498669028e-01    1,372806579e-01    0,000000000e+00    0,000000000e+00    0,000000000e+00    0,000000000e+00
     1080000000    1,911177188e-01    8,500122465e-03   -1,159109175e-01    2,546532750e-01    0,000000000e+00    0,000000000e+00    0,000000000e+00    0,000000000e+00
     1094000000    1,589730382e-01   -1,656867713e-01    6,105026230e-02    2,914653420e-01    0,000000000e+00    0,000000000e+00    0,000000000e+00    0,000000000e+00
     1108000000    1,722220331e-02   -2,944185436e-01    2,583654821e-01    2,357912958e-01    0,000000000e+00    0,000000000e+00    0,000000000e+00    0,000000000e+00
     1122000000   -2,118614912e-01   -2,855991721e-01    4,396734536e-01    2,541960031e-02    0,000000000e+00    0,000000000e+00    0,000000000e+00    0,000000000e+00
     1136000000   -3,302399218e-01   -3,334455565e-02    3,992716074e-01   -3,446847498e-01    0,000000000e+00    0,000000000e+00    0,000000000e+00    0,000000000e+00
     1150000000   -1,043914109e-01    1,368189752e-01    4,791179672e-02   -5,269758701e-01    0,000000000e+00    0,000000000e+00    0,000000000e+00    0,000000000e+00
     1164000000    8,731055260e-02   -1,821125858e-02   -2,503398955e-01   -4,033288062e-01    0,000000000e+00    0,000000000e+00    0,000000000e+00    0,000000000e+00
     1178000000    2,957369387e-02   -2,505876720e-01   -3,681819141e-01   -1,782304198e-01    0,000000000e+00    0,000000000e+00    0,000000000e+00    0,000000000e+00
     1192000000   -2,210880369e-01   -3,466543853e-01   -3,436892629e-01    3,980797529e-02    0,000000000e+00    0,000000000e+00    0,000000000e+00    0,000000000e+00
     1206000000   -4,781824052e-01   -1,789483130e-01   -1,898103505e-01    1,855922341e-01    0,000000000e+00    0,000000000e+00    0,000000000e+00    0,000000000e+00
     1220000000   -5,001990199e-01    1,326787919e-01   -8,627925999e-03    1,714034677e-01    0,000000000e+00    0,000000000e+00    0,000000000e+00    0,000000000e+00
     1234000000   -3,043299615e-01    3,383799791e-01    7,402784377e-02    7,840607315e-02    0,000000000e+00    0,000000000e+00    0,000000000e+00    0,000000000e+00
     1248000000   -5,933430046e-02    3,529101312e-01    6,575276703e-02   -2,291194396e-03    0,000000000e+00    0,000000000e+00    0,000000000e+00    0,000000000e+00
     1262000000    1,148697212e-01    2,598344684e-01    2,822771296e-02   -2,289894968e-02    0,000000000e+00    0,000000000e+00    0,000000000e+00    0,000000000e+00
     1276000000    2,033964396e-01    1,088592485e-01    9,265864268e-03   -5,488477182e-03    0,000000000e+00    0,000000000e+00    0,000000000e+00    0,000000000e+00
     1290000000    2,219043225e-01   -6,532827020e-02    1,514333207e-02    2,620569617e-02    0,000000000e+00    0,000000000e+00    0,000000000e+00    0,000000000e+00
     1304000000    1,647198349e-01   -2,330823243e-01    6,156843528e-02    5,956760794e-02    0,000000000e+00    0,000000000e+00    0,000000000e+00    0,000000000e+00
     1318000000    2,752632461e-02   -3,673107326e-01    1,752226949e-01    1,984846406e-02    0,000000000e+00    0,000000000e+00    0,000000000e+00    0,000000000e+00
     1332000000   -1,458018422e-01   -3,958551288e-01    1,125021353e-01   -1,778008044e-01    0,000000000e+00    0,000000000e+00    0,000000000e+00    0,000000000e+00
     1346000000   -3,590624332e-01   -3,922598660e-01   -6,338670105e-02   -3,174911067e-02    0,000000000e+00    0,000000000e+00    0,000000000e+00    0,000000000e+00
     1360000000   -5,898291469e-01   -2,063029855e-01    4,988270625e-02    9,423978627e-02    0,000000000e+00    0,000000000e+00    0,000000000e+00    0,000000000e+00
     1374000000   -6,296529770e-01    1,024025753e-01    1,741373688e-01    4,123932123e-02    0,000000000e+00    0,000000000e+00    0,000000000e+00    0,000000000e+00
     1388000000   -4,746116996e-01    3,523963094e-01    2,232449949e-01   -2,622429654e-02    0,000000000e+00    0,000000000e+00    0,000000000e+00    0,000000000e+00
     1402000000   -2,451791614e-01    4,500831068e-01    2,085513920e-01   -7,563041896e-02    0,000000000e+00    0,000000000e+00    0,000000000e+00    0,000000000e+00
     1416000000   -3,881100565e-02    4,126844108e-01    1,943451315e-01   -1,088084355e-01    0,000000000e+00    0,000000000e+00    0,000000000e+00    0,000000000e+00
     1430000000    1,220671609e-01    3,065870106e-01    1,863358021e-01   -1,404282153e-01    0,000000000e+00    0,000000000e+00    0,000000000e+00    0,000000000e+00
     1444000000    1,995451152e-01    1,557511091e-01    1,670839936e-01   -1,028127149e-01    0,000000000e+00    0,000000000e+00    0,000000000e+00    0,000000000e+00
     1458000000    2,303333879e-01   -1,196767390e-02    1,433788985e-01   -8,222240955e-02    0,000000000e+00    0,000000000e+00    0,000000000e+00    0,000000000e+00
     1472000000    1,917904317e-01   -1,909183413e-01    1,478907019e-01   -3,934990615e-02    0,000000000e+00    0,000000000e+00    0,000000000e+00    0,000000000e+00
     1486000000    6,508767605e-02   -3,618286550e-01    1,662023216e-01    2,184569091e-02    0,000000000e+00    0,000000000e+00    0,000000000e+00    0,000000000e+00
     1500000000   -1,640467346e-01   -4,900946319e-01    2,179424316e-01    8,933900297e-02    0,000000000e+00    0,000000000e+00    0,000000000e+00    0,000000000e+00
