! NanoVNA-App
! Date: 2025-09-25 15:39:33
! Start: 100MHz Stop: 1,5GHz Points: 101
! S-Parameter data: F S11 S21 S12 S22
# Hz S RI R 50
!     Frequency           S11_Real           S11_Imag           S21_Real           S21_Imag           S12_Real           S12_Imag           S22_Real           S22_Imag
      100000000   -2,865442820e-02   -4,237698857e-03    3,738045990e-01   -7,214469314e-01    0,000000000e+00    0,000000000e+00    0,000000000e+00    0,000000000e+00
      114000000   -1,647609100e-02    1,148108765e-02   -8,917924762e-02   -8,051523566e-01    0,000000000e+00    0,000000000e+00    0,000000000e+00    0,000000000e+00
      128000000    3,534235992e-03    1,065038145e-02   -5,143693089e-01   -6,201013327e-01    0,000000000e+00    0,000000000e+00    0,000000000e+00    0,000000000e+00
      142000000    1,471809670e-02   -2,646395238e-03   -7,668895125e-01   -2,362724841e-01    0,000000000e+00    0,000000000e+00    0,000000000e+00    0,000000000e+00
      156000000    1,652669907e-02   -1,414214354e-02   -7,697430253e-01    2,243577689e-01    0,000000000e+00    0,000000000e+00    0,000000000e+00    0,000000000e+00
      170000000    1,722972281e-02   -2,251841687e-02   -5,176595449e-01    6,044546366e-01    0,000000000e+00    0,000000000e+00    0,000000000e+00    0,000000000e+00
      184000000    2,142084017e-02   -3,718041256e-02   -1,014112085e-01    7,855451703e-01    0,000000000e+00    0,000000000e+00    0,000000000e+00    0,000000000e+00
      198000000    1,331232302e-02   -6,256033480e-02    3,429184854e-01    7,118605375e-01    0,000000000e+00    0,000000000e+00    0,000000000e+00    0,000000000e+00
      212000000   -1,841271110e-02   -8,131269366e-02    6,778782606e-01    4,096555114e-01    0,000000000e+00    0,000000000e+00    0,000000000e+00    0,000000000e+00
      226000000   -6,124323606e-02   -6,923135370e-02    7,952535748e-01   -3,054326214e-02    0,000000000e+00    0,000000000e+00    0,000000000e+00    0,000000000e+00
      240000000   -8,210007846e-02   -2,585851215e-02    6,455764174e-01   -4,663694501e-01    0,000000000e+00    0,000000000e+00    0,000000000e+00    0,000000000e+00
      254000000   -6,327749789e-02    1,685847715e-02    2,757753432e-01   -7,429020405e-01    0,000000000e+00    0,000000000e+00    0,000000000e+00    0,000000000e+00
      268000000   -2,386842296e-02    2,865756117e-02   -1,777305752e-01   -7,637109756e-01    0,000000000e+00    0,000000000e+00    0,000000000e+00    0,000000000e+00
      282000000    4,148491658e-03    1,204511430e-02   -5,614532232e-01   -5,354019403e-01    0,000000000e+00    0,000000000e+00    0,000000000e+00    0,000000000e+00
      296000000    9,861033410e-03   -7,501272019e-03   -7,592774630e-01   -1,394500434e-01    0,000000000e+00    0,000000000e+00    0,000000000e+00    0,000000000e+00
      310000000    1,155477948e-02   -1,602523215e-02   -7,115228772e-01    2,989262342e-01    0,000000000e+00    0,000000000e+00    0,000000000e+00    0,000000000e+00
      324000000    2,008935250e-02   -2,676958591e-02   -4,270414412e-01    6,376750469e-01    0,000000000e+00    0,000000000e+00    0,000000000e+00    0,000000000e+00
      338000000    2,561120875e-02   -5,231682584e-02   -1,090401132e-02    7,625466585e-01    0,000000000e+00    0,000000000e+00    0,000000000e+00    0,000000000e+00
      352000000    7,512500510e-03   -8,474059403e-02    4,047566950e-01    6,393697858e-01    0,000000000e+00    0,000000000e+00    0,000000000e+00    0,000000000e+00
      366000000   -3,459320590e-02   -9,531360865e-02    6,895831227e-01    3,109456599e-01    0,000000000e+00    0,000000000e+00    0,000000000e+00    0,000000000e+00
      380000000   -7,018457353e-02   -7,096038759e-02    7,469541430e-01   -1,253802180e-01    0,000000000e+00    0,000000000e+00    0,000000000e+00    0,000000000e+00
      394000000   -7,227190584e-02   -3,254414350e-02    5,452174544e-01   -5,213521123e-01    0,000000000e+00    0,000000000e+00    0,000000000e+00    0,000000000e+00
      408000000   -4,604195058e-02   -1,643362641e-02    1,610743850e-01   -7,325700521e-01    0,000000000e+00    0,000000000e+00    0,000000000e+00    0,000000000e+00
      422000000   -2,833492495e-02   -3,211876005e-02   -2,671343982e-01   -6,945425272e-01    0,000000000e+00    0,000000000e+00    0,000000000e+00    0,000000000e+00
      436000000   -4,036932066e-02   -5,171208084e-02   -6,035555005e-01   -4,312457740e-01    0,000000000e+00    0,000000000e+00    0,000000000e+00    0,000000000e+00
      450000000   -6,693325192e-02   -4,365129024e-02   -7,397959828e-01   -2,142061479e-02    0,000000000e+00    0,000000000e+00    0,000000000e+00    0,000000000e+00
      464000000   -7,269171625e-02   -1,217820775e-02   -6,175140142e-01    3,972675502e-01    0,000000000e+00    0,000000000e+00    0,000000000e+00    0,000000000e+00
      478000000   -4,706861451e-02    1,127306838e-02   -2,820540965e-01    6,669397354e-01    0,000000000e+00    0,000000000e+00    0,000000000e+00    0,000000000e+00
      492000000   -1,595457830e-02    5,493478384e-03    1,367926300e-01    7,008722425e-01    0,000000000e+00    0,000000000e+00    0,000000000e+00    0,000000000e+00
      506000000   -2,664261265e-03   -1,559345145e-02    4,983054101e-01    5,027277470e-01    0,000000000e+00    0,000000000e+00    0,000000000e+00    0,000000000e+00
      520000000   -4,918133374e-03   -3,173587099e-02    6,881394982e-01    1,407637298e-01    0,000000000e+00    0,000000000e+00    0,000000000e+00    0,000000000e+00
      534000000   -3,319885116e-03   -3,806120157e-02    6,430333853e-01   -2,618450820e-01    0,000000000e+00    0,000000000e+00    0,000000000e+00    0,000000000e+00
      548000000    6,908735260e-03   -5,413624644e-02    3,812352121e-01   -5,667238832e-01    0,000000000e+00    0,000000000e+00    0,000000000e+00    0,000000000e+00
      562000000    3,015701892e-03   -8,943078667e-02    3,021462355e-03   -6,705287695e-01    0,000000000e+00    0,000000000e+00    0,000000000e+00    0,000000000e+00
      576000000   -3,448463604e-02   -1,242667511e-01   -3,684668839e-01   -5,569270849e-01    0,000000000e+00    0,000000000e+00    0,000000000e+00    0,000000000e+00
      590000000   -9,569276869e-02   -1,225590035e-01   -6,209384203e-01   -2,622924447e-01    0,000000000e+00    0,000000000e+00    0,000000000e+00    0,000000000e+00
      604000000   -1,385090202e-01   -7,219316065e-02   -6,637977362e-01    1,368242949e-01    0,000000000e+00    0,000000000e+00    0,000000000e+00    0,000000000e+00
      618000000   -1,287251264e-01   -1,016455889e-02   -4,639744163e-01    4,927656054e-01    0,000000000e+00    0,000000000e+00    0,000000000e+00    0,000000000e+00
      632000000   -8,443184942e-02    1,531412546e-02   -9,996894002e-02    6,616738439e-01    0,000000000e+00    0,000000000e+00    0,000000000e+00    0,000000000e+00
      646000000   -5,223760381e-02    9,035787079e-04    2,850023210e-01    5,939401388e-01    0,000000000e+00    0,000000000e+00    0,000000000e+00    0,000000000e+00
      660000000   -5,415300652e-02   -2,077225223e-02    5,646381378e-01    3,230725825e-01    0,000000000e+00    0,000000000e+00    0,000000000e+00    0,000000000e+00
      674000000   -6,941277534e-02   -1,623932831e-02    6,404923797e-01   -6,311181188e-02    0,000000000e+00    0,000000000e+00    0,000000000e+00    0,000000000e+00
      688000000   -6,677262485e-02    8,483075537e-03    4,710808992e-01   -4,240368307e-01    0,000000000e+00    0,000000000e+00    0,000000000e+00    0,000000000e+00
      702000000   -3,710777685e-02    2,607857436e-02    1,206056252e-01   -6,072263122e-01    0,000000000e+00    0,000000000e+00    0,000000000e+00    0,000000000e+00
      716000000    3,628772683e-03    1,544743590e-02   -2,589105964e-01   -5,444788933e-01    0,000000000e+00    0,000000000e+00    0,000000000e+00    0,000000000e+00
      730000000    3,616999462e-02   -1,379823685e-02   -5,218380094e-01   -2,718070149e-01    0,000000000e+00    0,000000000e+00    0,000000000e+00    0,000000000e+00
      744000000    6,228971854e-02   -6,596900523e-02   -5,600154996e-01    9,890493006e-02    0,000000000e+00    0,000000000e+00    0,000000000e+00    0,000000000e+00
      758000000    6,098245457e-02   -1,517879516e-01   -3,658904433e-01    4,000288546e-01    0,000000000e+00    0,000000000e+00    0,000000000e+00    0,000000000e+00
      772000000   -1,816971973e-02   -2,560233474e-01   -4,509227350e-02    5,086613297e-01    0,000000000e+00    0,000000000e+00    0,000000000e+00    0,000000000e+00
      786000000   -2,027616650e-01   -2,907379568e-01    2,596324384e-01    3,983574212e-01    0,000000000e+00    0,000000000e+00    0,000000000e+00    0,000000000e+00
      800000000   -4,071196020e-01   -1,267801225e-01    4,067042470e-01    1,177155152e-01    0,000000000e+00    0,000000000e+00    0,000000000e+00    0,000000000e+00
      814000000   -3,770491481e-01    2,021870613e-01    2,953317165e-01   -1,511984468e-01    0,000000000e+00    0,000000000e+00    0,000000000e+00    0,000000000e+00
      828000000   -6,165385619e-02    3,466482759e-01    8,230796456e-02   -1,898307949e-01    0,000000000e+00    0,000000000e+00    0,000000000e+00    0,000000000e+00
      842000000    2,118120044e-01    1,849447787e-01   -3,062397009e-03   -9,256614745e-02    0,000000000e+00    0,000000000e+00    0,000000000e+00    0,000000000e+00
      856000000    2,656131387e-01   -1,061910912e-01    3,687378392e-02   -3,687711060e-02    0,000000000e+00    0,000000000e+00    0,000000000e+00    0,000000000e+00
      870000000    8,219075948e-02   -3,510493040e-01    8,897978067e-02   -9,759667516e-02    0,000000000e+00    0,000000000e+00    0,000000000e+00    0,000000000e+00
      884000000   -2,684822381e-01   -3,555580080e-01    1,126665995e-02   -2,289074361e-01    0,000000000e+00    0,000000000e+00    0,000000000e+00    0,000000000e+00
      898000000   -4,567579031e-01   -1,340885926e-02   -2,155221403e-01   -2,095032632e-01    0,000000000e+00    0,000000000e+00    0,000000000e+00    0,000000000e+00
      912000000   -2,345247418e-01    2,783512175e-01   -3,311551511e-01    8,153762668e-02    0,000000000e+00    0,000000000e+00    0,000000000e+00    0,000000000e+00
      926000000    5,728561431e-02    2,603513300e-01   -2,069215477e-01    2,620806098e-01    0,000000000e+00    0,000000000e+00    0,000000000e+00    0,000000000e+00
      940000000    2,078917325e-01    8,214524388e-02   -3,160686791e-02    3,253293335e-01    0,000000000e+00    0,000000000e+00    0,000000000e+00    0,000000000e+00
      954000000    2,192838639e-01   -1,203420013e-01    1,325016320e-01    3,009100556e-01    0,000000000e+00    0,000000000e+00    0,000000000e+00    0,000000000e+00
      968000000    1,202674434e-01   -2,948157489e-01    2,680642605e-01    2,136568576e-01    0,000000000e+00    0,000000000e+00    0,000000000e+00    0,000000000e+00
      982000000   -7,389833033e-02   -3,831461072e-01    3,600182533e-01    6,354649365e-02    0,000000000e+00    0,000000000e+00    0,000000000e+00    0,000000000e+00
      996000000   -3,105472028e-01   -3,278280497e-01    3,637386858e-01   -1,441091150e-01    0,000000000e+00    0,000000000e+00    0,000000000e+00    0,000000000e+00
     1010000000   -4,638293087e-01   -1,156782433e-01    2,197784185e-01   -3,353591561e-01    0,000000000e+00    0,000000000e+00    0,000000000e+00    0,000000000e+00
     1024000000   -4,140507877e-01    1,465976387e-01   -3,099117987e-02   -3,855876923e-01    0,000000000e+00    0,000000000e+00    0,000000000e+00    0,000000000e+00
     1038000000   -2,246892750e-01    2,867688537e-01   -2,416047305e-01   -2,543646395e-01    0,000000000e+00    0,000000000e+00    0,000000000e+00    0,000000000e+00
     1052000000   -1,340466458e-02    2,768569887e-01   -3,124491870e-01   -4,610709473e-02    0,000000000e+00    0,000000000e+00    0,000000000e+00    0,000000000e+00
     1066000000    1,351072490e-01    1,689595282e-01   -2,528160512e-01    1,381708831e-01    0,000000000e+00    0,000000000e+00    0,000000000e+00    0,000000000e+00
     1080000000    1,944210380e-01    9,787911549e-03   -1,150063947e-01    2,525001168e-01    0,000000000e+00    0,000000000e+00    0,000000000e+00    0,000000000e+00
     1094000000    1,568861753e-01   -1,629413366e-01    6,096322834e-02    2,909584939e-01    0,000000000e+00    0,000000000e+00    0,000000000e+00    0,000000000e+00
     1108000000    1,480785850e-02   -2,975903153e-01    2,623561025e-01    2,348167002e-01    0,000000000e+00    0,000000000e+00    0,000000000e+00    0,000000000e+00
     1122000000   -2,147333771e-01   -2,777587175e-01    4,393897653e-01    2,388452925e-02    0,000000000e+00    0,000000000e+00    0,000000000e+00    0,000000000e+00
     1136000000   -3,287752569e-01   -2,854478359e-02    4,009531140e-01   -3,487810493e-01    0,000000000e+00    0,000000000e+00    0,000000000e+00    0,000000000e+00
     1150000000   -1,056441218e-01    1,348795593e-01    4,869929701e-02   -5,308039784e-01    0,000000000e+00    0,000000000e+00    0,000000000e+00    0,000000000e+00
     1164000000    8,161308616e-02   -1,900525764e-02   -2,498149276e-01   -4,028121233e-01    0,000000000e+00    0,000000000e+00    0,000000000e+00    0,000000000e+00
     1178000000    2,731377818e-02   -2,543866634e-01   -3,701701164e-01   -1,790712327e-01    0,000000000e+00    0,000000000e+00    0,000000000e+00    0,000000000e+00
     1192000000   -2,217745036e-01   -3,463688195e-01   -3,399811685e-01    4,589064792e-02    0,000000000e+00    0,000000000e+00    0,000000000e+00    0,000000000e+00
     1206000000   -4,800570607e-01   -1,839062124e-01   -1,844341904e-01    1,797876954e-01    0,000000000e+00    0,000000000e+00    0,000000000e+00    0,000000000e+00
     1220000000   -5,043428540e-01    1,422704309e-01   -1,383909397e-02    1,740204394e-01    0,000000000e+00    0,000000000e+00    0,000000000e+00    0,000000000e+00
     1234000000   -2,995601296e-01    3,403864801e-01    7,810200006e-02    7,469160110e-02    0,000000000e+00    0,000000000e+00    0,000000000e+00    0,000000000e+00
     1248000000   -6,329242140e-02    3,557386994e-01    6,462038308e-02   -1,542569138e-03    0,000000000e+00    0,000000000e+00    0,000000000e+00    0,000000000e+00
     1262000000    1,114541218e-01    2,549799085e-01    3,243442625e-02   -2,536018938e-02    0,000000000e+00    0,000000000e+00    0,000000000e+00    0,000000000e+00
     1276000000    1,995135099e-01    1,090631709e-01    4,645945039e-03   -3,247996094e-03    0,000000000e+00    0,000000000e+00    0,000000000e+00    0,000000000e+00
     1290000000    2,203021795e-01   -6,119855121e-02    1,292105485e-02    2,597062849e-02    0,000000000e+00    0,000000000e+00    0,000000000e+00    0,000000000e+00
     1304000000    1,679772586e-01   -2,319328338e-01    6,078494340e-02    5,560638756e-02    0,000000000e+00    0,000000000e+00    0,000000000e+00    0,000000000e+00
     1318000000    2,827781066e-02   -3,658697009e-01    1,767574400e-01    1,852809079e-02    0,000000000e+00    0,000000000e+00    0,000000000e+00    0,000000000e+00
     1332000000   -1,452587098e-01   -3,975848556e-01    9,958399832e-02   -1,783037186e-01    0,000000000e+00    0,000000000e+00    0,000000000e+00    0,000000000e+00
     1346000000   -3,617792726e-01   -3,910844624e-01   -6,069527194e-02   -1,650399342e-02    0,000000000e+00    0,000000000e+00    0,000000000e+00    0,000000000e+00
     1360000000   -5,895514488e-01   -2,093359828e-01    6,214582920e-02    8,715422451e-02    0,000000000e+00    0,000000000e+00    0,000000000e+00    0,000000000e+00
     1374000000   -6,332951188e-01    1,057600155e-01    1,727121919e-01    5,225243047e-02    0,000000000e+00    0,000000000e+00    0,000000000e+00    0,000000000e+00
     1388000000   -4,758586287e-01    3,424840271e-01    2,141739875e-01   -2,626493573e-02    0,000000000e+00    0,000000000e+00    0,000000000e+00    0,000000000e+00
     1402000000   -2,443704903e-01    4,411183298e-01    2,084902674e-01   -8,306098729e-02    0,000000000e+00    0,000000000e+00    0,000000000e+00    0,000000000e+00
     1416000000   -4,265485331e-02    4,110376835e-01    1,855998933e-01   -1,056719050e-01    0,000000000e+00    0,000000000e+00    0,000000000e+00    0,000000000e+00
     1430000000    1,141842082e-01    3,077508509e-01    2,106676251e-01   -1,136088967e-01    0,000000000e+00    0,000000000e+00    0,000000000e+00    0,000000000e+00
     1444000000    1,981164515e-01    1,572792232e-01    1,702456772e-01   -1,050002873e-01    0,000000000e+00    0,000000000e+00    0,000000000e+00    0,000000000e+00
     1458000000    2,355847508e-01   -1,378688961e-02    1,509697288e-01   -7,726512104e-02    0,000000000e+00    0,000000000e+00    0,000000000e+00    0,000000000e+00
     1472000000    1,875785589e-01   -1,919998676e-01    1,355536580e-01   -3,757201508e-02    0,000000000e+00    0,000000000e+00    0,000000000e+00    0,000000000e+00
     1486000000    6,549870223e-02   -3,646696210e-01    1,585756391e-01    2,604962885e-02    0,000000000e+00    0,000000000e+00    0,000000000e+00    0,000000000e+00
     1500000000   -1,588577628e-01   -4,943981469e-01    2,297649533e-01    7,184846699e-02    0,000000000e+00    0,000000000e+00    0,000000000e+00    0,000000000e+00
