! NanoVNA-App
! Date: 2025-09-25 15:41:32
! Start: 100MHz Stop: 1,5GHz Points: 101
! S-Parameter data: F S11 S21 S12 S22
# Hz S RI R 50
!     Frequency           S11_Real           S11_Imag           S21_Real           S21_Imag           S12_Real           S12_Imag           S22_Real           S22_Imag
      100000000   -2,871531993e-02   -4,253108054e-03    3,738994598e-01   -7,215053439e-01    0,000000000e+00    0,000000000e+00    0,000000000e+00    0,000000000e+00
      114000000   -1,648734324e-02    1,149023138e-02   -8,897069097e-02   -8,049837947e-01    0,000000000e+00    0,000000000e+00    0,000000000e+00    0,000000000e+00
      128000000    3,452488920e-03    1,070319302e-02   -5,142270923e-01   -6,201475263e-01    0,000000000e+00    0,000000000e+00    0,000000000e+00    0,000000000e+00
      142000000    1,468486339e-02   -2,658406505e-03   -7,667388916e-01   -2,363712937e-01    0,000000000e+00    0,000000000e+00    0,000000000e+00    0,000000000e+00
      156000000    1,587327942e-02   -1,463722158e-02   -7,709047198e-01    2,216376662e-01    0,000000000e+00    0,000000000e+00    0,000000000e+00    0,000000000e+00
      170000000    1,709643006e-02   -2,253912017e-02   -5,178468823e-01    6,043038964e-01    0,000000000e+00    0,000000000e+00    0,000000000e+00    0,000000000e+00
      184000000    2,136947773e-02   -3,720358759e-02   -1,016597226e-01    7,857238650e-01    0,000000000e+00    0,000000000e+00    0,000000000e+00    0,000000000e+00
      198000000    1,329068094e-02   -6,253462285e-02    3,431064188e-01    7,119619250e-01    0,000000000e+00    0,000000000e+00    0,000000000e+00    0,000000000e+00
      212000000   -1,840209030e-02   -8,128240705e-02    6,777923703e-01    4,099195004e-01    0,000000000e+00    0,000000000e+00    0,000000000e+00    0,000000000e+00
      226000000   -6,132111698e-02   -6,925798953e-02    7,953561544e-01   -3,039794415e-02    0,000000000e+00    0,000000000e+00    0,000000000e+00    0,000000000e+00
      240000000   -8,218505234e-02   -2,587183006e-02    6,457997561e-01   -4,666097462e-01    0,000000000e+00    0,000000000e+00    0,000000000e+00    0,000000000e+00
      254000000   -6,336110830e-02    1,688343473e-02    2,758156955e-01   -7,430095673e-01    0,000000000e+00    0,000000000e+00    0,000000000e+00    0,000000000e+00
      268000000   -2,399176359e-02    2,876185440e-02   -1,777761132e-01   -7,636917233e-01    0,000000000e+00    0,000000000e+00    0,000000000e+00    0,000000000e+00
      282000000    4,022654612e-03    1,204042789e-02   -5,616231561e-01   -5,354635119e-01    0,000000000e+00    0,000000000e+00    0,000000000e+00    0,000000000e+00
      296000000    9,701468050e-03   -7,613735739e-03   -7,591962814e-01   -1,394958943e-01    0,000000000e+00    0,000000000e+00    0,000000000e+00    0,000000000e+00
      310000000    1,138738636e-02   -1,634387672e-02   -7,114188075e-01    2,976661026e-01    0,000000000e+00    0,000000000e+00    0,000000000e+00    0,000000000e+00
      324000000    2,011319436e-02   -2,657930553e-02   -4,271794260e-01    6,377567649e-01    0,000000000e+00    0,000000000e+00    0,000000000e+00    0,000000000e+00
      338000000    2,557757311e-02   -5,231532454e-02   -9,239656851e-03    7,587435842e-01    0,000000000e+00    0,000000000e+00    0,000000000e+00    0,000000000e+00
      352000000    7,359990850e-03   -8,457452059e-02    4,059206247e-01    6,395689249e-01    0,000000000e+00    0,000000000e+00    0,000000000e+00    0,000000000e+00
      366000000   -3,407420218e-02   -9,540922940e-02    6,902505159e-01    3,106592000e-01    0,000000000e+00    0,000000000e+00    0,000000000e+00    0,000000000e+00
      380000000   -7,038746029e-02   -7,122910768e-02    7,469300628e-01   -1,255263239e-01    0,000000000e+00    0,000000000e+00    0,000000000e+00    0,000000000e+00
      394000000   -7,219137996e-02   -3,268133104e-02    5,460264087e-01   -5,203552246e-01    0,000000000e+00    0,000000000e+00    0,000000000e+00    0,000000000e+00
      408000000   -4,631751776e-02   -1,629719138e-02    1,604952812e-01   -7,317358851e-01    0,000000000e+00    0,000000000e+00    0,000000000e+00    0,000000000e+00
      422000000   -2,824924514e-02   -3,203262016e-02   -2,671785355e-01   -6,949885488e-01    0,000000000e+00    0,000000000e+00    0,000000000e+00    0,000000000e+00
      436000000   -4,047390446e-02   -5,186806247e-02   -6,036378145e-01   -4,321777821e-01    0,000000000e+00    0,000000000e+00    0,000000000e+00    0,000000000e+00
      450000000   -6,700064242e-02   -4,386285692e-02   -7,395610809e-01   -2,178171836e-02    0,000000000e+00    0,000000000e+00    0,000000000e+00    0,000000000e+00
      464000000   -7,310608029e-02   -1,166471560e-02   -6,178734899e-01    3,969019353e-01    0,000000000e+00    0,000000000e+00    0,000000000e+00    0,000000000e+00
      478000000   -4,756528512e-02    1,139353216e-02   -2,828649879e-01    6,664113402e-01    0,000000000e+00    0,000000000e+00    0,000000000e+00    0,000000000e+00
      492000000   -1,556902379e-02    5,545505788e-03    1,377388090e-01    7,010452747e-01    0,000000000e+00    0,000000000e+00    0,000000000e+00    0,000000000e+00
      506000000   -2,818424487e-03   -1,612237282e-02    4,970151484e-01    5,023515224e-01    0,000000000e+00    0,000000000e+00    0,000000000e+00    0,000000000e+00
      520000000   -4,994958173e-03   -3,092981875e-02    6,877328753e-01    1,420755237e-01    0,000000000e+00    0,000000000e+00    0,000000000e+00    0,000000000e+00
      534000000   -3,785062814e-03   -3,814165294e-02    6,423416138e-01   -2,613791823e-01    0,000000000e+00    0,000000000e+00    0,000000000e+00    0,000000000e+00
      548000000    6,119943224e-03   -5,412192643e-02    3,813064992e-01   -5,660467148e-01    0,000000000e+00    0,000000000e+00    0,000000000e+00    0,000000000e+00
      562000000    3,384077922e-03   -8,979888260e-02    3,341753501e-03   -6,712117791e-01    0,000000000e+00    0,000000000e+00    0,000000000e+00    0,000000000e+00
      576000000   -3,367895633e-02   -1,247460768e-01   -3,678512871e-01   -5,576577783e-01    0,000000000e+00    0,000000000e+00    0,000000000e+00    0,000000000e+00
      590000000   -9,580043703e-02   -1,229567081e-01   -6,201893687e-01   -2,656387389e-01    0,000000000e+00    0,000000000e+00    0,000000000e+00    0,000000000e+00
      604000000   -1,385065168e-01   -7,251294702e-02   -6,640538573e-01    1,364482194e-01    0,000000000e+00    0,000000000e+00    0,000000000e+00    0,000000000e+00
      618000000   -1,295609772e-01   -9,896363132e-03   -4,642322063e-01    4,926343262e-01    0,000000000e+00    0,000000000e+00    0,000000000e+00    0,000000000e+00
      632000000   -8,497517556e-02    1,557578985e-02   -1,006333530e-01    6,625375152e-01    0,000000000e+00    0,000000000e+00    0,000000000e+00    0,000000000e+00
      646000000   -5,225239322e-02    1,422087371e-05    2,852958441e-01    5,945683122e-01    0,000000000e+00    0,000000000e+00    0,000000000e+00    0,000000000e+00
      660000000   -5,361319333e-02   -2,046988718e-02    5,642135739e-01    3,238106072e-01    0,000000000e+00    0,000000000e+00    0,000000000e+00    0,000000000e+00
      674000000   -7,009854913e-02   -1,620716415e-02    6,407828927e-01   -6,329715252e-02    0,000000000e+00    0,000000000e+00    0,000000000e+00    0,000000000e+00
      688000000   -6,750497222e-02    9,396906011e-03    4,711824656e-01   -4,239370227e-01    0,000000000e+00    0,000000000e+00    0,000000000e+00    0,000000000e+00
      702000000   -3,580445796e-02    2,598804235e-02    1,278776377e-01   -6,036823392e-01    0,000000000e+00    0,000000000e+00    0,000000000e+00    0,000000000e+00
      716000000    4,277403466e-03    1,643196307e-02   -2,592359781e-01   -5,441375375e-01    0,000000000e+00    0,000000000e+00    0,000000000e+00    0,000000000e+00
      730000000    3,714341298e-02   -1,448550355e-02   -5,220118165e-01   -2,712912261e-01    0,000000000e+00    0,000000000e+00    0,000000000e+00    0,000000000e+00
      744000000    6,199325621e-02   -6,462576240e-02   -5,607273579e-01    9,845929593e-02    0,000000000e+00    0,000000000e+00    0,000000000e+00    0,000000000e+00
      758000000    6,173167750e-02   -1,516579539e-01   -3,666456342e-01    4,001743197e-01    0,000000000e+00    0,000000000e+00    0,000000000e+00    0,000000000e+00
      772000000   -1,771557331e-02   -2,566993237e-01   -4,487537220e-02    5,092903376e-01    0,000000000e+00    0,000000000e+00    0,000000000e+00    0,000000000e+00
      786000000   -2,030722499e-01   -2,910015285e-01    2,592259645e-01    3,985837996e-01    0,000000000e+00    0,000000000e+00    0,000000000e+00    0,000000000e+00
      800000000   -4,085691571e-01   -1,267029941e-01    4,064642787e-01    1,188360304e-01    0,000000000e+00    0,000000000e+00    0,000000000e+00    0,000000000e+00
      814000000   -3,764547706e-01    2,010429949e-01    2,962603271e-01   -1,512287110e-01    0,000000000e+00    0,000000000e+00    0,000000000e+00    0,000000000e+00
      828000000   -6,289201230e-02    3,478557169e-01    8,229821175e-02   -1,900353730e-01    0,000000000e+00    0,000000000e+00    0,000000000e+00    0,000000000e+00
      842000000    2,117237747e-01    1,851815283e-01   -3,117449814e-03   -9,305012226e-02    0,000000000e+00    0,000000000e+00    0,000000000e+00    0,000000000e+00
      856000000    2,658126950e-01   -1,061069518e-01    3,620016947e-02   -3,704612702e-02    0,000000000e+00    0,000000000e+00    0,000000000e+00    0,000000000e+00
      870000000    8,157358319e-02   -3,521999419e-01    8,858554810e-02   -9,803678840e-02    0,000000000e+00    0,000000000e+00    0,000000000e+00    0,000000000e+00
      884000000   -2,682092786e-01   -3,550743163e-01    1,189041138e-02   -2,275259644e-01    0,000000000e+00    0,000000000e+00    0,000000000e+00    0,000000000e+00
      898000000   -4,571982622e-01   -1,264563855e-02   -2,155596912e-01   -2,098466903e-01    0,000000000e+00    0,000000000e+00    0,000000000e+00    0,000000000e+00
      912000000   -2,350995839e-01    2,798651755e-01   -3,263313472e-01    6,986918300e-02    0,000000000e+00    0,000000000e+00    0,000000000e+00    0,000000000e+00
      926000000    5,470985919e-02    2,607912123e-01   -2,119194716e-01    2,615843713e-01    0,000000000e+00    0,000000000e+00    0,000000000e+00    0,000000000e+00
      940000000    2,086890936e-01    8,172727376e-02   -3,161161393e-02    3,249381483e-01    0,000000000e+00    0,000000000e+00    0,000000000e+00    0,000000000e+00
      954000000    2,181259245e-01   -1,202039793e-01    1,311572194e-01    2,996761203e-01    0,000000000e+00    0,000000000e+00    0,000000000e+00    0,000000000e+00
      968000000    1,205254272e-01   -2,934881151e-01    2,680686712e-01    2,122984678e-01    0,000000000e+00    0,000000000e+00    0,000000000e+00    0,000000000e+00
      982000000   -7,835683972e-02   -3,865216672e-01    3,634458184e-01    6,276336312e-02    0,000000000e+00    0,000000000e+00    0,000000000e+00    0,000000000e+00
      996000000   -3,095976412e-01   -3,333568871e-01    3,643918931e-01   -1,429568082e-01    0,000000000e+00    0,000000000e+00    0,000000000e+00    0,000000000e+00
     1010000000   -4,574208856e-01   -1,154572144e-01    2,209868729e-01   -3,354992867e-01    0,000000000e+00    0,000000000e+00    0,000000000e+00    0,000000000e+00
     1024000000   -4,180852771e-01    1,415531635e-01   -3,217834979e-02   -3,863098919e-01    0,000000000e+00    0,000000000e+00    0,000000000e+00    0,000000000e+00
     1038000000   -2,219788134e-01    2,861412764e-01   -2,396106273e-01   -2,562333047e-01    0,000000000e+00    0,000000000e+00    0,000000000e+00    0,000000000e+00
     1052000000   -1,636942849e-02    2,815588117e-01   -3,093138337e-01   -4,839031398e-02    0,000000000e+00    0,000000000e+00    0,000000000e+00    0,000000000e+00
     1066000000    1,343452334e-01    1,691498160e-01   -2,524133623e-01    1,396782845e-01    0,000000000e+00    0,000000000e+00    0,000000000e+00    0,000000000e+00
     1080000000    1,925906837e-01    1,100042928e-02   -1,162594706e-01    2,531836033e-01    0,000000000e+00    0,000000000e+00    0,000000000e+00    0,000000000e+00
     1094000000    1,580062658e-01   -1,611646414e-01    6,089039892e-02    2,924486697e-01    0,000000000e+00    0,000000000e+00    0,000000000e+00    0,000000000e+00
     1108000000    1,537035033e-02   -2,971904576e-01    2,638924718e-01    2,343096882e-01    0,000000000e+00    0,000000000e+00    0,000000000e+00    0,000000000e+00
     1122000000   -2,121111602e-01   -2,787968516e-01    4,404593408e-01    2,250103839e-02    0,000000000e+00    0,000000000e+00    0,000000000e+00    0,000000000e+00
     1136000000   -3,268849850e-01   -2,561173588e-02    3,995573819e-01   -3,466978371e-01    0,000000000e+00    0,000000000e+00    0,000000000e+00    0,000000000e+00
     1150000000   -1,029926166e-01    1,360685229e-01    4,833661765e-02   -5,308754444e-01    0,000000000e+00    0,000000000e+00    0,000000000e+00    0,000000000e+00
     1164000000    8,137674630e-02   -1,720664091e-02   -2,541156709e-01   -4,068594873e-01    0,000000000e+00    0,000000000e+00    0,000000000e+00    0,000000000e+00
     1178000000    2,900439873e-02   -2,517531812e-01   -3,680772483e-01   -1,791555732e-01    0,000000000e+00    0,000000000e+00    0,000000000e+00    0,000000000e+00
     1192000000   -2,193457037e-01   -3,511385024e-01   -3,423870206e-01    3,724858910e-02    0,000000000e+00    0,000000000e+00    0,000000000e+00    0,000000000e+00
     1206000000   -4,805318713e-01   -1,790200621e-01   -1,894185096e-01    1,835228056e-01    0,000000000e+00    0,000000000e+00    0,000000000e+00    0,000000000e+00
     1220000000   -5,053964853e-01    1,379904449e-01   -9,435784072e-03    1,750157326e-01    0,000000000e+00    0,000000000e+00    0,000000000e+00    0,000000000e+00
     1234000000   -2,987940907e-01    3,382266164e-01    7,176125050e-02    7,354525477e-02    0,000000000e+00    0,000000000e+00    0,000000000e+00    0,000000000e+00
     1248000000   -6,476318836e-02    3,564094603e-01    6,588234752e-02    6,532552652e-03    0,000000000e+00    0,000000000e+00    0,000000000e+00    0,000000000e+00
     1262000000    1,092054546e-01    2,653105557e-01    3,265630081e-02   -2,594045177e-02    0,000000000e+00    0,000000000e+00    0,000000000e+00    0,000000000e+00
     1276000000    2,006063610e-01    1,093820930e-01    4,714443814e-03   -4,615200218e-03    0,000000000e+00    0,000000000e+00    0,000000000e+00    0,000000000e+00
     1290000000    2,191079110e-01   -6,174738333e-02    8,243663236e-03    2,904790081e-02    0,000000000e+00    0,000000000e+00    0,000000000e+00    0,000000000e+00
     1304000000    1,653654128e-01   -2,325054556e-01    6,049177051e-02    5,684924498e-02    0,000000000e+00    0,000000000e+00    0,000000000e+00    0,000000000e+00
     1318000000    2,507477440e-02   -3,626608849e-01    1,695936620e-01    1,851296797e-02    0,000000000e+00    0,000000000e+00    0,000000000e+00    0,000000000e+00
     1332000000   -1,523849517e-01   -3,942897916e-01    9,471907467e-02   -1,827534139e-01    0,000000000e+00    0,000000000e+00    0,000000000e+00    0,000000000e+00
     1346000000   -3,593058586e-01   -3,957462311e-01   -5,229472369e-02   -3,397191688e-02    0,000000000e+00    0,000000000e+00    0,000000000e+00    0,000000000e+00
     1360000000   -5,843821168e-01   -2,097343653e-01    6,853383780e-02    8,101527393e-02    0,000000000e+00    0,000000000e+00    0,000000000e+00    0,000000000e+00
     1374000000   -6,294524074e-01    9,690482169e-02    1,818325222e-01    4,745591804e-02    0,000000000e+00    0,000000000e+00    0,000000000e+00    0,000000000e+00
     1388000000   -4,745180011e-01    3,467533290e-01    2,168179303e-01   -2,848155797e-02    0,000000000e+00    0,000000000e+00    0,000000000e+00    0,000000000e+00
     1402000000   -2,372760326e-01    4,464242756e-01    2,211142778e-01   -7,464168966e-02    0,000000000e+00    0,000000000e+00    0,000000000e+00    0,000000000e+00
     1416000000   -3,584700450e-02    4,138912559e-01    2,015544623e-01   -9,936095774e-02    0,000000000e+00    0,000000000e+00    0,000000000e+00    0,000000000e+00
     1430000000    1,134530604e-01    3,038021624e-01    1,876363903e-01   -1,184737608e-01    0,000000000e+00    0,000000000e+00    0,000000000e+00    0,000000000e+00
     1444000000    2,006599754e-01    1,573759466e-01    1,743697375e-01   -1,056474373e-01    0,000000000e+00    0,000000000e+00    0,000000000e+00    0,000000000e+00
     1458000000    2,282433212e-01   -1,171382610e-02    1,458554715e-01   -8,318173140e-02    0,000000000e+00    0,000000000e+00    0,000000000e+00    0,000000000e+00
     1472000000    1,895947903e-01   -1,930049956e-01    1,512127668e-01   -4,810252786e-02    0,000000000e+00    0,000000000e+00    0,000000000e+00    0,000000000e+00
     1486000000    6,623826921e-02   -3,664786816e-01    1,654507220e-01    2,456230670e-02    0,000000000e+00    0,000000000e+00    0,000000000e+00    0,000000000e+00
     1500000000   -1,581192911e-01   -4,893438518e-01    2,189271301e-01    7,492240518e-02    0,000000000e+00    0,000000000e+00    0,000000000e+00    0,000000000e+00
