! NanoVNA-App
! Date: 2025-09-25 15:42:51
! Start: 100MHz Stop: 1,5GHz Points: 101
! S-Parameter data: F S11 S21 S12 S22
# Hz S RI R 50
!     Frequency           S11_Real           S11_Imag           S21_Real           S21_Imag           S12_Real           S12_Imag           S22_Real           S22_Imag
      100000000   -2,876099385e-02   -4,248466343e-03    3,739271760e-01   -7,215989232e-01    0,000000000e+00    0,000000000e+00    0,000000000e+00    0,000000000e+00
      114000000   -1,651632786e-02    1,146993041e-02   -8,909950405e-02   -8,053988218e-01    0,000000000e+00    0,000000000e+00    0,000000000e+00    0,000000000e+00
      128000000    3,402719507e-03    1,067156065e-02   -5,145328641e-01   -6,201564670e-01    0,000000000e+00    0,000000000e+00    0,000000000e+00    0,000000000e+00
      142000000    1,464589778e-02   -2,652608557e-03   -7,669225335e-01   -2,363785058e-01    0,000000000e+00    0,000000000e+00    0,000000000e+00    0,000000000e+00
      156000000    1,630343311e-02   -1,412623748e-02   -7,694813609e-01    2,241752446e-01    0,000000000e+00    0,000000000e+00    0,000000000e+00    0,000000000e+00
      170000000    1,713326573e-02   -2,243796550e-02   -5,180639625e-01    6,045395136e-01    0,000000000e+00    0,000000000e+00    0,000000000e+00    0,000000000e+00
      184000000    2,134900913e-02   -3,714942932e-02   -1,012913287e-01    7,852728367e-01    0,000000000e+00    0,000000000e+00    0,000000000e+00    0,000000000e+00
      198000000    1,319383364e-02   -6,251826882e-02    3,430044353e-01    7,119120359e-01    0,000000000e+00    0,000000000e+00    0,000000000e+00    0,000000000e+00
      212000000   -1,845970564e-02   -8,128934354e-02    6,780092716e-01    4,098505974e-01    0,000000000e+00    0,000000000e+00    0,000000000e+00    0,000000000e+00
      226000000   -6,136674806e-02   -6,925409287e-02    7,954089642e-01   -3,041409701e-02    0,000000000e+00    0,000000000e+00    0,000000000e+00    0,000000000e+00
      240000000   -8,229548484e-02   -2,579264343e-02    6,458394527e-01   -4,665816128e-01    0,000000000e+00    0,000000000e+00    0,000000000e+00    0,000000000e+00
      254000000   -6,344509125e-02    1,693372987e-02    2,762115002e-01   -7,431502342e-01    0,000000000e+00    0,000000000e+00    0,000000000e+00    0,000000000e+00
      268000000   -2,399586886e-02    2,881150506e-02   -1,776656210e-01   -7,638072371e-01    0,000000000e+00    0,000000000e+00    0,000000000e+00    0,000000000e+00
      282000000    4,106055014e-03    1,213401183e-02   -5,617708564e-01   -5,356622338e-01    0,000000000e+00    0,000000000e+00    0,000000000e+00    0,000000000e+00
      296000000    9,842676111e-03   -7,543637417e-03   -7,595490813e-01   -1,396130919e-01    0,000000000e+00    0,000000000e+00    0,000000000e+00    0,000000000e+00
      310000000    1,163735054e-02   -1,600876078e-02   -7,115791440e-01    2,988967597e-01    0,000000000e+00    0,000000000e+00    0,000000000e+00    0,000000000e+00
      324000000    1,991884597e-02   -2,673304453e-02   -4,261577129e-01    6,368047595e-01    0,000000000e+00    0,000000000e+00    0,000000000e+00    0,000000000e+00
      338000000    2,593122981e-02   -5,231713131e-02   -1,028377097e-02    7,627189159e-01    0,000000000e+00    0,000000000e+00    0,000000000e+00    0,000000000e+00
      352000000    7,400583941e-03   -8,454477042e-02    4,056689143e-01    6,391733885e-01    0,000000000e+00    0,000000000e+00    0,000000000e+00    0,000000000e+00
      366000000   -3,462374583e-02   -9,542480111e-02    6,901269555e-01    3,112423122e-01    0,000000000e+00    0,000000000e+00    0,000000000e+00    0,000000000e+00
      380000000   -7,032454014e-02   -7,117808610e-02    7,462861538e-01   -1,258186698e-01    0,000000000e+00    0,000000000e+00    0,000000000e+00    0,000000000e+00
      394000000   -7,208790630e-02   -3,253130242e-02    5,465047359e-01   -5,219381452e-01    0,000000000e+00    0,000000000e+00    0,000000000e+00    0,000000000e+00
      408000000   -4,649518430e-02   -1,646182500e-02    1,609845906e-01   -7,301891446e-01    0,000000000e+00    0,000000000e+00    0,000000000e+00    0,000000000e+00
      422000000   -2,840040997e-02   -3,234392777e-02   -2,672105432e-01   -6,949099898e-01    0,000000000e+00    0,000000000e+00    0,000000000e+00    0,000000000e+00
      436000000   -4,060471058e-02   -5,152970552e-02   -6,041837931e-01   -4,317539930e-01    0,000000000e+00    0,000000000e+00    0,000000000e+00    0,000000000e+00
      450000000   -6,700234860e-02   -4,387844726e-02   -7,397949696e-01   -2,185340598e-02    0,000000000e+00    0,000000000e+00    0,000000000e+00    0,000000000e+00
      464000000   -7,276362926e-02   -1,193643454e-02   -6,174325347e-01    3,968337774e-01    0,000000000e+00    0,000000000e+00    0,000000000e+00    0,000000000e+00
      478000000   -4,759522900e-02    1,127121411e-02   -2,835632861e-01    6,672096252e-01    0,000000000e+00    0,000000000e+00    0,000000000e+00    0,000000000e+00
      492000000   -1,553215180e-02    5,821931176e-03    1,373166442e-01    7,008178234e-01    0,000000000e+00    0,000000000e+00    0,000000000e+00    0,000000000e+00
      506000000   -2,753192559e-03   -1,590300165e-02    4,985464811e-01    5,020861030e-01    0,000000000e+00    0,000000000e+00    0,000000000e+00    0,000000000e+00
      520000000   -5,184003152e-03   -3,129005805e-02    6,861315370e-01    1,418559700e-01    0,000000000e+00    0,000000000e+00    0,000000000e+00    0,000000000e+00
      534000000   -3,604225349e-03   -3,788534552e-02    6,432835460e-01   -2,617125213e-01    0,000000000e+00    0,000000000e+00    0,000000000e+00    0,000000000e+00
      548000000    6,135061849e-03   -5,415881798e-02    3,805647194e-01   -5,669007897e-01    0,000000000e+00    0,000000000e+00    0,000000000e+00    0,000000000e+00
      562000000    3,184633795e-03   -8,910312504e-02    2,974696457e-03   -6,709011793e-01    0,000000000e+00    0,000000000e+00    0,000000000e+00    0,000000000e+00
      576000000   -3,375199437e-02   -1,242263541e-01   -3,671891391e-01   -5,572051406e-01    0,000000000e+00    0,000000000e+00    0,000000000e+00    0,000000000e+00
      590000000   -9,586170316e-02   -1,223468482e-01   -6,189731956e-01   -2,651559412e-01    0,000000000e+00    0,000000000e+00    0,000000000e+00    0,000000000e+00
      604000000   -1,387459040e-01   -7,206155360e-02   -6,635912061e-01    1,366363615e-01    0,000000000e+00    0,000000000e+00    0,000000000e+00    0,000000000e+00
      618000000   -1,291242093e-01   -9,727532044e-03   -4,646565020e-01    4,926240146e-01    0,000000000e+00    0,000000000e+00    0,000000000e+00    0,000000000e+00
      632000000   -8,423680812e-02    1,556637883e-02   -1,000873893e-01    6,619144678e-01    0,000000000e+00    0,000000000e+00    0,000000000e+00    0,000000000e+00
      646000000   -5,117012560e-02    3,746115253e-04    2,861766815e-01    5,939562917e-01    0,000000000e+00    0,000000000e+00    0,000000000e+00    0,000000000e+00
      660000000   -5,326857418e-02   -2,036551200e-02    5,643067956e-01    3,229547441e-01    0,000000000e+00    0,000000000e+00    0,000000000e+00    0,000000000e+00
      674000000   -6,963592023e-02   -1,601031050e-02    6,410053968e-01   -6,297052652e-02    0,000000000e+00    0,000000000e+00    0,000000000e+00    0,000000000e+00
      688000000   -6,742012501e-02    9,543361142e-03    4,707783759e-01   -4,243264496e-01    0,000000000e+00    0,000000000e+00    0,000000000e+00    0,000000000e+00
      702000000   -3,598339111e-02    2,607467398e-02    1,255543977e-01   -6,083900928e-01    0,000000000e+00    0,000000000e+00    0,000000000e+00    0,000000000e+00
      716000000    3,204062581e-03    1,577706262e-02   -2,588184774e-01   -5,449550748e-01    0,000000000e+00    0,000000000e+00    0,000000000e+00    0,000000000e+00
      730000000    3,637169674e-02   -1,309374627e-02   -5,218284130e-01   -2,718980908e-01    0,000000000e+00    0,000000000e+00    0,000000000e+00    0,000000000e+00
      744000000    6,195121631e-02   -6,517928839e-02   -5,599111319e-01    9,850047529e-02    0,000000000e+00    0,000000000e+00    0,000000000e+00    0,000000000e+00
      758000000    6,109289080e-02   -1,525155902e-01   -3,671585917e-01    4,001348913e-01    0,000000000e+00    0,000000000e+00    0,000000000e+00    0,000000000e+00
      772000000   -1,711323671e-02   -2,552005053e-01   -4,565576836e-02    5,089070797e-01    0,000000000e+00    0,000000000e+00    0,000000000e+00    0,000000000e+00
      786000000   -2,019604146e-01   -2,919389606e-01    2,591997087e-01    3,990091681e-01    0,000000000e+00    0,000000000e+00    0,000000000e+00    0,000000000e+00
      800000000   -4,066915512e-01   -1,266558170e-01    4,076602757e-01    1,186359301e-01    0,000000000e+00    0,000000000e+00    0,000000000e+00    0,000000000e+00
      814000000   -3,763735890e-01    2,025140077e-01    2,965051830e-01   -1,509153992e-01    0,000000000e+00    0,000000000e+00    0,000000000e+00    0,000000000e+00
      828000000   -6,329140812e-02    3,483581543e-01    8,207082003e-02   -1,907676905e-01    0,000000000e+00    0,000000000e+00    0,000000000e+00    0,000000000e+00
      842000000    2,112228572e-01    1,856032014e-01   -3,339312272e-03   -9,311082959e-02    0,000000000e+00    0,000000000e+00    0,000000000e+00    0,000000000e+00
      856000000    2,659271359e-01   -1,057707444e-01    3,608030081e-02   -3,686833382e-02    0,000000000e+00    0,000000000e+00    0,000000000e+00    0,000000000e+00
      870000000    8,275546134e-02   -3,516052961e-01    8,864547312e-02   -9,739661217e-02    0,000000000e+00    0,000000000e+00    0,000000000e+00    0,000000000e+00
      884000000   -2,665148377e-01   -3,561460972e-01    1,199846249e-02   -2,279778868e-01    0,000000000e+00    0,000000000e+00    0,000000000e+00    0,000000000e+00
      898000000   -4,582009614e-01   -1,402471866e-02   -2,156669945e-01   -2,101420164e-01    0,000000000e+00    0,000000000e+00    0,000000000e+00    0,000000000e+00
      912000000   -2,351661325e-01    2,786876559e-01   -3,317314684e-01    7,871085405e-02    0,000000000e+00    0,000000000e+00    0,000000000e+00    0,000000000e+00
      926000000    5,642231181e-02    2,603636980e-01   -2,081080526e-01    2,600193918e-01    0,000000000e+00    0,000000000e+00    0,000000000e+00    0,000000000e+00
      940000000    2,073281258e-01    8,592742682e-02   -3,146451712e-02    3,261337280e-01    0,000000000e+00    0,000000000e+00    0,000000000e+00    0,000000000e+00
      954000000    2,230785936e-01   -1,203303859e-01    1,324544549e-01    3,006228507e-01    0,000000000e+00    0,000000000e+00    0,000000000e+00    0,000000000e+00
      968000000    1,194802597e-01   -2,965384126e-01    2,691623867e-01    2,124944925e-01    0,000000000e+00    0,000000000e+00    0,000000000e+00    0,000000000e+00
      982000000   -7,604581863e-02   -3,875035644e-01    3,607108891e-01    6,309419870e-02    0,000000000e+00    0,000000000e+00    0,000000000e+00    0,000000000e+00
      996000000   -3,126479387e-01   -3,332093954e-01    3,622207344e-01   -1,442700624e-01    0,000000000e+00    0,000000000e+00    0,000000000e+00    0,000000000e+00
     1010000000   -4,609723985e-01   -1,217273176e-01    2,188096493e-01   -3,350942135e-01    0,000000000e+00    0,000000000e+00    0,000000000e+00    0,000000000e+00
     1024000000   -4,135988951e-01    1,400286257e-01   -3,186953813e-02   -3,853650987e-01    0,000000000e+00    0,000000000e+00    0,000000000e+00    0,000000000e+00
     1038000000   -2,203578502e-01    2,885282338e-01   -2,405841351e-01   -2,565144598e-01    0,000000000e+00    0,000000000e+00    0,000000000e+00    0,000000000e+00
     1052000000   -1,656041481e-02    2,804574668e-01   -3,095326126e-01   -4,737609997e-02    0,000000000e+00    0,000000000e+00    0,000000000e+00    0,000000000e+00
     1066000000    1,310163885e-01    1,666820198e-01   -2,481943369e-01    1,370672733e-01    0,000000000e+00    0,000000000e+00    0,000000000e+00    0,000000000e+00
     1080000000    1,899968237e-01    1,042500604e-02   -1,166951880e-01    2,544859350e-01    0,000000000e+00    0,000000000e+00    0,000000000e+00    0,000000000e+00
     1094000000    1,621833891e-01   -1,618656665e-01    5,935374647e-02    2,905652523e-01    0,000000000e+00    0,000000000e+00    0,000000000e+00    0,000000000e+00
     1108000000    1,810381748e-02   -2,921343446e-01    2,599771917e-01    2,343301922e-01    0,000000000e+00    0,000000000e+00    0,000000000e+00    0,000000000e+00
     1122000000   -2,116312087e-01   -2,860511243e-01    4,399599135e-01    2,582456730e-02    0,000000000e+00    0,000000000e+00    0,000000000e+00    0,000000000e+00
     1136000000   -3,295454681e-01   -2,831930108e-02    4,003478289e-01   -3,458872437e-01    0,000000000e+00    0,000000000e+00    0,000000000e+00    0,000000000e+00
     1150000000   -1,088642180e-01    1,341152489e-01    4,723083228e-02   -5,335751176e-01    0,000000000e+00    0,000000000e+00    0,000000000e+00    0,000000000e+00
     1164000000    8,767792583e-02   -1,799389906e-02   -2,535489500e-01   -4,034413099e-01    0,000000000e+00    0,000000000e+00    0,000000000e+00    0,000000000e+00
     1178000000    2,658930980e-02   -2,518512607e-01   -3,718853891e-01   -1,789421290e-01    0,000000000e+00    0,000000000e+00    0,000000000e+00    0,000000000e+00
     1192000000   -2,241853178e-01   -3,475247025e-01   -3,454615474e-01    4,154002294e-02    0,000000000e+00    0,000000000e+00    0,000000000e+00    0,000000000e+00
     1206000000   -4,790797234e-01   -1,843803525e-01   -1,956481934e-01    1,838676184e-01    0,000000000e+00    0,000000000e+00    0,000000000e+00    0,000000000e+00
     1220000000   -4,995272756e-01    1,382541955e-01   -8,422360756e-03    1,764798611e-01    0,000000000e+00    0,000000000e+00    0,000000000e+00    0,000000000e+00
     1234000000   -3,030749857e-01    3,392819464e-01    7,558233291e-02    7,277216017e-02    0,000000000e+00    0,000000000e+00    0,000000000e+00    0,000000000e+00
     1248000000   -6,108209863e-02    3,628748953e-01    6,429413706e-02    3,886207938e-03    0,000000000e+00    0,000000000e+00    0,000000000e+00    0,000000000e+00
     1262000000    1,138618812e-01    2,600004077e-01    3,012336232e-02   -2,860114910e-02    0,000000000e+00    0,000000000e+00    0,000000000e+00    0,000000000e+00
     1276000000    2,037131786e-01    1,100399718e-01    6,991398986e-03   -8,090271614e-03    0,000000000e+00    0,000000000e+00    0,000000000e+00    0,000000000e+00
     1290000000    2,211317569e-01   -6,134900451e-02    1,358981710e-02    2,670647390e-02    0,000000000e+00    0,000000000e+00    0,000000000e+00    0,000000000e+00
     1304000000    1,636469662e-01   -2,289305478e-01    5,794898793e-02    6,081233174e-02    0,000000000e+00    0,000000000e+00    0,000000000e+00    0,000000000e+00
     1318000000    2,610748447e-02   -3,641960621e-01    1,664306670e-01    1,611579768e-02    0,000000000e+00    0,000000000e+00    0,000000000e+00    0,000000000e+00
     1332000000   -1,495187134e-01   -3,973837197e-01    1,066370979e-01   -1,818363518e-01    0,000000000e+00    0,000000000e+00    0,000000000e+00    0,000000000e+00
     1346000000   -3,599427938e-01   -3,888297081e-01   -4,892894253e-02   -1,705228724e-02    0,000000000e+00    0,000000000e+00    0,000000000e+00    0,000000000e+00
     1360000000   -5,890031457e-01   -2,085688859e-01    5,856781080e-02    8,288150281e-02    0,000000000e+00    0,000000000e+00    0,000000000e+00    0,000000000e+00
     1374000000   -6,324836016e-01    1,116100401e-01    1,732608527e-01    6,053745374e-02    0,000000000e+00    0,000000000e+00    0,000000000e+00    0,000000000e+00
     1388000000   -4,781841338e-01    3,522091508e-01    2,077235132e-01   -2,469165996e-02    0,000000000e+00    0,000000000e+00    0,000000000e+00    0,000000000e+00
     1402000000   -2,433078736e-01    4,425539076e-01    2,106940001e-01   -8,356278390e-02    0,000000000e+00    0,000000000e+00    0,000000000e+00    0,000000000e+00
     1416000000   -3,456020355e-02    4,105111659e-01    2,017612159e-01   -1,105859652e-01    0,000000000e+00    0,000000000e+00    0,000000000e+00    0,000000000e+00
     1430000000    1,196120381e-01    3,070567548e-01    1,975528449e-01   -1,333803982e-01    0,000000000e+00    0,000000000e+00    0,000000000e+00    0,000000000e+00
     1444000000    2,064469159e-01    1,589400470e-01    1,699769348e-01   -1,038971841e-01    0,000000000e+00    0,000000000e+00    0,000000000e+00    0,000000000e+00
     1458000000    2,305389941e-01   -8,915397339e-03    1,355640441e-01   -8,748381585e-02    0,000000000e+00    0,000000000e+00    0,000000000e+00    0,000000000e+00
     1472000000    1,925273687e-01   -1,921263337e-01    1,494195312e-01   -4,697992653e-02    0,000000000e+00    0,000000000e+00    0,000000000e+00    0,000000000e+00
     1486000000    6,723789871e-02   -3,680416644e-01    1,676084548e-01    1,554751303e-02    0,000000000e+00    0,000000000e+00    0,000000000e+00    0,000000000e+00
     1500000000   -1,567507535e-01   -4,933870733e-01    2,384010255e-01    8,534607291e-02    0,000000000e+00    0,000000000e+00    0,000000000e+00    0,000000000e+00
