! NanoVNA-App
! Date: 2025-09-25 15:41:36
! Start: 100MHz Stop: 1,5GHz Points: 101
! S-Parameter data: F S11 S21 S12 S22
# Hz S RI R 50
!     Frequency           S11_Real           S11_Imag           S21_Real           S21_Imag           S12_Real           S12_Imag           S22_Real           S22_Imag
      100000000   -2,873084322e-02   -4,247951321e-03    3,739744127e-01   -7,215471268e-01    0,000000000e+00    0,000000000e+00    0,000000000e+00    0,000000000e+00
      114000000   -1,650115661e-02    1,144894585e-02   -8,915869892e-02   -8,052052259e-01    0,000000000e+00    0,000000000e+00    0,000000000e+00    0,000000000e+00
      128000000    3,468644340e-03    1,067798678e-02   -5,143958330e-01   -6,201948524e-01    0,000000000e+00    0,000000000e+00    0,000000000e+00    0,000000000e+00
      142000000    1,468400564e-02   -2,649946604e-03   -7,668498158e-01   -2,363836914e-01    0,000000000e+00    0,000000000e+00    0,000000000e+00    0,000000000e+00
      156000000    1,639722660e-02   -1,402629912e-02   -7,698736191e-01    2,243268490e-01    0,000000000e+00    0,000000000e+00    0,000000000e+00    0,000000000e+00
      170000000    1,712525822e-02   -2,241059951e-02   -5,179567933e-01    6,045007110e-01    0,000000000e+00    0,000000000e+00    0,000000000e+00    0,000000000e+00
      184000000    2,138632722e-02   -3,716943413e-02   -1,011594310e-01    7,858110666e-01    0,000000000e+00    0,000000000e+00    0,000000000e+00    0,000000000e+00
      198000000    1,323065534e-02   -6,255286932e-02    3,429728448e-01    7,118318081e-01    0,000000000e+00    0,000000000e+00    0,000000000e+00    0,000000000e+00
      212000000   -1,842301339e-02   -8,127532154e-02    6,775752902e-01    4,096397460e-01    0,000000000e+00    0,000000000e+00    0,000000000e+00    0,000000000e+00
      226000000   -6,132389605e-02   -6,925236434e-02    7,953802347e-01   -3,046723828e-02    0,000000000e+00    0,000000000e+00    0,000000000e+00    0,000000000e+00
      240000000   -8,221841604e-02   -2,586439066e-02    6,456761956e-01   -4,662676752e-01    0,000000000e+00    0,000000000e+00    0,000000000e+00    0,000000000e+00
      254000000   -6,337939203e-02    1,689889282e-02    2,759076059e-01   -7,422416210e-01    0,000000000e+00    0,000000000e+00    0,000000000e+00    0,000000000e+00
      268000000   -2,391485684e-02    2,878122777e-02   -1,783990562e-01   -7,639220953e-01    0,000000000e+00    0,000000000e+00    0,000000000e+00    0,000000000e+00
      282000000    4,117943812e-03    1,202404033e-02   -5,616544485e-01   -5,358934999e-01    0,000000000e+00    0,000000000e+00    0,000000000e+00    0,000000000e+00
      296000000    9,955072775e-03   -7,642456796e-03   -7,595854998e-01   -1,396300048e-01    0,000000000e+00    0,000000000e+00    0,000000000e+00    0,000000000e+00
      310000000    1,148037147e-02   -1,610645838e-02   -7,125218511e-01    2,989971638e-01    0,000000000e+00    0,000000000e+00    0,000000000e+00    0,000000000e+00
      324000000    2,024473995e-02   -2,665963769e-02   -4,273643494e-01    6,375448108e-01    0,000000000e+00    0,000000000e+00    0,000000000e+00    0,000000000e+00
      338000000    2,544697188e-02   -5,226219073e-02   -7,051912136e-03    7,610571384e-01    0,000000000e+00    0,000000000e+00    0,000000000e+00    0,000000000e+00
      352000000    7,413108833e-03   -8,473343402e-02    4,060821831e-01    6,397479177e-01    0,000000000e+00    0,000000000e+00    0,000000000e+00    0,000000000e+00
      366000000   -3,459304199e-02   -9,543424100e-02    6,902757287e-01    3,116388321e-01    0,000000000e+00    0,000000000e+00    0,000000000e+00    0,000000000e+00
      380000000   -7,041297108e-02   -7,100446522e-02    7,465263009e-01   -1,260076165e-01    0,000000000e+00    0,000000000e+00    0,000000000e+00    0,000000000e+00
      394000000   -7,205325365e-02   -3,251826391e-02    5,463811755e-01   -5,211966038e-01    0,000000000e+00    0,000000000e+00    0,000000000e+00    0,000000000e+00
      408000000   -4,622469470e-02   -1,624539867e-02    1,612124145e-01   -7,317544222e-01    0,000000000e+00    0,000000000e+00    0,000000000e+00    0,000000000e+00
      422000000   -2,821646072e-02   -3,214906529e-02   -2,661389410e-01   -6,946125627e-01    0,000000000e+00    0,000000000e+00    0,000000000e+00    0,000000000e+00
      436000000   -4,057807103e-02   -5,158132315e-02   -6,035998464e-01   -4,322187006e-01    0,000000000e+00    0,000000000e+00    0,000000000e+00    0,000000000e+00
      450000000   -6,671091169e-02   -4,361946136e-02   -7,393218279e-01   -2,190671861e-02    0,000000000e+00    0,000000000e+00    0,000000000e+00    0,000000000e+00
      464000000   -7,309970260e-02   -1,158201415e-02   -6,182941198e-01    3,966281712e-01    0,000000000e+00    0,000000000e+00    0,000000000e+00    0,000000000e+00
      478000000   -4,736092314e-02    1,118739508e-02   -2,824767232e-01    6,665481329e-01    0,000000000e+00    0,000000000e+00    0,000000000e+00    0,000000000e+00
      492000000   -1,548345853e-02    5,697428714e-03    1,371414363e-01    7,012707591e-01    0,000000000e+00    0,000000000e+00    0,000000000e+00    0,000000000e+00
      506000000   -2,546803094e-03   -1,566281728e-02    4,978405833e-01    5,029038787e-01    0,000000000e+00    0,000000000e+00    0,000000000e+00    0,000000000e+00
      520000000   -5,028153770e-03   -3,090479039e-02    6,874804497e-01    1,418374032e-01    0,000000000e+00    0,000000000e+00    0,000000000e+00    0,000000000e+00
      534000000   -3,702174639e-03   -3,802889958e-02    6,428928971e-01   -2,618395388e-01    0,000000000e+00    0,000000000e+00    0,000000000e+00    0,000000000e+00
      548000000    6,682221778e-03   -5,390283465e-02    3,816581368e-01   -5,648601055e-01    0,000000000e+00    0,000000000e+00    0,000000000e+00    0,000000000e+00
      562000000    3,419633955e-03   -8,946697414e-02    3,148515942e-03   -6,712487340e-01    0,000000000e+00    0,000000000e+00    0,000000000e+00    0,000000000e+00
      576000000   -3,374502435e-02   -1,242886484e-01   -3,673948646e-01   -5,571563840e-01    0,000000000e+00    0,000000000e+00    0,000000000e+00    0,000000000e+00
      590000000   -9,598152339e-02   -1,226793155e-01   -6,181686521e-01   -2,649796009e-01    0,000000000e+00    0,000000000e+00    0,000000000e+00    0,000000000e+00
      604000000   -1,388398111e-01   -7,246852666e-02   -6,644583941e-01    1,363748461e-01    0,000000000e+00    0,000000000e+00    0,000000000e+00    0,000000000e+00
      618000000   -1,293269247e-01   -1,043847855e-02   -4,652972817e-01    4,933601618e-01    0,000000000e+00    0,000000000e+00    0,000000000e+00    0,000000000e+00
      632000000   -8,418726921e-02    1,545756217e-02   -9,970939904e-02    6,623896360e-01    0,000000000e+00    0,000000000e+00    0,000000000e+00    0,000000000e+00
      646000000   -5,143395066e-02    7,684559096e-04    2,857298255e-01    5,943210721e-01    0,000000000e+00    0,000000000e+00    0,000000000e+00    0,000000000e+00
      660000000   -5,378645286e-02   -2,013565786e-02    5,647475123e-01    3,238732815e-01    0,000000000e+00    0,000000000e+00    0,000000000e+00    0,000000000e+00
      674000000   -7,034936547e-02   -1,654935256e-02    6,405749917e-01   -6,322287768e-02    0,000000000e+00    0,000000000e+00    0,000000000e+00    0,000000000e+00
      688000000   -6,658573449e-02    9,610521607e-03    4,707283974e-01   -4,235384166e-01    0,000000000e+00    0,000000000e+00    0,000000000e+00    0,000000000e+00
      702000000   -3,534733132e-02    2,569350973e-02    1,201470196e-01   -6,045946479e-01    0,000000000e+00    0,000000000e+00    0,000000000e+00    0,000000000e+00
      716000000    4,276616033e-03    1,609717682e-02   -2,598557174e-01   -5,444653034e-01    0,000000000e+00    0,000000000e+00    0,000000000e+00    0,000000000e+00
      730000000    3,671680018e-02   -1,325684693e-02   -5,219203830e-01   -2,714747787e-01    0,000000000e+00    0,000000000e+00    0,000000000e+00    0,000000000e+00
      744000000    6,166922301e-02   -6,493197381e-02   -5,602881908e-01    9,860283881e-02    0,000000000e+00    0,000000000e+00    0,000000000e+00    0,000000000e+00
      758000000    6,068084389e-02   -1,520185173e-01   -3,662616313e-01    4,002364874e-01    0,000000000e+00    0,000000000e+00    0,000000000e+00    0,000000000e+00
      772000000   -1,730258577e-02   -2,565375865e-01   -4,625578970e-02    5,103328824e-01    0,000000000e+00    0,000000000e+00    0,000000000e+00    0,000000000e+00
      786000000   -2,032965124e-01   -2,911145687e-01    2,594963610e-01    3,988592923e-01    0,000000000e+00    0,000000000e+00    0,000000000e+00    0,000000000e+00
      800000000   -4,081271887e-01   -1,270939857e-01    4,071348310e-01    1,182934493e-01    0,000000000e+00    0,000000000e+00    0,000000000e+00    0,000000000e+00
      814000000   -3,762356341e-01    2,027506679e-01    2,960837483e-01   -1,508934945e-01    0,000000000e+00    0,000000000e+00    0,000000000e+00    0,000000000e+00
      828000000   -6,272652745e-02    3,466716707e-01    8,244208992e-02   -1,901878268e-01    0,000000000e+00    0,000000000e+00    0,000000000e+00    0,000000000e+00
      842000000    2,119522244e-01    1,858141124e-01   -3,775658319e-03   -9,289912134e-02    0,000000000e+00    0,000000000e+00    0,000000000e+00    0,000000000e+00
      856000000    2,658879757e-01   -1,058362350e-01    3,631278127e-02   -3,684035316e-02    0,000000000e+00    0,000000000e+00    0,000000000e+00    0,000000000e+00
      870000000    8,107429743e-02   -3,513656855e-01    8,912145346e-02   -9,747561067e-02    0,000000000e+00    0,000000000e+00    0,000000000e+00    0,000000000e+00
      884000000   -2,666202486e-01   -3,554831147e-01    1,194572914e-02   -2,278646380e-01    0,000000000e+00    0,000000000e+00    0,000000000e+00    0,000000000e+00
      898000000   -4,582673311e-01   -1,405275706e-02   -2,154643834e-01   -2,098927200e-01    0,000000000e+00    0,000000000e+00    0,000000000e+00    0,000000000e+00
      912000000   -2,345362008e-01    2,794562578e-01   -3,284057677e-01    7,799205929e-02    0,000000000e+00    0,000000000e+00    0,000000000e+00    0,000000000e+00
      926000000    5,545547605e-02    2,598784566e-01   -2,097149491e-01    2,605863512e-01    0,000000000e+00    0,000000000e+00    0,000000000e+00    0,000000000e+00
      940000000    2,106446922e-01    8,480082452e-02   -3,066446446e-02    3,252705038e-01    0,000000000e+00    0,000000000e+00    0,000000000e+00    0,000000000e+00
      954000000    2,232559919e-01   -1,208768412e-01    1,316742748e-01    3,002373278e-01    0,000000000e+00    0,000000000e+00    0,000000000e+00    0,000000000e+00
      968000000    1,171257049e-01   -2,968997061e-01    2,677775621e-01    2,129262537e-01    0,000000000e+00    0,000000000e+00    0,000000000e+00    0,000000000e+00
      982000000   -7,560713589e-02   -3,870513141e-01    3,596709371e-01    6,440721452e-02    0,000000000e+00    0,000000000e+00    0,000000000e+00    0,000000000e+00
      996000000   -3,142291307e-01   -3,320483565e-01    3,634308875e-01   -1,427197903e-01    0,000000000e+00    0,000000000e+00    0,000000000e+00    0,000000000e+00
     1010000000   -4,621767998e-01   -1,206069812e-01    2,182856947e-01   -3,341877759e-01    0,000000000e+00    0,000000000e+00    0,000000000e+00    0,000000000e+00
     1024000000   -4,134728312e-01    1,387447715e-01   -3,161478788e-02   -3,854924738e-01    0,000000000e+00    0,000000000e+00    0,000000000e+00    0,000000000e+00
     1038000000   -2,277968973e-01    2,891349792e-01   -2,395788729e-01   -2,591440380e-01    0,000000000e+00    0,000000000e+00    0,000000000e+00    0,000000000e+00
     1052000000   -1,179527398e-02    2,830547392e-01   -3,111386895e-01   -4,698028415e-02    0,000000000e+00    0,000000000e+00    0,000000000e+00    0,000000000e+00
     1066000000    1,329438835e-01    1,649539918e-01   -2,500101626e-01    1,387691945e-01    0,000000000e+00    0,000000000e+00    0,000000000e+00    0,000000000e+00
     1080000000    1,963701546e-01    8,065107279e-03   -1,158227623e-01    2,540349364e-01    0,000000000e+00    0,000000000e+00    0,000000000e+00    0,000000000e+00
     1094000000    1,569257081e-01   -1,657578349e-01    6,120623648e-02    2,918700874e-01    0,000000000e+00    0,000000000e+00    0,000000000e+00    0,000000000e+00
     1108000000    1,738772355e-02   -3,005193472e-01    2,617867291e-01    2,358104438e-01    0,000000000e+00    0,000000000e+00    0,000000000e+00    0,000000000e+00
     1122000000   -2,107142508e-01   -2,847543359e-01    4,379757643e-01    2,264844626e-02    0,000000000e+00    0,000000000e+00    0,000000000e+00    0,000000000e+00
     1136000000   -3,270628750e-01   -3,423400223e-02    4,011879563e-01   -3,421124518e-01    0,000000000e+00    0,000000000e+00    0,000000000e+00    0,000000000e+00
     1150000000   -1,067270935e-01    1,423378885e-01    4,559902474e-02   -5,284761786e-01    0,000000000e+00    0,000000000e+00    0,000000000e+00    0,000000000e+00
     1164000000    8,191202581e-02   -1,671765931e-02   -2,555971444e-01   -4,036134779e-01    0,000000000e+00    0,000000000e+00    0,000000000e+00    0,000000000e+00
     1178000000    2,790720761e-02   -2,506136596e-01   -3,678040504e-01   -1,794099510e-01    0,000000000e+00    0,000000000e+00    0,000000000e+00    0,000000000e+00
     1192000000   -2,228403389e-01   -3,486857414e-01   -3,402170837e-01    3,933194280e-02    0,000000000e+00    0,000000000e+00    0,000000000e+00    0,000000000e+00
     1206000000   -4,780377448e-01   -1,852644235e-01   -1,912844777e-01    1,781844795e-01    0,000000000e+00    0,000000000e+00    0,000000000e+00    0,000000000e+00
     1220000000   -4,989416897e-01    1,362105459e-01   -9,217443876e-03    1,751694679e-01    0,000000000e+00    0,000000000e+00    0,000000000e+00    0,000000000e+00
     1234000000   -3,029253781e-01    3,388447464e-01    7,230161875e-02    7,585286349e-02    0,000000000e+00    0,000000000e+00    0,000000000e+00    0,000000000e+00
     1248000000   -5,726001412e-02    3,567982018e-01    7,025934011e-02   -9,657060727e-04    0,000000000e+00    0,000000000e+00    0,000000000e+00    0,000000000e+00
     1262000000    1,130021960e-01    2,620327175e-01    3,177855536e-02   -1,989284530e-02    0,000000000e+00    0,000000000e+00    0,000000000e+00    0,000000000e+00
     1276000000    1,997964084e-01    1,103833690e-01    3,670937382e-03   -7,542201318e-03    0,000000000e+00    0,000000000e+00    0,000000000e+00    0,000000000e+00
     1290000000    2,223928422e-01   -6,300271302e-02    1,452314015e-02    3,016394377e-02    0,000000000e+00    0,000000000e+00    0,000000000e+00    0,000000000e+00
     1304000000    1,646213830e-01   -2,348421216e-01    6,362473220e-02    5,281418189e-02    0,000000000e+00    0,000000000e+00    0,000000000e+00    0,000000000e+00
     1318000000    2,593617328e-02   -3,610835075e-01    1,699031740e-01    1,469769049e-02    0,000000000e+00    0,000000000e+00    0,000000000e+00    0,000000000e+00
     1332000000   -1,488341540e-01   -3,990618289e-01    9,598969668e-02   -1,814893037e-01    0,000000000e+00    0,000000000e+00    0,000000000e+00    0,000000000e+00
     1346000000   -3,556170762e-01   -3,902529180e-01   -5,558630079e-02   -2,251496539e-02    0,000000000e+00    0,000000000e+00    0,000000000e+00    0,000000000e+00
     1360000000   -5,856527090e-01   -2,074526399e-01    6,675827503e-02    8,858849853e-02    0,000000000e+00    0,000000000e+00    0,000000000e+00    0,000000000e+00
     1374000000   -6,336676478e-01    1,000612453e-01    1,782532632e-01    4,434585571e-02    0,000000000e+00    0,000000000e+00    0,000000000e+00    0,000000000e+00
     1388000000   -4,767551720e-01    3,487205207e-01    2,232389003e-01   -1,504109241e-02    0,000000000e+00    0,000000000e+00    0,000000000e+00    0,000000000e+00
     1402000000   -2,417033464e-01    4,443008006e-01    2,132131010e-01   -8,530453593e-02    0,000000000e+00    0,000000000e+00    0,000000000e+00    0,000000000e+00
     1416000000   -4,572550580e-02    4,128835201e-01    1,850365996e-01   -1,098755375e-01    0,000000000e+00    0,000000000e+00    0,000000000e+00    0,000000000e+00
     1430000000    1,183715314e-01    3,098331094e-01    1,681516320e-01   -9,498383105e-02    0,000000000e+00    0,000000000e+00    0,000000000e+00    0,000000000e+00
     1444000000    2,051787227e-01    1,530266404e-01    1,653147638e-01   -1,143728346e-01    0,000000000e+00    0,000000000e+00    0,000000000e+00    0,000000000e+00
     1458000000    2,310584635e-01   -1,488928590e-02    1,427012980e-01   -8,420356363e-02    0,000000000e+00    0,000000000e+00    0,000000000e+00    0,000000000e+00
     1472000000    1,959695518e-01   -1,934325993e-01    1,497751921e-01   -4,979650304e-02    0,000000000e+00    0,000000000e+00    0,000000000e+00    0,000000000e+00
     1486000000    6,667382270e-02   -3,685688972e-01    1,628278196e-01    1,042325515e-02    0,000000000e+00    0,000000000e+00    0,000000000e+00    0,000000000e+00
     1500000000   -1,575158685e-01   -4,826273024e-01    2,154622972e-01    9,785136580e-02    0,000000000e+00    0,000000000e+00    0,000000000e+00    0,000000000e+00
