! NanoVNA-App
! Date: 2025-09-25 15:42:47
! Start: 100MHz Stop: 1,5GHz Points: 101
! S-Parameter data: F S11 S21 S12 S22
# Hz S RI R 50
!     Frequency           S11_Real           S11_Imag           S21_Real           S21_Imag           S12_Real           S12_Imag           S22_Real           S22_Imag
      100000000   -2,877441607e-02   -4,248831421e-03    3,738746941e-01   -7,215249538e-01    0,000000000e+00    0,000000000e+00    0,000000000e+00    0,000000000e+00
      114000000   -1,652992517e-02    1,150038932e-02   -8,918429911e-02   -8,052746654e-01    0,000000000e+00    0,000000000e+00    0,000000000e+00    0,000000000e+00
      128000000    3,426291281e-03    1,068962086e-02   -5,145988464e-01   -6,204299331e-01    0,000000000e+00    0,000000000e+00    0,000000000e+00    0,000000000e+00
      142000000    1,464019436e-02   -2,642784268e-03   -7,670668364e-01   -2,365027666e-01    0,000000000e+00    0,000000000e+00    0,000000000e+00    0,000000000e+00
      156000000    1,621854492e-02   -1,417317521e-02   -7,694253922e-01    2,241945565e-01    0,000000000e+00    0,000000000e+00    0,000000000e+00    0,000000000e+00
      170000000    1,710597426e-02   -2,247336507e-02   -5,179899931e-01    6,044404507e-01    0,000000000e+00    0,000000000e+00    0,000000000e+00    0,000000000e+00
      184000000    2,135759592e-02   -3,712360561e-02   -1,013442501e-01    7,856907248e-01    0,000000000e+00    0,000000000e+00    0,000000000e+00    0,000000000e+00
      198000000    1,322467811e-02   -6,250675768e-02    3,432477713e-01    7,124049664e-01    0,000000000e+00    0,000000000e+00    0,000000000e+00    0,000000000e+00
      212000000   -1,843015291e-02   -8,126094192e-02    6,778286695e-01    4,098897576e-01    0,000000000e+00    0,000000000e+00    0,000000000e+00    0,000000000e+00
      226000000   -6,137118861e-02   -6,918559968e-02    7,954476476e-01   -3,053824231e-02    0,000000000e+00    0,000000000e+00    0,000000000e+00    0,000000000e+00
      240000000   -8,229153603e-02   -2,580774762e-02    6,459595561e-01   -4,667622745e-01    0,000000000e+00    0,000000000e+00    0,000000000e+00    0,000000000e+00
      254000000   -6,343800575e-02    1,698303223e-02    2,761050463e-01   -7,430137396e-01    0,000000000e+00    0,000000000e+00    0,000000000e+00    0,000000000e+00
      268000000   -2,395001426e-02    2,871924080e-02   -1,777883768e-01   -7,644520402e-01    0,000000000e+00    0,000000000e+00    0,000000000e+00    0,000000000e+00
      282000000    4,113960546e-03    1,202491112e-02   -5,614690185e-01   -5,357367992e-01    0,000000000e+00    0,000000000e+00    0,000000000e+00    0,000000000e+00
      296000000    9,870750830e-03   -7,555502467e-03   -7,595158219e-01   -1,396162212e-01    0,000000000e+00    0,000000000e+00    0,000000000e+00    0,000000000e+00
      310000000    1,139262039e-02   -1,585224085e-02   -7,128461599e-01    2,983994186e-01    0,000000000e+00    0,000000000e+00    0,000000000e+00    0,000000000e+00
      324000000    1,993850805e-02   -2,666951157e-02   -4,269883931e-01    6,370057464e-01    0,000000000e+00    0,000000000e+00    0,000000000e+00    0,000000000e+00
      338000000    2,561332472e-02   -5,202335864e-02   -6,755732931e-03    7,636326551e-01    0,000000000e+00    0,000000000e+00    0,000000000e+00    0,000000000e+00
      352000000    7,333513815e-03   -8,468206972e-02    4,058935046e-01    6,393169165e-01    0,000000000e+00    0,000000000e+00    0,000000000e+00    0,000000000e+00
      366000000   -3,453684598e-02   -9,525267780e-02    6,906131506e-01    3,116708994e-01    0,000000000e+00    0,000000000e+00    0,000000000e+00    0,000000000e+00
      380000000   -7,025583833e-02   -7,106472552e-02    7,476031780e-01   -1,255307943e-01    0,000000000e+00    0,000000000e+00    0,000000000e+00    0,000000000e+00
      394000000   -7,208710909e-02   -3,262370080e-02    5,472398400e-01   -5,202919245e-01    0,000000000e+00    0,000000000e+00    0,000000000e+00    0,000000000e+00
      408000000   -4,627425224e-02   -1,626764052e-02    1,603519469e-01   -7,316597700e-01    0,000000000e+00    0,000000000e+00    0,000000000e+00    0,000000000e+00
      422000000   -2,832434513e-02   -3,189330921e-02   -2,673470080e-01   -6,945410371e-01    0,000000000e+00    0,000000000e+00    0,000000000e+00    0,000000000e+00
      436000000   -4,052599519e-02   -5,189647526e-02   -6,036884189e-01   -4,316885173e-01    0,000000000e+00    0,000000000e+00    0,000000000e+00    0,000000000e+00
      450000000   -6,717017293e-02   -4,370814189e-02   -7,397682667e-01   -2,207520232e-02    0,000000000e+00    0,000000000e+00    0,000000000e+00    0,000000000e+00
      464000000   -7,306456566e-02   -1,172210090e-02   -6,182296872e-01    3,967949748e-01    0,000000000e+00    0,000000000e+00    0,000000000e+00    0,000000000e+00
      478000000   -4,735039920e-02    1,134723611e-02   -2,823654413e-01    6,669954658e-01    0,000000000e+00    0,000000000e+00    0,000000000e+00    0,000000000e+00
      492000000   -1,564036682e-02    5,874358118e-03    1,373768002e-01    7,005958557e-01    0,000000000e+00    0,000000000e+00    0,000000000e+00    0,000000000e+00
      506000000   -2,790320665e-03   -1,554033440e-02    4,977900386e-01    5,023629665e-01    0,000000000e+00    0,000000000e+00    0,000000000e+00    0,000000000e+00
      520000000   -5,066492129e-03   -3,128827363e-02    6,856194735e-01    1,422830075e-01    0,000000000e+00    0,000000000e+00    0,000000000e+00    0,000000000e+00
      534000000   -3,618364688e-03   -3,774545714e-02    6,431393027e-01   -2,612669766e-01    0,000000000e+00    0,000000000e+00    0,000000000e+00    0,000000000e+00
      548000000    6,151297595e-03   -5,380983278e-02    3,814685941e-01   -5,659673810e-01    0,000000000e+00    0,000000000e+00    0,000000000e+00    0,000000000e+00
      562000000    3,743403591e-03   -8,927901834e-02    3,493799828e-03   -6,718564034e-01    0,000000000e+00    0,000000000e+00    0,000000000e+00    0,000000000e+00
      576000000   -3,367929161e-02   -1,239610165e-01   -3,677272201e-01   -5,571705699e-01    0,000000000e+00    0,000000000e+00    0,000000000e+00    0,000000000e+00
      590000000   -9,566275775e-02   -1,228146404e-01   -6,211367249e-01   -2,634614706e-01    0,000000000e+00    0,000000000e+00    0,000000000e+00    0,000000000e+00
      604000000   -1,390692145e-01   -7,226284593e-02   -6,644365191e-01    1,365546733e-01    0,000000000e+00    0,000000000e+00    0,000000000e+00    0,000000000e+00
      618000000   -1,290541589e-01   -9,618166834e-03   -4,647800326e-01    4,927415848e-01    0,000000000e+00    0,000000000e+00    0,000000000e+00    0,000000000e+00
      632000000   -8,400645107e-02    1,556308288e-02   -1,004838794e-01    6,627684832e-01    0,000000000e+00    0,000000000e+00    0,000000000e+00    0,000000000e+00
      646000000   -5,260462314e-02    6,406754837e-04    2,859025598e-01    5,938534141e-01    0,000000000e+00    0,000000000e+00    0,000000000e+00    0,000000000e+00
      660000000   -5,311010033e-02   -2,046577074e-02    5,642234683e-01    3,234245777e-01    0,000000000e+00    0,000000000e+00    0,000000000e+00    0,000000000e+00
      674000000   -6,973380595e-02   -1,716716215e-02    6,408067942e-01   -6,284442544e-02    0,000000000e+00    0,000000000e+00    0,000000000e+00    0,000000000e+00
      688000000   -6,743309647e-02    9,555097669e-03    4,706381857e-01   -4,242610037e-01    0,000000000e+00    0,000000000e+00    0,000000000e+00    0,000000000e+00
      702000000   -3,666635603e-02    2,604049444e-02    1,209423393e-01   -6,097583771e-01    0,000000000e+00    0,000000000e+00    0,000000000e+00    0,000000000e+00
      716000000    3,692016471e-03    1,672734506e-02   -2,596614957e-01   -5,439589620e-01    0,000000000e+00    0,000000000e+00    0,000000000e+00    0,000000000e+00
      730000000    3,617073968e-02   -1,378834434e-02   -5,219451785e-01   -2,707122862e-01    0,000000000e+00    0,000000000e+00    0,000000000e+00    0,000000000e+00
      744000000    6,299219280e-02   -6,470869482e-02   -5,605159998e-01    9,855344146e-02    0,000000000e+00    0,000000000e+00    0,000000000e+00    0,000000000e+00
      758000000    6,108772755e-02   -1,523496062e-01   -3,666402102e-01    4,003717899e-01    0,000000000e+00    0,000000000e+00    0,000000000e+00    0,000000000e+00
      772000000   -1,694603078e-02   -2,567363977e-01   -4,606013000e-02    5,095332861e-01    0,000000000e+00    0,000000000e+00    0,000000000e+00    0,000000000e+00
      786000000   -2,020121217e-01   -2,914198637e-01    2,594933212e-01    3,989528120e-01    0,000000000e+00    0,000000000e+00    0,000000000e+00    0,000000000e+00
      800000000   -4,080503285e-01   -1,280391514e-01    4,071964920e-01    1,187321842e-01    0,000000000e+00    0,000000000e+00    0,000000000e+00    0,000000000e+00
      814000000   -3,769590259e-01    2,025911957e-01    2,967137396e-01   -1,514083147e-01    0,000000000e+00    0,000000000e+00    0,000000000e+00    0,000000000e+00
      828000000   -6,307797134e-02    3,479695618e-01    8,230046928e-02   -1,906069517e-01    0,000000000e+00    0,000000000e+00    0,000000000e+00    0,000000000e+00
      842000000    2,117106318e-01    1,855500042e-01   -3,412972204e-03   -9,311838448e-02    0,000000000e+00    0,000000000e+00    0,000000000e+00    0,000000000e+00
      856000000    2,661001384e-01   -1,056106240e-01    3,616240993e-02   -3,658537939e-02    0,000000000e+00    0,000000000e+00    0,000000000e+00    0,000000000e+00
      870000000    8,205559105e-02   -3,507736325e-01    8,849509060e-02   -9,724885225e-02    0,000000000e+00    0,000000000e+00    0,000000000e+00    0,000000000e+00
      884000000   -2,664606869e-01   -3,551155925e-01    1,193167828e-02   -2,270203382e-01    0,000000000e+00    0,000000000e+00    0,000000000e+00    0,000000000e+00
      898000000   -4,575603604e-01   -1,418781932e-02   -2,152040899e-01   -2,107296288e-01    0,000000000e+00    0,000000000e+00    0,000000000e+00    0,000000000e+00
      912000000   -2,356636822e-01    2,777683437e-01   -3,373794556e-01    7,888270169e-02    0,000000000e+00    0,000000000e+00    0,000000000e+00    0,000000000e+00
      926000000    5,303991958e-02    2,612742484e-01   -2,120321989e-01    2,616645396e-01    0,000000000e+00    0,000000000e+00    0,000000000e+00    0,000000000e+00
      940000000    2,110369205e-01    8,478817344e-02   -3,099370748e-02    3,265087605e-01    0,000000000e+00    0,000000000e+00    0,000000000e+00    0,000000000e+00
      954000000    2,207627594e-01   -1,187238321e-01    1,300126016e-01    3,009600341e-01    0,000000000e+00    0,000000000e+00    0,000000000e+00    0,000000000e+00
      968000000    1,167924702e-01   -2,946197093e-01    2,661329210e-01    2,139304131e-01    0,000000000e+00    0,000000000e+00    0,000000000e+00    0,000000000e+00
      982000000   -8,040421456e-02   -3,863373399e-01    3,612676561e-01    6,311210990e-02    0,000000000e+00    0,000000000e+00    0,000000000e+00    0,000000000e+00
      996000000   -3,127191961e-01   -3,280541301e-01    3,629472852e-01   -1,427043974e-01    0,000000000e+00    0,000000000e+00    0,000000000e+00    0,000000000e+00
     1010000000   -4,628372490e-01   -1,164984480e-01    2,200389057e-01   -3,358333111e-01    0,000000000e+00    0,000000000e+00    0,000000000e+00    0,000000000e+00
     1024000000   -4,188929498e-01    1,415304095e-01   -3,097050451e-02   -3,853949308e-01    0,000000000e+00    0,000000000e+00    0,000000000e+00    0,000000000e+00
     1038000000   -2,219760567e-01    2,932001650e-01   -2,425838709e-01   -2,567222118e-01    0,000000000e+00    0,000000000e+00    0,000000000e+00    0,000000000e+00
     1052000000   -1,689211652e-02    2,821102440e-01   -3,112253845e-01   -4,663243890e-02    0,000000000e+00    0,000000000e+00    0,000000000e+00    0,000000000e+00
     1066000000    1,306538284e-01    1,681841463e-01   -2,510614395e-01    1,366327107e-01    0,000000000e+00    0,000000000e+00    0,000000000e+00    0,000000000e+00
     1080000000    1,950999796e-01    6,510574836e-03   -1,161209047e-01    2,554510534e-01    0,000000000e+00    0,000000000e+00    0,000000000e+00    0,000000000e+00
     1094000000    1,579352915e-01   -1,627304405e-01    6,147596240e-02    2,930886149e-01    0,000000000e+00    0,000000000e+00    0,000000000e+00    0,000000000e+00
     1108000000    2,061435953e-02   -2,935459614e-01    2,587441206e-01    2,330842614e-01    0,000000000e+00    0,000000000e+00    0,000000000e+00    0,000000000e+00
     1122000000   -2,164150476e-01   -2,802329063e-01    4,404123127e-01    2,609998919e-02    0,000000000e+00    0,000000000e+00    0,000000000e+00    0,000000000e+00
     1136000000   -3,279149234e-01   -3,202352300e-02    4,008268118e-01   -3,469129801e-01    0,000000000e+00    0,000000000e+00    0,000000000e+00    0,000000000e+00
     1150000000   -1,065926626e-01    1,414363682e-01    5,067530274e-02   -5,312387347e-01    0,000000000e+00    0,000000000e+00    0,000000000e+00    0,000000000e+00
     1164000000    8,076046407e-02   -1,687234826e-02   -2,542057037e-01   -4,013345838e-01    0,000000000e+00    0,000000000e+00    0,000000000e+00    0,000000000e+00
     1178000000    2,775117941e-02   -2,487985194e-01   -3,699623942e-01   -1,795744747e-01    0,000000000e+00    0,000000000e+00    0,000000000e+00    0,000000000e+00
     1192000000   -2,188150734e-01   -3,479479551e-01   -3,420370519e-01    3,921791539e-02    0,000000000e+00    0,000000000e+00    0,000000000e+00    0,000000000e+00
     1206000000   -4,866623580e-01   -1,784624159e-01   -1,896514446e-01    1,834528595e-01    0,000000000e+00    0,000000000e+00    0,000000000e+00    0,000000000e+00
     1220000000   -5,007719994e-01    1,423612684e-01   -8,042639121e-03    1,793149561e-01    0,000000000e+00    0,000000000e+00    0,000000000e+00    0,000000000e+00
     1234000000   -3,007171452e-01    3,476299644e-01    7,451348007e-02    8,116928488e-02    0,000000000e+00    0,000000000e+00    0,000000000e+00    0,000000000e+00
     1248000000   -5,924978107e-02    3,548672795e-01    7,103003561e-02   -4,758747295e-03    0,000000000e+00    0,000000000e+00    0,000000000e+00    0,000000000e+00
     1262000000    1,138359532e-01    2,570971251e-01    3,133700415e-02   -2,484841645e-02    0,000000000e+00    0,000000000e+00    0,000000000e+00    0,000000000e+00
     1276000000    2,002905160e-01    1,048134118e-01    4,224201664e-03   -8,753555827e-03    0,000000000e+00    0,000000000e+00    0,000000000e+00    0,000000000e+00
     1290000000    2,228657156e-01   -6,389389187e-02    1,181576587e-02    2,433953434e-02    0,000000000e+00    0,000000000e+00    0,000000000e+00    0,000000000e+00
     1304000000    1,673084795e-01   -2,293377817e-01    6,714077294e-02    6,484955549e-02    0,000000000e+00    0,000000000e+00    0,000000000e+00    0,000000000e+00
     1318000000    2,782698348e-02   -3,603161275e-01    1,709587127e-01    2,187346295e-02    0,000000000e+00    0,000000000e+00    0,000000000e+00    0,000000000e+00
     1332000000   -1,504705250e-01   -3,942192495e-01    9,811694175e-02   -1,820162684e-01    0,000000000e+00    0,000000000e+00    0,000000000e+00    0,000000000e+00
     1346000000   -3,588175774e-01   -3,924250603e-01   -5,053964630e-02   -3,003554419e-02    0,000000000e+00    0,000000000e+00    0,000000000e+00    0,000000000e+00
     1360000000   -5,844033957e-01   -2,036554366e-01    6,532526016e-02    9,792049974e-02    0,000000000e+00    0,000000000e+00    0,000000000e+00    0,000000000e+00
     1374000000   -6,354535818e-01    1,073303148e-01    1,669878662e-01    5,992947519e-02    0,000000000e+00    0,000000000e+00    0,000000000e+00    0,000000000e+00
     1388000000   -4,738299847e-01    3,496655822e-01    2,337030470e-01   -3,018453158e-02    0,000000000e+00    0,000000000e+00    0,000000000e+00    0,000000000e+00
     1402000000   -2,399532944e-01    4,471549392e-01    2,206363082e-01   -7,412042469e-02    0,000000000e+00    0,000000000e+00    0,000000000e+00    0,000000000e+00
     1416000000   -4,240906239e-02    4,085049331e-01    1,928005219e-01   -1,099005267e-01    0,000000000e+00    0,000000000e+00    0,000000000e+00    0,000000000e+00
     1430000000    1,058457345e-01    2,991381288e-01    1,637445390e-01   -1,055536419e-01    0,000000000e+00    0,000000000e+00    0,000000000e+00    0,000000000e+00
     1444000000    1,971752942e-01    1,566298008e-01    1,547788084e-01   -1,069864035e-01    0,000000000e+00    0,000000000e+00    0,000000000e+00    0,000000000e+00
     1458000000    2,287598252e-01   -1,447300240e-02    1,519146860e-01   -8,941017091e-02    0,000000000e+00    0,000000000e+00    0,000000000e+00    0,000000000e+00
     1472000000    1,909184456e-01   -1,939142942e-01    1,328836977e-01   -4,126721248e-02    0,000000000e+00    0,000000000e+00    0,000000000e+00    0,000000000e+00
     1486000000    6,440169364e-02   -3,706330657e-01    1,541613042e-01    1,764350757e-02    0,000000000e+00    0,000000000e+00    0,000000000e+00    0,000000000e+00
     1500000000   -1,548236161e-01   -4,895653725e-01    2,423840612e-01    7,127666473e-02    0,000000000e+00    0,000000000e+00    0,000000000e+00    0,000000000e+00
