! NanoVNA-App
! Date: 2025-09-25 15:40:37
! Start: 100MHz Stop: 1,5GHz Points: 101
! S-Parameter data: F S11 S21 S12 S22
# Hz S RI R 50
!     Frequency           S11_Real           S11_Imag           S21_Real           S21_Imag           S12_Real           S12_Imag           S22_Real           S22_Imag
      100000000   -2,870020270e-02   -4,237497225e-03    3,739159703e-01   -7,214916945e-01    0,000000000e+00    0,000000000e+00    0,000000000e+00    0,000000000e+00
      114000000   -1,647949778e-02    1,146511734e-02   -8,913861960e-02   -8,052943945e-01    0,000000000e+00    0,000000000e+00    0,000000000e+00    0,000000000e+00
      128000000    3,416276071e-03    1,067250222e-02   -5,143140554e-01   -6,200461984e-01    0,000000000e+00    0,000000000e+00    0,000000000e+00    0,000000000e+00
      142000000    1,469091419e-02   -2,637757920e-03   -7,667796016e-01   -2,363638878e-01    0,000000000e+00    0,000000000e+00    0,000000000e+00    0,000000000e+00
      156000000    1,506729051e-02   -1,475471724e-02   -7,664495707e-01    2,183726579e-01    0,000000000e+00    0,000000000e+00    0,000000000e+00    0,000000000e+00
      170000000    1,713522151e-02   -2,249543928e-02   -5,180029273e-01    6,046424508e-01    0,000000000e+00    0,000000000e+00    0,000000000e+00    0,000000000e+00
      184000000    2,138970047e-02   -3,719767183e-02   -1,015487984e-01    7,860379219e-01    0,000000000e+00    0,000000000e+00    0,000000000e+00    0,000000000e+00
      198000000    1,321152411e-02   -6,253456324e-02    3,433123827e-01    7,120419741e-01    0,000000000e+00    0,000000000e+00    0,000000000e+00    0,000000000e+00
      212000000   -1,842316613e-02   -8,126258850e-02    6,776551604e-01    4,097590148e-01    0,000000000e+00    0,000000000e+00    0,000000000e+00    0,000000000e+00
      226000000   -6,133215502e-02   -6,923885643e-02    7,953739762e-01   -3,045442142e-02    0,000000000e+00    0,000000000e+00    0,000000000e+00    0,000000000e+00
      240000000   -8,219646662e-02   -2,575496957e-02    6,456886530e-01   -4,667537212e-01    0,000000000e+00    0,000000000e+00    0,000000000e+00    0,000000000e+00
      254000000   -6,334283203e-02    1,687772758e-02    2,760143876e-01   -7,428997755e-01    0,000000000e+00    0,000000000e+00    0,000000000e+00    0,000000000e+00
      268000000   -2,388654463e-02    2,872745134e-02   -1,778413355e-01   -7,639605999e-01    0,000000000e+00    0,000000000e+00    0,000000000e+00    0,000000000e+00
      282000000    4,039922263e-03    1,205188408e-02   -5,617425442e-01   -5,353224874e-01    0,000000000e+00    0,000000000e+00    0,000000000e+00    0,000000000e+00
      296000000    9,802259505e-03   -7,584751584e-03   -7,594087720e-01   -1,395681500e-01    0,000000000e+00    0,000000000e+00    0,000000000e+00    0,000000000e+00
      310000000    1,157835312e-02   -1,608179323e-02   -7,110591531e-01    2,975547314e-01    0,000000000e+00    0,000000000e+00    0,000000000e+00    0,000000000e+00
      324000000    2,021160349e-02   -2,673089877e-02   -4,275932908e-01    6,379523277e-01    0,000000000e+00    0,000000000e+00    0,000000000e+00    0,000000000e+00
      338000000    2,560621500e-02   -5,207007378e-02   -7,471326273e-03    7,603307366e-01    0,000000000e+00    0,000000000e+00    0,000000000e+00    0,000000000e+00
      352000000    7,319342811e-03   -8,457973599e-02    4,061462879e-01    6,390778422e-01    0,000000000e+00    0,000000000e+00    0,000000000e+00    0,000000000e+00
      366000000   -3,469068930e-02   -9,529937059e-02    6,897987723e-01    3,108276427e-01    0,000000000e+00    0,000000000e+00    0,000000000e+00    0,000000000e+00
      380000000   -7,032115757e-02   -7,109485567e-02    7,469832301e-01   -1,257164031e-01    0,000000000e+00    0,000000000e+00    0,000000000e+00    0,000000000e+00
      394000000   -7,195570320e-02   -3,248276561e-02    5,475466847e-01   -5,213488936e-01    0,000000000e+00    0,000000000e+00    0,000000000e+00    0,000000000e+00
      408000000   -4,643119872e-02   -1,663023978e-02    1,623876542e-01   -7,325760722e-01    0,000000000e+00    0,000000000e+00    0,000000000e+00    0,000000000e+00
      422000000   -2,837108821e-02   -3,240157664e-02   -2,670428157e-01   -6,948391795e-01    0,000000000e+00    0,000000000e+00    0,000000000e+00    0,000000000e+00
      436000000   -4,073059559e-02   -5,152699351e-02   -6,035283804e-01   -4,313450754e-01    0,000000000e+00    0,000000000e+00    0,000000000e+00    0,000000000e+00
      450000000   -6,707430631e-02   -4,413019493e-02   -7,398174405e-01   -2,204008773e-02    0,000000000e+00    0,000000000e+00    0,000000000e+00    0,000000000e+00
      464000000   -7,268358767e-02   -1,207239088e-02   -6,180971265e-01    3,968743086e-01    0,000000000e+00    0,000000000e+00    0,000000000e+00    0,000000000e+00
      478000000   -4,721981287e-02    1,131200325e-02   -2,820749283e-01    6,674068570e-01    0,000000000e+00    0,000000000e+00    0,000000000e+00    0,000000000e+00
      492000000   -1,557325386e-02    5,862077698e-03    1,377992183e-01    7,009588480e-01    0,000000000e+00    0,000000000e+00    0,000000000e+00    0,000000000e+00
      506000000   -2,714178292e-03   -1,580915041e-02    4,975325465e-01    5,031130910e-01    0,000000000e+00    0,000000000e+00    0,000000000e+00    0,000000000e+00
      520000000   -4,906186834e-03   -3,141397610e-02    6,897579432e-01    1,414430290e-01    0,000000000e+00    0,000000000e+00    0,000000000e+00    0,000000000e+00
      534000000   -3,814368276e-03   -3,799873218e-02    6,429066062e-01   -2,617942989e-01    0,000000000e+00    0,000000000e+00    0,000000000e+00    0,000000000e+00
      548000000    6,112850271e-03   -5,411260948e-02    3,809353113e-01   -5,656409860e-01    0,000000000e+00    0,000000000e+00    0,000000000e+00    0,000000000e+00
      562000000    2,984824125e-03   -8,964051306e-02    2,108176937e-03   -6,712738276e-01    0,000000000e+00    0,000000000e+00    0,000000000e+00    0,000000000e+00
      576000000   -3,394166380e-02   -1,239306629e-01   -3,684665561e-01   -5,574178100e-01    0,000000000e+00    0,000000000e+00    0,000000000e+00    0,000000000e+00
      590000000   -9,574587643e-02   -1,224693879e-01   -6,212953329e-01   -2,635305822e-01    0,000000000e+00    0,000000000e+00    0,000000000e+00    0,000000000e+00
      604000000   -1,386673450e-01   -7,219196856e-02   -6,637135148e-01    1,367920041e-01    0,000000000e+00    0,000000000e+00    0,000000000e+00    0,000000000e+00
      618000000   -1,289663613e-01   -1,052801404e-02   -4,645131528e-01    4,929067791e-01    0,000000000e+00    0,000000000e+00    0,000000000e+00    0,000000000e+00
      632000000   -8,412512392e-02    1,524948422e-02   -1,003882065e-01    6,618852615e-01    0,000000000e+00    0,000000000e+00    0,000000000e+00    0,000000000e+00
      646000000   -5,146529526e-02    2,134326060e-04    2,855682671e-01    5,940431356e-01    0,000000000e+00    0,000000000e+00    0,000000000e+00    0,000000000e+00
      660000000   -5,339392275e-02   -2,030921355e-02    5,650444627e-01    3,237651289e-01    0,000000000e+00    0,000000000e+00    0,000000000e+00    0,000000000e+00
      674000000   -6,993454695e-02   -1,618757844e-02    6,405872107e-01   -6,315157562e-02    0,000000000e+00    0,000000000e+00    0,000000000e+00    0,000000000e+00
      688000000   -6,747590005e-02    8,804344572e-03    4,707719982e-01   -4,241938591e-01    0,000000000e+00    0,000000000e+00    0,000000000e+00    0,000000000e+00
      702000000   -3,571434692e-02    2,558010817e-02    1,188637093e-01   -6,067192554e-01    0,000000000e+00    0,000000000e+00    0,000000000e+00    0,000000000e+00
      716000000    3,016117029e-03    1,658893563e-02   -2,603450119e-01   -5,456777811e-01    0,000000000e+00    0,000000000e+00    0,000000000e+00    0,000000000e+00
      730000000    3,701896593e-02   -1,298772637e-02   -5,219416022e-01   -2,713520825e-01    0,000000000e+00    0,000000000e+00    0,000000000e+00    0,000000000e+00
      744000000    6,301112473e-02   -6,587022543e-02   -5,604614019e-01    9,891893715e-02    0,000000000e+00    0,000000000e+00    0,000000000e+00    0,000000000e+00
      758000000    6,039383262e-02   -1,520157754e-01   -3,662172854e-01    4,005895555e-01    0,000000000e+00    0,000000000e+00    0,000000000e+00    0,000000000e+00
      772000000   -1,681734994e-02   -2,560262680e-01   -4,577375576e-02    5,082851648e-01    0,000000000e+00    0,000000000e+00    0,000000000e+00    0,000000000e+00
      786000000   -2,030922771e-01   -2,922100425e-01    2,592817843e-01    3,987522423e-01    0,000000000e+00    0,000000000e+00    0,000000000e+00    0,000000000e+00
      800000000   -4,084164202e-01   -1,265352666e-01    4,075554013e-01    1,183160394e-01    0,000000000e+00    0,000000000e+00    0,000000000e+00    0,000000000e+00
      814000000   -3,774766922e-01    2,022443265e-01    2,958186567e-01   -1,513095200e-01    0,000000000e+00    0,000000000e+00    0,000000000e+00    0,000000000e+00
      828000000   -6,265830994e-02    3,469313681e-01    8,232069761e-02   -1,899777204e-01    0,000000000e+00    0,000000000e+00    0,000000000e+00    0,000000000e+00
      842000000    2,122557312e-01    1,850248128e-01   -3,298317315e-03   -9,275205433e-02    0,000000000e+00    0,000000000e+00    0,000000000e+00    0,000000000e+00
      856000000    2,659443915e-01   -1,060990542e-01    3,639532253e-02   -3,693968803e-02    0,000000000e+00    0,000000000e+00    0,000000000e+00    0,000000000e+00
      870000000    8,190656453e-02   -3,512592912e-01    8,901816607e-02   -9,739790857e-02    0,000000000e+00    0,000000000e+00    0,000000000e+00    0,000000000e+00
      884000000   -2,678223848e-01   -3,561582863e-01    1,033894531e-02   -2,281983346e-01    0,000000000e+00    0,000000000e+00    0,000000000e+00    0,000000000e+00
      898000000   -4,568472803e-01   -1,366946939e-02   -2,151090652e-01   -2,104185075e-01    0,000000000e+00    0,000000000e+00    0,000000000e+00    0,000000000e+00
      912000000   -2,345810086e-01    2,780065238e-01   -3,361252248e-01    6,310069561e-02    0,000000000e+00    0,000000000e+00    0,000000000e+00    0,000000000e+00
      926000000    5,391599983e-02    2,637481391e-01   -2,089681029e-01    2,630457282e-01    0,000000000e+00    0,000000000e+00    0,000000000e+00    0,000000000e+00
      940000000    2,106468081e-01    8,401548862e-02   -2,989883348e-02    3,258479834e-01    0,000000000e+00    0,000000000e+00    0,000000000e+00    0,000000000e+00
      954000000    2,216295749e-01   -1,201018989e-01    1,330799609e-01    3,014820516e-01    0,000000000e+00    0,000000000e+00    0,000000000e+00    0,000000000e+00
      968000000    1,170498207e-01   -2,970115244e-01    2,675962448e-01    2,149631083e-01    0,000000000e+00    0,000000000e+00    0,000000000e+00    0,000000000e+00
      982000000   -7,882881165e-02   -3,854816556e-01    3,611602485e-01    6,190470234e-02    0,000000000e+00    0,000000000e+00    0,000000000e+00    0,000000000e+00
      996000000   -3,103432655e-01   -3,279357255e-01    3,623425961e-01   -1,432075202e-01    0,000000000e+00    0,000000000e+00    0,000000000e+00    0,000000000e+00
     1010000000   -4,577394128e-01   -1,190101653e-01    2,175348401e-01   -3,355755508e-01    0,000000000e+00    0,000000000e+00    0,000000000e+00    0,000000000e+00
     1024000000   -4,188715816e-01    1,435357183e-01   -3,190746158e-02   -3,859714866e-01    0,000000000e+00    0,000000000e+00    0,000000000e+00    0,000000000e+00
     1038000000   -2,197751999e-01    2,906893790e-01   -2,413488925e-01   -2,570608556e-01    0,000000000e+00    0,000000000e+00    0,000000000e+00    0,000000000e+00
     1052000000   -1,439427119e-02    2,780684531e-01   -3,095451891e-01   -4,546188936e-02    0,000000000e+00    0,000000000e+00    0,000000000e+00    0,000000000e+00
     1066000000    1,273006946e-01    1,690149754e-01   -2,481826395e-01    1,380378008e-01    0,000000000e+00    0,000000000e+00    0,000000000e+00    0,000000000e+00
     1080000000    1,954735518e-01    1,204520185e-02   -1,155254096e-01    2,530030310e-01    0,000000000e+00    0,000000000e+00    0,000000000e+00    0,000000000e+00
     1094000000    1,589555442e-01   -1,594854891e-01    5,956305936e-02    2,910515964e-01    0,000000000e+00    0,000000000e+00    0,000000000e+00    0,000000000e+00
     1108000000    1,605142839e-02   -2,946335375e-01    2,619816959e-01    2,341581583e-01    0,000000000e+00    0,000000000e+00    0,000000000e+00    0,000000000e+00
     1122000000   -2,151151150e-01   -2,857569754e-01    4,366177619e-01    2,395489626e-02    0,000000000e+00    0,000000000e+00    0,000000000e+00    0,000000000e+00
     1136000000   -3,272096813e-01   -2,452514507e-02    4,012992084e-01   -3,443091810e-01    0,000000000e+00    0,000000000e+00    0,000000000e+00    0,000000000e+00
     1150000000   -1,035131812e-01    1,355458051e-01    5,197090656e-02   -5,293480158e-01    0,000000000e+00    0,000000000e+00    0,000000000e+00    0,000000000e+00
     1164000000    8,461237699e-02   -1,803114638e-02   -2,499927133e-01   -4,030913711e-01    0,000000000e+00    0,000000000e+00    0,000000000e+00    0,000000000e+00
     1178000000    2,673272789e-02   -2,543361187e-01   -3,701581657e-01   -1,779429317e-01    0,000000000e+00    0,000000000e+00    0,000000000e+00    0,000000000e+00
     1192000000   -2,246814668e-01   -3,471578956e-01   -3,411267400e-01    4,234185070e-02    0,000000000e+00    0,000000000e+00    0,000000000e+00    0,000000000e+00
     1206000000   -4,823093414e-01   -1,799640805e-01   -1,933821589e-01    1,816058010e-01    0,000000000e+00    0,000000000e+00    0,000000000e+00    0,000000000e+00
     1220000000   -5,054927468e-01    1,366416216e-01   -1,121427212e-02    1,765425801e-01    0,000000000e+00    0,000000000e+00    0,000000000e+00    0,000000000e+00
     1234000000   -3,000715375e-01    3,482659757e-01    7,799561322e-02    7,879482210e-02    0,000000000e+00    0,000000000e+00    0,000000000e+00    0,000000000e+00
     1248000000   -6,452316791e-02    3,606100678e-01    6,855814159e-02   -2,960331738e-03    0,000000000e+00    0,000000000e+00    0,000000000e+00    0,000000000e+00
     1262000000    1,065891385e-01    2,551159859e-01    2,826186083e-02   -2,597960085e-02    0,000000000e+00    0,000000000e+00    0,000000000e+00    0,000000000e+00
     1276000000    2,021698803e-01    1,078511700e-01    6,580274552e-03   -5,671660881e-03    0,000000000e+00    0,000000000e+00    0,000000000e+00    0,000000000e+00
     1290000000    2,216670662e-01   -6,350592524e-02    1,460512355e-02    2,545099519e-02    0,000000000e+00    0,000000000e+00    0,000000000e+00    0,000000000e+00
     1304000000    1,660657376e-01   -2,343804687e-01    6,315968931e-02    5,412838608e-02    0,000000000e+00    0,000000000e+00    0,000000000e+00    0,000000000e+00
     1318000000    2,613444068e-02   -3,635412455e-01    1,768947989e-01    1,412314083e-02    0,000000000e+00    0,000000000e+00    0,000000000e+00    0,000000000e+00
     1332000000   -1,545241922e-01   -3,925166428e-01    9,683459997e-02   -1,715392321e-01    0,000000000e+00    0,000000000e+00    0,000000000e+00    0,000000000e+00
     1346000000   -3,676133752e-01   -3,928864300e-01   -6,178645417e-02   -1,848276891e-02    0,000000000e+00    0,000000000e+00    0,000000000e+00    0,000000000e+00
     1360000000   -5,827599168e-01   -2,009176463e-01    6,569673866e-02    9,435882419e-02    0,000000000e+00    0,000000000e+00    0,000000000e+00    0,000000000e+00
     1374000000   -6,255905032e-01    9,794373065e-02    1,857776344e-01    4,481533915e-02    0,000000000e+00    0,000000000e+00    0,000000000e+00    0,000000000e+00
     1388000000   -4,734053612e-01    3,476000726e-01    2,217821777e-01   -2,556553483e-02    0,000000000e+00    0,000000000e+00    0,000000000e+00    0,000000000e+00
     1402000000   -2,460820377e-01    4,425931275e-01    2,095819265e-01   -8,405590802e-02    0,000000000e+00    0,000000000e+00    0,000000000e+00    0,000000000e+00
     1416000000   -3,701040521e-02    4,156316817e-01    1,928914487e-01   -1,029601619e-01    0,000000000e+00    0,000000000e+00    0,000000000e+00    0,000000000e+00
     1430000000    1,125772372e-01    3,003321290e-01    1,739163548e-01   -1,165093854e-01    0,000000000e+00    0,000000000e+00    0,000000000e+00    0,000000000e+00
     1444000000    2,038735896e-01    1,529706568e-01    1,733044088e-01   -1,138839647e-01    0,000000000e+00    0,000000000e+00    0,000000000e+00    0,000000000e+00
     1458000000    2,321481109e-01   -1,175171044e-02    1,559616327e-01   -7,935081422e-02    0,000000000e+00    0,000000000e+00    0,000000000e+00    0,000000000e+00
     1472000000    1,903688908e-01   -1,914071292e-01    1,331584454e-01   -2,640559152e-02    0,000000000e+00    0,000000000e+00    0,000000000e+00    0,000000000e+00
     1486000000    6,538783759e-02   -3,691450655e-01    1,606968343e-01    1,919700531e-03    0,000000000e+00    0,000000000e+00    0,000000000e+00    0,000000000e+00
     1500000000   -1,658057868e-01   -4,820781052e-01    2,251044810e-01    9,289591014e-02    0,000000000e+00    0,000000000e+00    0,000000000e+00    0,000000000e+00
