! NanoVNA-App
! Date: 2025-09-25 15:38:33
! Start: 100MHz Stop: 1,5GHz Points: 101
! S-Parameter data: F S11 S21 S12 S22
# Hz S RI R 50
!     Frequency           S11_Real           S11_Imag           S21_Real           S21_Imag           S12_Real           S12_Imag           S22_Real           S22_Imag
      100000000   -2,861592732e-02   -4,226781894e-03    3,737917244e-01   -7,214461565e-01    0,000000000e+00    0,000000000e+00    0,000000000e+00    0,000000000e+00
      114000000   -1,641266048e-02    1,149367727e-02   -8,918850869e-02   -8,052107096e-01    0,000000000e+00    0,000000000e+00    0,000000000e+00    0,000000000e+00
      128000000    3,525321372e-03    1,070598140e-02   -5,142631531e-01   -6,199784279e-01    0,000000000e+00    0,000000000e+00    0,000000000e+00    0,000000000e+00
      142000000    1,478753611e-02   -2,616286045e-03   -7,665950060e-01   -2,363561243e-01    0,000000000e+00    0,000000000e+00    0,000000000e+00    0,000000000e+00
      156000000    1,490166225e-02   -1,456329785e-02   -7,638080120e-01    2,201677859e-01    0,000000000e+00    0,000000000e+00    0,000000000e+00    0,000000000e+00
      170000000    1,721551642e-02   -2,253785729e-02   -5,177168250e-01    6,046263576e-01    0,000000000e+00    0,000000000e+00    0,000000000e+00    0,000000000e+00
      184000000    2,141410671e-02   -3,720268607e-02   -1,013578773e-01    7,857183218e-01    0,000000000e+00    0,000000000e+00    0,000000000e+00    0,000000000e+00
      198000000    1,328479499e-02   -6,256387383e-02    3,433182836e-01    7,118571401e-01    0,000000000e+00    0,000000000e+00    0,000000000e+00    0,000000000e+00
      212000000   -1,834643446e-02   -8,134514838e-02    6,778042912e-01    4,095765352e-01    0,000000000e+00    0,000000000e+00    0,000000000e+00    0,000000000e+00
      226000000   -6,120778993e-02   -6,922072917e-02    7,952759266e-01   -3,058869392e-02    0,000000000e+00    0,000000000e+00    0,000000000e+00    0,000000000e+00
      240000000   -8,205843717e-02   -2,577252127e-02    6,454624534e-01   -4,666856825e-01    0,000000000e+00    0,000000000e+00    0,000000000e+00    0,000000000e+00
      254000000   -6,326223165e-02    1,684082113e-02    2,757661045e-01   -7,429008484e-01    0,000000000e+00    0,000000000e+00    0,000000000e+00    0,000000000e+00
      268000000   -2,386458777e-02    2,865845896e-02   -1,779031307e-01   -7,636876702e-01    0,000000000e+00    0,000000000e+00    0,000000000e+00    0,000000000e+00
      282000000    4,134100862e-03    1,201149635e-02   -5,612407923e-01   -5,352141857e-01    0,000000000e+00    0,000000000e+00    0,000000000e+00    0,000000000e+00
      296000000    9,904441424e-03   -7,599537726e-03   -7,591171265e-01   -1,393540204e-01    0,000000000e+00    0,000000000e+00    0,000000000e+00    0,000000000e+00
      310000000    1,163718849e-02   -1,601735689e-02   -7,109537721e-01    2,976702154e-01    0,000000000e+00    0,000000000e+00    0,000000000e+00    0,000000000e+00
      324000000    1,993371360e-02   -2,650324069e-02   -4,275620878e-01    6,376635432e-01    0,000000000e+00    0,000000000e+00    0,000000000e+00    0,000000000e+00
      338000000    2,545741200e-02   -5,250290036e-02   -6,708223838e-03    7,587410808e-01    0,000000000e+00    0,000000000e+00    0,000000000e+00    0,000000000e+00
      352000000    7,447666954e-03   -8,477759361e-02    4,060550332e-01    6,390720606e-01    0,000000000e+00    0,000000000e+00    0,000000000e+00    0,000000000e+00
      366000000   -3,430848941e-02   -9,549174458e-02    6,898353100e-01    3,110330105e-01    0,000000000e+00    0,000000000e+00    0,000000000e+00    0,000000000e+00
      380000000   -7,007459551e-02   -7,130531967e-02    7,471473217e-01   -1,258320361e-01    0,000000000e+00    0,000000000e+00    0,000000000e+00    0,000000000e+00
      394000000   -7,214399427e-02   -3,277048469e-02    5,464747548e-01   -5,209659338e-01    0,000000000e+00    0,000000000e+00    0,000000000e+00    0,000000000e+00
      408000000   -4,609942064e-02   -1,673913747e-02    1,602851450e-01   -7,325268388e-01    0,000000000e+00    0,000000000e+00    0,000000000e+00    0,000000000e+00
      422000000   -2,812259085e-02   -3,242293000e-02   -2,665214837e-01   -6,949036717e-01    0,000000000e+00    0,000000000e+00    0,000000000e+00    0,000000000e+00
      436000000   -4,032284766e-02   -5,198201165e-02   -6,031963229e-01   -4,321069419e-01    0,000000000e+00    0,000000000e+00    0,000000000e+00    0,000000000e+00
      450000000   -6,683167815e-02   -4,391425848e-02   -7,393636107e-01   -2,147899941e-02    0,000000000e+00    0,000000000e+00    0,000000000e+00    0,000000000e+00
      464000000   -7,297405601e-02   -1,192140114e-02   -6,180856824e-01    3,967267275e-01    0,000000000e+00    0,000000000e+00    0,000000000e+00    0,000000000e+00
      478000000   -4,788152501e-02    1,103537995e-02   -2,825178802e-01    6,669355035e-01    0,000000000e+00    0,000000000e+00    0,000000000e+00    0,000000000e+00
      492000000   -1,566146314e-02    5,872492213e-03    1,380122602e-01    7,018480897e-01    0,000000000e+00    0,000000000e+00    0,000000000e+00    0,000000000e+00
      506000000   -2,716603922e-03   -1,629922166e-02    4,974172711e-01    5,020121336e-01    0,000000000e+00    0,000000000e+00    0,000000000e+00    0,000000000e+00
      520000000   -5,294892006e-03   -3,125752881e-02    6,873552799e-01    1,416987479e-01    0,000000000e+00    0,000000000e+00    0,000000000e+00    0,000000000e+00
      534000000   -3,400746966e-03   -3,807500377e-02    6,435475945e-01   -2,615509331e-01    0,000000000e+00    0,000000000e+00    0,000000000e+00    0,000000000e+00
      548000000    6,538495887e-03   -5,427513644e-02    3,812803030e-01   -5,660777688e-01    0,000000000e+00    0,000000000e+00    0,000000000e+00    0,000000000e+00
      562000000    3,186441492e-03   -8,939956129e-02    2,190350322e-03   -6,708350182e-01    0,000000000e+00    0,000000000e+00    0,000000000e+00    0,000000000e+00
      576000000   -3,410503641e-02   -1,245297566e-01   -3,681894839e-01   -5,570254922e-01    0,000000000e+00    0,000000000e+00    0,000000000e+00    0,000000000e+00
      590000000   -9,576455504e-02   -1,228251234e-01   -6,193729639e-01   -2,620489895e-01    0,000000000e+00    0,000000000e+00    0,000000000e+00    0,000000000e+00
      604000000   -1,386737674e-01   -7,257376611e-02   -6,638694406e-01    1,363981068e-01    0,000000000e+00    0,000000000e+00    0,000000000e+00    0,000000000e+00
      618000000   -1,295379996e-01   -9,847301058e-03   -4,641368985e-01    4,928238988e-01    0,000000000e+00    0,000000000e+00    0,000000000e+00    0,000000000e+00
      632000000   -8,387468010e-02    1,611443423e-02   -1,000973657e-01    6,607133746e-01    0,000000000e+00    0,000000000e+00    0,000000000e+00    0,000000000e+00
      646000000   -5,224112421e-02   -2,298671607e-04    2,858703434e-01    5,947176814e-01    0,000000000e+00    0,000000000e+00    0,000000000e+00    0,000000000e+00
      660000000   -5,352649093e-02   -2,142982744e-02    5,644202828e-01    3,231397867e-01    0,000000000e+00    0,000000000e+00    0,000000000e+00    0,000000000e+00
      674000000   -6,913778931e-02   -1,650687680e-02    6,412514448e-01   -6,334371865e-02    0,000000000e+00    0,000000000e+00    0,000000000e+00    0,000000000e+00
      688000000   -6,752048433e-02    8,991903625e-03    4,706399143e-01   -4,239352047e-01    0,000000000e+00    0,000000000e+00    0,000000000e+00    0,000000000e+00
      702000000   -3,616745397e-02    2,506337129e-02    1,217097789e-01   -6,041989326e-01    0,000000000e+00    0,000000000e+00    0,000000000e+00    0,000000000e+00
      716000000    3,995305393e-03    1,580127887e-02   -2,595624328e-01   -5,449147224e-01    0,000000000e+00    0,000000000e+00    0,000000000e+00    0,000000000e+00
      730000000    3,627681732e-02   -1,407940965e-02   -5,220662355e-01   -2,706954181e-01    0,000000000e+00    0,000000000e+00    0,000000000e+00    0,000000000e+00
      744000000    6,217135862e-02   -6,580796093e-02   -5,598725080e-01    9,912152588e-02    0,000000000e+00    0,000000000e+00    0,000000000e+00    0,000000000e+00
      758000000    6,063107029e-02   -1,520782262e-01   -3,656935096e-01    4,003773332e-01    0,000000000e+00    0,000000000e+00    0,000000000e+00    0,000000000e+00
      772000000   -1,752826944e-02   -2,556531429e-01   -4,513761029e-02    5,081548691e-01    0,000000000e+00    0,000000000e+00    0,000000000e+00    0,000000000e+00
      786000000   -2,026553601e-01   -2,918807864e-01    2,600336671e-01    3,989277482e-01    0,000000000e+00    0,000000000e+00    0,000000000e+00    0,000000000e+00
      800000000   -4,086277783e-01   -1,263392270e-01    4,072869718e-01    1,177342683e-01    0,000000000e+00    0,000000000e+00    0,000000000e+00    0,000000000e+00
      814000000   -3,766546547e-01    2,013397813e-01    2,961126566e-01   -1,505983025e-01    0,000000000e+00    0,000000000e+00    0,000000000e+00    0,000000000e+00
      828000000   -6,149227172e-02    3,485079110e-01    8,138359338e-02   -1,893514544e-01    0,000000000e+00    0,000000000e+00    0,000000000e+00    0,000000000e+00
      842000000    2,118280530e-01    1,851614565e-01   -3,307605395e-03   -9,246190637e-02    0,000000000e+00    0,000000000e+00    0,000000000e+00    0,000000000e+00
      856000000    2,658582926e-01   -1,065066680e-01    3,687885031e-02   -3,691574931e-02    0,000000000e+00    0,000000000e+00    0,000000000e+00    0,000000000e+00
      870000000    8,208057284e-02   -3,513613343e-01    8,960852772e-02   -9,823200107e-02    0,000000000e+00    0,000000000e+00    0,000000000e+00    0,000000000e+00
      884000000   -2,684736252e-01   -3,548011184e-01    1,134446450e-02   -2,276300341e-01    0,000000000e+00    0,000000000e+00    0,000000000e+00    0,000000000e+00
      898000000   -4,578992426e-01   -1,312567666e-02   -2,163050622e-01   -2,096772790e-01    0,000000000e+00    0,000000000e+00    0,000000000e+00    0,000000000e+00
      912000000   -2,341654450e-01    2,787083089e-01   -3,294015229e-01    6,736768037e-02    0,000000000e+00    0,000000000e+00    0,000000000e+00    0,000000000e+00
      926000000    5,686839297e-02    2,622505426e-01   -2,076079547e-01    2,615481317e-01    0,000000000e+00    0,000000000e+00    0,000000000e+00    0,000000000e+00
      940000000    2,099724710e-01    8,602119982e-02   -3,114308417e-02    3,247914612e-01    0,000000000e+00    0,000000000e+00    0,000000000e+00    0,000000000e+00
      954000000    2,182323188e-01   -1,205269620e-01    1,310244054e-01    3,016555011e-01    0,000000000e+00    0,000000000e+00    0,000000000e+00    0,000000000e+00
      968000000    1,164531559e-01   -2,975703776e-01    2,695299387e-01    2,152424157e-01    0,000000000e+00    0,000000000e+00    0,000000000e+00    0,000000000e+00
      982000000   -7,873682678e-02   -3,832876086e-01    3,615464270e-01    6,422212720e-02    0,000000000e+00    0,000000000e+00    0,000000000e+00    0,000000000e+00
      996000000   -3,090978861e-01   -3,335099220e-01    3,624075353e-01   -1,444102526e-01    0,000000000e+00    0,000000000e+00    0,000000000e+00    0,000000000e+00
     1010000000   -4,629061520e-01   -1,174967214e-01    2,204145342e-01   -3,347293437e-01    0,000000000e+00    0,000000000e+00    0,000000000e+00    0,000000000e+00
     1024000000   -4,170705676e-01    1,392906159e-01   -3,182145581e-02   -3,853897154e-01    0,000000000e+00    0,000000000e+00    0,000000000e+00    0,000000000e+00
     1038000000   -2,219535857e-01    2,857324481e-01   -2,427406162e-01   -2,557299733e-01    0,000000000e+00    0,000000000e+00    0,000000000e+00    0,000000000e+00
     1052000000   -1,043100376e-02    2,789795697e-01   -3,109663427e-01   -4,756398126e-02    0,000000000e+00    0,000000000e+00    0,000000000e+00    0,000000000e+00
     1066000000    1,306258291e-01    1,680300236e-01   -2,515016496e-01    1,377525628e-01    0,000000000e+00    0,000000000e+00    0,000000000e+00    0,000000000e+00
     1080000000    1,927155554e-01    1,101504173e-02   -1,159188449e-01    2,552148998e-01    0,000000000e+00    0,000000000e+00    0,000000000e+00    0,000000000e+00
     1094000000    1,577634066e-01   -1,618527174e-01    6,126023456e-02    2,914641500e-01    0,000000000e+00    0,000000000e+00    0,000000000e+00    0,000000000e+00
     1108000000    1,968912221e-02   -2,933393419e-01    2,615277469e-01    2,334439009e-01    0,000000000e+00    0,000000000e+00    0,000000000e+00    0,000000000e+00
     1122000000   -2,117494196e-01   -2,849769890e-01    4,394506216e-01    2,594119310e-02    0,000000000e+00    0,000000000e+00    0,000000000e+00    0,000000000e+00
     1136000000   -3,232778311e-01   -2,775144018e-02    3,984071314e-01   -3,460488319e-01    0,000000000e+00    0,000000000e+00    0,000000000e+00    0,000000000e+00
     1150000000   -1,063056290e-01    1,409425884e-01    4,552860558e-02   -5,295790434e-01    0,000000000e+00    0,000000000e+00    0,000000000e+00    0,000000000e+00
     1164000000    8,854533732e-02   -1,742544025e-02   -2,506611943e-01   -4,029113352e-01    0,000000000e+00    0,000000000e+00    0,000000000e+00    0,000000000e+00
     1178000000    2,840792760e-02   -2,517847121e-01   -3,685490489e-01   -1,752777398e-01    0,000000000e+00    0,000000000e+00    0,000000000e+00    0,000000000e+00
     1192000000   -2,242469043e-01   -3,463686407e-01   -3,398417234e-01    4,153263196e-02    0,000000000e+00    0,000000000e+00    0,000000000e+00    0,000000000e+00
     1206000000   -4,789153636e-01   -1,779076159e-01   -1,878466308e-01    1,873862892e-01    0,000000000e+00    0,000000000e+00    0,000000000e+00    0,000000000e+00
     1220000000   -4,998414814e-01    1,417640895e-01   -1,041913591e-02    1,800181419e-01    0,000000000e+00    0,000000000e+00    0,000000000e+00    0,000000000e+00
     1234000000   -2,992453575e-01    3,391500115e-01    7,524134219e-02    7,452940941e-02    0,000000000e+00    0,000000000e+00    0,000000000e+00    0,000000000e+00
     1248000000   -5,785067379e-02    3,586240113e-01    6,771738827e-02    2,923460444e-03    0,000000000e+00    0,000000000e+00    0,000000000e+00    0,000000000e+00
     1262000000    1,064323187e-01    2,563928068e-01    3,040939383e-02   -2,166829631e-02    0,000000000e+00    0,000000000e+00    0,000000000e+00    0,000000000e+00
     1276000000    2,025934905e-01    1,099481955e-01    5,710994825e-03   -8,031376638e-03    0,000000000e+00    0,000000000e+00    0,000000000e+00    0,000000000e+00
     1290000000    2,211169153e-01   -6,325847656e-02    1,541315299e-02    2,310593240e-02    0,000000000e+00    0,000000000e+00    0,000000000e+00    0,000000000e+00
     1304000000    1,678981185e-01   -2,340444773e-01    7,074403763e-02    5,792833865e-02    0,000000000e+00    0,000000000e+00    0,000000000e+00    0,000000000e+00
     1318000000    2,456192300e-02   -3,637694418e-01    1,724241674e-01    1,545033697e-02    0,000000000e+00    0,000000000e+00    0,000000000e+00    0,000000000e+00
     1332000000   -1,510980278e-01   -3,973601162e-01    9,133647382e-02   -1,745189428e-01    0,000000000e+00    0,000000000e+00    0,000000000e+00    0,000000000e+00
     1346000000   -3,586215973e-01   -3,920551836e-01   -4,992951825e-02   -1,785210706e-02    0,000000000e+00    0,000000000e+00    0,000000000e+00    0,000000000e+00
     1360000000   -5,863164663e-01   -2,037514746e-01    6,046125293e-02    8,338908851e-02    0,000000000e+00    0,000000000e+00    0,000000000e+00    0,000000000e+00
     1374000000   -6,245286465e-01    1,014016792e-01    1,794178337e-01    4,615209252e-02    0,000000000e+00    0,000000000e+00    0,000000000e+00    0,000000000e+00
     1388000000   -4,760898948e-01    3,528896868e-01    2,168529630e-01   -3,071985021e-02    0,000000000e+00    0,000000000e+00    0,000000000e+00    0,000000000e+00
     1402000000   -2,465776354e-01    4,526498616e-01    2,154682875e-01   -7,407540828e-02    0,000000000e+00    0,000000000e+00    0,000000000e+00    0,000000000e+00
     1416000000   -4,194107279e-02    4,093696177e-01    1,894303113e-01   -1,031842083e-01    0,000000000e+00    0,000000000e+00    0,000000000e+00    0,000000000e+00
     1430000000    1,220772341e-01    3,123549521e-01    2,115965635e-01   -1,113579273e-01    0,000000000e+00    0,000000000e+00    0,000000000e+00    0,000000000e+00
     1444000000    1,989341378e-01    1,547237933e-01    1,647411138e-01   -1,201483756e-01    0,000000000e+00    0,000000000e+00    0,000000000e+00    0,000000000e+00
     1458000000    2,334649116e-01   -1,513114478e-02    1,561065167e-01   -8,881248534e-02    0,000000000e+00    0,000000000e+00    0,000000000e+00    0,000000000e+00
     1472000000    1,949993521e-01   -1,921791285e-01    1,551287174e-01   -4,678608105e-02    0,000000000e+00    0,000000000e+00    0,000000000e+00    0,000000000e+00
     1486000000    6,836214662e-02   -3,643846512e-01    1,704058796e-01    1,045863517e-02    0,000000000e+00    0,000000000e+00    0,000000000e+00    0,000000000e+00
     1500000000   -1,656356454e-01   -4,907948375e-01    2,249613255e-01    7,784335315e-02    0,000000000e+00    0,000000000e+00    0,000000000e+00    0,000000000e+00
