! NanoVNA-App
! Date: 2025-09-25 15:43:44
! Start: 100MHz Stop: 1,5GHz Points: 101
! S-Parameter data: F S11 S21 S12 S22
# Hz S RI R 50
!     Frequency           S11_Real           S11_Imag           S21_Real           S21_Imag           S12_Real           S12_Imag           S22_Real           S22_Imag
      100000000   -2,873812430e-02   -4,254275467e-03    3,739339113e-01   -7,216283083e-01    0,000000000e+00    0,000000000e+00    0,000000000e+00    0,000000000e+00
      114000000   -1,651051082e-02    1,144320145e-02   -8,915242553e-02   -8,051193953e-01    0,000000000e+00    0,000000000e+00    0,000000000e+00    0,000000000e+00
      128000000    3,440280678e-03    1,065368764e-02   -5,146294832e-01   -6,203742027e-01    0,000000000e+00    0,000000000e+00    0,000000000e+00    0,000000000e+00
      142000000    1,466770191e-02   -2,642161213e-03   -7,667500973e-01   -2,363648266e-01    0,000000000e+00    0,000000000e+00    0,000000000e+00    0,000000000e+00
      156000000    1,578132808e-02   -1,462774165e-02   -7,709879875e-01    2,217410207e-01    0,000000000e+00    0,000000000e+00    0,000000000e+00    0,000000000e+00
      170000000    1,710937358e-02   -2,242107317e-02   -5,179085732e-01    6,043178439e-01    0,000000000e+00    0,000000000e+00    0,000000000e+00    0,000000000e+00
      184000000    2,132684737e-02   -3,712827340e-02   -1,010548472e-01    7,857667208e-01    0,000000000e+00    0,000000000e+00    0,000000000e+00    0,000000000e+00
      198000000    1,324010268e-02   -6,252358109e-02    3,431687951e-01    7,119733095e-01    0,000000000e+00    0,000000000e+00    0,000000000e+00    0,000000000e+00
      212000000   -1,847508177e-02   -8,128105849e-02    6,776351929e-01    4,097470045e-01    0,000000000e+00    0,000000000e+00    0,000000000e+00    0,000000000e+00
      226000000   -6,139090657e-02   -6,921939552e-02    7,954072952e-01   -3,053946793e-02    0,000000000e+00    0,000000000e+00    0,000000000e+00    0,000000000e+00
      240000000   -8,224134892e-02   -2,582946047e-02    6,460489631e-01   -4,668099582e-01    0,000000000e+00    0,000000000e+00    0,000000000e+00    0,000000000e+00
      254000000   -6,340451539e-02    1,690702140e-02    2,757222354e-01   -7,425916791e-01    0,000000000e+00    0,000000000e+00    0,000000000e+00    0,000000000e+00
      268000000   -2,392363735e-02    2,865493111e-02   -1,779781431e-01   -7,637275457e-01    0,000000000e+00    0,000000000e+00    0,000000000e+00    0,000000000e+00
      282000000    4,069559742e-03    1,213477831e-02   -5,613850355e-01   -5,353412628e-01    0,000000000e+00    0,000000000e+00    0,000000000e+00    0,000000000e+00
      296000000    9,912765585e-03   -7,504358888e-03   -7,593836188e-01   -1,394294351e-01    0,000000000e+00    0,000000000e+00    0,000000000e+00    0,000000000e+00
      310000000    1,133765839e-02   -1,614827104e-02   -7,114074826e-01    2,969265282e-01    0,000000000e+00    0,000000000e+00    0,000000000e+00    0,000000000e+00
      324000000    2,009864524e-02   -2,674780786e-02   -4,267801642e-01    6,366589665e-01    0,000000000e+00    0,000000000e+00    0,000000000e+00    0,000000000e+00
      338000000    2,570353076e-02   -5,216873437e-02   -7,272045128e-03    7,590140700e-01    0,000000000e+00    0,000000000e+00    0,000000000e+00    0,000000000e+00
      352000000    7,336799055e-03   -8,465848863e-02    4,059244096e-01    6,396034956e-01    0,000000000e+00    0,000000000e+00    0,000000000e+00    0,000000000e+00
      366000000   -3,428775817e-02   -9,514810890e-02    6,902083158e-01    3,105584085e-01    0,000000000e+00    0,000000000e+00    0,000000000e+00    0,000000000e+00
      380000000   -7,030645758e-02   -7,125994563e-02    7,474179864e-01   -1,257204413e-01    0,000000000e+00    0,000000000e+00    0,000000000e+00    0,000000000e+00
      394000000   -7,205050439e-02   -3,259443864e-02    5,454386473e-01   -5,210425854e-01    0,000000000e+00    0,000000000e+00    0,000000000e+00    0,000000000e+00
      408000000   -4,622979090e-02   -1,638894342e-02    1,599962413e-01   -7,310532331e-01    0,000000000e+00    0,000000000e+00    0,000000000e+00    0,000000000e+00
      422000000   -2,833363414e-02   -3,212575614e-02   -2,668252289e-01   -6,940005422e-01    0,000000000e+00    0,000000000e+00    0,000000000e+00    0,000000000e+00
      436000000   -4,067640379e-02   -5,174146965e-02   -6,033976674e-01   -4,318465590e-01    0,000000000e+00    0,000000000e+00    0,000000000e+00    0,000000000e+00
      450000000   -6,717814505e-02   -4,400029033e-02   -7,400054932e-01   -2,167833038e-02    0,000000000e+00    0,000000000e+00    0,000000000e+00    0,000000000e+00
      464000000   -7,285880297e-02   -1,209376287e-02   -6,182824969e-01    3,964913785e-01    0,000000000e+00    0,000000000e+00    0,000000000e+00    0,000000000e+00
      478000000   -4,759651050e-02    1,138870697e-02   -2,834108770e-01    6,671445370e-01    0,000000000e+00    0,000000000e+00    0,000000000e+00    0,000000000e+00
      492000000   -1,554105245e-02    6,037440151e-03    1,366563439e-01    7,021090388e-01    0,000000000e+00    0,000000000e+00    0,000000000e+00    0,000000000e+00
      506000000   -2,567972522e-03   -1,600830443e-02    4,976324141e-01    5,022952557e-01    0,000000000e+00    0,000000000e+00    0,000000000e+00    0,000000000e+00
      520000000   -4,781741649e-03   -3,130342066e-02    6,866360307e-01    1,422187537e-01    0,000000000e+00    0,000000000e+00    0,000000000e+00    0,000000000e+00
      534000000   -3,269348061e-03   -3,795059398e-02    6,435307264e-01   -2,616721392e-01    0,000000000e+00    0,000000000e+00    0,000000000e+00    0,000000000e+00
      548000000    6,303165108e-03   -5,370185524e-02    3,815813959e-01   -5,660523176e-01    0,000000000e+00    0,000000000e+00    0,000000000e+00    0,000000000e+00
      562000000    3,435268300e-03   -8,957557380e-02    3,383903764e-03   -6,717185974e-01    0,000000000e+00    0,000000000e+00    0,000000000e+00    0,000000000e+00
      576000000   -3,418853506e-02   -1,242285445e-01   -3,676392734e-01   -5,573313832e-01    0,000000000e+00    0,000000000e+00    0,000000000e+00    0,000000000e+00
      590000000   -9,588390589e-02   -1,224830896e-01   -6,216682196e-01   -2,627614439e-01    0,000000000e+00    0,000000000e+00    0,000000000e+00    0,000000000e+00
      604000000   -1,387055069e-01   -7,209196687e-02   -6,637678742e-01    1,370882541e-01    0,000000000e+00    0,000000000e+00    0,000000000e+00    0,000000000e+00
      618000000   -1,287816018e-01   -9,656212293e-03   -4,641371965e-01    4,929464757e-01    0,000000000e+00    0,000000000e+00    0,000000000e+00    0,000000000e+00
      632000000   -8,423648030e-02    1,641641185e-02   -1,004964635e-01    6,617572308e-01    0,000000000e+00    0,000000000e+00    0,000000000e+00    0,000000000e+00
      646000000   -5,162623525e-02    1,810308167e-04    2,861454785e-01    5,942468047e-01    0,000000000e+00    0,000000000e+00    0,000000000e+00    0,000000000e+00
      660000000   -5,309180915e-02   -2,025724575e-02    5,652955770e-01    3,232793212e-01    0,000000000e+00    0,000000000e+00    0,000000000e+00    0,000000000e+00
      674000000   -6,984505802e-02   -1,615836099e-02    6,407307982e-01   -6,335785985e-02    0,000000000e+00    0,000000000e+00    0,000000000e+00    0,000000000e+00
      688000000   -6,760589778e-02    9,051239118e-03    4,706084430e-01   -4,239034653e-01    0,000000000e+00    0,000000000e+00    0,000000000e+00    0,000000000e+00
      702000000   -3,583528847e-02    2,675566822e-02    1,214124337e-01   -6,100795865e-01    0,000000000e+00    0,000000000e+00    0,000000000e+00    0,000000000e+00
      716000000    3,412465798e-03    1,672217995e-02   -2,590837479e-01   -5,446836948e-01    0,000000000e+00    0,000000000e+00    0,000000000e+00    0,000000000e+00
      730000000    3,709869087e-02   -1,434884593e-02   -5,219616294e-01   -2,718020976e-01    0,000000000e+00    0,000000000e+00    0,000000000e+00    0,000000000e+00
      744000000    6,303120404e-02   -6,483652443e-02   -5,604931712e-01    9,847937524e-02    0,000000000e+00    0,000000000e+00    0,000000000e+00    0,000000000e+00
      758000000    6,078050286e-02   -1,510180831e-01   -3,663980067e-01    4,003304839e-01    0,000000000e+00    0,000000000e+00    0,000000000e+00    0,000000000e+00
      772000000   -1,793836430e-02   -2,558102012e-01   -4,603151232e-02    5,094752908e-01    0,000000000e+00    0,000000000e+00    0,000000000e+00    0,000000000e+00
      786000000   -2,033250779e-01   -2,914868295e-01    2,596779466e-01    3,990816474e-01    0,000000000e+00    0,000000000e+00    0,000000000e+00    0,000000000e+00
      800000000   -4,079723954e-01   -1,265575439e-01    4,074813128e-01    1,185449436e-01    0,000000000e+00    0,000000000e+00    0,000000000e+00    0,000000000e+00
      814000000   -3,765043914e-01    2,007828951e-01    2,968773246e-01   -1,514964700e-01    0,000000000e+00    0,000000000e+00    0,000000000e+00    0,000000000e+00
      828000000   -6,317709386e-02    3,473469317e-01    8,272344619e-02   -1,911457181e-01    0,000000000e+00    0,000000000e+00    0,000000000e+00    0,000000000e+00
      842000000    2,117171735e-01    1,859247684e-01   -3,638345283e-03   -9,344894439e-02    0,000000000e+00    0,000000000e+00    0,000000000e+00    0,000000000e+00
      856000000    2,663475573e-01   -1,053596735e-01    3,583147004e-02   -3,706433252e-02    0,000000000e+00    0,000000000e+00    0,000000000e+00    0,000000000e+00
      870000000    8,229652792e-02   -3,518454731e-01    8,866555989e-02   -9,681015462e-02    0,000000000e+00    0,000000000e+00    0,000000000e+00    0,000000000e+00
      884000000   -2,677409351e-01   -3,566350341e-01    1,145685464e-02   -2,272578031e-01    0,000000000e+00    0,000000000e+00    0,000000000e+00    0,000000000e+00
      898000000   -4,586395323e-01   -1,473899372e-02   -2,146978229e-01   -2,100587338e-01    0,000000000e+00    0,000000000e+00    0,000000000e+00    0,000000000e+00
      912000000   -2,335550040e-01    2,781413496e-01   -3,281714916e-01    6,114712730e-02    0,000000000e+00    0,000000000e+00    0,000000000e+00    0,000000000e+00
      926000000    5,484333634e-02    2,633057535e-01   -2,126085162e-01    2,615102828e-01    0,000000000e+00    0,000000000e+00    0,000000000e+00    0,000000000e+00
      940000000    2,099743187e-01    8,556622267e-02   -2,981155924e-02    3,254455030e-01    0,000000000e+00    0,000000000e+00    0,000000000e+00    0,000000000e+00
      954000000    2,212515175e-01   -1,247256696e-01    1,315898746e-01    2,989237905e-01    0,000000000e+00    0,000000000e+00    0,000000000e+00    0,000000000e+00
      968000000    1,199230850e-01   -2,954948246e-01    2,687965930e-01    2,136051506e-01    0,000000000e+00    0,000000000e+00    0,000000000e+00    0,000000000e+00
      982000000   -7,576598227e-02   -3,833775520e-01    3,606863022e-01    6,306433678e-02    0,000000000e+00    0,000000000e+00    0,000000000e+00    0,000000000e+00
      996000000   -3,113280535e-01   -3,329102099e-01    3,637674153e-01   -1,434644312e-01    0,000000000e+00    0,000000000e+00    0,000000000e+00    0,000000000e+00
     1010000000   -4,629407227e-01   -1,144342497e-01    2,207432091e-01   -3,340418339e-01    0,000000000e+00    0,000000000e+00    0,000000000e+00    0,000000000e+00
     1024000000   -4,121792614e-01    1,418264657e-01   -3,197358921e-02   -3,856443167e-01    0,000000000e+00    0,000000000e+00    0,000000000e+00    0,000000000e+00
     1038000000   -2,252790183e-01    2,850080132e-01   -2,419319749e-01   -2,559293807e-01    0,000000000e+00    0,000000000e+00    0,000000000e+00    0,000000000e+00
     1052000000   -1,517686341e-02    2,843629122e-01   -3,127196729e-01   -4,903702065e-02    0,000000000e+00    0,000000000e+00    0,000000000e+00    0,000000000e+00
     1066000000    1,297823638e-01    1,680723429e-01   -2,486288399e-01    1,358451545e-01    0,000000000e+00    0,000000000e+00    0,000000000e+00    0,000000000e+00
     1080000000    1,922881305e-01    1,137441117e-02   -1,151221916e-01    2,539397180e-01    0,000000000e+00    0,000000000e+00    0,000000000e+00    0,000000000e+00
     1094000000    1,574161500e-01   -1,628107876e-01    6,030505151e-02    2,922661901e-01    0,000000000e+00    0,000000000e+00    0,000000000e+00    0,000000000e+00
     1108000000    2,151144296e-02   -2,937875688e-01    2,612503171e-01    2,335800231e-01    0,000000000e+00    0,000000000e+00    0,000000000e+00    0,000000000e+00
     1122000000   -2,171148360e-01   -2,860092521e-01    4,395354688e-01    2,516714111e-02    0,000000000e+00    0,000000000e+00    0,000000000e+00    0,000000000e+00
     1136000000   -3,263874352e-01   -2,529602498e-02    3,992304802e-01   -3,447069824e-01    0,000000000e+00    0,000000000e+00    0,000000000e+00    0,000000000e+00
     1150000000   -1,088340133e-01    1,401848942e-01    4,996619374e-02   -5,305557251e-01    0,000000000e+00    0,000000000e+00    0,000000000e+00    0,000000000e+00
     1164000000    8,251023293e-02   -2,011295222e-02   -2,527569234e-01   -4,030646980e-01    0,000000000e+00    0,000000000e+00    0,000000000e+00    0,000000000e+00
     1178000000    2,811928280e-02   -2,536135316e-01   -3,710253239e-01   -1,780436486e-01    0,000000000e+00    0,000000000e+00    0,000000000e+00    0,000000000e+00
     1192000000   -2,193642408e-01   -3,503412306e-01   -3,443904221e-01    3,883118555e-02    0,000000000e+00    0,000000000e+00    0,000000000e+00    0,000000000e+00
     1206000000   -4,757607579e-01   -1,805622429e-01   -1,862229109e-01    1,826021969e-01    0,000000000e+00    0,000000000e+00    0,000000000e+00    0,000000000e+00
     1220000000   -5,042945743e-01    1,345987767e-01   -7,722801063e-03    1,735948026e-01    0,000000000e+00    0,000000000e+00    0,000000000e+00    0,000000000e+00
     1234000000   -2,974947393e-01    3,378683031e-01    7,300535589e-02    7,998241484e-02    0,000000000e+00    0,000000000e+00    0,000000000e+00    0,000000000e+00
     1248000000   -5,674637109e-02    3,619037271e-01    7,187183946e-02    2,586148214e-03    0,000000000e+00    0,000000000e+00    0,000000000e+00    0,000000000e+00
     1262000000    1,120472774e-01    2,640545368e-01    2,978522889e-02   -2,096735686e-02    0,000000000e+00    0,000000000e+00    0,000000000e+00    0,000000000e+00
     1276000000    1,994009912e-01    1,093602926e-01    5,144585390e-03   -6,974401418e-03    0,000000000e+00    0,000000000e+00    0,000000000e+00    0,000000000e+00
     1290000000    2,199202478e-01   -6,178175285e-02    1,092521101e-02    2,659162879e-02    0,000000000e+00    0,000000000e+00    0,000000000e+00    0,000000000e+00
     1304000000    1,675939262e-01   -2,294265330e-01    6,019303575e-02    5,850150809e-02    0,000000000e+00    0,000000000e+00    0,000000000e+00    0,000000000e+00
     1318000000    2,179476991e-02   -3,590657711e-01    1,675897092e-01    1,945100352e-02    0,000000000e+00    0,000000000e+00    0,000000000e+00    0,000000000e+00
     1332000000   -1,497437209e-01   -3,938084841e-01    9,375516325e-02   -1,780086756e-01    0,000000000e+00    0,000000000e+00    0,000000000e+00    0,000000000e+00
     1346000000   -3,621981740e-01   -3,905404210e-01   -5,939245224e-02   -1,703979075e-02    0,000000000e+00    0,000000000e+00    0,000000000e+00    0,000000000e+00
     1360000000   -5,907723308e-01   -2,047156692e-01    5,991495773e-02    9,441526979e-02    0,000000000e+00    0,000000000e+00    0,000000000e+00    0,000000000e+00
     1374000000   -6,240148544e-01    1,046492010e-01    1,902619898e-01    4,897368699e-02    0,000000000e+00    0,000000000e+00    0,000000000e+00    0,000000000e+00
     1388000000   -4,749722183e-01    3,465169370e-01    2,071237564e-01   -3,071978875e-02    0,000000000e+00    0,000000000e+00    0,000000000e+00    0,000000000e+00
     1402000000   -2,437129468e-01    4,534611106e-01    2,061386108e-01   -7,101012021e-02    0,000000000e+00    0,000000000e+00    0,000000000e+00    0,000000000e+00
     1416000000   -4,006938264e-02    4,127789140e-01    1,844306290e-01   -1,047213152e-01    0,000000000e+00    0,000000000e+00    0,000000000e+00    0,000000000e+00
     1430000000    1,158689633e-01    3,029085994e-01    1,835795939e-01   -1,198247373e-01    0,000000000e+00    0,000000000e+00    0,000000000e+00    0,000000000e+00
     1444000000    2,001350969e-01    1,573952287e-01    1,555237025e-01   -1,012751460e-01    0,000000000e+00    0,000000000e+00    0,000000000e+00    0,000000000e+00
     1458000000    2,335776687e-01   -1,278981008e-02    1,556520760e-01   -8,587571979e-02    0,000000000e+00    0,000000000e+00    0,000000000e+00    0,000000000e+00
     1472000000    1,879193932e-01   -1,918157488e-01    1,442378163e-01   -3,532819450e-02    0,000000000e+00    0,000000000e+00    0,000000000e+00    0,000000000e+00
     1486000000    5,941846967e-02   -3,679337800e-01    1,630006731e-01    2,436422557e-02    0,000000000e+00    0,000000000e+00    0,000000000e+00    0,000000000e+00
     1500000000   -1,625306606e-01   -4,840072691e-01    2,258758843e-01    9,244337678e-02    0,000000000e+00    0,000000000e+00    0,000000000e+00    0,000000000e+00
