! NanoVNA-App
! Date: 2025-09-25 15:43:30
! Start: 100MHz Stop: 1,5GHz Points: 101
! S-Parameter data: F S11 S21 S12 S22
# Hz S RI R 50
!     Frequency           S11_Real           S11_Imag           S21_Real           S21_Imag           S12_Real           S12_Imag           S22_Real           S22_Imag
      100000000   -2,874006517e-02   -4,250726197e-03    3,739279509e-01   -7,215632796e-01    0,000000000e+00    0,000000000e+00    0,000000000e+00    0,000000000e+00
      114000000   -1,650146954e-02    1,149357390e-02   -8,925203979e-02   -8,051072955e-01    0,000000000e+00    0,000000000e+00    0,000000000e+00    0,000000000e+00
      128000000    3,441452282e-03    1,070074923e-02   -5,142514110e-01   -6,200512648e-01    0,000000000e+00    0,000000000e+00    0,000000000e+00    0,000000000e+00
      142000000    1,464865264e-02   -2,643532818e-03   -7,668150067e-01   -2,364683598e-01    0,000000000e+00    0,000000000e+00    0,000000000e+00    0,000000000e+00
      156000000    1,585678756e-02   -1,475579198e-02   -7,710266709e-01    2,217073292e-01    0,000000000e+00    0,000000000e+00    0,000000000e+00    0,000000000e+00
      170000000    1,712513342e-02   -2,240240946e-02   -5,180312991e-01    6,045857668e-01    0,000000000e+00    0,000000000e+00    0,000000000e+00    0,000000000e+00
      184000000    2,131891251e-02   -3,712236881e-02   -1,014331281e-01    7,854593992e-01    0,000000000e+00    0,000000000e+00    0,000000000e+00    0,000000000e+00
      198000000    1,321884990e-02   -6,257532537e-02    3,430283964e-01    7,119749784e-01    0,000000000e+00    0,000000000e+00    0,000000000e+00    0,000000000e+00
      212000000   -1,843849383e-02   -8,129522204e-02    6,778950691e-01    4,097949266e-01    0,000000000e+00    0,000000000e+00    0,000000000e+00    0,000000000e+00
      226000000   -6,134879217e-02   -6,924378127e-02    7,954124212e-01   -3,038053028e-02    0,000000000e+00    0,000000000e+00    0,000000000e+00    0,000000000e+00
      240000000   -8,221200109e-02   -2,583927475e-02    6,459565163e-01   -4,667744935e-01    0,000000000e+00    0,000000000e+00    0,000000000e+00    0,000000000e+00
      254000000   -6,339605898e-02    1,694917493e-02    2,760343552e-01   -7,428987622e-01    0,000000000e+00    0,000000000e+00    0,000000000e+00    0,000000000e+00
      268000000   -2,396344021e-02    2,874301933e-02   -1,777726710e-01   -7,637830377e-01    0,000000000e+00    0,000000000e+00    0,000000000e+00    0,000000000e+00
      282000000    4,099547397e-03    1,210486796e-02   -5,616064668e-01   -5,357027054e-01    0,000000000e+00    0,000000000e+00    0,000000000e+00    0,000000000e+00
      296000000    9,898019023e-03   -7,519394159e-03   -7,594307065e-01   -1,395530850e-01    0,000000000e+00    0,000000000e+00    0,000000000e+00    0,000000000e+00
      310000000    1,153681427e-02   -1,613796502e-02   -7,127191424e-01    2,988525331e-01    0,000000000e+00    0,000000000e+00    0,000000000e+00    0,000000000e+00
      324000000    2,017141692e-02   -2,671450190e-02   -4,269441664e-01    6,375957131e-01    0,000000000e+00    0,000000000e+00    0,000000000e+00    0,000000000e+00
      338000000    2,576791123e-02   -5,234081671e-02   -1,005970500e-02    7,612679601e-01    0,000000000e+00    0,000000000e+00    0,000000000e+00    0,000000000e+00
      352000000    7,578035817e-03   -8,475584537e-02    4,058626592e-01    6,392573118e-01    0,000000000e+00    0,000000000e+00    0,000000000e+00    0,000000000e+00
      366000000   -3,462911397e-02   -9,564744681e-02    6,901727319e-01    3,107874691e-01    0,000000000e+00    0,000000000e+00    0,000000000e+00    0,000000000e+00
      380000000   -7,037396729e-02   -7,118269056e-02    7,466041446e-01   -1,256611794e-01    0,000000000e+00    0,000000000e+00    0,000000000e+00    0,000000000e+00
      394000000   -7,210700959e-02   -3,268177435e-02    5,456040502e-01   -5,212774873e-01    0,000000000e+00    0,000000000e+00    0,000000000e+00    0,000000000e+00
      408000000   -4,623113573e-02   -1,650491171e-02    1,618211120e-01   -7,327790856e-01    0,000000000e+00    0,000000000e+00    0,000000000e+00    0,000000000e+00
      422000000   -2,825703099e-02   -3,228019923e-02   -2,660418749e-01   -6,951217651e-01    0,000000000e+00    0,000000000e+00    0,000000000e+00    0,000000000e+00
      436000000   -4,045577720e-02   -5,176804215e-02   -6,033725142e-01   -4,316036701e-01    0,000000000e+00    0,000000000e+00    0,000000000e+00    0,000000000e+00
      450000000   -6,720338762e-02   -4,405778646e-02   -7,399345636e-01   -2,156135067e-02    0,000000000e+00    0,000000000e+00    0,000000000e+00    0,000000000e+00
      464000000   -7,298148423e-02   -1,175175793e-02   -6,184101701e-01    3,970336318e-01    0,000000000e+00    0,000000000e+00    0,000000000e+00    0,000000000e+00
      478000000   -4,774704948e-02    1,158129144e-02   -2,831003070e-01    6,678210497e-01    0,000000000e+00    0,000000000e+00    0,000000000e+00    0,000000000e+00
      492000000   -1,562757045e-02    5,653609987e-03    1,373071223e-01    7,010968328e-01    0,000000000e+00    0,000000000e+00    0,000000000e+00    0,000000000e+00
      506000000   -2,941892482e-03   -1,609728299e-02    4,980134964e-01    5,021955967e-01    0,000000000e+00    0,000000000e+00    0,000000000e+00    0,000000000e+00
      520000000   -4,987231921e-03   -3,159656748e-02    6,878190637e-01    1,423529983e-01    0,000000000e+00    0,000000000e+00    0,000000000e+00    0,000000000e+00
      534000000   -3,808310255e-03   -3,789571300e-02    6,433598399e-01   -2,615020573e-01    0,000000000e+00    0,000000000e+00    0,000000000e+00    0,000000000e+00
      548000000    6,324467715e-03   -5,414922908e-02    3,812901974e-01   -5,666607022e-01    0,000000000e+00    0,000000000e+00    0,000000000e+00    0,000000000e+00
      562000000    3,193472512e-03   -8,956652135e-02    2,680406207e-03   -6,712747812e-01    0,000000000e+00    0,000000000e+00    0,000000000e+00    0,000000000e+00
      576000000   -3,379736096e-02   -1,239947304e-01   -3,685574532e-01   -5,568491817e-01    0,000000000e+00    0,000000000e+00    0,000000000e+00    0,000000000e+00
      590000000   -9,556109458e-02   -1,229502335e-01   -6,183357835e-01   -2,638870180e-01    0,000000000e+00    0,000000000e+00    0,000000000e+00    0,000000000e+00
      604000000   -1,387950778e-01   -7,263949513e-02   -6,639817953e-01    1,361196637e-01    0,000000000e+00    0,000000000e+00    0,000000000e+00    0,000000000e+00
      618000000   -1,294281632e-01   -9,511617012e-03   -4,641452730e-01    4,929303229e-01    0,000000000e+00    0,000000000e+00    0,000000000e+00    0,000000000e+00
      632000000   -8,403297514e-02    1,617934741e-02   -1,002884507e-01    6,622492075e-01    0,000000000e+00    0,000000000e+00    0,000000000e+00    0,000000000e+00
      646000000   -5,145888776e-02    9,527933435e-04    2,860086262e-01    5,945268273e-01    0,000000000e+00    0,000000000e+00    0,000000000e+00    0,000000000e+00
      660000000   -5,353199691e-02   -2,137249708e-02    5,649517179e-01    3,236460686e-01    0,000000000e+00    0,000000000e+00    0,000000000e+00    0,000000000e+00
      674000000   -6,980213523e-02   -1,614678651e-02    6,408632994e-01   -6,309171021e-02    0,000000000e+00    0,000000000e+00    0,000000000e+00    0,000000000e+00
      688000000   -6,747984141e-02    9,485522285e-03    4,705250263e-01   -4,239315391e-01    0,000000000e+00    0,000000000e+00    0,000000000e+00    0,000000000e+00
      702000000   -3,686838225e-02    2,633698285e-02    1,167715341e-01   -6,080589294e-01    0,000000000e+00    0,000000000e+00    0,000000000e+00    0,000000000e+00
      716000000    4,090242088e-03    1,603812352e-02   -2,594056129e-01   -5,447223186e-01    0,000000000e+00    0,000000000e+00    0,000000000e+00    0,000000000e+00
      730000000    3,732572123e-02   -1,321947202e-02   -5,221637487e-01   -2,716092467e-01    0,000000000e+00    0,000000000e+00    0,000000000e+00    0,000000000e+00
      744000000    6,217026338e-02   -6,491116434e-02   -5,604000688e-01    9,844592214e-02    0,000000000e+00    0,000000000e+00    0,000000000e+00    0,000000000e+00
      758000000    6,070217118e-02   -1,519693881e-01   -3,661672473e-01    4,002000988e-01    0,000000000e+00    0,000000000e+00    0,000000000e+00    0,000000000e+00
      772000000   -1,766060665e-02   -2,561115921e-01   -4,617191479e-02    5,098093152e-01    0,000000000e+00    0,000000000e+00    0,000000000e+00    0,000000000e+00
      786000000   -2,022634149e-01   -2,910970449e-01    2,597326040e-01    3,996264338e-01    0,000000000e+00    0,000000000e+00    0,000000000e+00    0,000000000e+00
      800000000   -4,073206484e-01   -1,280029565e-01    4,073251188e-01    1,187197864e-01    0,000000000e+00    0,000000000e+00    0,000000000e+00    0,000000000e+00
      814000000   -3,776254654e-01    2,019246817e-01    2,969377339e-01   -1,508729607e-01    0,000000000e+00    0,000000000e+00    0,000000000e+00    0,000000000e+00
      828000000   -6,285754591e-02    3,485969007e-01    8,217760175e-02   -1,910271645e-01    0,000000000e+00    0,000000000e+00    0,000000000e+00    0,000000000e+00
      842000000    2,109890580e-01    1,856075525e-01   -3,969374578e-03   -9,366252273e-02    0,000000000e+00    0,000000000e+00    0,000000000e+00    0,000000000e+00
      856000000    2,660061419e-01   -1,054681018e-01    3,555601090e-02   -3,684201837e-02    0,000000000e+00    0,000000000e+00    0,000000000e+00    0,000000000e+00
      870000000    8,309648931e-02   -3,514091969e-01    8,878570050e-02   -9,711667150e-02    0,000000000e+00    0,000000000e+00    0,000000000e+00    0,000000000e+00
      884000000   -2,673342824e-01   -3,559331596e-01    1,184316538e-02   -2,277164757e-01    0,000000000e+00    0,000000000e+00    0,000000000e+00    0,000000000e+00
      898000000   -4,572135210e-01   -1,415580604e-02   -2,146427780e-01   -2,094437331e-01    0,000000000e+00    0,000000000e+00    0,000000000e+00    0,000000000e+00
      912000000   -2,347531170e-01    2,780221105e-01   -3,410346806e-01    7,910159230e-02    0,000000000e+00    0,000000000e+00    0,000000000e+00    0,000000000e+00
      926000000    5,479553714e-02    2,608777285e-01   -2,115014642e-01    2,621996701e-01    0,000000000e+00    0,000000000e+00    0,000000000e+00    0,000000000e+00
      940000000    2,084434628e-01    8,643304557e-02   -3,219637647e-02    3,255891800e-01    0,000000000e+00    0,000000000e+00    0,000000000e+00    0,000000000e+00
      954000000    2,192305923e-01   -1,191694289e-01    1,309755445e-01    2,997890711e-01    0,000000000e+00    0,000000000e+00    0,000000000e+00    0,000000000e+00
      968000000    1,168292910e-01   -2,949545383e-01    2,679657340e-01    2,131133825e-01    0,000000000e+00    0,000000000e+00    0,000000000e+00    0,000000000e+00
      982000000   -7,700732350e-02   -3,879446983e-01    3,592890501e-01    6,414662302e-02    0,000000000e+00    0,000000000e+00    0,000000000e+00    0,000000000e+00
      996000000   -3,137651384e-01   -3,282974064e-01    3,631925881e-01   -1,438001841e-01    0,000000000e+00    0,000000000e+00    0,000000000e+00    0,000000000e+00
     1010000000   -4,582254887e-01   -1,160568893e-01    2,198206186e-01   -3,346719444e-01    0,000000000e+00    0,000000000e+00    0,000000000e+00    0,000000000e+00
     1024000000   -4,165929556e-01    1,408904791e-01   -3,385511041e-02   -3,841709197e-01    0,000000000e+00    0,000000000e+00    0,000000000e+00    0,000000000e+00
     1038000000   -2,227846235e-01    2,853956521e-01   -2,416212708e-01   -2,577237785e-01    0,000000000e+00    0,000000000e+00    0,000000000e+00    0,000000000e+00
     1052000000   -9,512086399e-03    2,794231772e-01   -3,139593601e-01   -4,626092687e-02    0,000000000e+00    0,000000000e+00    0,000000000e+00    0,000000000e+00
     1066000000    1,339508295e-01    1,698543876e-01   -2,533065677e-01    1,382844001e-01    0,000000000e+00    0,000000000e+00    0,000000000e+00    0,000000000e+00
     1080000000    1,936404556e-01    1,149372384e-02   -1,158805192e-01    2,528323233e-01    0,000000000e+00    0,000000000e+00    0,000000000e+00    0,000000000e+00
     1094000000    1,617095172e-01   -1,650322676e-01    6,028081849e-02    2,913815975e-01    0,000000000e+00    0,000000000e+00    0,000000000e+00    0,000000000e+00
     1108000000    2,180214413e-02   -2,950209975e-01    2,623493075e-01    2,362866700e-01    0,000000000e+00    0,000000000e+00    0,000000000e+00    0,000000000e+00
     1122000000   -2,124732286e-01   -2,863482535e-01    4,404492974e-01    2,659828961e-02    0,000000000e+00    0,000000000e+00    0,000000000e+00    0,000000000e+00
     1136000000   -3,207140565e-01   -3,194188699e-02    4,000221193e-01   -3,436590135e-01    0,000000000e+00    0,000000000e+00    0,000000000e+00    0,000000000e+00
     1150000000   -1,065513939e-01    1,416508704e-01    4,755959287e-02   -5,307390690e-01    0,000000000e+00    0,000000000e+00    0,000000000e+00    0,000000000e+00
     1164000000    8,756849170e-02   -1,978243329e-02   -2,501018643e-01   -4,015752375e-01    0,000000000e+00    0,000000000e+00    0,000000000e+00    0,000000000e+00
     1178000000    3,021270409e-02   -2,511270046e-01   -3,693280220e-01   -1,799761951e-01    0,000000000e+00    0,000000000e+00    0,000000000e+00    0,000000000e+00
     1192000000   -2,203041017e-01   -3,491232395e-01   -3,413862586e-01    3,781893104e-02    0,000000000e+00    0,000000000e+00    0,000000000e+00    0,000000000e+00
     1206000000   -4,780963361e-01   -1,814789325e-01   -1,873937398e-01    1,777735800e-01    0,000000000e+00    0,000000000e+00    0,000000000e+00    0,000000000e+00
     1220000000   -5,040699244e-01    1,378462464e-01   -1,268392615e-02    1,759809852e-01    0,000000000e+00    0,000000000e+00    0,000000000e+00    0,000000000e+00
     1234000000   -2,977788448e-01    3,406511247e-01    7,789637893e-02    7,963718474e-02    0,000000000e+00    0,000000000e+00    0,000000000e+00    0,000000000e+00
     1248000000   -5,846175551e-02    3,625323176e-01    7,133209705e-02    1,060989453e-03    0,000000000e+00    0,000000000e+00    0,000000000e+00    0,000000000e+00
     1262000000    1,092522964e-01    2,536022961e-01    3,202642500e-02   -2,558361180e-02    0,000000000e+00    0,000000000e+00    0,000000000e+00    0,000000000e+00
     1276000000    2,050554305e-01    1,056035981e-01    9,857978672e-03   -9,652662091e-03    0,000000000e+00    0,000000000e+00    0,000000000e+00    0,000000000e+00
     1290000000    2,199965268e-01   -6,388621777e-02    1,079057343e-02    2,390813455e-02    0,000000000e+00    0,000000000e+00    0,000000000e+00    0,000000000e+00
     1304000000    1,663313657e-01   -2,331760973e-01    5,977730826e-02    5,744705722e-02    0,000000000e+00    0,000000000e+00    0,000000000e+00    0,000000000e+00
     1318000000    2,807427943e-02   -3,623570502e-01    1,774048805e-01    1,731897332e-02    0,000000000e+00    0,000000000e+00    0,000000000e+00    0,000000000e+00
     1332000000   -1,459696442e-01   -3,917107284e-01    1,032731533e-01   -1,791540980e-01    0,000000000e+00    0,000000000e+00    0,000000000e+00    0,000000000e+00
     1346000000   -3,583587110e-01   -3,948339224e-01   -4,816792533e-02   -3,019536473e-02    0,000000000e+00    0,000000000e+00    0,000000000e+00    0,000000000e+00
     1360000000   -5,791459680e-01   -2,054735124e-01    7,277839631e-02    8,579674363e-02    0,000000000e+00    0,000000000e+00    0,000000000e+00    0,000000000e+00
     1374000000   -6,231833100e-01    1,015752330e-01    1,743651628e-01    4,152767733e-02    0,000000000e+00    0,000000000e+00    0,000000000e+00    0,000000000e+00
     1388000000   -4,742201567e-01    3,578286767e-01    2,229413688e-01   -2,075942233e-02    0,000000000e+00    0,000000000e+00    0,000000000e+00    0,000000000e+00
     1402000000   -2,463560551e-01    4,462771416e-01    1,925878823e-01   -7,561661303e-02    0,000000000e+00    0,000000000e+00    0,000000000e+00    0,000000000e+00
     1416000000   -3,121557459e-02    4,088397920e-01    1,946501881e-01   -1,033609360e-01    0,000000000e+00    0,000000000e+00    0,000000000e+00    0,000000000e+00
     1430000000    1,123733222e-01    3,089564741e-01    1,730903536e-01   -1,046395451e-01    0,000000000e+00    0,000000000e+00    0,000000000e+00    0,000000000e+00
     1444000000    2,037997544e-01    1,618007421e-01    1,693285853e-01   -1,095359176e-01    0,000000000e+00    0,000000000e+00    0,000000000e+00    0,000000000e+00
     1458000000    2,280936986e-01   -1,243077405e-02    1,389422715e-01   -9,298047423e-02    0,000000000e+00    0,000000000e+00    0,000000000e+00    0,000000000e+00
     1472000000    1,922657788e-01   -1,911309063e-01    1,412573010e-01   -3,472981602e-02    0,000000000e+00    0,000000000e+00    0,000000000e+00    0,000000000e+00
     1486000000    7,236109674e-02   -3,647072911e-01    1,744613349e-01    2,315152623e-02    0,000000000e+00    0,000000000e+00    0,000000000e+00    0,000000000e+00
     1500000000   -1,622038037e-01   -4,828134179e-01    2,223033160e-01    7,620121539e-02    0,000000000e+00    0,000000000e+00    0,000000000e+00    0,000000000e+00
