! NanoVNA-App
! Date: 2025-09-25 15:43:04
! Start: 100MHz Stop: 1,5GHz Points: 101
! S-Parameter data: F S11 S21 S12 S22
# Hz S RI R 50
!     Frequency           S11_Real           S11_Imag           S21_Real           S21_Imag           S12_Real           S12_Imag           S22_Real           S22_Imag
      100000000   -2,877514996e-02   -4,240112379e-03    3,739436865e-01   -7,215613723e-01    0,000000000e+00    0,000000000e+00    0,000000000e+00    0,000000000e+00
      114000000   -1,655832864e-02    1,150186360e-02   -8,922167867e-02   -8,052188754e-01    0,000000000e+00    0,000000000e+00    0,000000000e+00    0,000000000e+00
      128000000    3,429130884e-03    1,068224292e-02   -5,142793059e-01   -6,203017235e-01    0,000000000e+00    0,000000000e+00    0,000000000e+00    0,000000000e+00
      142000000    1,461471058e-02   -2,658309182e-03   -7,669727802e-01   -2,366716415e-01    0,000000000e+00    0,000000000e+00    0,000000000e+00    0,000000000e+00
      156000000    1,545573398e-02   -1,474495232e-02   -7,689924836e-01    2,197414339e-01    0,000000000e+00    0,000000000e+00    0,000000000e+00    0,000000000e+00
      170000000    1,702720299e-02   -2,250806242e-02   -5,180076957e-01    6,042924523e-01    0,000000000e+00    0,000000000e+00    0,000000000e+00    0,000000000e+00
      184000000    2,131850459e-02   -3,716149554e-02   -1,013456583e-01    7,859628201e-01    0,000000000e+00    0,000000000e+00    0,000000000e+00    0,000000000e+00
      198000000    1,317630336e-02   -6,255425513e-02    3,430413902e-01    7,119011879e-01    0,000000000e+00    0,000000000e+00    0,000000000e+00    0,000000000e+00
      212000000   -1,843692362e-02   -8,126854151e-02    6,778749824e-01    4,097254872e-01    0,000000000e+00    0,000000000e+00    0,000000000e+00    0,000000000e+00
      226000000   -6,138709933e-02   -6,923384219e-02    7,954093814e-01   -3,041062877e-02    0,000000000e+00    0,000000000e+00    0,000000000e+00    0,000000000e+00
      240000000   -8,231011778e-02   -2,579169720e-02    6,459354758e-01   -4,667703211e-01    0,000000000e+00    0,000000000e+00    0,000000000e+00    0,000000000e+00
      254000000   -6,341990829e-02    1,696791686e-02    2,759956121e-01   -7,424361706e-01    0,000000000e+00    0,000000000e+00    0,000000000e+00    0,000000000e+00
      268000000   -2,399987169e-02    2,875626273e-02   -1,781904548e-01   -7,635993958e-01    0,000000000e+00    0,000000000e+00    0,000000000e+00    0,000000000e+00
      282000000    4,013485741e-03    1,210256759e-02   -5,614816546e-01   -5,351635814e-01    0,000000000e+00    0,000000000e+00    0,000000000e+00    0,000000000e+00
      296000000    9,904565290e-03   -7,502513472e-03   -7,594656944e-01   -1,395125389e-01    0,000000000e+00    0,000000000e+00    0,000000000e+00    0,000000000e+00
      310000000    1,138609275e-02   -1,593694091e-02   -7,126770020e-01    2,971563935e-01    0,000000000e+00    0,000000000e+00    0,000000000e+00    0,000000000e+00
      324000000    1,999118924e-02   -2,654693276e-02   -4,270790517e-01    6,364970803e-01    0,000000000e+00    0,000000000e+00    0,000000000e+00    0,000000000e+00
      338000000    2,563263662e-02   -5,232169107e-02   -9,587598965e-03    7,619026899e-01    0,000000000e+00    0,000000000e+00    0,000000000e+00    0,000000000e+00
      352000000    7,596865296e-03   -8,445490152e-02    4,066664875e-01    6,398370862e-01    0,000000000e+00    0,000000000e+00    0,000000000e+00    0,000000000e+00
      366000000   -3,443995118e-02   -9,558252245e-02    6,910545230e-01    3,106188774e-01    0,000000000e+00    0,000000000e+00    0,000000000e+00    0,000000000e+00
      380000000   -7,043358684e-02   -7,102877647e-02    7,470754385e-01   -1,255331188e-01    0,000000000e+00    0,000000000e+00    0,000000000e+00    0,000000000e+00
      394000000   -7,215230912e-02   -3,254643083e-02    5,460051894e-01   -5,206429362e-01    0,000000000e+00    0,000000000e+00    0,000000000e+00    0,000000000e+00
      408000000   -4,613049328e-02   -1,640858315e-02    1,618628502e-01   -7,317316532e-01    0,000000000e+00    0,000000000e+00    0,000000000e+00    0,000000000e+00
      422000000   -2,867343277e-02   -3,224576637e-02   -2,672486603e-01   -6,949164867e-01    0,000000000e+00    0,000000000e+00    0,000000000e+00    0,000000000e+00
      436000000   -4,065800086e-02   -5,193356052e-02   -6,035495996e-01   -4,312459230e-01    0,000000000e+00    0,000000000e+00    0,000000000e+00    0,000000000e+00
      450000000   -6,690541655e-02   -4,351970181e-02   -7,399370074e-01   -2,199898660e-02    0,000000000e+00    0,000000000e+00    0,000000000e+00    0,000000000e+00
      464000000   -7,318101823e-02   -1,165723056e-02   -6,182124019e-01    3,964691460e-01    0,000000000e+00    0,000000000e+00    0,000000000e+00    0,000000000e+00
      478000000   -4,771580175e-02    1,140855718e-02   -2,823844552e-01    6,676123738e-01    0,000000000e+00    0,000000000e+00    0,000000000e+00    0,000000000e+00
      492000000   -1,568076387e-02    5,782726221e-03    1,369146258e-01    7,009216547e-01    0,000000000e+00    0,000000000e+00    0,000000000e+00    0,000000000e+00
      506000000   -2,881488530e-03   -1,588426344e-02    4,969729185e-01    5,025649071e-01    0,000000000e+00    0,000000000e+00    0,000000000e+00    0,000000000e+00
      520000000   -5,410871003e-03   -3,113341704e-02    6,869962811e-01    1,398553997e-01    0,000000000e+00    0,000000000e+00    0,000000000e+00    0,000000000e+00
      534000000   -3,632749896e-03   -3,817358613e-02    6,435862184e-01   -2,623620629e-01    0,000000000e+00    0,000000000e+00    0,000000000e+00    0,000000000e+00
      548000000    6,653732620e-03   -5,367311090e-02    3,813516498e-01   -5,661523938e-01    0,000000000e+00    0,000000000e+00    0,000000000e+00    0,000000000e+00
      562000000    3,296648618e-03   -8,903845400e-02    3,535189433e-03   -6,715854406e-01    0,000000000e+00    0,000000000e+00    0,000000000e+00    0,000000000e+00
      576000000   -3,437773511e-02   -1,242677122e-01   -3,676714897e-01   -5,569608808e-01    0,000000000e+00    0,000000000e+00    0,000000000e+00    0,000000000e+00
      590000000   -9,585078061e-02   -1,230099648e-01   -6,217448711e-01   -2,646057010e-01    0,000000000e+00    0,000000000e+00    0,000000000e+00    0,000000000e+00
      604000000   -1,387954205e-01   -7,184547186e-02   -6,636989713e-01    1,371896118e-01    0,000000000e+00    0,000000000e+00    0,000000000e+00    0,000000000e+00
      618000000   -1,291608661e-01   -9,532689117e-03   -4,650701880e-01    4,932006598e-01    0,000000000e+00    0,000000000e+00    0,000000000e+00    0,000000000e+00
      632000000   -8,448936790e-02    1,638759114e-02   -1,000801474e-01    6,624445915e-01    0,000000000e+00    0,000000000e+00    0,000000000e+00    0,000000000e+00
      646000000   -5,235631391e-02    9,106305079e-04    2,862169147e-01    5,946879983e-01    0,000000000e+00    0,000000000e+00    0,000000000e+00    0,000000000e+00
      660000000   -5,312470719e-02   -2,060278133e-02    5,649212003e-01    3,230414391e-01    0,000000000e+00    0,000000000e+00    0,000000000e+00    0,000000000e+00
      674000000   -6,955538690e-02   -1,598368399e-02    6,410744190e-01   -6,350679696e-02    0,000000000e+00    0,000000000e+00    0,000000000e+00    0,000000000e+00
      688000000   -6,697824597e-02    9,876576252e-03    4,705160856e-01   -4,239711761e-01    0,000000000e+00    0,000000000e+00    0,000000000e+00    0,000000000e+00
      702000000   -3,594207764e-02    2,663112991e-02    1,196611300e-01   -6,050819159e-01    0,000000000e+00    0,000000000e+00    0,000000000e+00    0,000000000e+00
      716000000    4,097656347e-03    1,640150324e-02   -2,598693073e-01   -5,445929766e-01    0,000000000e+00    0,000000000e+00    0,000000000e+00    0,000000000e+00
      730000000    3,673955426e-02   -1,308126654e-02   -5,221230388e-01   -2,718129456e-01    0,000000000e+00    0,000000000e+00    0,000000000e+00    0,000000000e+00
      744000000    6,184215844e-02   -6,505987793e-02   -5,601707101e-01    9,887689352e-02    0,000000000e+00    0,000000000e+00    0,000000000e+00    0,000000000e+00
      758000000    6,187830120e-02   -1,514352709e-01   -3,666475415e-01    4,004786611e-01    0,000000000e+00    0,000000000e+00    0,000000000e+00    0,000000000e+00
      772000000   -1,764594764e-02   -2,563079596e-01   -4,550418630e-02    5,089485049e-01    0,000000000e+00    0,000000000e+00    0,000000000e+00    0,000000000e+00
      786000000   -2,017199844e-01   -2,919528782e-01    2,591376007e-01    3,996491730e-01    0,000000000e+00    0,000000000e+00    0,000000000e+00    0,000000000e+00
      800000000   -4,070792496e-01   -1,273677498e-01    4,071214795e-01    1,188950688e-01    0,000000000e+00    0,000000000e+00    0,000000000e+00    0,000000000e+00
      814000000   -3,756323159e-01    2,025129497e-01    2,963885963e-01   -1,511897892e-01    0,000000000e+00    0,000000000e+00    0,000000000e+00    0,000000000e+00
      828000000   -6,313571334e-02    3,458978832e-01    8,229893446e-02   -1,910948902e-01    0,000000000e+00    0,000000000e+00    0,000000000e+00    0,000000000e+00
      842000000    2,120584548e-01    1,854600161e-01   -3,268312430e-03   -9,312834591e-02    0,000000000e+00    0,000000000e+00    0,000000000e+00    0,000000000e+00
      856000000    2,662597001e-01   -1,056501642e-01    3,623318300e-02   -3,682468832e-02    0,000000000e+00    0,000000000e+00    0,000000000e+00    0,000000000e+00
      870000000    8,207232505e-02   -3,506045640e-01    8,860982955e-02   -9,716939926e-02    0,000000000e+00    0,000000000e+00    0,000000000e+00    0,000000000e+00
      884000000   -2,682442665e-01   -3,565576971e-01    1,142442599e-02   -2,276003808e-01    0,000000000e+00    0,000000000e+00    0,000000000e+00    0,000000000e+00
      898000000   -4,575832188e-01   -1,466734800e-02   -2,156276405e-01   -2,101199180e-01    0,000000000e+00    0,000000000e+00    0,000000000e+00    0,000000000e+00
      912000000   -2,352532297e-01    2,785800695e-01   -3,269469440e-01    6,553448737e-02    0,000000000e+00    0,000000000e+00    0,000000000e+00    0,000000000e+00
      926000000    5,601047724e-02    2,620924413e-01   -2,084501088e-01    2,632723451e-01    0,000000000e+00    0,000000000e+00    0,000000000e+00    0,000000000e+00
      940000000    2,097817808e-01    8,649662137e-02   -3,112468123e-02    3,267765939e-01    0,000000000e+00    0,000000000e+00    0,000000000e+00    0,000000000e+00
      954000000    2,216020674e-01   -1,229822338e-01    1,326870769e-01    2,997097969e-01    0,000000000e+00    0,000000000e+00    0,000000000e+00    0,000000000e+00
      968000000    1,193010807e-01   -2,947968841e-01    2,677063644e-01    2,131134570e-01    0,000000000e+00    0,000000000e+00    0,000000000e+00    0,000000000e+00
      982000000   -7,805205137e-02   -3,821021318e-01    3,610821068e-01    6,203841045e-02    0,000000000e+00    0,000000000e+00    0,000000000e+00    0,000000000e+00
      996000000   -3,139892220e-01   -3,318112791e-01    3,623934686e-01   -1,443679482e-01    0,000000000e+00    0,000000000e+00    0,000000000e+00    0,000000000e+00
     1010000000   -4,616886377e-01   -1,193215102e-01    2,217152417e-01   -3,349076807e-01    0,000000000e+00    0,000000000e+00    0,000000000e+00    0,000000000e+00
     1024000000   -4,164139032e-01    1,399841905e-01   -3,145098314e-02   -3,878180981e-01    0,000000000e+00    0,000000000e+00    0,000000000e+00    0,000000000e+00
     1038000000   -2,244263738e-01    2,931368947e-01   -2,415109426e-01   -2,584224343e-01    0,000000000e+00    0,000000000e+00    0,000000000e+00    0,000000000e+00
     1052000000   -1,522936672e-02    2,801930606e-01   -3,089807034e-01   -4,808144271e-02    0,000000000e+00    0,000000000e+00    0,000000000e+00    0,000000000e+00
     1066000000    1,323861033e-01    1,708051711e-01   -2,525134385e-01    1,385155171e-01    0,000000000e+00    0,000000000e+00    0,000000000e+00    0,000000000e+00
     1080000000    1,968157440e-01    6,734168157e-03   -1,138561890e-01    2,562684417e-01    0,000000000e+00    0,000000000e+00    0,000000000e+00    0,000000000e+00
     1094000000    1,625301540e-01   -1,633903980e-01    5,945542082e-02    2,923382819e-01    0,000000000e+00    0,000000000e+00    0,000000000e+00    0,000000000e+00
     1108000000    1,844806969e-02   -2,930386066e-01    2,634216249e-01    2,330063879e-01    0,000000000e+00    0,000000000e+00    0,000000000e+00    0,000000000e+00
     1122000000   -2,108079791e-01   -2,839639187e-01    4,397141337e-01    2,432900108e-02    0,000000000e+00    0,000000000e+00    0,000000000e+00    0,000000000e+00
     1136000000   -3,230479360e-01   -2,891880833e-02    3,989852667e-01   -3,454162180e-01    0,000000000e+00    0,000000000e+00    0,000000000e+00    0,000000000e+00
     1150000000   -1,022246405e-01    1,395029128e-01    5,289111286e-02   -5,272019506e-01    0,000000000e+00    0,000000000e+00    0,000000000e+00    0,000000000e+00
     1164000000    8,601339906e-02   -1,972762868e-02   -2,524524927e-01   -4,051181972e-01    0,000000000e+00    0,000000000e+00    0,000000000e+00    0,000000000e+00
     1178000000    3,002589382e-02   -2,536036670e-01   -3,684431314e-01   -1,800248474e-01    0,000000000e+00    0,000000000e+00    0,000000000e+00    0,000000000e+00
     1192000000   -2,197314948e-01   -3,452745080e-01   -3,398445249e-01    4,072600976e-02    0,000000000e+00    0,000000000e+00    0,000000000e+00    0,000000000e+00
     1206000000   -4,751259685e-01   -1,854848862e-01   -1,851571351e-01    1,795533150e-01    0,000000000e+00    0,000000000e+00    0,000000000e+00    0,000000000e+00
     1220000000   -5,070199370e-01    1,383796483e-01   -1,460745744e-02    1,788114458e-01    0,000000000e+00    0,000000000e+00    0,000000000e+00    0,000000000e+00
     1234000000   -2,977898419e-01    3,478223085e-01    6,840928644e-02    8,160557598e-02    0,000000000e+00    0,000000000e+00    0,000000000e+00    0,000000000e+00
     1248000000   -5,720616132e-02    3,588970304e-01    6,832773238e-02    1,088097109e-03    0,000000000e+00    0,000000000e+00    0,000000000e+00    0,000000000e+00
     1262000000    1,075108424e-01    2,572594881e-01    2,878251858e-02   -2,678132989e-02    0,000000000e+00    0,000000000e+00    0,000000000e+00    0,000000000e+00
     1276000000    2,012956440e-01    1,077396870e-01    4,183853045e-03   -8,292476647e-03    0,000000000e+00    0,000000000e+00    0,000000000e+00    0,000000000e+00
     1290000000    2,228010893e-01   -6,330565363e-02    1,368809119e-02    2,319475636e-02    0,000000000e+00    0,000000000e+00    0,000000000e+00    0,000000000e+00
     1304000000    1,660028398e-01   -2,313908190e-01    6,465814263e-02    6,263451278e-02    0,000000000e+00    0,000000000e+00    0,000000000e+00    0,000000000e+00
     1318000000    2,669973858e-02   -3,615537882e-01    1,679656208e-01    1,945407689e-02    0,000000000e+00    0,000000000e+00    0,000000000e+00    0,000000000e+00
     1332000000   -1,444441974e-01   -3,973797262e-01    1,036501229e-01   -1,800743788e-01    0,000000000e+00    0,000000000e+00    0,000000000e+00    0,000000000e+00
     1346000000   -3,622397184e-01   -3,912516236e-01   -6,042939425e-02   -2,790110186e-02    0,000000000e+00    0,000000000e+00    0,000000000e+00    0,000000000e+00
     1360000000   -5,888996124e-01   -2,019850314e-01    6,292210519e-02    9,353540093e-02    0,000000000e+00    0,000000000e+00    0,000000000e+00    0,000000000e+00
     1374000000   -6,336548328e-01    1,080005169e-01    1,728362143e-01    5,810563266e-02    0,000000000e+00    0,000000000e+00    0,000000000e+00    0,000000000e+00
     1388000000   -4,778464437e-01    3,525139987e-01    2,100735903e-01   -2,171296813e-02    0,000000000e+00    0,000000000e+00    0,000000000e+00    0,000000000e+00
     1402000000   -2,436142117e-01    4,493362308e-01    2,141640335e-01   -7,203171402e-02    0,000000000e+00    0,000000000e+00    0,000000000e+00    0,000000000e+00
     1416000000   -2,984062396e-02    4,090248942e-01    1,937828660e-01   -1,110059544e-01    0,000000000e+00    0,000000000e+00    0,000000000e+00    0,000000000e+00
     1430000000    1,024293751e-01    3,075374067e-01    1,642204374e-01   -1,052181423e-01    0,000000000e+00    0,000000000e+00    0,000000000e+00    0,000000000e+00
     1444000000    1,976811737e-01    1,558219045e-01    1,578996629e-01   -1,072768196e-01    0,000000000e+00    0,000000000e+00    0,000000000e+00    0,000000000e+00
     1458000000    2,304164022e-01   -1,276462246e-02    1,525464356e-01   -7,640323788e-02    0,000000000e+00    0,000000000e+00    0,000000000e+00    0,000000000e+00
     1472000000    1,901063025e-01   -1,920681745e-01    1,317731291e-01   -4,201640189e-02    0,000000000e+00    0,000000000e+00    0,000000000e+00    0,000000000e+00
     1486000000    6,790669262e-02   -3,597507477e-01    1,723809093e-01    1,538465172e-02    0,000000000e+00    0,000000000e+00    0,000000000e+00    0,000000000e+00
     1500000000   -1,552091241e-01   -4,970161021e-01    2,355310321e-01    6,575658917e-02    0,000000000e+00    0,000000000e+00    0,000000000e+00    0,000000000e+00
