! NanoVNA-App
! Date: 2025-09-25 15:44:23
! Start: 100MHz Stop: 1,5GHz Points: 101
! S-Parameter data: F S11 S21 S12 S22
# Hz S RI R 50
!     Frequency           S11_Real           S11_Imag           S21_Real           S21_Imag           S12_Real           S12_Imag           S22_Real           S22_Imag
      100000000   -2,875988930e-02   -4,253586754e-03    3,739397228e-01   -7,215163708e-01    0,000000000e+00    0,000000000e+00    0,000000000e+00    0,000000000e+00
      114000000   -1,653436571e-02    1,149386447e-02   -8,904112130e-02   -8,049969077e-01    0,000000000e+00    0,000000000e+00    0,000000000e+00    0,000000000e+00
      128000000    3,370916005e-03    1,070595440e-02   -5,144014955e-01   -6,202065349e-01    0,000000000e+00    0,000000000e+00    0,000000000e+00    0,000000000e+00
      142000000    1,464503258e-02   -2,653583419e-03   -7,667511106e-01   -2,364631146e-01    0,000000000e+00    0,000000000e+00    0,000000000e+00    0,000000000e+00
      156000000    1,472074538e-02   -1,457248908e-02   -7,641013861e-01    2,201342434e-01    0,000000000e+00    0,000000000e+00    0,000000000e+00    0,000000000e+00
      170000000    1,708647981e-02   -2,250927128e-02   -5,175513625e-01    6,042752266e-01    0,000000000e+00    0,000000000e+00    0,000000000e+00    0,000000000e+00
      184000000    2,135175839e-02   -3,716855869e-02   -1,013199538e-01    7,857425213e-01    0,000000000e+00    0,000000000e+00    0,000000000e+00    0,000000000e+00
      198000000    1,322014444e-02   -6,254163384e-02    3,432903290e-01    7,119612098e-01    0,000000000e+00    0,000000000e+00    0,000000000e+00    0,000000000e+00
      212000000   -1,848028228e-02   -8,128751814e-02    6,778501272e-01    4,097421765e-01    0,000000000e+00    0,000000000e+00    0,000000000e+00    0,000000000e+00
      226000000   -6,136196852e-02   -6,924646348e-02    7,954223752e-01   -3,039649874e-02    0,000000000e+00    0,000000000e+00    0,000000000e+00    0,000000000e+00
      240000000   -8,228534460e-02   -2,577361465e-02    6,457809806e-01   -4,667211771e-01    0,000000000e+00    0,000000000e+00    0,000000000e+00    0,000000000e+00
      254000000   -6,344471127e-02    1,694202237e-02    2,760894597e-01   -7,428758144e-01    0,000000000e+00    0,000000000e+00    0,000000000e+00    0,000000000e+00
      268000000   -2,395173907e-02    2,875279263e-02   -1,777644902e-01   -7,638686895e-01    0,000000000e+00    0,000000000e+00    0,000000000e+00    0,000000000e+00
      282000000    4,006879870e-03    1,206522807e-02   -5,616883039e-01   -5,354490876e-01    0,000000000e+00    0,000000000e+00    0,000000000e+00    0,000000000e+00
      296000000    9,947465733e-03   -7,569761947e-03   -7,594504952e-01   -1,397275031e-01    0,000000000e+00    0,000000000e+00    0,000000000e+00    0,000000000e+00
      310000000    1,164013240e-02   -1,609434001e-02   -7,123126984e-01    2,972809374e-01    0,000000000e+00    0,000000000e+00    0,000000000e+00    0,000000000e+00
      324000000    1,977310702e-02   -2,665060572e-02   -4,273561537e-01    6,372035742e-01    0,000000000e+00    0,000000000e+00    0,000000000e+00    0,000000000e+00
      338000000    2,565604262e-02   -5,231223628e-02   -7,889225148e-03    7,633728385e-01    0,000000000e+00    0,000000000e+00    0,000000000e+00    0,000000000e+00
      352000000    7,544490974e-03   -8,463247865e-02    4,062546194e-01    6,394673586e-01    0,000000000e+00    0,000000000e+00    0,000000000e+00    0,000000000e+00
      366000000   -3,418190405e-02   -9,566209465e-02    6,903885603e-01    3,114340007e-01    0,000000000e+00    0,000000000e+00    0,000000000e+00    0,000000000e+00
      380000000   -7,025853544e-02   -7,111558318e-02    7,470915318e-01   -1,257899255e-01    0,000000000e+00    0,000000000e+00    0,000000000e+00    0,000000000e+00
      394000000   -7,213099301e-02   -3,234455362e-02    5,465507507e-01   -5,214533806e-01    0,000000000e+00    0,000000000e+00    0,000000000e+00    0,000000000e+00
      408000000   -4,626034573e-02   -1,623348892e-02    1,620724350e-01   -7,314241529e-01    0,000000000e+00    0,000000000e+00    0,000000000e+00    0,000000000e+00
      422000000   -2,838367037e-02   -3,212819621e-02   -2,674407065e-01   -6,946408749e-01    0,000000000e+00    0,000000000e+00    0,000000000e+00    0,000000000e+00
      436000000   -4,047011212e-02   -5,167774856e-02   -6,034024954e-01   -4,311642051e-01    0,000000000e+00    0,000000000e+00    0,000000000e+00    0,000000000e+00
      450000000   -6,692653894e-02   -4,368204996e-02   -7,396578789e-01   -2,145177126e-02    0,000000000e+00    0,000000000e+00    0,000000000e+00    0,000000000e+00
      464000000   -7,276378572e-02   -1,160113048e-02   -6,181460619e-01    3,963626921e-01    0,000000000e+00    0,000000000e+00    0,000000000e+00    0,000000000e+00
      478000000   -4,782775789e-02    1,149769593e-02   -2,827931643e-01    6,674013734e-01    0,000000000e+00    0,000000000e+00    0,000000000e+00    0,000000000e+00
      492000000   -1,603160240e-02    5,853485782e-03    1,370112002e-01    7,021629214e-01    0,000000000e+00    0,000000000e+00    0,000000000e+00    0,000000000e+00
      506000000   -2,603953704e-03   -1,584085263e-02    4,980690777e-01    5,021852851e-01    0,000000000e+00    0,000000000e+00    0,000000000e+00    0,000000000e+00
      520000000   -5,110932514e-03   -3,173237666e-02    6,880977750e-01    1,410664767e-01    0,000000000e+00    0,000000000e+00    0,000000000e+00    0,000000000e+00
      534000000   -3,552769776e-03   -3,781829774e-02    6,432683468e-01   -2,616045773e-01    0,000000000e+00    0,000000000e+00    0,000000000e+00    0,000000000e+00
      548000000    6,197407376e-03   -5,399475247e-02    3,810301125e-01   -5,659205914e-01    0,000000000e+00    0,000000000e+00    0,000000000e+00    0,000000000e+00
      562000000    3,103265073e-03   -8,957621455e-02    1,921395888e-03   -6,713931561e-01    0,000000000e+00    0,000000000e+00    0,000000000e+00    0,000000000e+00
      576000000   -3,370153159e-02   -1,243409887e-01   -3,678581119e-01   -5,568892360e-01    0,000000000e+00    0,000000000e+00    0,000000000e+00    0,000000000e+00
      590000000   -9,579104185e-02   -1,225503385e-01   -6,182356477e-01   -2,647531629e-01    0,000000000e+00    0,000000000e+00    0,000000000e+00    0,000000000e+00
      604000000   -1,390887648e-01   -7,224788517e-02   -6,647337079e-01    1,366704553e-01    0,000000000e+00    0,000000000e+00    0,000000000e+00    0,000000000e+00
      618000000   -1,296410710e-01   -1,043107174e-02   -4,639927149e-01    4,930184484e-01    0,000000000e+00    0,000000000e+00    0,000000000e+00    0,000000000e+00
      632000000   -8,475301415e-02    1,544408686e-02   -1,006439552e-01    6,613019109e-01    0,000000000e+00    0,000000000e+00    0,000000000e+00    0,000000000e+00
      646000000   -5,167539418e-02    1,542319806e-04    2,853252590e-01    5,945833325e-01    0,000000000e+00    0,000000000e+00    0,000000000e+00    0,000000000e+00
      660000000   -5,423119664e-02   -2,079229988e-02    5,647432208e-01    3,229170144e-01    0,000000000e+00    0,000000000e+00    0,000000000e+00    0,000000000e+00
      674000000   -7,029467821e-02   -1,687081531e-02    6,407359838e-01   -6,320498884e-02    0,000000000e+00    0,000000000e+00    0,000000000e+00    0,000000000e+00
      688000000   -6,712857634e-02    8,449218236e-03    4,712921977e-01   -4,240129888e-01    0,000000000e+00    0,000000000e+00    0,000000000e+00    0,000000000e+00
      702000000   -3,524517640e-02    2,552324347e-02    1,199102998e-01   -6,066500545e-01    0,000000000e+00    0,000000000e+00    0,000000000e+00    0,000000000e+00
      716000000    4,191138316e-03    1,598357037e-02   -2,589449883e-01   -5,448759198e-01    0,000000000e+00    0,000000000e+00    0,000000000e+00    0,000000000e+00
      730000000    3,612573817e-02   -1,443749666e-02   -5,218562484e-01   -2,716889083e-01    0,000000000e+00    0,000000000e+00    0,000000000e+00    0,000000000e+00
      744000000    6,283304095e-02   -6,537589431e-02   -5,606963038e-01    9,879733622e-02    0,000000000e+00    0,000000000e+00    0,000000000e+00    0,000000000e+00
      758000000    6,056741253e-02   -1,519541889e-01   -3,670528829e-01    4,002235830e-01    0,000000000e+00    0,000000000e+00    0,000000000e+00    0,000000000e+00
      772000000   -1,737909392e-02   -2,548887730e-01   -4,594207183e-02    5,088088512e-01    0,000000000e+00    0,000000000e+00    0,000000000e+00    0,000000000e+00
      786000000   -2,018391192e-01   -2,920351326e-01    2,590114772e-01    3,993742168e-01    0,000000000e+00    0,000000000e+00    0,000000000e+00    0,000000000e+00
      800000000   -4,083488882e-01   -1,279963106e-01    4,075988829e-01    1,189626753e-01    0,000000000e+00    0,000000000e+00    0,000000000e+00    0,000000000e+00
      814000000   -3,768975437e-01    2,007309496e-01    2,970025241e-01   -1,507976502e-01    0,000000000e+00    0,000000000e+00    0,000000000e+00    0,000000000e+00
      828000000   -6,305223703e-02    3,483420312e-01    8,252798766e-02   -1,907747537e-01    0,000000000e+00    0,000000000e+00    0,000000000e+00    0,000000000e+00
      842000000    2,117426693e-01    1,860357970e-01   -3,641826799e-03   -9,325733781e-02    0,000000000e+00    0,000000000e+00    0,000000000e+00    0,000000000e+00
      856000000    2,661501467e-01   -1,054561809e-01    3,512614220e-02   -3,708500043e-02    0,000000000e+00    0,000000000e+00    0,000000000e+00    0,000000000e+00
      870000000    8,309569210e-02   -3,513194621e-01    8,862908930e-02   -9,659019113e-02    0,000000000e+00    0,000000000e+00    0,000000000e+00    0,000000000e+00
      884000000   -2,664584517e-01   -3,559227884e-01    1,135027874e-02   -2,266106904e-01    0,000000000e+00    0,000000000e+00    0,000000000e+00    0,000000000e+00
      898000000   -4,579446614e-01   -1,362401620e-02   -2,147817910e-01   -2,097210735e-01    0,000000000e+00    0,000000000e+00    0,000000000e+00    0,000000000e+00
      912000000   -2,353992313e-01    2,787732482e-01   -3,415483236e-01    7,615251839e-02    0,000000000e+00    0,000000000e+00    0,000000000e+00    0,000000000e+00
      926000000    5,343135446e-02    2,627510726e-01   -2,107498199e-01    2,613939643e-01    0,000000000e+00    0,000000000e+00    0,000000000e+00    0,000000000e+00
      940000000    2,106519789e-01    8,632077277e-02   -3,107005544e-02    3,243393898e-01    0,000000000e+00    0,000000000e+00    0,000000000e+00    0,000000000e+00
      954000000    2,217128426e-01   -1,189898401e-01    1,317832023e-01    3,021768034e-01    0,000000000e+00    0,000000000e+00    0,000000000e+00    0,000000000e+00
      968000000    1,160870343e-01   -2,940528393e-01    2,680178881e-01    2,130687982e-01    0,000000000e+00    0,000000000e+00    0,000000000e+00    0,000000000e+00
      982000000   -7,921276242e-02   -3,850277364e-01    3,602105975e-01    6,094520167e-02    0,000000000e+00    0,000000000e+00    0,000000000e+00    0,000000000e+00
      996000000   -3,122319877e-01   -3,322625458e-01    3,620117903e-01   -1,431435943e-01    0,000000000e+00    0,000000000e+00    0,000000000e+00    0,000000000e+00
     1010000000   -4,633880258e-01   -1,139289960e-01    2,188876271e-01   -3,372929990e-01    0,000000000e+00    0,000000000e+00    0,000000000e+00    0,000000000e+00
     1024000000   -4,175825715e-01    1,469585598e-01   -3,217874840e-02   -3,856129050e-01    0,000000000e+00    0,000000000e+00    0,000000000e+00    0,000000000e+00
     1038000000   -2,250360847e-01    2,891096175e-01   -2,404568791e-01   -2,575406134e-01    0,000000000e+00    0,000000000e+00    0,000000000e+00    0,000000000e+00
     1052000000   -1,379540097e-02    2,790587246e-01   -3,113424778e-01   -4,677332193e-02    0,000000000e+00    0,000000000e+00    0,000000000e+00    0,000000000e+00
     1066000000    1,308831125e-01    1,666023284e-01   -2,485277355e-01    1,400149167e-01    0,000000000e+00    0,000000000e+00    0,000000000e+00    0,000000000e+00
     1080000000    1,909767389e-01    8,430541493e-03   -1,171188429e-01    2,533065379e-01    0,000000000e+00    0,000000000e+00    0,000000000e+00    0,000000000e+00
     1094000000    1,577662379e-01   -1,653587371e-01    5,901760608e-02    2,931119502e-01    0,000000000e+00    0,000000000e+00    0,000000000e+00    0,000000000e+00
     1108000000    1,794615388e-02   -2,989612222e-01    2,588383257e-01    2,367967069e-01    0,000000000e+00    0,000000000e+00    0,000000000e+00    0,000000000e+00
     1122000000   -2,155278027e-01   -2,811915874e-01    4,418467581e-01    2,590352483e-02    0,000000000e+00    0,000000000e+00    0,000000000e+00    0,000000000e+00
     1136000000   -3,307283223e-01   -3,259856999e-02    3,996207416e-01   -3,415856063e-01    0,000000000e+00    0,000000000e+00    0,000000000e+00    0,000000000e+00
     1150000000   -1,049289480e-01    1,418029964e-01    4,654918611e-02   -5,300683379e-01    0,000000000e+00    0,000000000e+00    0,000000000e+00    0,000000000e+00
     1164000000    8,270075172e-02   -1,259842794e-02   -2,516758442e-01   -4,020203054e-01    0,000000000e+00    0,000000000e+00    0,000000000e+00    0,000000000e+00
     1178000000    3,119775094e-02   -2,528449595e-01   -3,676816821e-01   -1,798527688e-01    0,000000000e+00    0,000000000e+00    0,000000000e+00    0,000000000e+00
     1192000000   -2,192045152e-01   -3,482359052e-01   -3,400542140e-01    4,197751731e-02    0,000000000e+00    0,000000000e+00    0,000000000e+00    0,000000000e+00
     1206000000   -4,782732129e-01   -1,809893399e-01   -1,897563487e-01    1,852625608e-01    0,000000000e+00    0,000000000e+00    0,000000000e+00    0,000000000e+00
     1220000000   -5,018045306e-01    1,337479949e-01   -1,038155984e-02    1,748982966e-01    0,000000000e+00    0,000000000e+00    0,000000000e+00    0,000000000e+00
     1234000000   -2,975385785e-01    3,387404084e-01    7,551898062e-02    7,825235277e-02    0,000000000e+00    0,000000000e+00    0,000000000e+00    0,000000000e+00
     1248000000   -6,612007320e-02    3,618209064e-01    6,756633520e-02   -4,074126016e-03    0,000000000e+00    0,000000000e+00    0,000000000e+00    0,000000000e+00
     1262000000    1,102977246e-01    2,633018792e-01    3,087110817e-02   -2,337859944e-02    0,000000000e+00    0,000000000e+00    0,000000000e+00    0,000000000e+00
     1276000000    1,998445988e-01    1,094211042e-01    3,253848758e-03   -7,788287010e-03    0,000000000e+00    0,000000000e+00    0,000000000e+00    0,000000000e+00
     1290000000    2,218876183e-01   -6,006053090e-02    1,586537249e-02    2,841266431e-02    0,000000000e+00    0,000000000e+00    0,000000000e+00    0,000000000e+00
     1304000000    1,673312485e-01   -2,341518253e-01    5,929375440e-02    5,418080091e-02    0,000000000e+00    0,000000000e+00    0,000000000e+00    0,000000000e+00
     1318000000    2,611222304e-02   -3,636791408e-01    1,688948721e-01    1,950516365e-02    0,000000000e+00    0,000000000e+00    0,000000000e+00    0,000000000e+00
     1332000000   -1,557856947e-01   -3,978917301e-01    9,601771832e-02   -1,788987368e-01    0,000000000e+00    0,000000000e+00    0,000000000e+00    0,000000000e+00
     1346000000   -3,598062992e-01   -3,964933455e-01   -5,728560314e-02   -2,524896711e-02    0,000000000e+00    0,000000000e+00    0,000000000e+00    0,000000000e+00
     1360000000   -5,924041867e-01   -1,967559755e-01    6,128331274e-02    9,450098127e-02    0,000000000e+00    0,000000000e+00    0,000000000e+00    0,000000000e+00
     1374000000   -6,223526597e-01    1,074158177e-01    1,886579990e-01    5,196656659e-02    0,000000000e+00    0,000000000e+00    0,000000000e+00    0,000000000e+00
     1388000000   -4,709002078e-01    3,535541594e-01    2,207940817e-01   -2,622984163e-02    0,000000000e+00    0,000000000e+00    0,000000000e+00    0,000000000e+00
     1402000000   -2,463489920e-01    4,428848922e-01    2,135122418e-01   -8,558140695e-02    0,000000000e+00    0,000000000e+00    0,000000000e+00    0,000000000e+00
     1416000000   -4,187716916e-02    4,111270905e-01    1,878858656e-01   -9,644907713e-02    0,000000000e+00    0,000000000e+00    0,000000000e+00    0,000000000e+00
     1430000000    1,145113334e-01    3,038241267e-01    1,894583553e-01   -1,138273105e-01    0,000000000e+00    0,000000000e+00    0,000000000e+00    0,000000000e+00
     1444000000    2,001374960e-01    1,550622433e-01    1,670720428e-01   -1,102216244e-01    0,000000000e+00    0,000000000e+00    0,000000000e+00    0,000000000e+00
     1458000000    2,302371413e-01   -1,351477951e-02    1,376414746e-01   -9,139443189e-02    0,000000000e+00    0,000000000e+00    0,000000000e+00    0,000000000e+00
     1472000000    1,871957779e-01   -1,951114833e-01    1,366673112e-01   -4,962251335e-02    0,000000000e+00    0,000000000e+00    0,000000000e+00    0,000000000e+00
     1486000000    6,590019166e-02   -3,573022783e-01    1,586029530e-01    2,702179551e-02    0,000000000e+00    0,000000000e+00    0,000000000e+00    0,000000000e+00
     1500000000   -1,583520919e-01   -4,881181419e-01    2,170384675e-01    7,839149982e-02    0,000000000e+00    0,000000000e+00    0,000000000e+00    0,000000000e+00
