! NanoVNA-App
! Date: 2025-09-25 15:40:07
! Start: 100MHz Stop: 1,5GHz Points: 101
! S-Parameter data: F S11 S21 S12 S22
# Hz S RI R 50
!     Frequency           S11_Real           S11_Imag           S21_Real           S21_Imag           S12_Real           S12_Imag           S22_Real           S22_Imag
      100000000   -2,859955654e-02   -4,228092264e-03    3,738053739e-01   -7,214632034e-01    0,000000000e+00    0,000000000e+00    0,000000000e+00    0,000000000e+00
      114000000   -1,639028639e-02    1,151477452e-02   -8,923754841e-02   -8,050397635e-01    0,000000000e+00    0,000000000e+00    0,000000000e+00    0,000000000e+00
      128000000    3,568157787e-03    1,074340474e-02   -5,145535469e-01   -6,200939417e-01    0,000000000e+00    0,000000000e+00    0,000000000e+00    0,000000000e+00
      142000000    1,476437133e-02   -2,629481023e-03   -7,665879726e-01   -2,363137305e-01    0,000000000e+00    0,000000000e+00    0,000000000e+00    0,000000000e+00
      156000000    1,642733626e-02   -1,408726908e-02   -7,697688341e-01    2,243304253e-01    0,000000000e+00    0,000000000e+00    0,000000000e+00    0,000000000e+00
      170000000    1,725977659e-02   -2,248878032e-02   -5,176404119e-01    6,041501164e-01    0,000000000e+00    0,000000000e+00    0,000000000e+00    0,000000000e+00
      184000000    2,145451494e-02   -3,712051734e-02   -1,011641100e-01    7,855865955e-01    0,000000000e+00    0,000000000e+00    0,000000000e+00    0,000000000e+00
      198000000    1,337836683e-02   -6,255388260e-02    3,430216908e-01    7,121879458e-01    0,000000000e+00    0,000000000e+00    0,000000000e+00    0,000000000e+00
      212000000   -1,833205670e-02   -8,128292114e-02    6,777861714e-01    4,096606970e-01    0,000000000e+00    0,000000000e+00    0,000000000e+00    0,000000000e+00
      226000000   -6,116437167e-02   -6,918341666e-02    7,952449918e-01   -3,063901886e-02    0,000000000e+00    0,000000000e+00    0,000000000e+00    0,000000000e+00
      240000000   -8,206667006e-02   -2,586979792e-02    6,457523704e-01   -4,666308463e-01    0,000000000e+00    0,000000000e+00    0,000000000e+00    0,000000000e+00
      254000000   -6,323008239e-02    1,683151722e-02    2,757787704e-01   -7,423807979e-01    0,000000000e+00    0,000000000e+00    0,000000000e+00    0,000000000e+00
      268000000   -2,386504225e-02    2,866938151e-02   -1,781234890e-01   -7,639390230e-01    0,000000000e+00    0,000000000e+00    0,000000000e+00    0,000000000e+00
      282000000    4,134345334e-03    1,196360867e-02   -5,615110397e-01   -5,354858041e-01    0,000000000e+00    0,000000000e+00    0,000000000e+00    0,000000000e+00
      296000000    1,010178868e-02   -7,632619236e-03   -7,595784664e-01   -1,396198273e-01    0,000000000e+00    0,000000000e+00    0,000000000e+00    0,000000000e+00
      310000000    1,167700812e-02   -1,619803347e-02   -7,119018435e-01    2,991733551e-01    0,000000000e+00    0,000000000e+00    0,000000000e+00    0,000000000e+00
      324000000    2,018750086e-02   -2,689342946e-02   -4,266992807e-01    6,378637552e-01    0,000000000e+00    0,000000000e+00    0,000000000e+00    0,000000000e+00
      338000000    2,570637874e-02   -5,222392455e-02   -6,995273288e-03    7,630848289e-01    0,000000000e+00    0,000000000e+00    0,000000000e+00    0,000000000e+00
      352000000    7,656299975e-03   -8,485727012e-02    4,057924449e-01    6,403474212e-01    0,000000000e+00    0,000000000e+00    0,000000000e+00    0,000000000e+00
      366000000   -3,392978013e-02   -9,529031813e-02    6,900093555e-01    3,114622235e-01    0,000000000e+00    0,000000000e+00    0,000000000e+00    0,000000000e+00
      380000000   -7,036662847e-02   -7,132731378e-02    7,474115491e-01   -1,258509457e-01    0,000000000e+00    0,000000000e+00    0,000000000e+00    0,000000000e+00
      394000000   -7,184993476e-02   -3,262251988e-02    5,457092524e-01   -5,221868157e-01    0,000000000e+00    0,000000000e+00    0,000000000e+00    0,000000000e+00
      408000000   -4,612954333e-02   -1,642550714e-02    1,615081728e-01   -7,316922545e-01    0,000000000e+00    0,000000000e+00    0,000000000e+00    0,000000000e+00
      422000000   -2,818721905e-02   -3,241487220e-02   -2,673307359e-01   -6,948948503e-01    0,000000000e+00    0,000000000e+00    0,000000000e+00    0,000000000e+00
      436000000   -4,061057419e-02   -5,178645998e-02   -6,035863161e-01   -4,311057329e-01    0,000000000e+00    0,000000000e+00    0,000000000e+00    0,000000000e+00
      450000000   -6,700205058e-02   -4,414609447e-02   -7,398304939e-01   -2,172475122e-02    0,000000000e+00    0,000000000e+00    0,000000000e+00    0,000000000e+00
      464000000   -7,279316336e-02   -1,208669599e-02   -6,178570390e-01    3,967308700e-01    0,000000000e+00    0,000000000e+00    0,000000000e+00    0,000000000e+00
      478000000   -4,733365402e-02    1,123067271e-02   -2,825674415e-01    6,670991182e-01    0,000000000e+00    0,000000000e+00    0,000000000e+00    0,000000000e+00
      492000000   -1,590353623e-02    5,516310222e-03    1,372397691e-01    7,008296847e-01    0,000000000e+00    0,000000000e+00    0,000000000e+00    0,000000000e+00
      506000000   -2,402294194e-03   -1,584453508e-02    4,977408051e-01    5,030050874e-01    0,000000000e+00    0,000000000e+00    0,000000000e+00    0,000000000e+00
      520000000   -5,046117119e-03   -3,171245009e-02    6,877491474e-01    1,398233622e-01    0,000000000e+00    0,000000000e+00    0,000000000e+00    0,000000000e+00
      534000000   -3,818216035e-03   -3,817925602e-02    6,429064870e-01   -2,620649338e-01    0,000000000e+00    0,000000000e+00    0,000000000e+00    0,000000000e+00
      548000000    6,244473159e-03   -5,394474044e-02    3,809617460e-01   -5,659979582e-01    0,000000000e+00    0,000000000e+00    0,000000000e+00    0,000000000e+00
      562000000    3,118571127e-03   -8,978409320e-02    3,184519941e-03   -6,712176204e-01    0,000000000e+00    0,000000000e+00    0,000000000e+00    0,000000000e+00
      576000000   -3,407416120e-02   -1,241715550e-01   -3,676336408e-01   -5,575960279e-01    0,000000000e+00    0,000000000e+00    0,000000000e+00    0,000000000e+00
      590000000   -9,593340755e-02   -1,229946464e-01   -6,204373837e-01   -2,629001439e-01    0,000000000e+00    0,000000000e+00    0,000000000e+00    0,000000000e+00
      604000000   -1,386213154e-01   -7,237908989e-02   -6,636109948e-01    1,369870007e-01    0,000000000e+00    0,000000000e+00    0,000000000e+00    0,000000000e+00
      618000000   -1,291815639e-01   -1,071328949e-02   -4,638091624e-01    4,933117628e-01    0,000000000e+00    0,000000000e+00    0,000000000e+00    0,000000000e+00
      632000000   -8,394951373e-02    1,548609510e-02   -9,815187007e-02    6,619276404e-01    0,000000000e+00    0,000000000e+00    0,000000000e+00    0,000000000e+00
      646000000   -5,234014988e-02    1,370060345e-04    2,853007913e-01    5,938686728e-01    0,000000000e+00    0,000000000e+00    0,000000000e+00    0,000000000e+00
      660000000   -5,373289809e-02   -2,021113597e-02    5,645810962e-01    3,236319423e-01    0,000000000e+00    0,000000000e+00    0,000000000e+00    0,000000000e+00
      674000000   -7,024817914e-02   -1,640374586e-02    6,407086253e-01   -6,358419359e-02    0,000000000e+00    0,000000000e+00    0,000000000e+00    0,000000000e+00
      688000000   -6,753624976e-02    8,596313186e-03    4,713270366e-01   -4,241263270e-01    0,000000000e+00    0,000000000e+00    0,000000000e+00    0,000000000e+00
      702000000   -3,613796085e-02    2,703770250e-02    1,182643995e-01   -6,113840938e-01    0,000000000e+00    0,000000000e+00    0,000000000e+00    0,000000000e+00
      716000000    4,263509065e-03    1,581489295e-02   -2,595580816e-01   -5,438513160e-01    0,000000000e+00    0,000000000e+00    0,000000000e+00    0,000000000e+00
      730000000    3,731473908e-02   -1,375085860e-02   -5,216203928e-01   -2,712309062e-01    0,000000000e+00    0,000000000e+00    0,000000000e+00    0,000000000e+00
      744000000    6,273056567e-02   -6,456314772e-02   -5,602186322e-01    9,855883569e-02    0,000000000e+00    0,000000000e+00    0,000000000e+00    0,000000000e+00
      758000000    6,142169237e-02   -1,526516378e-01   -3,664052784e-01    3,997713923e-01    0,000000000e+00    0,000000000e+00    0,000000000e+00    0,000000000e+00
      772000000   -1,677890308e-02   -2,562745810e-01   -4,566373676e-02    5,086843967e-01    0,000000000e+00    0,000000000e+00    0,000000000e+00    0,000000000e+00
      786000000   -2,027295530e-01   -2,906097770e-01    2,597025335e-01    3,983015120e-01    0,000000000e+00    0,000000000e+00    0,000000000e+00    0,000000000e+00
      800000000   -4,089150429e-01   -1,266351193e-01    4,068816900e-01    1,176983267e-01    0,000000000e+00    0,000000000e+00    0,000000000e+00    0,000000000e+00
      814000000   -3,754655123e-01    2,025206238e-01    2,955567241e-01   -1,514192224e-01    0,000000000e+00    0,000000000e+00    0,000000000e+00    0,000000000e+00
      828000000   -6,125936657e-02    3,464068770e-01    8,277943730e-02   -1,901970655e-01    0,000000000e+00    0,000000000e+00    0,000000000e+00    0,000000000e+00
      842000000    2,117150426e-01    1,848875284e-01   -3,053755034e-03   -9,259137511e-02    0,000000000e+00    0,000000000e+00    0,000000000e+00    0,000000000e+00
      856000000    2,660288215e-01   -1,062333807e-01    3,658088669e-02   -3,692710027e-02    0,000000000e+00    0,000000000e+00    0,000000000e+00    0,000000000e+00
      870000000    8,235417306e-02   -3,522308469e-01    8,928589523e-02   -9,830231220e-02    0,000000000e+00    0,000000000e+00    0,000000000e+00    0,000000000e+00
      884000000   -2,676247954e-01   -3,546328843e-01    1,092480123e-02   -2,280213535e-01    0,000000000e+00    0,000000000e+00    0,000000000e+00    0,000000000e+00
      898000000   -4,577004611e-01   -1,281661261e-02   -2,162970155e-01   -2,088693380e-01    0,000000000e+00    0,000000000e+00    0,000000000e+00    0,000000000e+00
      912000000   -2,350654602e-01    2,777383029e-01   -3,415511549e-01    6,426745653e-02    0,000000000e+00    0,000000000e+00    0,000000000e+00    0,000000000e+00
      926000000    5,657729134e-02    2,603310943e-01   -2,085920721e-01    2,602663040e-01    0,000000000e+00    0,000000000e+00    0,000000000e+00    0,000000000e+00
      940000000    2,075578123e-01    8,468267322e-02   -3,233698383e-02    3,250342309e-01    0,000000000e+00    0,000000000e+00    0,000000000e+00    0,000000000e+00
      954000000    2,199760079e-01   -1,229682267e-01    1,315895915e-01    2,995820045e-01    0,000000000e+00    0,000000000e+00    0,000000000e+00    0,000000000e+00
      968000000    1,151428670e-01   -2,936768234e-01    2,677292526e-01    2,133989036e-01    0,000000000e+00    0,000000000e+00    0,000000000e+00    0,000000000e+00
      982000000   -7,560583949e-02   -3,836992979e-01    3,612487912e-01    6,210580841e-02    0,000000000e+00    0,000000000e+00    0,000000000e+00    0,000000000e+00
      996000000   -3,119715750e-01   -3,281162083e-01    3,615734279e-01   -1,440843195e-01    0,000000000e+00    0,000000000e+00    0,000000000e+00    0,000000000e+00
     1010000000   -4,565333128e-01   -1,170022115e-01    2,194581628e-01   -3,366411924e-01    0,000000000e+00    0,000000000e+00    0,000000000e+00    0,000000000e+00
     1024000000   -4,189627767e-01    1,420412064e-01   -3,088856116e-02   -3,849129975e-01    0,000000000e+00    0,000000000e+00    0,000000000e+00    0,000000000e+00
     1038000000   -2,209182680e-01    2,855420709e-01   -2,400449663e-01   -2,557096481e-01    0,000000000e+00    0,000000000e+00    0,000000000e+00    0,000000000e+00
     1052000000   -1,797022298e-02    2,802629471e-01   -3,114356697e-01   -4,677598178e-02    0,000000000e+00    0,000000000e+00    0,000000000e+00    0,000000000e+00
     1066000000    1,345247328e-01    1,697241068e-01   -2,511799932e-01    1,375314593e-01    0,000000000e+00    0,000000000e+00    0,000000000e+00    0,000000000e+00
     1080000000    1,931856722e-01    1,087970566e-02   -1,144462526e-01    2,548401058e-01    0,000000000e+00    0,000000000e+00    0,000000000e+00    0,000000000e+00
     1094000000    1,574090570e-01   -1,628626436e-01    6,035508215e-02    2,915939689e-01    0,000000000e+00    0,000000000e+00    0,000000000e+00    0,000000000e+00
     1108000000    1,856457256e-02   -2,922603488e-01    2,606131732e-01    2,354373336e-01    0,000000000e+00    0,000000000e+00    0,000000000e+00    0,000000000e+00
     1122000000   -2,170006484e-01   -2,796431184e-01    4,391123354e-01    2,279783227e-02    0,000000000e+00    0,000000000e+00    0,000000000e+00    0,000000000e+00
     1136000000   -3,284210861e-01   -3,363868222e-02    3,998924792e-01   -3,461548388e-01    0,000000000e+00    0,000000000e+00    0,000000000e+00    0,000000000e+00
     1150000000   -1,043472812e-01    1,423699409e-01    4,740516096e-02   -5,307034254e-01    0,000000000e+00    0,000000000e+00    0,000000000e+00    0,000000000e+00
     1164000000    8,597918600e-02   -1,712558046e-02   -2,550849617e-01   -4,048496187e-01    0,000000000e+00    0,000000000e+00    0,000000000e+00    0,000000000e+00
     1178000000    2,811023965e-02   -2,553890646e-01   -3,690679967e-01   -1,803411543e-01    0,000000000e+00    0,000000000e+00    0,000000000e+00    0,000000000e+00
     1192000000   -2,234522104e-01   -3,471412957e-01   -3,410840929e-01    3,950154036e-02    0,000000000e+00    0,000000000e+00    0,000000000e+00    0,000000000e+00
     1206000000   -4,791000187e-01   -1,811904460e-01   -1,866779178e-01    1,823553741e-01    0,000000000e+00    0,000000000e+00    0,000000000e+00    0,000000000e+00
     1220000000   -5,036581159e-01    1,435314566e-01   -1,150718424e-02    1,781728566e-01    0,000000000e+00    0,000000000e+00    0,000000000e+00    0,000000000e+00
     1234000000   -2,965877950e-01    3,421977162e-01    7,580684870e-02    7,981407642e-02    0,000000000e+00    0,000000000e+00    0,000000000e+00    0,000000000e+00
     1248000000   -6,573780626e-02    3,553195596e-01    6,843554974e-02   -2,527760342e-03    0,000000000e+00    0,000000000e+00    0,000000000e+00    0,000000000e+00
     1262000000    1,160190552e-01    2,568470538e-01    3,416486457e-02   -2,053055726e-02    0,000000000e+00    0,000000000e+00    0,000000000e+00    0,000000000e+00
     1276000000    2,017349452e-01    1,021889597e-01    5,540251732e-03   -1,099301875e-02    0,000000000e+00    0,000000000e+00    0,000000000e+00    0,000000000e+00
     1290000000    2,231541872e-01   -6,464707106e-02    1,489229128e-02    2,368684858e-02    0,000000000e+00    0,000000000e+00    0,000000000e+00    0,000000000e+00
     1304000000    1,659135371e-01   -2,338952273e-01    5,918938667e-02    6,037972495e-02    0,000000000e+00    0,000000000e+00    0,000000000e+00    0,000000000e+00
     1318000000    2,495146543e-02   -3,646146357e-01    1,705750674e-01    1,258935314e-02    0,000000000e+00    0,000000000e+00    0,000000000e+00    0,000000000e+00
     1332000000   -1,483530700e-01   -3,962810040e-01    9,551062435e-02   -1,738513410e-01    0,000000000e+00    0,000000000e+00    0,000000000e+00    0,000000000e+00
     1346000000   -3,534358442e-01   -3,934716582e-01   -4,898804799e-02   -2,394140698e-02    0,000000000e+00    0,000000000e+00    0,000000000e+00    0,000000000e+00
     1360000000   -5,919132829e-01   -2,107926309e-01    5,359283462e-02    8,376527578e-02    0,000000000e+00    0,000000000e+00    0,000000000e+00    0,000000000e+00
     1374000000   -6,272669435e-01    1,005968824e-01    1,797163934e-01    4,542560503e-02    0,000000000e+00    0,000000000e+00    0,000000000e+00    0,000000000e+00
     1388000000   -4,709520042e-01    3,514672518e-01    2,238722295e-01   -3,287201375e-02    0,000000000e+00    0,000000000e+00    0,000000000e+00    0,000000000e+00
     1402000000   -2,473297715e-01    4,452410340e-01    2,116270810e-01   -7,291737944e-02    0,000000000e+00    0,000000000e+00    0,000000000e+00    0,000000000e+00
     1416000000   -4,040143266e-02    4,143246412e-01    1,883816123e-01   -1,016326994e-01    0,000000000e+00    0,000000000e+00    0,000000000e+00    0,000000000e+00
     1430000000    1,082406193e-01    3,031471074e-01    1,812772602e-01   -1,203518733e-01    0,000000000e+00    0,000000000e+00    0,000000000e+00    0,000000000e+00
     1444000000    2,001051307e-01    1,544608623e-01    1,647365540e-01   -1,139735132e-01    0,000000000e+00    0,000000000e+00    0,000000000e+00    0,000000000e+00
     1458000000    2,351170629e-01   -1,177913602e-02    1,526852846e-01   -8,552479744e-02    0,000000000e+00    0,000000000e+00    0,000000000e+00    0,000000000e+00
     1472000000    1,881713271e-01   -1,952883303e-01    1,469852477e-01   -5,418167636e-02    0,000000000e+00    0,000000000e+00    0,000000000e+00    0,000000000e+00
     1486000000    6,721648574e-02   -3,611431718e-01    1,762648225e-01    2,522221021e-02    0,000000000e+00    0,000000000e+00    0,000000000e+00    0,000000000e+00
     1500000000   -1,627890319e-01   -4,935192168e-01    2,285537124e-01    6,903976947e-02    0,000000000e+00    0,000000000e+00    0,000000000e+00    0,000000000e+00
