! NanoVNA-App
! Date: 2025-09-25 15:44:46
! Start: 100MHz Stop: 1,5GHz Points: 101
! S-Parameter data: F S11 S21 S12 S22
# Hz S RI R 50
!     Frequency           S11_Real           S11_Imag           S21_Real           S21_Imag           S12_Real           S12_Imag           S22_Real           S22_Imag
      100000000   -2,875522338e-02   -4,251884762e-03    3,739741147e-01   -7,215195894e-01    0,000000000e+00    0,000000000e+00    0,000000000e+00    0,000000000e+00
      114000000   -1,650747098e-02    1,149808615e-02   -8,913354576e-02   -8,051836491e-01    0,000000000e+00    0,000000000e+00    0,000000000e+00    0,000000000e+00
      128000000    3,477022052e-03    1,069937553e-02   -5,143630505e-01   -6,204820275e-01    0,000000000e+00    0,000000000e+00    0,000000000e+00    0,000000000e+00
      142000000    1,466648374e-02   -2,662862185e-03   -7,668612003e-01   -2,364495844e-01    0,000000000e+00    0,000000000e+00    0,000000000e+00    0,000000000e+00
      156000000    1,543645840e-02   -1,486136112e-02   -7,689288259e-01    2,196101248e-01    0,000000000e+00    0,000000000e+00    0,000000000e+00    0,000000000e+00
      170000000    1,709873229e-02   -2,252794616e-02   -5,181097984e-01    6,043597460e-01    0,000000000e+00    0,000000000e+00    0,000000000e+00    0,000000000e+00
      184000000    2,133268677e-02   -3,715104237e-02   -1,015191227e-01    7,860145569e-01    0,000000000e+00    0,000000000e+00    0,000000000e+00    0,000000000e+00
      198000000    1,324501913e-02   -6,247362494e-02    3,429573774e-01    7,123886943e-01    0,000000000e+00    0,000000000e+00    0,000000000e+00    0,000000000e+00
      212000000   -1,839036867e-02   -8,129377663e-02    6,775442958e-01    4,096675515e-01    0,000000000e+00    0,000000000e+00    0,000000000e+00    0,000000000e+00
      226000000   -6,133165583e-02   -6,928672642e-02    7,952855229e-01   -3,040408157e-02    0,000000000e+00    0,000000000e+00    0,000000000e+00    0,000000000e+00
      240000000   -8,222084492e-02   -2,578056231e-02    6,458595991e-01   -4,669157863e-01    0,000000000e+00    0,000000000e+00    0,000000000e+00    0,000000000e+00
      254000000   -6,342898309e-02    1,694625057e-02    2,760271132e-01   -7,431991100e-01    0,000000000e+00    0,000000000e+00    0,000000000e+00    0,000000000e+00
      268000000   -2,396637388e-02    2,883503400e-02   -1,776216626e-01   -7,640036345e-01    0,000000000e+00    0,000000000e+00    0,000000000e+00    0,000000000e+00
      282000000    4,063921981e-03    1,210996415e-02   -5,615976453e-01   -5,353815556e-01    0,000000000e+00    0,000000000e+00    0,000000000e+00    0,000000000e+00
      296000000    9,844935499e-03   -7,655431516e-03   -7,594843507e-01   -1,396271884e-01    0,000000000e+00    0,000000000e+00    0,000000000e+00    0,000000000e+00
      310000000    1,166141219e-02   -1,609706320e-02   -7,127095461e-01    2,987530828e-01    0,000000000e+00    0,000000000e+00    0,000000000e+00    0,000000000e+00
      324000000    2,000439540e-02   -2,663217112e-02   -4,273835123e-01    6,373707652e-01    0,000000000e+00    0,000000000e+00    0,000000000e+00    0,000000000e+00
      338000000    2,582147345e-02   -5,186751112e-02   -7,090033498e-03    7,596787214e-01    0,000000000e+00    0,000000000e+00    0,000000000e+00    0,000000000e+00
      352000000    7,475955877e-03   -8,464740962e-02    4,056893587e-01    6,388369799e-01    0,000000000e+00    0,000000000e+00    0,000000000e+00    0,000000000e+00
      366000000   -3,447509930e-02   -9,546548873e-02    6,897114515e-01    3,111169636e-01    0,000000000e+00    0,000000000e+00    0,000000000e+00    0,000000000e+00
      380000000   -7,060632855e-02   -7,122514397e-02    7,467042804e-01   -1,258728951e-01    0,000000000e+00    0,000000000e+00    0,000000000e+00    0,000000000e+00
      394000000   -7,231509686e-02   -3,269328922e-02    5,465042591e-01   -5,213351846e-01    0,000000000e+00    0,000000000e+00    0,000000000e+00    0,000000000e+00
      408000000   -4,614904895e-02   -1,637322828e-02    1,613141149e-01   -7,322196960e-01    0,000000000e+00    0,000000000e+00    0,000000000e+00    0,000000000e+00
      422000000   -2,832289971e-02   -3,203560784e-02   -2,678376436e-01   -6,945352554e-01    0,000000000e+00    0,000000000e+00    0,000000000e+00    0,000000000e+00
      436000000   -4,064858705e-02   -5,192818493e-02   -6,036545038e-01   -4,321087599e-01    0,000000000e+00    0,000000000e+00    0,000000000e+00    0,000000000e+00
      450000000   -6,707219779e-02   -4,425568134e-02   -7,402677536e-01   -2,195403911e-02    0,000000000e+00    0,000000000e+00    0,000000000e+00    0,000000000e+00
      464000000   -7,309422642e-02   -1,169646904e-02   -6,186128259e-01    3,968943059e-01    0,000000000e+00    0,000000000e+00    0,000000000e+00    0,000000000e+00
      478000000   -4,742787406e-02    1,152659673e-02   -2,827593386e-01    6,664800048e-01    0,000000000e+00    0,000000000e+00    0,000000000e+00    0,000000000e+00
      492000000   -1,561640017e-02    5,833363626e-03    1,363007426e-01    7,015006542e-01    0,000000000e+00    0,000000000e+00    0,000000000e+00    0,000000000e+00
      506000000   -2,721895464e-03   -1,571536623e-02    4,968379736e-01    5,031935573e-01    0,000000000e+00    0,000000000e+00    0,000000000e+00    0,000000000e+00
      520000000   -4,507881124e-03   -3,140636533e-02    6,881845593e-01    1,429800093e-01    0,000000000e+00    0,000000000e+00    0,000000000e+00    0,000000000e+00
      534000000   -3,621254116e-03   -3,811288998e-02    6,427226067e-01   -2,615807354e-01    0,000000000e+00    0,000000000e+00    0,000000000e+00    0,000000000e+00
      548000000    6,355280988e-03   -5,386234075e-02    3,818085492e-01   -5,663601160e-01    0,000000000e+00    0,000000000e+00    0,000000000e+00    0,000000000e+00
      562000000    3,584666178e-03   -8,956236392e-02    3,182319691e-03   -6,720975041e-01    0,000000000e+00    0,000000000e+00    0,000000000e+00    0,000000000e+00
      576000000   -3,372628987e-02   -1,246881709e-01   -3,679402173e-01   -5,580483675e-01    0,000000000e+00    0,000000000e+00    0,000000000e+00    0,000000000e+00
      590000000   -9,587515891e-02   -1,227390245e-01   -6,202307940e-01   -2,663317621e-01    0,000000000e+00    0,000000000e+00    0,000000000e+00    0,000000000e+00
      604000000   -1,387678981e-01   -7,241981477e-02   -6,638557315e-01    1,365864575e-01    0,000000000e+00    0,000000000e+00    0,000000000e+00    0,000000000e+00
      618000000   -1,296080947e-01   -9,843816049e-03   -4,644497931e-01    4,928174317e-01    0,000000000e+00    0,000000000e+00    0,000000000e+00    0,000000000e+00
      632000000   -8,509406447e-02    1,566153206e-02   -9,980032593e-02    6,627370119e-01    0,000000000e+00    0,000000000e+00    0,000000000e+00    0,000000000e+00
      646000000   -5,177747831e-02    1,134343212e-03    2,864301801e-01    5,951051116e-01    0,000000000e+00    0,000000000e+00    0,000000000e+00    0,000000000e+00
      660000000   -5,394328386e-02   -2,036576159e-02    5,649466515e-01    3,236649036e-01    0,000000000e+00    0,000000000e+00    0,000000000e+00    0,000000000e+00
      674000000   -6,928513199e-02   -1,666779816e-02    6,406975389e-01   -6,286334991e-02    0,000000000e+00    0,000000000e+00    0,000000000e+00    0,000000000e+00
      688000000   -6,727332622e-02    8,592000231e-03    4,711371958e-01   -4,243000150e-01    0,000000000e+00    0,000000000e+00    0,000000000e+00    0,000000000e+00
      702000000   -3,615204990e-02    2,621408738e-02    1,229979023e-01   -6,040033102e-01    0,000000000e+00    0,000000000e+00    0,000000000e+00    0,000000000e+00
      716000000    3,028376028e-03    1,679413021e-02   -2,597377002e-01   -5,449144840e-01    0,000000000e+00    0,000000000e+00    0,000000000e+00    0,000000000e+00
      730000000    3,601621091e-02   -1,414651424e-02   -5,219628811e-01   -2,716205418e-01    0,000000000e+00    0,000000000e+00    0,000000000e+00    0,000000000e+00
      744000000    6,242170557e-02   -6,436147541e-02   -5,603058338e-01    9,826058894e-02    0,000000000e+00    0,000000000e+00    0,000000000e+00    0,000000000e+00
      758000000    6,064796448e-02   -1,512226164e-01   -3,669343591e-01    4,009990096e-01    0,000000000e+00    0,000000000e+00    0,000000000e+00    0,000000000e+00
      772000000   -1,683389582e-02   -2,558239698e-01   -4,643483832e-02    5,090201497e-01    0,000000000e+00    0,000000000e+00    0,000000000e+00    0,000000000e+00
      786000000   -2,026589215e-01   -2,911642492e-01    2,598052025e-01    3,988175690e-01    0,000000000e+00    0,000000000e+00    0,000000000e+00    0,000000000e+00
      800000000   -4,070595503e-01   -1,283160001e-01    4,071163237e-01    1,191140711e-01    0,000000000e+00    0,000000000e+00    0,000000000e+00    0,000000000e+00
      814000000   -3,758713901e-01    2,012603134e-01    2,970371544e-01   -1,505376101e-01    0,000000000e+00    0,000000000e+00    0,000000000e+00    0,000000000e+00
      828000000   -6,399291009e-02    3,468701243e-01    8,238213509e-02   -1,913869530e-01    0,000000000e+00    0,000000000e+00    0,000000000e+00    0,000000000e+00
      842000000    2,113743573e-01    1,860291511e-01   -3,832254093e-03   -9,377278388e-02    0,000000000e+00    0,000000000e+00    0,000000000e+00    0,000000000e+00
      856000000    2,663853467e-01   -1,051935703e-01    3,522936627e-02   -3,712555766e-02    0,000000000e+00    0,000000000e+00    0,000000000e+00    0,000000000e+00
      870000000    8,300817758e-02   -3,511460721e-01    8,881217986e-02   -9,717123955e-02    0,000000000e+00    0,000000000e+00    0,000000000e+00    0,000000000e+00
      884000000   -2,673470974e-01   -3,559477627e-01    1,158099528e-02   -2,279333025e-01    0,000000000e+00    0,000000000e+00    0,000000000e+00    0,000000000e+00
      898000000   -4,577428401e-01   -1,336364262e-02   -2,151296139e-01   -2,095214128e-01    0,000000000e+00    0,000000000e+00    0,000000000e+00    0,000000000e+00
      912000000   -2,356957644e-01    2,779341936e-01   -3,314062357e-01    8,064907044e-02    0,000000000e+00    0,000000000e+00    0,000000000e+00    0,000000000e+00
      926000000    5,541611835e-02    2,616818547e-01   -2,082188874e-01    2,606698275e-01    0,000000000e+00    0,000000000e+00    0,000000000e+00    0,000000000e+00
      940000000    2,111155093e-01    8,523815870e-02   -3,022888303e-02    3,245064616e-01    0,000000000e+00    0,000000000e+00    0,000000000e+00    0,000000000e+00
      954000000    2,221760005e-01   -1,210995167e-01    1,310940087e-01    3,008774221e-01    0,000000000e+00    0,000000000e+00    0,000000000e+00    0,000000000e+00
      968000000    1,169603541e-01   -2,955396175e-01    2,677659094e-01    2,135510296e-01    0,000000000e+00    0,000000000e+00    0,000000000e+00    0,000000000e+00
      982000000   -7,612250745e-02   -3,872191906e-01    3,611229658e-01    6,209617853e-02    0,000000000e+00    0,000000000e+00    0,000000000e+00    0,000000000e+00
      996000000   -3,086035848e-01   -3,313924968e-01    3,627296090e-01   -1,444290876e-01    0,000000000e+00    0,000000000e+00    0,000000000e+00    0,000000000e+00
     1010000000   -4,627794325e-01   -1,176395267e-01    2,189365029e-01   -3,355782330e-01    0,000000000e+00    0,000000000e+00    0,000000000e+00    0,000000000e+00
     1024000000   -4,115887582e-01    1,460388154e-01   -3,078400716e-02   -3,878605068e-01    0,000000000e+00    0,000000000e+00    0,000000000e+00    0,000000000e+00
     1038000000   -2,248864323e-01    2,863927186e-01   -2,421028912e-01   -2,572843432e-01    0,000000000e+00    0,000000000e+00    0,000000000e+00    0,000000000e+00
     1052000000   -1,164067537e-02    2,799295187e-01   -3,108374476e-01   -4,698731005e-02    0,000000000e+00    0,000000000e+00    0,000000000e+00    0,000000000e+00
     1066000000    1,357693523e-01    1,704302430e-01   -2,532793880e-01    1,398194581e-01    0,000000000e+00    0,000000000e+00    0,000000000e+00    0,000000000e+00
     1080000000    1,941700280e-01    9,508641437e-03   -1,166068316e-01    2,543216944e-01    0,000000000e+00    0,000000000e+00    0,000000000e+00    0,000000000e+00
     1094000000    1,582116932e-01   -1,674702018e-01    6,083640084e-02    2,916514575e-01    0,000000000e+00    0,000000000e+00    0,000000000e+00    0,000000000e+00
     1108000000    1,548460592e-02   -2,941785157e-01    2,607659101e-01    2,312003821e-01    0,000000000e+00    0,000000000e+00    0,000000000e+00    0,000000000e+00
     1122000000   -2,082511783e-01   -2,837626338e-01    4,377506673e-01    2,505031414e-02    0,000000000e+00    0,000000000e+00    0,000000000e+00    0,000000000e+00
     1136000000   -3,217093945e-01   -2,841949835e-02    4,001035094e-01   -3,449590504e-01    0,000000000e+00    0,000000000e+00    0,000000000e+00    0,000000000e+00
     1150000000   -1,041346788e-01    1,410787702e-01    4,761849716e-02   -5,300117731e-01    0,000000000e+00    0,000000000e+00    0,000000000e+00    0,000000000e+00
     1164000000    8,584104478e-02   -1,997335628e-02   -2,518620789e-01   -4,029846489e-01    0,000000000e+00    0,000000000e+00    0,000000000e+00    0,000000000e+00
     1178000000    2,649567463e-02   -2,484212518e-01   -3,682237267e-01   -1,792173982e-01    0,000000000e+00    0,000000000e+00    0,000000000e+00    0,000000000e+00
     1192000000   -2,232903838e-01   -3,517529666e-01   -3,422850072e-01    4,176272452e-02    0,000000000e+00    0,000000000e+00    0,000000000e+00    0,000000000e+00
     1206000000   -4,778390825e-01   -1,798322350e-01   -1,860666871e-01    1,866476089e-01    0,000000000e+00    0,000000000e+00    0,000000000e+00    0,000000000e+00
     1220000000   -5,015022159e-01    1,333002299e-01   -7,910658605e-03    1,784719676e-01    0,000000000e+00    0,000000000e+00    0,000000000e+00    0,000000000e+00
     1234000000   -3,051796257e-01    3,416535854e-01    7,190922648e-02    8,004243672e-02    0,000000000e+00    0,000000000e+00    0,000000000e+00    0,000000000e+00
     1248000000   -5,991294980e-02    3,612453640e-01    6,201265007e-02   -1,059857197e-03    0,000000000e+00    0,000000000e+00    0,000000000e+00    0,000000000e+00
     1262000000    1,087917015e-01    2,550262213e-01    2,872535959e-02   -2,869415842e-02    0,000000000e+00    0,000000000e+00    0,000000000e+00    0,000000000e+00
     1276000000    2,045131773e-01    1,047322005e-01    9,437900037e-03   -8,576348424e-03    0,000000000e+00    0,000000000e+00    0,000000000e+00    0,000000000e+00
     1290000000    2,190679759e-01   -6,636833400e-02    1,209855359e-02    2,006604895e-02    0,000000000e+00    0,000000000e+00    0,000000000e+00    0,000000000e+00
     1304000000    1,698379219e-01   -2,346099317e-01    6,283048540e-02    6,045683101e-02    0,000000000e+00    0,000000000e+00    0,000000000e+00    0,000000000e+00
     1318000000    2,565861866e-02   -3,638196588e-01    1,687664837e-01    1,800886542e-02    0,000000000e+00    0,000000000e+00    0,000000000e+00    0,000000000e+00
     1332000000   -1,518900543e-01   -3,999759257e-01    9,398218244e-02   -1,861260831e-01    0,000000000e+00    0,000000000e+00    0,000000000e+00    0,000000000e+00
     1346000000   -3,601785302e-01   -3,892382979e-01   -5,578255281e-02   -1,740715839e-02    0,000000000e+00    0,000000000e+00    0,000000000e+00    0,000000000e+00
     1360000000   -5,836449862e-01   -1,996515691e-01    6,926795095e-02    8,625198156e-02    0,000000000e+00    0,000000000e+00    0,000000000e+00    0,000000000e+00
     1374000000   -6,379527450e-01    1,038884744e-01    1,743732095e-01    5,559560284e-02    0,000000000e+00    0,000000000e+00    0,000000000e+00    0,000000000e+00
     1388000000   -4,758433700e-01    3,562594056e-01    2,194384933e-01   -1,876902208e-02    0,000000000e+00    0,000000000e+00    0,000000000e+00    0,000000000e+00
     1402000000   -2,436379939e-01    4,448471665e-01    2,129311562e-01   -8,153203875e-02    0,000000000e+00    0,000000000e+00    0,000000000e+00    0,000000000e+00
     1416000000   -3,847256675e-02    4,099180102e-01    1,985426843e-01   -9,845468402e-02    0,000000000e+00    0,000000000e+00    0,000000000e+00    0,000000000e+00
     1430000000    1,118168756e-01    3,023294508e-01    1,926075667e-01   -9,999980778e-02    0,000000000e+00    0,000000000e+00    0,000000000e+00    0,000000000e+00
     1444000000    2,050182670e-01    1,546870619e-01    1,724635214e-01   -1,072346047e-01    0,000000000e+00    0,000000000e+00    0,000000000e+00    0,000000000e+00
     1458000000    2,316045910e-01   -9,210499935e-03    1,453145444e-01   -9,668673575e-02    0,000000000e+00    0,000000000e+00    0,000000000e+00    0,000000000e+00
     1472000000    1,902095526e-01   -1,920616776e-01    1,447825134e-01   -4,023970664e-02    0,000000000e+00    0,000000000e+00    0,000000000e+00    0,000000000e+00
     1486000000    6,981261820e-02   -3,622721434e-01    1,769599617e-01    2,018706873e-02    0,000000000e+00    0,000000000e+00    0,000000000e+00    0,000000000e+00
     1500000000   -1,515278965e-01   -4,913060367e-01    2,379776388e-01    7,412615418e-02    0,000000000e+00    0,000000000e+00    0,000000000e+00    0,000000000e+00
