! NanoVNA-App
! Date: 2025-09-25 15:41:11
! Start: 100MHz Stop: 1,5GHz Points: 101
! S-Parameter data: F S11 S21 S12 S22
# Hz S RI R 50
!     Frequency           S11_Real           S11_Imag           S21_Real           S21_Imag           S12_Real           S12_Imag           S22_Real           S22_Imag
      100000000   -2,870715410e-02   -4,245531280e-03    3,738988638e-01   -7,215692997e-01    0,000000000e+00    0,000000000e+00    0,000000000e+00    0,000000000e+00
      114000000   -1,649197377e-02    1,145865861e-02   -8,921483159e-02   -8,052787781e-01    0,000000000e+00    0,000000000e+00    0,000000000e+00    0,000000000e+00
      128000000    3,457284532e-03    1,070910227e-02   -5,146237016e-01   -6,203190088e-01    0,000000000e+00    0,000000000e+00    0,000000000e+00    0,000000000e+00
      142000000    1,467407122e-02   -2,635899931e-03   -7,667977214e-01   -2,363237441e-01    0,000000000e+00    0,000000000e+00    0,000000000e+00    0,000000000e+00
      156000000    1,561714243e-02   -1,438417938e-02   -7,672358155e-01    2,226781994e-01    0,000000000e+00    0,000000000e+00    0,000000000e+00    0,000000000e+00
      170000000    1,712152548e-02   -2,254276536e-02   -5,180699229e-01    6,046418548e-01    0,000000000e+00    0,000000000e+00    0,000000000e+00    0,000000000e+00
      184000000    2,136944793e-02   -3,718496859e-02   -1,014211923e-01    7,857052088e-01    0,000000000e+00    0,000000000e+00    0,000000000e+00    0,000000000e+00
      198000000    1,326894481e-02   -6,253632903e-02    3,431884646e-01    7,120424509e-01    0,000000000e+00    0,000000000e+00    0,000000000e+00    0,000000000e+00
      212000000   -1,842480712e-02   -8,128944039e-02    6,775380969e-01    4,096527398e-01    0,000000000e+00    0,000000000e+00    0,000000000e+00    0,000000000e+00
      226000000   -6,131471321e-02   -6,922730803e-02    7,952650785e-01   -3,047970124e-02    0,000000000e+00    0,000000000e+00    0,000000000e+00    0,000000000e+00
      240000000   -8,217859268e-02   -2,580947243e-02    6,458035707e-01   -4,666797817e-01    0,000000000e+00    0,000000000e+00    0,000000000e+00    0,000000000e+00
      254000000   -6,336894631e-02    1,692019962e-02    2,760474384e-01   -7,431929708e-01    0,000000000e+00    0,000000000e+00    0,000000000e+00    0,000000000e+00
      268000000   -2,393090725e-02    2,871270292e-02   -1,783124357e-01   -7,640514970e-01    0,000000000e+00    0,000000000e+00    0,000000000e+00    0,000000000e+00
      282000000    4,088644870e-03    1,201316249e-02   -5,615755916e-01   -5,353646874e-01    0,000000000e+00    0,000000000e+00    0,000000000e+00    0,000000000e+00
      296000000    9,768040851e-03   -7,554672658e-03   -7,591661215e-01   -1,395303309e-01    0,000000000e+00    0,000000000e+00    0,000000000e+00    0,000000000e+00
      310000000    1,144498121e-02   -1,616851427e-02   -7,119698524e-01    2,970064580e-01    0,000000000e+00    0,000000000e+00    0,000000000e+00    0,000000000e+00
      324000000    2,003542520e-02   -2,687275782e-02   -4,266427457e-01    6,362187862e-01    0,000000000e+00    0,000000000e+00    0,000000000e+00    0,000000000e+00
      338000000    2,583682351e-02   -5,218317732e-02   -8,981752209e-03    7,587611675e-01    0,000000000e+00    0,000000000e+00    0,000000000e+00    0,000000000e+00
      352000000    7,322315127e-03   -8,507274836e-02    4,063224494e-01    6,392181516e-01    0,000000000e+00    0,000000000e+00    0,000000000e+00    0,000000000e+00
      366000000   -3,459825367e-02   -9,524687380e-02    6,896820664e-01    3,115929067e-01    0,000000000e+00    0,000000000e+00    0,000000000e+00    0,000000000e+00
      380000000   -7,047463208e-02   -7,104789466e-02    7,465856671e-01   -1,256153882e-01    0,000000000e+00    0,000000000e+00    0,000000000e+00    0,000000000e+00
      394000000   -7,216507196e-02   -3,251840919e-02    5,463126302e-01   -5,204316974e-01    0,000000000e+00    0,000000000e+00    0,000000000e+00    0,000000000e+00
      408000000   -4,643513635e-02   -1,655165106e-02    1,599348187e-01   -7,327199578e-01    0,000000000e+00    0,000000000e+00    0,000000000e+00    0,000000000e+00
      422000000   -2,849122696e-02   -3,213985264e-02   -2,672203183e-01   -6,941203475e-01    0,000000000e+00    0,000000000e+00    0,000000000e+00    0,000000000e+00
      436000000   -4,071244970e-02   -5,169634148e-02   -6,032755971e-01   -4,317580462e-01    0,000000000e+00    0,000000000e+00    0,000000000e+00    0,000000000e+00
      450000000   -6,682876498e-02   -4,386942089e-02   -7,401294112e-01   -2,206792310e-02    0,000000000e+00    0,000000000e+00    0,000000000e+00    0,000000000e+00
      464000000   -7,292687893e-02   -1,203727350e-02   -6,176559329e-01    3,967521191e-01    0,000000000e+00    0,000000000e+00    0,000000000e+00    0,000000000e+00
      478000000   -4,748782516e-02    1,106125023e-02   -2,828473151e-01    6,671879292e-01    0,000000000e+00    0,000000000e+00    0,000000000e+00    0,000000000e+00
      492000000   -1,589882001e-02    5,402582232e-03    1,363714337e-01    7,010596991e-01    0,000000000e+00    0,000000000e+00    0,000000000e+00    0,000000000e+00
      506000000   -2,506224206e-03   -1,574813388e-02    4,979602695e-01    5,030599833e-01    0,000000000e+00    0,000000000e+00    0,000000000e+00    0,000000000e+00
      520000000   -4,933255259e-03   -3,167001158e-02    6,896014214e-01    1,417571604e-01    0,000000000e+00    0,000000000e+00    0,000000000e+00    0,000000000e+00
      534000000   -3,614416579e-03   -3,790485114e-02    6,426669955e-01   -2,614946663e-01    0,000000000e+00    0,000000000e+00    0,000000000e+00    0,000000000e+00
      548000000    6,596415769e-03   -5,388970301e-02    3,818160295e-01   -5,660297275e-01    0,000000000e+00    0,000000000e+00    0,000000000e+00    0,000000000e+00
      562000000    3,560452955e-03   -8,953499049e-02    3,509412752e-03   -6,707041264e-01    0,000000000e+00    0,000000000e+00    0,000000000e+00    0,000000000e+00
      576000000   -3,375507891e-02   -1,245636344e-01   -3,679720759e-01   -5,566219687e-01    0,000000000e+00    0,000000000e+00    0,000000000e+00    0,000000000e+00
      590000000   -9,576845914e-02   -1,227432713e-01   -6,185911298e-01   -2,655075788e-01    0,000000000e+00    0,000000000e+00    0,000000000e+00    0,000000000e+00
      604000000   -1,391516775e-01   -7,234249264e-02   -6,646560431e-01    1,364730746e-01    0,000000000e+00    0,000000000e+00    0,000000000e+00    0,000000000e+00
      618000000   -1,295465380e-01   -1,051578205e-02   -4,644407928e-01    4,925949275e-01    0,000000000e+00    0,000000000e+00    0,000000000e+00    0,000000000e+00
      632000000   -8,441115171e-02    1,539796684e-02   -1,007482484e-01    6,623212099e-01    0,000000000e+00    0,000000000e+00    0,000000000e+00    0,000000000e+00
      646000000   -5,255950615e-02    7,610594039e-04    2,855702937e-01    5,941468477e-01    0,000000000e+00    0,000000000e+00    0,000000000e+00    0,000000000e+00
      660000000   -5,405989662e-02   -2,097007632e-02    5,654500127e-01    3,234831393e-01    0,000000000e+00    0,000000000e+00    0,000000000e+00    0,000000000e+00
      674000000   -6,957422942e-02   -1,591545530e-02    6,409144402e-01   -6,289244443e-02    0,000000000e+00    0,000000000e+00    0,000000000e+00    0,000000000e+00
      688000000   -6,744332612e-02    9,596921504e-03    4,704230130e-01   -4,240409732e-01    0,000000000e+00    0,000000000e+00    0,000000000e+00    0,000000000e+00
      702000000   -3,554764763e-02    2,598867752e-02    1,216512769e-01   -6,109352708e-01    0,000000000e+00    0,000000000e+00    0,000000000e+00    0,000000000e+00
      716000000    3,044197336e-03    1,611727849e-02   -2,587031722e-01   -5,450627804e-01    0,000000000e+00    0,000000000e+00    0,000000000e+00    0,000000000e+00
      730000000    3,698780760e-02   -1,438842341e-02   -5,218685865e-01   -2,712355554e-01    0,000000000e+00    0,000000000e+00    0,000000000e+00    0,000000000e+00
      744000000    6,196622178e-02   -6,520187855e-02   -5,600178242e-01    9,870129079e-02    0,000000000e+00    0,000000000e+00    0,000000000e+00    0,000000000e+00
      758000000    6,085020676e-02   -1,525372565e-01   -3,656213880e-01    4,002641439e-01    0,000000000e+00    0,000000000e+00    0,000000000e+00    0,000000000e+00
      772000000   -1,717387140e-02   -2,562721968e-01   -4,418881610e-02    5,094133019e-01    0,000000000e+00    0,000000000e+00    0,000000000e+00    0,000000000e+00
      786000000   -2,031087577e-01   -2,909469306e-01    2,598863542e-01    3,980913758e-01    0,000000000e+00    0,000000000e+00    0,000000000e+00    0,000000000e+00
      800000000   -4,081825614e-01   -1,274270117e-01    4,070059061e-01    1,188579723e-01    0,000000000e+00    0,000000000e+00    0,000000000e+00    0,000000000e+00
      814000000   -3,761488199e-01    2,026074976e-01    2,955071926e-01   -1,509560943e-01    0,000000000e+00    0,000000000e+00    0,000000000e+00    0,000000000e+00
      828000000   -6,172479317e-02    3,466145992e-01    8,267721534e-02   -1,904012114e-01    0,000000000e+00    0,000000000e+00    0,000000000e+00    0,000000000e+00
      842000000    2,117821425e-01    1,854134053e-01   -3,098519053e-03   -9,267904609e-02    0,000000000e+00    0,000000000e+00    0,000000000e+00    0,000000000e+00
      856000000    2,663415372e-01   -1,061544195e-01    3,665458038e-02   -3,707603738e-02    0,000000000e+00    0,000000000e+00    0,000000000e+00    0,000000000e+00
      870000000    8,237360418e-02   -3,512282968e-01    8,898766339e-02   -9,700802714e-02    0,000000000e+00    0,000000000e+00    0,000000000e+00    0,000000000e+00
      884000000   -2,679755688e-01   -3,563609123e-01    1,185170282e-02   -2,283002734e-01    0,000000000e+00    0,000000000e+00    0,000000000e+00    0,000000000e+00
      898000000   -4,584072530e-01   -1,341377757e-02   -2,164404690e-01   -2,101974487e-01    0,000000000e+00    0,000000000e+00    0,000000000e+00    0,000000000e+00
      912000000   -2,354540229e-01    2,788854539e-01   -3,264720142e-01    7,465964556e-02    0,000000000e+00    0,000000000e+00    0,000000000e+00    0,000000000e+00
      926000000    5,504534766e-02    2,620640993e-01   -2,103867829e-01    2,644042075e-01    0,000000000e+00    0,000000000e+00    0,000000000e+00    0,000000000e+00
      940000000    2,106418908e-01    8,306160569e-02   -3,146260604e-02    3,253794909e-01    0,000000000e+00    0,000000000e+00    0,000000000e+00    0,000000000e+00
      954000000    2,189988792e-01   -1,228381991e-01    1,314574480e-01    3,014215529e-01    0,000000000e+00    0,000000000e+00    0,000000000e+00    0,000000000e+00
      968000000    1,189567074e-01   -2,963823080e-01    2,685362995e-01    2,142118216e-01    0,000000000e+00    0,000000000e+00    0,000000000e+00    0,000000000e+00
      982000000   -7,611096650e-02   -3,879410326e-01    3,608199060e-01    6,198239326e-02    0,000000000e+00    0,000000000e+00    0,000000000e+00    0,000000000e+00
      996000000   -3,134310544e-01   -3,304884732e-01    3,624048531e-01   -1,451963931e-01    0,000000000e+00    0,000000000e+00    0,000000000e+00    0,000000000e+00
     1010000000   -4,619798362e-01   -1,213355735e-01    2,183587402e-01   -3,359122872e-01    0,000000000e+00    0,000000000e+00    0,000000000e+00    0,000000000e+00
     1024000000   -4,143656492e-01    1,392612159e-01   -3,171104565e-02   -3,857541680e-01    0,000000000e+00    0,000000000e+00    0,000000000e+00    0,000000000e+00
     1038000000   -2,262759060e-01    2,875694931e-01   -2,416066825e-01   -2,568149269e-01    0,000000000e+00    0,000000000e+00    0,000000000e+00    0,000000000e+00
     1052000000   -1,404021494e-02    2,788668573e-01   -3,098900020e-01   -4,530149698e-02    0,000000000e+00    0,000000000e+00    0,000000000e+00    0,000000000e+00
     1066000000    1,362308115e-01    1,677888185e-01   -2,532725930e-01    1,381679773e-01    0,000000000e+00    0,000000000e+00    0,000000000e+00    0,000000000e+00
     1080000000    1,951450109e-01    1,005867310e-02   -1,175193042e-01    2,521275878e-01    0,000000000e+00    0,000000000e+00    0,000000000e+00    0,000000000e+00
     1094000000    1,605719328e-01   -1,673815250e-01    5,997468531e-02    2,941619456e-01    0,000000000e+00    0,000000000e+00    0,000000000e+00    0,000000000e+00
     1108000000    1,528487820e-02   -2,952593565e-01    2,614098191e-01    2,330776602e-01    0,000000000e+00    0,000000000e+00    0,000000000e+00    0,000000000e+00
     1122000000   -2,154974192e-01   -2,856225371e-01    4,400939941e-01    2,390001714e-02    0,000000000e+00    0,000000000e+00    0,000000000e+00    0,000000000e+00
     1136000000   -3,235134184e-01   -3,469811752e-02    3,982830942e-01   -3,457309008e-01    0,000000000e+00    0,000000000e+00    0,000000000e+00    0,000000000e+00
     1150000000   -1,097273901e-01    1,381596625e-01    4,823844507e-02   -5,306439996e-01    0,000000000e+00    0,000000000e+00    0,000000000e+00    0,000000000e+00
     1164000000    8,711503446e-02   -2,065277100e-02   -2,516660690e-01   -4,042200744e-01    0,000000000e+00    0,000000000e+00    0,000000000e+00    0,000000000e+00
     1178000000    2,602622658e-02   -2,498414665e-01   -3,697995842e-01   -1,784772724e-01    0,000000000e+00    0,000000000e+00    0,000000000e+00    0,000000000e+00
     1192000000   -2,192927748e-01   -3,458018899e-01   -3,418124914e-01    3,742615506e-02    0,000000000e+00    0,000000000e+00    0,000000000e+00    0,000000000e+00
     1206000000   -4,845722914e-01   -1,762513667e-01   -1,904397309e-01    1,816766411e-01    0,000000000e+00    0,000000000e+00    0,000000000e+00    0,000000000e+00
     1220000000   -4,981017709e-01    1,385695487e-01   -8,464807644e-03    1,741860956e-01    0,000000000e+00    0,000000000e+00    0,000000000e+00    0,000000000e+00
     1234000000   -3,006629348e-01    3,456262350e-01    7,315185666e-02    7,756126672e-02    0,000000000e+00    0,000000000e+00    0,000000000e+00    0,000000000e+00
     1248000000   -6,261690706e-02    3,631253242e-01    6,997486949e-02    1,889906358e-03    0,000000000e+00    0,000000000e+00    0,000000000e+00    0,000000000e+00
     1262000000    1,067580879e-01    2,610280514e-01    2,840417996e-02   -2,390611544e-02    0,000000000e+00    0,000000000e+00    0,000000000e+00    0,000000000e+00
     1276000000    1,983180642e-01    1,056936309e-01    3,853819100e-03   -6,199111231e-03    0,000000000e+00    0,000000000e+00    0,000000000e+00    0,000000000e+00
     1290000000    2,195626497e-01   -6,546695530e-02    1,396736875e-02    2,473255992e-02    0,000000000e+00    0,000000000e+00    0,000000000e+00    0,000000000e+00
     1304000000    1,710273325e-01   -2,331553549e-01    6,486759335e-02    6,086723134e-02    0,000000000e+00    0,000000000e+00    0,000000000e+00    0,000000000e+00
     1318000000    2,411585487e-02   -3,602310419e-01    1,700800210e-01    2,264191955e-02    0,000000000e+00    0,000000000e+00    0,000000000e+00    0,000000000e+00
     1332000000   -1,436571628e-01   -3,971744180e-01    1,032028720e-01   -1,852269769e-01    0,000000000e+00    0,000000000e+00    0,000000000e+00    0,000000000e+00
     1346000000   -3,565606177e-01   -3,906997144e-01   -5,351442844e-02   -1,874853112e-02    0,000000000e+00    0,000000000e+00    0,000000000e+00    0,000000000e+00
     1360000000   -5,860110521e-01   -2,007979304e-01    5,091027915e-02    8,716754615e-02    0,000000000e+00    0,000000000e+00    0,000000000e+00    0,000000000e+00
     1374000000   -6,304393411e-01    1,001476943e-01    1,768136919e-01    4,411949590e-02    0,000000000e+00    0,000000000e+00    0,000000000e+00    0,000000000e+00
     1388000000   -4,742705524e-01    3,490097821e-01    2,306546420e-01   -2,909695730e-02    0,000000000e+00    0,000000000e+00    0,000000000e+00    0,000000000e+00
     1402000000   -2,490706444e-01    4,459957480e-01    2,081067860e-01   -8,157524467e-02    0,000000000e+00    0,000000000e+00    0,000000000e+00    0,000000000e+00
     1416000000   -3,831325471e-02    4,160641730e-01    1,970327348e-01   -9,347133338e-02    0,000000000e+00    0,000000000e+00    0,000000000e+00    0,000000000e+00
     1430000000    1,178678274e-01    2,954116762e-01    1,933593303e-01   -8,586815000e-02    0,000000000e+00    0,000000000e+00    0,000000000e+00    0,000000000e+00
     1444000000    1,988887489e-01    1,564078629e-01    1,672683656e-01   -9,807877988e-02    0,000000000e+00    0,000000000e+00    0,000000000e+00    0,000000000e+00
     1458000000    2,332297862e-01   -1,266331226e-02    1,555322409e-01   -9,420260787e-02    0,000000000e+00    0,000000000e+00    0,000000000e+00    0,000000000e+00
     1472000000    1,870366484e-01   -1,945949942e-01    1,296500117e-01   -4,610719532e-02    0,000000000e+00    0,000000000e+00    0,000000000e+00    0,000000000e+00
     1486000000    7,052784413e-02   -3,699696064e-01    1,618257016e-01    1,511013974e-02    0,000000000e+00    0,000000000e+00    0,000000000e+00    0,000000000e+00
     1500000000   -1,531482339e-01   -4,904822111e-01    2,496017516e-01    8,993123472e-02    0,000000000e+00    0,000000000e+00    0,000000000e+00    0,000000000e+00
