! NanoVNA-App
! Date: 2025-09-25 15:42:31
! Start: 100MHz Stop: 1,5GHz Points: 101
! S-Parameter data: F S11 S21 S12 S22
# Hz S RI R 50
!     Frequency           S11_Real           S11_Imag           S21_Real           S21_Imag           S12_Real           S12_Imag           S22_Real           S22_Imag
      100000000   -2,877124026e-02   -4,237363115e-03    3,739091456e-01   -7,215638161e-01    0,000000000e+00    0,000000000e+00    0,000000000e+00    0,000000000e+00
      114000000   -1,652081870e-02    1,147395186e-02   -8,902411908e-02   -8,052621484e-01    0,000000000e+00    0,000000000e+00    0,000000000e+00    0,000000000e+00
      128000000    3,406145610e-03    1,069643535e-02   -5,142812133e-01   -6,201219559e-01    0,000000000e+00    0,000000000e+00    0,000000000e+00    0,000000000e+00
      142000000    1,464413386e-02   -2,628674498e-03   -7,669652700e-01   -2,364543527e-01    0,000000000e+00    0,000000000e+00    0,000000000e+00    0,000000000e+00
      156000000    1,513743214e-02   -1,474504545e-02   -7,664276958e-01    2,183871865e-01    0,000000000e+00    0,000000000e+00    0,000000000e+00    0,000000000e+00
      170000000    1,706123725e-02   -2,243602462e-02   -5,179409981e-01    6,042380333e-01    0,000000000e+00    0,000000000e+00    0,000000000e+00    0,000000000e+00
      184000000    2,132676542e-02   -3,715400398e-02   -1,016767919e-01    7,858008742e-01    0,000000000e+00    0,000000000e+00    0,000000000e+00    0,000000000e+00
      198000000    1,323143486e-02   -6,252757460e-02    3,430714309e-01    7,120116353e-01    0,000000000e+00    0,000000000e+00    0,000000000e+00    0,000000000e+00
      212000000   -1,848925650e-02   -8,127535880e-02    6,777442098e-01    4,100114405e-01    0,000000000e+00    0,000000000e+00    0,000000000e+00    0,000000000e+00
      226000000   -6,138531864e-02   -6,926599145e-02    7,953691483e-01   -3,041010164e-02    0,000000000e+00    0,000000000e+00    0,000000000e+00    0,000000000e+00
      240000000   -8,228938282e-02   -2,579163387e-02    6,459165812e-01   -4,667488635e-01    0,000000000e+00    0,000000000e+00    0,000000000e+00    0,000000000e+00
      254000000   -6,342648715e-02    1,692218333e-02    2,760901153e-01   -7,431323528e-01    0,000000000e+00    0,000000000e+00    0,000000000e+00    0,000000000e+00
      268000000   -2,389461547e-02    2,875105105e-02   -1,776604056e-01   -7,641169429e-01    0,000000000e+00    0,000000000e+00    0,000000000e+00    0,000000000e+00
      282000000    4,024036229e-03    1,204071008e-02   -5,616033673e-01   -5,355191827e-01    0,000000000e+00    0,000000000e+00    0,000000000e+00    0,000000000e+00
      296000000    9,785969742e-03   -7,558898535e-03   -7,594628930e-01   -1,396427006e-01    0,000000000e+00    0,000000000e+00    0,000000000e+00    0,000000000e+00
      310000000    1,153177023e-02   -1,608629152e-02   -7,113515139e-01    2,970831692e-01    0,000000000e+00    0,000000000e+00    0,000000000e+00    0,000000000e+00
      324000000    1,994415931e-02   -2,657934465e-02   -4,276622236e-01    6,376091242e-01    0,000000000e+00    0,000000000e+00    0,000000000e+00    0,000000000e+00
      338000000    2,555444278e-02   -5,244220421e-02   -1,048325095e-02    7,627516389e-01    0,000000000e+00    0,000000000e+00    0,000000000e+00    0,000000000e+00
      352000000    7,338796277e-03   -8,493499458e-02    4,069184065e-01    6,390902400e-01    0,000000000e+00    0,000000000e+00    0,000000000e+00    0,000000000e+00
      366000000   -3,440161794e-02   -9,552041441e-02    6,900697947e-01    3,112117648e-01    0,000000000e+00    0,000000000e+00    0,000000000e+00    0,000000000e+00
      380000000   -7,061167061e-02   -7,126115263e-02    7,469589114e-01   -1,258817613e-01    0,000000000e+00    0,000000000e+00    0,000000000e+00    0,000000000e+00
      394000000   -7,239625603e-02   -3,260884434e-02    5,465492010e-01   -5,212180018e-01    0,000000000e+00    0,000000000e+00    0,000000000e+00    0,000000000e+00
      408000000   -4,660298303e-02   -1,627011225e-02    1,605011374e-01   -7,314742208e-01    0,000000000e+00    0,000000000e+00    0,000000000e+00    0,000000000e+00
      422000000   -2,821539529e-02   -3,224899247e-02   -2,667251825e-01   -6,945491433e-01    0,000000000e+00    0,000000000e+00    0,000000000e+00    0,000000000e+00
      436000000   -4,041785002e-02   -5,167873204e-02   -6,032063961e-01   -4,316770732e-01    0,000000000e+00    0,000000000e+00    0,000000000e+00    0,000000000e+00
      450000000   -6,722711027e-02   -4,389892891e-02   -7,401121259e-01   -2,204536088e-02    0,000000000e+00    0,000000000e+00    0,000000000e+00    0,000000000e+00
      464000000   -7,296502590e-02   -1,165730506e-02   -6,178818345e-01    3,965435922e-01    0,000000000e+00    0,000000000e+00    0,000000000e+00    0,000000000e+00
      478000000   -4,718470946e-02    1,124325395e-02   -2,825760841e-01    6,670656204e-01    0,000000000e+00    0,000000000e+00    0,000000000e+00    0,000000000e+00
      492000000   -1,592608728e-02    5,580795929e-03    1,370093375e-01    7,005635500e-01    0,000000000e+00    0,000000000e+00    0,000000000e+00    0,000000000e+00
      506000000   -2,663729247e-03   -1,554585062e-02    4,976407886e-01    5,029488206e-01    0,000000000e+00    0,000000000e+00    0,000000000e+00    0,000000000e+00
      520000000   -4,868179560e-03   -3,110131994e-02    6,877011657e-01    1,407811642e-01    0,000000000e+00    0,000000000e+00    0,000000000e+00    0,000000000e+00
      534000000   -3,532159608e-03   -3,799347952e-02    6,428351402e-01   -2,625349760e-01    0,000000000e+00    0,000000000e+00    0,000000000e+00    0,000000000e+00
      548000000    6,627272349e-03   -5,376647413e-02    3,811979294e-01   -5,662467480e-01    0,000000000e+00    0,000000000e+00    0,000000000e+00    0,000000000e+00
      562000000    3,487171372e-03   -8,967710286e-02    3,074168228e-03   -6,719235182e-01    0,000000000e+00    0,000000000e+00    0,000000000e+00    0,000000000e+00
      576000000   -3,379780054e-02   -1,246973202e-01   -3,682772517e-01   -5,571582913e-01    0,000000000e+00    0,000000000e+00    0,000000000e+00    0,000000000e+00
      590000000   -9,555157274e-02   -1,230170056e-01   -6,207083464e-01   -2,627365887e-01    0,000000000e+00    0,000000000e+00    0,000000000e+00    0,000000000e+00
      604000000   -1,390164942e-01   -7,228957117e-02   -6,643506289e-01    1,365930438e-01    0,000000000e+00    0,000000000e+00    0,000000000e+00    0,000000000e+00
      618000000   -1,288975030e-01   -9,544481523e-03   -4,646945298e-01    4,925923347e-01    0,000000000e+00    0,000000000e+00    0,000000000e+00    0,000000000e+00
      632000000   -8,458097279e-02    1,646632515e-02   -1,002997905e-01    6,622586250e-01    0,000000000e+00    0,000000000e+00    0,000000000e+00    0,000000000e+00
      646000000   -5,157235637e-02    1,296792179e-04    2,847505808e-01    5,936082602e-01    0,000000000e+00    0,000000000e+00    0,000000000e+00    0,000000000e+00
      660000000   -5,315844342e-02   -2,081435174e-02    5,651214123e-01    3,232569695e-01    0,000000000e+00    0,000000000e+00    0,000000000e+00    0,000000000e+00
      674000000   -6,931602210e-02   -1,617804170e-02    6,404997706e-01   -6,301938742e-02    0,000000000e+00    0,000000000e+00    0,000000000e+00    0,000000000e+00
      688000000   -6,707789004e-02    8,698750287e-03    4,705078304e-01   -4,238537550e-01    0,000000000e+00    0,000000000e+00    0,000000000e+00    0,000000000e+00
      702000000   -3,662661463e-02    2,680625580e-02    1,215646267e-01   -6,089674830e-01    0,000000000e+00    0,000000000e+00    0,000000000e+00    0,000000000e+00
      716000000    2,827846911e-03    1,637944579e-02   -2,589628398e-01   -5,440904498e-01    0,000000000e+00    0,000000000e+00    0,000000000e+00    0,000000000e+00
      730000000    3,697500378e-02   -1,344843954e-02   -5,216829777e-01   -2,709106207e-01    0,000000000e+00    0,000000000e+00    0,000000000e+00    0,000000000e+00
      744000000    6,273167580e-02   -6,568975002e-02   -5,605933070e-01    9,843141586e-02    0,000000000e+00    0,000000000e+00    0,000000000e+00    0,000000000e+00
      758000000    6,187290698e-02   -1,515635401e-01   -3,663851023e-01    4,002774358e-01    0,000000000e+00    0,000000000e+00    0,000000000e+00    0,000000000e+00
      772000000   -1,692249440e-02   -2,558083534e-01   -4,646645859e-02    5,091781616e-01    0,000000000e+00    0,000000000e+00    0,000000000e+00    0,000000000e+00
      786000000   -2,024291158e-01   -2,918064594e-01    2,587841749e-01    3,995245099e-01    0,000000000e+00    0,000000000e+00    0,000000000e+00    0,000000000e+00
      800000000   -4,079020619e-01   -1,282036901e-01    4,069318175e-01    1,188721210e-01    0,000000000e+00    0,000000000e+00    0,000000000e+00    0,000000000e+00
      814000000   -3,759241402e-01    2,015478462e-01    2,958579361e-01   -1,502073556e-01    0,000000000e+00    0,000000000e+00    0,000000000e+00    0,000000000e+00
      828000000   -6,301818788e-02    3,464720547e-01    8,298593014e-02   -1,903629154e-01    0,000000000e+00    0,000000000e+00    0,000000000e+00    0,000000000e+00
      842000000    2,119366229e-01    1,855949461e-01   -2,948296024e-03   -9,330122918e-02    0,000000000e+00    0,000000000e+00    0,000000000e+00    0,000000000e+00
      856000000    2,662962973e-01   -1,055089608e-01    3,631815687e-02   -3,720383719e-02    0,000000000e+00    0,000000000e+00    0,000000000e+00    0,000000000e+00
      870000000    8,230446279e-02   -3,512346745e-01    8,909474313e-02   -9,768520296e-02    0,000000000e+00    0,000000000e+00    0,000000000e+00    0,000000000e+00
      884000000   -2,677673101e-01   -3,561265469e-01    1,118102204e-02   -2,281449437e-01    0,000000000e+00    0,000000000e+00    0,000000000e+00    0,000000000e+00
      898000000   -4,572661817e-01   -1,292318385e-02   -2,151277363e-01   -2,095572650e-01    0,000000000e+00    0,000000000e+00    0,000000000e+00    0,000000000e+00
      912000000   -2,350026518e-01    2,775410116e-01   -3,280350864e-01    7,687125355e-02    0,000000000e+00    0,000000000e+00    0,000000000e+00    0,000000000e+00
      926000000    5,477478728e-02    2,630728185e-01   -2,095434517e-01    2,643148005e-01    0,000000000e+00    0,000000000e+00    0,000000000e+00    0,000000000e+00
      940000000    2,076088041e-01    8,442748338e-02   -3,168798238e-02    3,250101209e-01    0,000000000e+00    0,000000000e+00    0,000000000e+00    0,000000000e+00
      954000000    2,226819545e-01   -1,216402873e-01    1,320710927e-01    3,013573289e-01    0,000000000e+00    0,000000000e+00    0,000000000e+00    0,000000000e+00
      968000000    1,174799502e-01   -2,964458764e-01    2,682621479e-01    2,133016586e-01    0,000000000e+00    0,000000000e+00    0,000000000e+00    0,000000000e+00
      982000000   -7,775129378e-02   -3,892525434e-01    3,609810472e-01    6,303473562e-02    0,000000000e+00    0,000000000e+00    0,000000000e+00    0,000000000e+00
      996000000   -3,084382415e-01   -3,300522864e-01    3,644887507e-01   -1,434967667e-01    0,000000000e+00    0,000000000e+00    0,000000000e+00    0,000000000e+00
     1010000000   -4,627338648e-01   -1,189744547e-01    2,200777978e-01   -3,342446387e-01    0,000000000e+00    0,000000000e+00    0,000000000e+00    0,000000000e+00
     1024000000   -4,173566699e-01    1,461501718e-01   -3,224642575e-02   -3,852411509e-01    0,000000000e+00    0,000000000e+00    0,000000000e+00    0,000000000e+00
     1038000000   -2,263040841e-01    2,892563939e-01   -2,411118597e-01   -2,575387955e-01    0,000000000e+00    0,000000000e+00    0,000000000e+00    0,000000000e+00
     1052000000   -1,116031595e-02    2,833804786e-01   -3,118713796e-01   -4,923440143e-02    0,000000000e+00    0,000000000e+00    0,000000000e+00    0,000000000e+00
     1066000000    1,343267709e-01    1,657867730e-01   -2,495218664e-01    1,397914290e-01    0,000000000e+00    0,000000000e+00    0,000000000e+00    0,000000000e+00
     1080000000    1,913411915e-01    7,224920671e-03   -1,166580990e-01    2,546368241e-01    0,000000000e+00    0,000000000e+00    0,000000000e+00    0,000000000e+00
     1094000000    1,579493135e-01   -1,658570915e-01    5,906547979e-02    2,945325375e-01    0,000000000e+00    0,000000000e+00    0,000000000e+00    0,000000000e+00
     1108000000    1,746675186e-02   -2,930789888e-01    2,609369755e-01    2,325875461e-01    0,000000000e+00    0,000000000e+00    0,000000000e+00    0,000000000e+00
     1122000000   -2,168797404e-01   -2,824425101e-01    4,418532550e-01    2,501537837e-02    0,000000000e+00    0,000000000e+00    0,000000000e+00    0,000000000e+00
     1136000000   -3,222545087e-01   -2,896429785e-02    4,040295482e-01   -3,437892199e-01    0,000000000e+00    0,000000000e+00    0,000000000e+00    0,000000000e+00
     1150000000   -1,082488075e-01    1,367135942e-01    4,791178927e-02   -5,308229923e-01    0,000000000e+00    0,000000000e+00    0,000000000e+00    0,000000000e+00
     1164000000    8,774891496e-02   -1,963767596e-02   -2,512477636e-01   -4,038867950e-01    0,000000000e+00    0,000000000e+00    0,000000000e+00    0,000000000e+00
     1178000000    2,517850138e-02   -2,533250153e-01   -3,703377843e-01   -1,790134311e-01    0,000000000e+00    0,000000000e+00    0,000000000e+00    0,000000000e+00
     1192000000   -2,198137641e-01   -3,469239771e-01   -3,424663544e-01    3,820646554e-02    0,000000000e+00    0,000000000e+00    0,000000000e+00    0,000000000e+00
     1206000000   -4,805451930e-01   -1,868193597e-01   -1,910628378e-01    1,802281737e-01    0,000000000e+00    0,000000000e+00    0,000000000e+00    0,000000000e+00
     1220000000   -5,063049197e-01    1,419066042e-01   -1,096212398e-02    1,736052334e-01    0,000000000e+00    0,000000000e+00    0,000000000e+00    0,000000000e+00
     1234000000   -3,060344458e-01    3,406261802e-01    7,147978246e-02    7,740107924e-02    0,000000000e+00    0,000000000e+00    0,000000000e+00    0,000000000e+00
     1248000000   -6,341782957e-02    3,560966849e-01    7,383275777e-02   -1,894969260e-03    0,000000000e+00    0,000000000e+00    0,000000000e+00    0,000000000e+00
     1262000000    1,131943762e-01    2,578055263e-01    3,430476040e-02   -2,006434649e-02    0,000000000e+00    0,000000000e+00    0,000000000e+00    0,000000000e+00
     1276000000    2,019507289e-01    1,050273702e-01    1,312108943e-03   -1,185356360e-02    0,000000000e+00    0,000000000e+00    0,000000000e+00    0,000000000e+00
     1290000000    2,200517654e-01   -6,283648312e-02    1,004868466e-02    2,834535949e-02    0,000000000e+00    0,000000000e+00    0,000000000e+00    0,000000000e+00
     1304000000    1,653941274e-01   -2,345317453e-01    6,356316060e-02    5,820531771e-02    0,000000000e+00    0,000000000e+00    0,000000000e+00    0,000000000e+00
     1318000000    2,379820682e-02   -3,664333522e-01    1,699994951e-01    1,269524917e-02    0,000000000e+00    0,000000000e+00    0,000000000e+00    0,000000000e+00
     1332000000   -1,521139294e-01   -3,999200165e-01    9,787826240e-02   -1,786161810e-01    0,000000000e+00    0,000000000e+00    0,000000000e+00    0,000000000e+00
     1346000000   -3,522948027e-01   -3,930767179e-01   -5,293170363e-02   -2,092301100e-02    0,000000000e+00    0,000000000e+00    0,000000000e+00    0,000000000e+00
     1360000000   -5,855654478e-01   -2,108813822e-01    7,413831353e-02    8,023262769e-02    0,000000000e+00    0,000000000e+00    0,000000000e+00    0,000000000e+00
     1374000000   -6,223070025e-01    1,010111347e-01    1,886220425e-01    4,794636369e-02    0,000000000e+00    0,000000000e+00    0,000000000e+00    0,000000000e+00
     1388000000   -4,667523205e-01    3,494914770e-01    2,297045588e-01   -2,181677520e-02    0,000000000e+00    0,000000000e+00    0,000000000e+00    0,000000000e+00
     1402000000   -2,461003065e-01    4,506863356e-01    2,077232897e-01   -7,236145437e-02    0,000000000e+00    0,000000000e+00    0,000000000e+00    0,000000000e+00
     1416000000   -3,512850404e-02    4,119902551e-01    2,031231374e-01   -1,123537943e-01    0,000000000e+00    0,000000000e+00    0,000000000e+00    0,000000000e+00
     1430000000    1,137971058e-01    3,057254851e-01    1,725060940e-01   -1,406497508e-01    0,000000000e+00    0,000000000e+00    0,000000000e+00    0,000000000e+00
     1444000000    2,008948326e-01    1,546939015e-01    1,602544487e-01   -1,084185466e-01    0,000000000e+00    0,000000000e+00    0,000000000e+00    0,000000000e+00
     1458000000    2,274709046e-01   -1,318214275e-02    1,444120109e-01   -8,552934229e-02    0,000000000e+00    0,000000000e+00    0,000000000e+00    0,000000000e+00
     1472000000    1,919402927e-01   -1,843370646e-01    1,447943002e-01   -3,556055203e-02    0,000000000e+00    0,000000000e+00    0,000000000e+00    0,000000000e+00
     1486000000    6,231714413e-02   -3,651584089e-01    1,576556116e-01    2,486799099e-02    0,000000000e+00    0,000000000e+00    0,000000000e+00    0,000000000e+00
     1500000000   -1,598008722e-01   -4,872928560e-01    2,330041081e-01    7,909385115e-02    0,000000000e+00    0,000000000e+00    0,000000000e+00    0,000000000e+00
