! NanoVNA-App
! Date: 2025-09-25 15:38:47
! Start: 100MHz Stop: 1,5GHz Points: 101
! S-Parameter data: F S11 S21 S12 S22
# Hz S RI R 50
!     Frequency           S11_Real           S11_Imag           S21_Real           S21_Imag           S12_Real           S12_Imag           S22_Real           S22_Imag
      100000000   -2,866830304e-02   -4,240214825e-03    3,738339543e-01   -7,215120792e-01    0,000000000e+00    0,000000000e+00    0,000000000e+00    0,000000000e+00
      114000000   -1,647402160e-02    1,147201844e-02   -8,927218616e-02   -8,051415086e-01    0,000000000e+00    0,000000000e+00    0,000000000e+00    0,000000000e+00
      128000000    3,427429125e-03    1,075395662e-02   -5,144941211e-01   -6,201835275e-01    0,000000000e+00    0,000000000e+00    0,000000000e+00    0,000000000e+00
      142000000    1,468684711e-02   -2,608401235e-03   -7,669398785e-01   -2,363257557e-01    0,000000000e+00    0,000000000e+00    0,000000000e+00    0,000000000e+00
      156000000    1,639005356e-02   -1,397911087e-02   -7,697188258e-01    2,243134975e-01    0,000000000e+00    0,000000000e+00    0,000000000e+00    0,000000000e+00
      170000000    1,716382243e-02   -2,246465907e-02   -5,179654956e-01    6,046276093e-01    0,000000000e+00    0,000000000e+00    0,000000000e+00    0,000000000e+00
      184000000    2,143106610e-02   -3,719190136e-02   -1,011502668e-01    7,858437896e-01    0,000000000e+00    0,000000000e+00    0,000000000e+00    0,000000000e+00
      198000000    1,325302478e-02   -6,259186566e-02    3,430108130e-01    7,118722796e-01    0,000000000e+00    0,000000000e+00    0,000000000e+00    0,000000000e+00
      212000000   -1,842467859e-02   -8,129714429e-02    6,779429317e-01    4,096077383e-01    0,000000000e+00    0,000000000e+00    0,000000000e+00    0,000000000e+00
      226000000   -6,127624214e-02   -6,913994253e-02    7,952721119e-01   -3,070347384e-02    0,000000000e+00    0,000000000e+00    0,000000000e+00    0,000000000e+00
      240000000   -8,210007846e-02   -2,581378818e-02    6,456872225e-01   -4,669460654e-01    0,000000000e+00    0,000000000e+00    0,000000000e+00    0,000000000e+00
      254000000   -6,330467761e-02    1,685690321e-02    2,758353353e-01   -7,427017689e-01    0,000000000e+00    0,000000000e+00    0,000000000e+00    0,000000000e+00
      268000000   -2,389757708e-02    2,861467935e-02   -1,775602102e-01   -7,640864253e-01    0,000000000e+00    0,000000000e+00    0,000000000e+00    0,000000000e+00
      282000000    4,101635423e-03    1,201503817e-02   -5,614938736e-01   -5,353870988e-01    0,000000000e+00    0,000000000e+00    0,000000000e+00    0,000000000e+00
      296000000    9,929177351e-03   -7,565218955e-03   -7,594955564e-01   -1,395461559e-01    0,000000000e+00    0,000000000e+00    0,000000000e+00    0,000000000e+00
      310000000    1,138213463e-02   -1,608464494e-02   -7,121595740e-01    2,979249954e-01    0,000000000e+00    0,000000000e+00    0,000000000e+00    0,000000000e+00
      324000000    2,020597458e-02   -2,665805630e-02   -4,280690551e-01    6,370002627e-01    0,000000000e+00    0,000000000e+00    0,000000000e+00    0,000000000e+00
      338000000    2,567651495e-02   -5,246701837e-02   -9,708901867e-03    7,635165453e-01    0,000000000e+00    0,000000000e+00    0,000000000e+00    0,000000000e+00
      352000000    7,522315718e-03   -8,456545323e-02    4,061857164e-01    6,391388178e-01    0,000000000e+00    0,000000000e+00    0,000000000e+00    0,000000000e+00
      366000000   -3,417243436e-02   -9,545602649e-02    6,901348829e-01    3,108742237e-01    0,000000000e+00    0,000000000e+00    0,000000000e+00    0,000000000e+00
      380000000   -7,011524588e-02   -7,116797566e-02    7,475128770e-01   -1,256963760e-01    0,000000000e+00    0,000000000e+00    0,000000000e+00    0,000000000e+00
      394000000   -7,217217982e-02   -3,271942586e-02    5,452860594e-01   -5,205932260e-01    0,000000000e+00    0,000000000e+00    0,000000000e+00    0,000000000e+00
      408000000   -4,621172696e-02   -1,646299846e-02    1,610384434e-01   -7,323060036e-01    0,000000000e+00    0,000000000e+00    0,000000000e+00    0,000000000e+00
      422000000   -2,845453471e-02   -3,214490414e-02   -2,669468820e-01   -6,938633919e-01    0,000000000e+00    0,000000000e+00    0,000000000e+00    0,000000000e+00
      436000000   -4,066290334e-02   -5,184964463e-02   -6,034548283e-01   -4,316965044e-01    0,000000000e+00    0,000000000e+00    0,000000000e+00    0,000000000e+00
      450000000   -6,687580794e-02   -4,329640418e-02   -7,400795221e-01   -2,174405381e-02    0,000000000e+00    0,000000000e+00    0,000000000e+00    0,000000000e+00
      464000000   -7,283326238e-02   -1,213894878e-02   -6,178151369e-01    3,968462646e-01    0,000000000e+00    0,000000000e+00    0,000000000e+00    0,000000000e+00
      478000000   -4,740348831e-02    1,129598357e-02   -2,823722363e-01    6,668282747e-01    0,000000000e+00    0,000000000e+00    0,000000000e+00    0,000000000e+00
      492000000   -1,593230665e-02    5,528161768e-03    1,368934065e-01    7,008535862e-01    0,000000000e+00    0,000000000e+00    0,000000000e+00    0,000000000e+00
      506000000   -2,655698685e-03   -1,572716981e-02    4,974350333e-01    5,024558306e-01    0,000000000e+00    0,000000000e+00    0,000000000e+00    0,000000000e+00
      520000000   -5,118750967e-03   -3,106692433e-02    6,859239936e-01    1,419476718e-01    0,000000000e+00    0,000000000e+00    0,000000000e+00    0,000000000e+00
      534000000   -3,328711959e-03   -3,785204142e-02    6,429553032e-01   -2,618325353e-01    0,000000000e+00    0,000000000e+00    0,000000000e+00    0,000000000e+00
      548000000    6,359684281e-03   -5,449786410e-02    3,811125457e-01   -5,666956306e-01    0,000000000e+00    0,000000000e+00    0,000000000e+00    0,000000000e+00
      562000000    3,637140617e-03   -8,982416242e-02    2,147529740e-03   -6,720049977e-01    0,000000000e+00    0,000000000e+00    0,000000000e+00    0,000000000e+00
      576000000   -3,362055868e-02   -1,243715361e-01   -3,679898679e-01   -5,564121008e-01    0,000000000e+00    0,000000000e+00    0,000000000e+00    0,000000000e+00
      590000000   -9,604404122e-02   -1,226814836e-01   -6,212844253e-01   -2,648005188e-01    0,000000000e+00    0,000000000e+00    0,000000000e+00    0,000000000e+00
      604000000   -1,388148516e-01   -7,236062735e-02   -6,639381051e-01    1,366646141e-01    0,000000000e+00    0,000000000e+00    0,000000000e+00    0,000000000e+00
      618000000   -1,290263534e-01   -1,054230332e-02   -4,637373984e-01    4,925822914e-01    0,000000000e+00    0,000000000e+00    0,000000000e+00    0,000000000e+00
      632000000   -8,452762663e-02    1,544995885e-02   -1,002458334e-01    6,623545289e-01    0,000000000e+00    0,000000000e+00    0,000000000e+00    0,000000000e+00
      646000000   -5,148055404e-02    2,271227277e-05    2,855867147e-01    5,929874778e-01    0,000000000e+00    0,000000000e+00    0,000000000e+00    0,000000000e+00
      660000000   -5,433486030e-02   -2,084989287e-02    5,641152263e-01    3,230954409e-01    0,000000000e+00    0,000000000e+00    0,000000000e+00    0,000000000e+00
      674000000   -6,930457801e-02   -1,605841331e-02    6,405145526e-01   -6,285163015e-02    0,000000000e+00    0,000000000e+00    0,000000000e+00    0,000000000e+00
      688000000   -6,637087464e-02    9,531270713e-03    4,705184102e-01   -4,234279692e-01    0,000000000e+00    0,000000000e+00    0,000000000e+00    0,000000000e+00
      702000000   -3,583089635e-02    2,685980871e-02    1,191159561e-01   -6,097574234e-01    0,000000000e+00    0,000000000e+00    0,000000000e+00    0,000000000e+00
      716000000    2,920422936e-03    1,624241844e-02   -2,601734698e-01   -5,450275540e-01    0,000000000e+00    0,000000000e+00    0,000000000e+00    0,000000000e+00
      730000000    3,628796712e-02   -1,411987189e-02   -5,214883685e-01   -2,713232040e-01    0,000000000e+00    0,000000000e+00    0,000000000e+00    0,000000000e+00
      744000000    6,275909394e-02   -6,583954394e-02   -5,601133704e-01    9,890872985e-02    0,000000000e+00    0,000000000e+00    0,000000000e+00    0,000000000e+00
      758000000    6,155534461e-02   -1,522973031e-01   -3,658705950e-01    4,002499282e-01    0,000000000e+00    0,000000000e+00    0,000000000e+00    0,000000000e+00
      772000000   -1,725851744e-02   -2,563156486e-01   -4,580512643e-02    5,090642571e-01    0,000000000e+00    0,000000000e+00    0,000000000e+00    0,000000000e+00
      786000000   -2,033339292e-01   -2,913849652e-01    2,593458593e-01    3,984193504e-01    0,000000000e+00    0,000000000e+00    0,000000000e+00    0,000000000e+00
      800000000   -4,084661901e-01   -1,260280758e-01    4,061850309e-01    1,180797666e-01    0,000000000e+00    0,000000000e+00    0,000000000e+00    0,000000000e+00
      814000000   -3,754259944e-01    2,026323527e-01    2,954171300e-01   -1,512339264e-01    0,000000000e+00    0,000000000e+00    0,000000000e+00    0,000000000e+00
      828000000   -6,135572121e-02    3,461570740e-01    8,189793676e-02   -1,894495040e-01    0,000000000e+00    0,000000000e+00    0,000000000e+00    0,000000000e+00
      842000000    2,119432390e-01    1,852450669e-01   -3,107890487e-03   -9,206699580e-02    0,000000000e+00    0,000000000e+00    0,000000000e+00    0,000000000e+00
      856000000    2,654736638e-01   -1,065886393e-01    3,694122657e-02   -3,691314906e-02    0,000000000e+00    0,000000000e+00    0,000000000e+00    0,000000000e+00
      870000000    8,177860081e-02   -3,518923223e-01    8,938618749e-02   -9,843978286e-02    0,000000000e+00    0,000000000e+00    0,000000000e+00    0,000000000e+00
      884000000   -2,685747147e-01   -3,550233841e-01    1,057962794e-02   -2,278802842e-01    0,000000000e+00    0,000000000e+00    0,000000000e+00    0,000000000e+00
      898000000   -4,580799639e-01   -1,303637400e-02   -2,163178772e-01   -2,097564489e-01    0,000000000e+00    0,000000000e+00    0,000000000e+00    0,000000000e+00
      912000000   -2,344087511e-01    2,779378295e-01   -3,428708911e-01    7,870655507e-02    0,000000000e+00    0,000000000e+00    0,000000000e+00    0,000000000e+00
      926000000    5,575855449e-02    2,615180314e-01   -2,081779540e-01    2,624749243e-01    0,000000000e+00    0,000000000e+00    0,000000000e+00    0,000000000e+00
      940000000    2,102320194e-01    8,518669009e-02   -3,106381744e-02    3,248403072e-01    0,000000000e+00    0,000000000e+00    0,000000000e+00    0,000000000e+00
      954000000    2,216537297e-01   -1,231400892e-01    1,305525452e-01    3,018079698e-01    0,000000000e+00    0,000000000e+00    0,000000000e+00    0,000000000e+00
      968000000    1,159190759e-01   -2,946554720e-01    2,684437335e-01    2,130089700e-01    0,000000000e+00    0,000000000e+00    0,000000000e+00    0,000000000e+00
      982000000   -7,711109519e-02   -3,818059564e-01    3,595809340e-01    6,268189102e-02    0,000000000e+00    0,000000000e+00    0,000000000e+00    0,000000000e+00
      996000000   -3,138092160e-01   -3,292652667e-01    3,620263338e-01   -1,438358873e-01    0,000000000e+00    0,000000000e+00    0,000000000e+00    0,000000000e+00
     1010000000   -4,581852555e-01   -1,138396114e-01    2,192038000e-01   -3,354666829e-01    0,000000000e+00    0,000000000e+00    0,000000000e+00    0,000000000e+00
     1024000000   -4,175037146e-01    1,460440159e-01   -3,244345635e-02   -3,838081360e-01    0,000000000e+00    0,000000000e+00    0,000000000e+00    0,000000000e+00
     1038000000   -2,270805836e-01    2,907488644e-01   -2,422643304e-01   -2,567714751e-01    0,000000000e+00    0,000000000e+00    0,000000000e+00    0,000000000e+00
     1052000000   -1,500670519e-02    2,775982618e-01   -3,116253614e-01   -4,625651985e-02    0,000000000e+00    0,000000000e+00    0,000000000e+00    0,000000000e+00
     1066000000    1,331940889e-01    1,717160195e-01   -2,511111498e-01    1,388638616e-01    0,000000000e+00    0,000000000e+00    0,000000000e+00    0,000000000e+00
     1080000000    1,959671527e-01    7,344197482e-03   -1,137238294e-01    2,545208633e-01    0,000000000e+00    0,000000000e+00    0,000000000e+00    0,000000000e+00
     1094000000    1,627231985e-01   -1,620972157e-01    5,854254961e-02    2,914436758e-01    0,000000000e+00    0,000000000e+00    0,000000000e+00    0,000000000e+00
     1108000000    1,884571277e-02   -2,982764542e-01    2,612772584e-01    2,340980321e-01    0,000000000e+00    0,000000000e+00    0,000000000e+00    0,000000000e+00
     1122000000   -2,113974243e-01   -2,840144932e-01    4,382883012e-01    2,348482050e-02    0,000000000e+00    0,000000000e+00    0,000000000e+00    0,000000000e+00
     1136000000   -3,283567727e-01   -3,058840707e-02    3,987216353e-01   -3,446021080e-01    0,000000000e+00    0,000000000e+00    0,000000000e+00    0,000000000e+00
     1150000000   -1,061940119e-01    1,429900080e-01    4,701606557e-02   -5,328544378e-01    0,000000000e+00    0,000000000e+00    0,000000000e+00    0,000000000e+00
     1164000000    8,158899844e-02   -2,020484209e-02   -2,495760173e-01   -4,045357704e-01    0,000000000e+00    0,000000000e+00    0,000000000e+00    0,000000000e+00
     1178000000    2,885819413e-02   -2,509766519e-01   -3,702309132e-01   -1,779061407e-01    0,000000000e+00    0,000000000e+00    0,000000000e+00    0,000000000e+00
     1192000000   -2,223225236e-01   -3,511708677e-01   -3,399057984e-01    4,094220698e-02    0,000000000e+00    0,000000000e+00    0,000000000e+00    0,000000000e+00
     1206000000   -4,820725620e-01   -1,812380105e-01   -1,880310178e-01    1,808012873e-01    0,000000000e+00    0,000000000e+00    0,000000000e+00    0,000000000e+00
     1220000000   -5,027875900e-01    1,412677914e-01   -8,637244813e-03    1,781534851e-01    0,000000000e+00    0,000000000e+00    0,000000000e+00    0,000000000e+00
     1234000000   -2,946418226e-01    3,449668586e-01    7,093785703e-02    7,933725417e-02    0,000000000e+00    0,000000000e+00    0,000000000e+00    0,000000000e+00
     1248000000   -6,533431262e-02    3,581508994e-01    7,125620544e-02   -1,753208111e-03    0,000000000e+00    0,000000000e+00    0,000000000e+00    0,000000000e+00
     1262000000    1,094076708e-01    2,555266619e-01    3,392375261e-02   -2,709883079e-02    0,000000000e+00    0,000000000e+00    0,000000000e+00    0,000000000e+00
     1276000000    2,035188973e-01    1,064398140e-01    7,463647053e-03   -9,801369160e-03    0,000000000e+00    0,000000000e+00    0,000000000e+00    0,000000000e+00
     1290000000    2,227434069e-01   -6,202979013e-02    1,180174574e-02    3,049122542e-02    0,000000000e+00    0,000000000e+00    0,000000000e+00    0,000000000e+00
     1304000000    1,677437872e-01   -2,337613404e-01    6,097859517e-02    5,933329463e-02    0,000000000e+00    0,000000000e+00    0,000000000e+00    0,000000000e+00
     1318000000    2,422367036e-02   -3,644150496e-01    1,725972891e-01    1,545649488e-02    0,000000000e+00    0,000000000e+00    0,000000000e+00    0,000000000e+00
     1332000000   -1,501651108e-01   -3,978674710e-01    9,252393246e-02   -1,859239042e-01    0,000000000e+00    0,000000000e+00    0,000000000e+00    0,000000000e+00
     1346000000   -3,667872250e-01   -3,881935775e-01   -6,229223311e-02   -2,019244619e-02    0,000000000e+00    0,000000000e+00    0,000000000e+00    0,000000000e+00
     1360000000   -5,885201693e-01   -1,962321103e-01    6,726381928e-02    9,990564734e-02    0,000000000e+00    0,000000000e+00    0,000000000e+00    0,000000000e+00
     1374000000   -6,282067299e-01    1,074790582e-01    1,739398539e-01    5,128991604e-02    0,000000000e+00    0,000000000e+00    0,000000000e+00    0,000000000e+00
     1388000000   -4,727419913e-01    3,513089418e-01    2,254084200e-01   -1,901047491e-02    0,000000000e+00    0,000000000e+00    0,000000000e+00    0,000000000e+00
     1402000000   -2,500028014e-01    4,440957010e-01    2,033480853e-01   -8,026999235e-02    0,000000000e+00    0,000000000e+00    0,000000000e+00    0,000000000e+00
     1416000000   -4,275073856e-02    4,067282081e-01    1,875248402e-01   -1,096262634e-01    0,000000000e+00    0,000000000e+00    0,000000000e+00    0,000000000e+00
     1430000000    1,130883247e-01    3,053516150e-01    1,771541983e-01   -1,169297025e-01    0,000000000e+00    0,000000000e+00    0,000000000e+00    0,000000000e+00
     1444000000    2,027074844e-01    1,561044604e-01    1,623446196e-01   -1,114507467e-01    0,000000000e+00    0,000000000e+00    0,000000000e+00    0,000000000e+00
     1458000000    2,262225449e-01   -1,304193866e-02    1,433564574e-01   -8,513227105e-02    0,000000000e+00    0,000000000e+00    0,000000000e+00    0,000000000e+00
     1472000000    1,954124272e-01   -1,920989454e-01    1,496880502e-01   -3,718524426e-02    0,000000000e+00    0,000000000e+00    0,000000000e+00    0,000000000e+00
     1486000000    7,172161341e-02   -3,682646155e-01    1,743852645e-01    8,330578916e-03    0,000000000e+00    0,000000000e+00    0,000000000e+00    0,000000000e+00
     1500000000   -1,671850681e-01   -4,862642288e-01    2,220963240e-01    6,528726965e-02    0,000000000e+00    0,000000000e+00    0,000000000e+00    0,000000000e+00
