! NanoVNA-App
! Date: 2025-09-25 15:45:29
! Start: 100MHz Stop: 1,5GHz Points: 101
! S-Parameter data: F S11 S21 S12 S22
# Hz S RI R 50
!     Frequency           S11_Real           S11_Imag           S21_Real           S21_Imag           S12_Real           S12_Imag           S22_Real           S22_Imag
      100000000   -2,878894284e-02   -4,259794019e-03    3,739606142e-01   -7,215496898e-01    0,000000000e+00    0,000000000e+00    0,000000000e+00    0,000000000e+00
      114000000   -1,654627733e-02    1,150860451e-02   -8,919829130e-02   -8,052886128e-01    0,000000000e+00    0,000000000e+00    0,000000000e+00    0,000000000e+00
      128000000    3,439606633e-03    1,066865120e-02   -5,143467784e-01   -6,203772426e-01    0,000000000e+00    0,000000000e+00    0,000000000e+00    0,000000000e+00
      142000000    1,463636290e-02   -2,668395638e-03   -7,669006586e-01   -2,364306152e-01    0,000000000e+00    0,000000000e+00    0,000000000e+00    0,000000000e+00
      156000000    1,473991107e-02   -1,462661661e-02   -7,641401887e-01    2,201066315e-01    0,000000000e+00    0,000000000e+00    0,000000000e+00    0,000000000e+00
      170000000    1,706811599e-02   -2,245239355e-02   -5,178708434e-01    6,044047475e-01    0,000000000e+00    0,000000000e+00    0,000000000e+00    0,000000000e+00
      184000000    2,128376625e-02   -3,716743365e-02   -1,014053226e-01    7,858539820e-01    0,000000000e+00    0,000000000e+00    0,000000000e+00    0,000000000e+00
      198000000    1,329972874e-02   -6,249245256e-02    3,430094421e-01    7,117745876e-01    0,000000000e+00    0,000000000e+00    0,000000000e+00    0,000000000e+00
      212000000   -1,840251684e-02   -8,128063381e-02    6,778123379e-01    4,098574519e-01    0,000000000e+00    0,000000000e+00    0,000000000e+00    0,000000000e+00
      226000000   -6,142209098e-02   -6,925217062e-02    7,954033613e-01   -3,031574376e-02    0,000000000e+00    0,000000000e+00    0,000000000e+00    0,000000000e+00
      240000000   -8,232849836e-02   -2,578411065e-02    6,459641457e-01   -4,667798281e-01    0,000000000e+00    0,000000000e+00    0,000000000e+00    0,000000000e+00
      254000000   -6,346883625e-02    1,700159721e-02    2,762370408e-01   -7,428215742e-01    0,000000000e+00    0,000000000e+00    0,000000000e+00    0,000000000e+00
      268000000   -2,390616015e-02    2,877581678e-02   -1,780238301e-01   -7,637052536e-01    0,000000000e+00    0,000000000e+00    0,000000000e+00    0,000000000e+00
      282000000    4,154221155e-03    1,208098233e-02   -5,619569421e-01   -5,355239511e-01    0,000000000e+00    0,000000000e+00    0,000000000e+00    0,000000000e+00
      296000000    9,913323447e-03   -7,553049829e-03   -7,595831752e-01   -1,396729201e-01    0,000000000e+00    0,000000000e+00    0,000000000e+00    0,000000000e+00
      310000000    1,148605160e-02   -1,614949107e-02   -7,114008665e-01    2,975676656e-01    0,000000000e+00    0,000000000e+00    0,000000000e+00    0,000000000e+00
      324000000    1,967674680e-02   -2,654680237e-02   -4,270700812e-01    6,385522485e-01    0,000000000e+00    0,000000000e+00    0,000000000e+00    0,000000000e+00
      338000000    2,527835593e-02   -5,223942176e-02   -7,896090858e-03    7,609056830e-01    0,000000000e+00    0,000000000e+00    0,000000000e+00    0,000000000e+00
      352000000    7,448590361e-03   -8,458331972e-02    4,068007469e-01    6,383106112e-01    0,000000000e+00    0,000000000e+00    0,000000000e+00    0,000000000e+00
      366000000   -3,436215222e-02   -9,541908652e-02    6,896601915e-01    3,117378056e-01    0,000000000e+00    0,000000000e+00    0,000000000e+00    0,000000000e+00
      380000000   -7,035691291e-02   -7,131356001e-02    7,467022538e-01   -1,255342066e-01    0,000000000e+00    0,000000000e+00    0,000000000e+00    0,000000000e+00
      394000000   -7,222825289e-02   -3,247610852e-02    5,469983816e-01   -5,213550329e-01    0,000000000e+00    0,000000000e+00    0,000000000e+00    0,000000000e+00
      408000000   -4,633483291e-02   -1,620804891e-02    1,618146002e-01   -7,321010828e-01    0,000000000e+00    0,000000000e+00    0,000000000e+00    0,000000000e+00
      422000000   -2,833265997e-02   -3,223483264e-02   -2,664664388e-01   -6,949661970e-01    0,000000000e+00    0,000000000e+00    0,000000000e+00    0,000000000e+00
      436000000   -4,024222121e-02   -5,180062354e-02   -6,039626598e-01   -4,320400655e-01    0,000000000e+00    0,000000000e+00    0,000000000e+00    0,000000000e+00
      450000000   -6,706240773e-02   -4,390995204e-02   -7,399010062e-01   -2,199795283e-02    0,000000000e+00    0,000000000e+00    0,000000000e+00    0,000000000e+00
      464000000   -7,304999232e-02   -1,212199032e-02   -6,183859110e-01    3,967505991e-01    0,000000000e+00    0,000000000e+00    0,000000000e+00    0,000000000e+00
      478000000   -4,780396447e-02    1,129289344e-02   -2,834691405e-01    6,674375534e-01    0,000000000e+00    0,000000000e+00    0,000000000e+00    0,000000000e+00
      492000000   -1,579766348e-02    5,833176430e-03    1,369314492e-01    7,009912133e-01    0,000000000e+00    0,000000000e+00    0,000000000e+00    0,000000000e+00
      506000000   -2,840379020e-03   -1,563684456e-02    4,974233210e-01    5,024486780e-01    0,000000000e+00    0,000000000e+00    0,000000000e+00    0,000000000e+00
      520000000   -4,955562297e-03   -3,126493841e-02    6,867205501e-01    1,407747716e-01    0,000000000e+00    0,000000000e+00    0,000000000e+00    0,000000000e+00
      534000000   -3,388589481e-03   -3,785361722e-02    6,433423758e-01   -2,613528669e-01    0,000000000e+00    0,000000000e+00    0,000000000e+00    0,000000000e+00
      548000000    6,056994200e-03   -5,451780185e-02    3,810979128e-01   -5,660331249e-01    0,000000000e+00    0,000000000e+00    0,000000000e+00    0,000000000e+00
      562000000    3,481531749e-03   -8,965637535e-02    3,289170563e-03   -6,718031764e-01    0,000000000e+00    0,000000000e+00    0,000000000e+00    0,000000000e+00
      576000000   -3,359486535e-02   -1,242154688e-01   -3,683249056e-01   -5,577645898e-01    0,000000000e+00    0,000000000e+00    0,000000000e+00    0,000000000e+00
      590000000   -9,589228779e-02   -1,229091734e-01   -6,198951006e-01   -2,661419809e-01    0,000000000e+00    0,000000000e+00    0,000000000e+00    0,000000000e+00
      604000000   -1,386741698e-01   -7,241633534e-02   -6,637837291e-01    1,367224902e-01    0,000000000e+00    0,000000000e+00    0,000000000e+00    0,000000000e+00
      618000000   -1,296240389e-01   -9,811223485e-03   -4,645540416e-01    4,921799004e-01    0,000000000e+00    0,000000000e+00    0,000000000e+00    0,000000000e+00
      632000000   -8,482609689e-02    1,570817828e-02   -9,854207188e-02    6,612727046e-01    0,000000000e+00    0,000000000e+00    0,000000000e+00    0,000000000e+00
      646000000   -5,187512934e-02    1,257743919e-03    2,858914733e-01    5,941278338e-01    0,000000000e+00    0,000000000e+00    0,000000000e+00    0,000000000e+00
      660000000   -5,321218446e-02   -2,134192921e-02    5,650638342e-01    3,233543038e-01    0,000000000e+00    0,000000000e+00    0,000000000e+00    0,000000000e+00
      674000000   -6,901529431e-02   -1,610128395e-02    6,410710812e-01   -6,324154884e-02    0,000000000e+00    0,000000000e+00    0,000000000e+00    0,000000000e+00
      688000000   -6,654082984e-02    9,750067256e-03    4,710082710e-01   -4,240717590e-01    0,000000000e+00    0,000000000e+00    0,000000000e+00    0,000000000e+00
      702000000   -3,604299575e-02    2,554456145e-02    1,172792912e-01   -6,040237546e-01    0,000000000e+00    0,000000000e+00    0,000000000e+00    0,000000000e+00
      716000000    3,655609209e-03    1,565741748e-02   -2,592065930e-01   -5,443568826e-01    0,000000000e+00    0,000000000e+00    0,000000000e+00    0,000000000e+00
      730000000    3,607325256e-02   -1,390654594e-02   -5,216628909e-01   -2,716550529e-01    0,000000000e+00    0,000000000e+00    0,000000000e+00    0,000000000e+00
      744000000    6,181853265e-02   -6,529297680e-02   -5,605319738e-01    9,863582999e-02    0,000000000e+00    0,000000000e+00    0,000000000e+00    0,000000000e+00
      758000000    6,065317616e-02   -1,521430761e-01   -3,669380248e-01    4,001735151e-01    0,000000000e+00    0,000000000e+00    0,000000000e+00    0,000000000e+00
      772000000   -1,707952097e-02   -2,554951608e-01   -4,544190317e-02    5,094352961e-01    0,000000000e+00    0,000000000e+00    0,000000000e+00    0,000000000e+00
      786000000   -2,020492107e-01   -2,915191352e-01    2,588269413e-01    4,001156092e-01    0,000000000e+00    0,000000000e+00    0,000000000e+00    0,000000000e+00
      800000000   -4,067189097e-01   -1,276485622e-01    4,075316489e-01    1,187710911e-01    0,000000000e+00    0,000000000e+00    0,000000000e+00    0,000000000e+00
      814000000   -3,766648471e-01    2,021558285e-01    2,967189848e-01   -1,510582715e-01    0,000000000e+00    0,000000000e+00    0,000000000e+00    0,000000000e+00
      828000000   -6,307122856e-02    3,473622799e-01    8,262613416e-02   -1,916952282e-01    0,000000000e+00    0,000000000e+00    0,000000000e+00    0,000000000e+00
      842000000    2,110885680e-01    1,864977479e-01   -3,894075751e-03   -9,386697412e-02    0,000000000e+00    0,000000000e+00    0,000000000e+00    0,000000000e+00
      856000000    2,662657201e-01   -1,050335020e-01    3,509092703e-02   -3,762833402e-02    0,000000000e+00    0,000000000e+00    0,000000000e+00    0,000000000e+00
      870000000    8,293109387e-02   -3,506996632e-01    8,779026568e-02   -9,693458676e-02    0,000000000e+00    0,000000000e+00    0,000000000e+00    0,000000000e+00
      884000000   -2,669976354e-01   -3,565874994e-01    1,081854850e-02   -2,266095281e-01    0,000000000e+00    0,000000000e+00    0,000000000e+00    0,000000000e+00
      898000000   -4,572906196e-01   -1,390435454e-02   -2,143566459e-01   -2,097393870e-01    0,000000000e+00    0,000000000e+00    0,000000000e+00    0,000000000e+00
      912000000   -2,353465259e-01    2,783663571e-01   -3,282959759e-01    6,322414428e-02    0,000000000e+00    0,000000000e+00    0,000000000e+00    0,000000000e+00
      926000000    5,393689126e-02    2,628060877e-01   -2,115358859e-01    2,604276538e-01    0,000000000e+00    0,000000000e+00    0,000000000e+00    0,000000000e+00
      940000000    2,074695826e-01    8,363305777e-02   -3,311909735e-02    3,258978724e-01    0,000000000e+00    0,000000000e+00    0,000000000e+00    0,000000000e+00
      954000000    2,211798579e-01   -1,192386746e-01    1,303504854e-01    3,006260097e-01    0,000000000e+00    0,000000000e+00    0,000000000e+00    0,000000000e+00
      968000000    1,202360019e-01   -2,953754365e-01    2,678866982e-01    2,138262540e-01    0,000000000e+00    0,000000000e+00    0,000000000e+00    0,000000000e+00
      982000000   -7,981330901e-02   -3,840991855e-01    3,614793718e-01    6,370271742e-02    0,000000000e+00    0,000000000e+00    0,000000000e+00    0,000000000e+00
      996000000   -3,073346317e-01   -3,308625221e-01    3,623749018e-01   -1,429484636e-01    0,000000000e+00    0,000000000e+00    0,000000000e+00    0,000000000e+00
     1010000000   -4,649028182e-01   -1,186024249e-01    2,187258452e-01   -3,365228176e-01    0,000000000e+00    0,000000000e+00    0,000000000e+00    0,000000000e+00
     1024000000   -4,151477218e-01    1,410350651e-01   -2,890294604e-02   -3,857923448e-01    0,000000000e+00    0,000000000e+00    0,000000000e+00    0,000000000e+00
     1038000000   -2,245949805e-01    2,915799022e-01   -2,392382324e-01   -2,576933503e-01    0,000000000e+00    0,000000000e+00    0,000000000e+00    0,000000000e+00
     1052000000   -1,059045549e-02    2,796951830e-01   -3,109258413e-01   -4,779170454e-02    0,000000000e+00    0,000000000e+00    0,000000000e+00    0,000000000e+00
     1066000000    1,293274313e-01    1,677677631e-01   -2,482465655e-01    1,363557279e-01    0,000000000e+00    0,000000000e+00    0,000000000e+00    0,000000000e+00
     1080000000    1,937603354e-01    5,933456123e-03   -1,155031994e-01    2,550954521e-01    0,000000000e+00    0,000000000e+00    0,000000000e+00    0,000000000e+00
     1094000000    1,625993699e-01   -1,670100242e-01    6,034704298e-02    2,926196754e-01    0,000000000e+00    0,000000000e+00    0,000000000e+00    0,000000000e+00
     1108000000    1,603674702e-02   -2,973367274e-01    2,609264255e-01    2,356444150e-01    0,000000000e+00    0,000000000e+00    0,000000000e+00    0,000000000e+00
     1122000000   -2,114794254e-01   -2,792721987e-01    4,390974641e-01    2,460073493e-02    0,000000000e+00    0,000000000e+00    0,000000000e+00    0,000000000e+00
     1136000000   -3,285188973e-01   -3,629423678e-02    3,991468549e-01   -3,476364017e-01    0,000000000e+00    0,000000000e+00    0,000000000e+00    0,000000000e+00
     1150000000   -1,076781601e-01    1,428423822e-01    4,746238887e-02   -5,309910774e-01    0,000000000e+00    0,000000000e+00    0,000000000e+00    0,000000000e+00
     1164000000    8,212083578e-02   -1,473263279e-02   -2,543913722e-01   -4,050822556e-01    0,000000000e+00    0,000000000e+00    0,000000000e+00    0,000000000e+00
     1178000000    2,932655439e-02   -2,495369166e-01   -3,695537150e-01   -1,785878539e-01    0,000000000e+00    0,000000000e+00    0,000000000e+00    0,000000000e+00
     1192000000   -2,172730416e-01   -3,451006413e-01   -3,412482440e-01    4,198706895e-02    0,000000000e+00    0,000000000e+00    0,000000000e+00    0,000000000e+00
     1206000000   -4,786931276e-01   -1,868153512e-01   -1,894279718e-01    1,847368926e-01    0,000000000e+00    0,000000000e+00    0,000000000e+00    0,000000000e+00
     1220000000   -5,061871409e-01    1,392330229e-01   -1,008883584e-02    1,780525893e-01    0,000000000e+00    0,000000000e+00    0,000000000e+00    0,000000000e+00
     1234000000   -3,018084168e-01    3,435815275e-01    7,027951628e-02    8,102208376e-02    0,000000000e+00    0,000000000e+00    0,000000000e+00    0,000000000e+00
     1248000000   -6,574659795e-02    3,597915173e-01    6,843908131e-02    2,145993989e-03    0,000000000e+00    0,000000000e+00    0,000000000e+00    0,000000000e+00
     1262000000    1,095706373e-01    2,547718287e-01    3,040095605e-02   -2,662382089e-02    0,000000000e+00    0,000000000e+00    0,000000000e+00    0,000000000e+00
     1276000000    2,041707039e-01    1,067536920e-01    2,301215893e-03   -9,452675469e-03    0,000000000e+00    0,000000000e+00    0,000000000e+00    0,000000000e+00
     1290000000    2,179496735e-01   -6,359590590e-02    6,995296571e-03    2,827548236e-02    0,000000000e+00    0,000000000e+00    0,000000000e+00    0,000000000e+00
     1304000000    1,673697829e-01   -2,352494895e-01    5,875051767e-02    5,150152370e-02    0,000000000e+00    0,000000000e+00    0,000000000e+00    0,000000000e+00
     1318000000    2,862769179e-02   -3,647272885e-01    1,716244072e-01    1,599030942e-02    0,000000000e+00    0,000000000e+00    0,000000000e+00    0,000000000e+00
     1332000000   -1,477586925e-01   -3,956381679e-01    9,632849693e-02   -1,864818931e-01    0,000000000e+00    0,000000000e+00    0,000000000e+00    0,000000000e+00
     1346000000   -3,570055366e-01   -3,889375329e-01   -5,904957280e-02   -1,860999502e-02    0,000000000e+00    0,000000000e+00    0,000000000e+00    0,000000000e+00
     1360000000   -5,795632005e-01   -2,090433091e-01    6,626018882e-02    7,921377569e-02    0,000000000e+00    0,000000000e+00    0,000000000e+00    0,000000000e+00
     1374000000   -6,230475903e-01    1,035732999e-01    1,873052418e-01    5,029676482e-02    0,000000000e+00    0,000000000e+00    0,000000000e+00    0,000000000e+00
     1388000000   -4,724333584e-01    3,498833179e-01    2,126890868e-01   -1,658968627e-02    0,000000000e+00    0,000000000e+00    0,000000000e+00    0,000000000e+00
     1402000000   -2,409351915e-01    4,472002983e-01    2,156511396e-01   -7,026921958e-02    0,000000000e+00    0,000000000e+00    0,000000000e+00    0,000000000e+00
     1416000000   -3,696764633e-02    4,095248878e-01    2,031593621e-01   -1,160901487e-01    0,000000000e+00    0,000000000e+00    0,000000000e+00    0,000000000e+00
     1430000000    1,186181903e-01    2,949574888e-01    1,479151547e-01   -1,279647648e-01    0,000000000e+00    0,000000000e+00    0,000000000e+00    0,000000000e+00
     1444000000    2,046597749e-01    1,562467515e-01    1,602082253e-01   -1,113554239e-01    0,000000000e+00    0,000000000e+00    0,000000000e+00    0,000000000e+00
     1458000000    2,298972160e-01   -9,750492871e-03    1,489559114e-01   -8,076509833e-02    0,000000000e+00    0,000000000e+00    0,000000000e+00    0,000000000e+00
     1472000000    1,943008006e-01   -1,933269650e-01    1,489565820e-01   -5,290136114e-02    0,000000000e+00    0,000000000e+00    0,000000000e+00    0,000000000e+00
     1486000000    6,463015079e-02   -3,610069156e-01    1,718418598e-01    1,988694444e-02    0,000000000e+00    0,000000000e+00    0,000000000e+00    0,000000000e+00
     1500000000   -1,583603323e-01   -4,834933877e-01    2,353529632e-01    1,019840464e-01    0,000000000e+00    0,000000000e+00    0,000000000e+00    0,000000000e+00
