! NanoVNA-App
! Date: 2025-09-25 15:46:16
! Start: 100MHz Stop: 1,5GHz Points: 101
! S-Parameter data: F S11 S21 S12 S22
# Hz S RI R 50
!     Frequency           S11_Real           S11_Imag           S21_Real           S21_Imag           S12_Real           S12_Imag           S22_Real           S22_Imag
      100000000   -2,852582000e-02   -4,173498135e-03    3,737232089e-01   -7,213882208e-01    0,000000000e+00    0,000000000e+00    0,000000000e+00    0,000000000e+00
      114000000   -1,627122425e-02    1,155991480e-02   -8,903122693e-02   -8,049631715e-01    0,000000000e+00    0,000000000e+00    0,000000000e+00    0,000000000e+00
      128000000    3,683706513e-03    1,070509292e-02   -5,144279599e-01   -6,199923158e-01    0,000000000e+00    0,000000000e+00    0,000000000e+00    0,000000000e+00
      142000000    1,498057880e-02   -2,645662986e-03   -7,663437128e-01   -2,361395061e-01    0,000000000e+00    0,000000000e+00    0,000000000e+00    0,000000000e+00
      156000000    1,584530994e-02   -1,445398480e-02   -7,669069171e-01    2,227093130e-01    0,000000000e+00    0,000000000e+00    0,000000000e+00    0,000000000e+00
      170000000    1,746432297e-02   -2,246443927e-02   -5,176348090e-01    6,041646004e-01    0,000000000e+00    0,000000000e+00    0,000000000e+00    0,000000000e+00
      184000000    2,170228772e-02   -3,713315353e-02   -1,009253412e-01    7,853023410e-01    0,000000000e+00    0,000000000e+00    0,000000000e+00    0,000000000e+00
      198000000    1,363097504e-02   -6,251280755e-02    3,431096375e-01    7,118800282e-01    0,000000000e+00    0,000000000e+00    0,000000000e+00    0,000000000e+00
      212000000   -1,805767417e-02   -8,129784465e-02    6,776503921e-01    4,094819725e-01    0,000000000e+00    0,000000000e+00    0,000000000e+00    0,000000000e+00
      226000000   -6,104988232e-02   -6,917244196e-02    7,951050401e-01   -3,060393222e-02    0,000000000e+00    0,000000000e+00    0,000000000e+00    0,000000000e+00
      240000000   -8,195179701e-02   -2,585454471e-02    6,455517411e-01   -4,664974213e-01    0,000000000e+00    0,000000000e+00    0,000000000e+00    0,000000000e+00
      254000000   -6,308703125e-02    1,681454852e-02    2,759149075e-01   -7,425760627e-01    0,000000000e+00    0,000000000e+00    0,000000000e+00    0,000000000e+00
      268000000   -2,349817753e-02    2,862069756e-02   -1,782766432e-01   -7,635765672e-01    0,000000000e+00    0,000000000e+00    0,000000000e+00    0,000000000e+00
      282000000    4,607635550e-03    1,181045547e-02   -5,611607432e-01   -5,348079801e-01    0,000000000e+00    0,000000000e+00    0,000000000e+00    0,000000000e+00
      296000000    1,042589452e-02   -7,832244039e-03   -7,587840557e-01   -1,392690390e-01    0,000000000e+00    0,000000000e+00    0,000000000e+00    0,000000000e+00
      310000000    1,209618151e-02   -1,645454578e-02   -7,112958431e-01    2,968624234e-01    0,000000000e+00    0,000000000e+00    0,000000000e+00    0,000000000e+00
      324000000    2,055409364e-02   -2,681846544e-02   -4,272753298e-01    6,364989877e-01    0,000000000e+00    0,000000000e+00    0,000000000e+00    0,000000000e+00
      338000000    2,629640885e-02   -5,267742649e-02   -9,694722481e-03    7,615283132e-01    0,000000000e+00    0,000000000e+00    0,000000000e+00    0,000000000e+00
      352000000    7,823863998e-03   -8,488114923e-02    4,061170816e-01    6,390874386e-01    0,000000000e+00    0,000000000e+00    0,000000000e+00    0,000000000e+00
      366000000   -3,371940553e-02   -9,568904340e-02    6,901295781e-01    3,106767535e-01    0,000000000e+00    0,000000000e+00    0,000000000e+00    0,000000000e+00
      380000000   -6,996277720e-02   -7,139039785e-02    7,463168502e-01   -1,262944788e-01    0,000000000e+00    0,000000000e+00    0,000000000e+00    0,000000000e+00
      394000000   -7,129839808e-02   -3,294539079e-02    5,454381704e-01   -5,217286348e-01    0,000000000e+00    0,000000000e+00    0,000000000e+00    0,000000000e+00
      408000000   -4,568573087e-02   -1,683821902e-02    1,611055434e-01   -7,309916019e-01    0,000000000e+00    0,000000000e+00    0,000000000e+00    0,000000000e+00
      422000000   -2,784107439e-02   -3,254038468e-02   -2,671881318e-01   -6,938490868e-01    0,000000000e+00    0,000000000e+00    0,000000000e+00    0,000000000e+00
      436000000   -3,928071260e-02   -5,203939229e-02   -6,022306681e-01   -4,306928515e-01    0,000000000e+00    0,000000000e+00    0,000000000e+00    0,000000000e+00
      450000000   -6,629122049e-02   -4,401581362e-02   -7,388579249e-01   -2,098744549e-02    0,000000000e+00    0,000000000e+00    0,000000000e+00    0,000000000e+00
      464000000   -7,221994549e-02   -1,254476234e-02   -6,171706915e-01    3,964262903e-01    0,000000000e+00    0,000000000e+00    0,000000000e+00    0,000000000e+00
      478000000   -4,659280181e-02    1,041622832e-02   -2,821306586e-01    6,657710075e-01    0,000000000e+00    0,000000000e+00    0,000000000e+00    0,000000000e+00
      492000000   -1,526237652e-02    5,194503348e-03    1,369018853e-01    7,006054521e-01    0,000000000e+00    0,000000000e+00    0,000000000e+00    0,000000000e+00
      506000000   -2,422043588e-03   -1,677123457e-02    4,969505072e-01    5,016694069e-01    0,000000000e+00    0,000000000e+00    0,000000000e+00    0,000000000e+00
      520000000   -4,711890593e-03   -3,245901316e-02    6,863459349e-01    1,402922720e-01    0,000000000e+00    0,000000000e+00    0,000000000e+00    0,000000000e+00
      534000000   -2,973238239e-03   -3,877328336e-02    6,424058080e-01   -2,618730366e-01    0,000000000e+00    0,000000000e+00    0,000000000e+00    0,000000000e+00
      548000000    7,085177582e-03   -5,428739265e-02    3,805122375e-01   -5,651801825e-01    0,000000000e+00    0,000000000e+00    0,000000000e+00    0,000000000e+00
      562000000    3,823434934e-03   -9,023676813e-02    2,916435013e-03   -6,710283756e-01    0,000000000e+00    0,000000000e+00    0,000000000e+00    0,000000000e+00
      576000000   -3,340469673e-02   -1,241653264e-01   -3,678369820e-01   -5,560715795e-01    0,000000000e+00    0,000000000e+00    0,000000000e+00    0,000000000e+00
      590000000   -9,519357979e-02   -1,230784059e-01   -6,185406446e-01   -2,614702582e-01    0,000000000e+00    0,000000000e+00    0,000000000e+00    0,000000000e+00
      604000000   -1,384098083e-01   -7,280508429e-02   -6,631339788e-01    1,374410093e-01    0,000000000e+00    0,000000000e+00    0,000000000e+00    0,000000000e+00
      618000000   -1,287762225e-01   -1,066947728e-02   -4,637223184e-01    4,926183820e-01    0,000000000e+00    0,000000000e+00    0,000000000e+00    0,000000000e+00
      632000000   -8,315555006e-02    1,519183256e-02   -9,865523130e-02    6,606924534e-01    0,000000000e+00    0,000000000e+00    0,000000000e+00    0,000000000e+00
      646000000   -5,166151747e-02   -4,737097770e-04    2,854767144e-01    5,926524997e-01    0,000000000e+00    0,000000000e+00    0,000000000e+00    0,000000000e+00
      660000000   -5,349159613e-02   -2,211897075e-02    5,636340976e-01    3,216896057e-01    0,000000000e+00    0,000000000e+00    0,000000000e+00    0,000000000e+00
      674000000   -6,913282722e-02   -1,837432384e-02    6,397401094e-01   -6,316567212e-02    0,000000000e+00    0,000000000e+00    0,000000000e+00    0,000000000e+00
      688000000   -6,578624249e-02    7,321634330e-03    4,695902169e-01   -4,234303534e-01    0,000000000e+00    0,000000000e+00    0,000000000e+00    0,000000000e+00
      702000000   -3,632542863e-02    2,499029785e-02    1,181423888e-01   -6,045666933e-01    0,000000000e+00    0,000000000e+00    0,000000000e+00    0,000000000e+00
      716000000    3,717537969e-03    1,430536341e-02   -2,588186562e-01   -5,437120795e-01    0,000000000e+00    0,000000000e+00    0,000000000e+00    0,000000000e+00
      730000000    3,623552993e-02   -1,454910636e-02   -5,207754970e-01   -2,711911500e-01    0,000000000e+00    0,000000000e+00    0,000000000e+00    0,000000000e+00
      744000000    6,182022393e-02   -6,594110280e-02   -5,597827435e-01    9,825825691e-02    0,000000000e+00    0,000000000e+00    0,000000000e+00    0,000000000e+00
      758000000    6,070616469e-02   -1,526643187e-01   -3,667515218e-01    3,992630541e-01    0,000000000e+00    0,000000000e+00    0,000000000e+00    0,000000000e+00
      772000000   -1,741559058e-02   -2,554933429e-01   -4,546444118e-02    5,091236830e-01    0,000000000e+00    0,000000000e+00    0,000000000e+00    0,000000000e+00
      786000000   -2,007737607e-01   -2,915176153e-01    2,592537999e-01    3,988533318e-01    0,000000000e+00    0,000000000e+00    0,000000000e+00    0,000000000e+00
      800000000   -4,063189030e-01   -1,277331561e-01    4,078191817e-01    1,184926704e-01    0,000000000e+00    0,000000000e+00    0,000000000e+00    0,000000000e+00
      814000000   -3,757632077e-01    1,985698342e-01    2,966717184e-01   -1,513271928e-01    0,000000000e+00    0,000000000e+00    0,000000000e+00    0,000000000e+00
      828000000   -6,308893114e-02    3,441677988e-01    8,285928518e-02   -1,915992796e-01    0,000000000e+00    0,000000000e+00    0,000000000e+00    0,000000000e+00
      842000000    2,097712308e-01    1,842889637e-01   -4,247604869e-03   -9,488324076e-02    0,000000000e+00    0,000000000e+00    0,000000000e+00    0,000000000e+00
      856000000    2,653489709e-01   -1,045648009e-01    3,425050154e-02   -3,670896590e-02    0,000000000e+00    0,000000000e+00    0,000000000e+00    0,000000000e+00
      870000000    8,393006027e-02   -3,513858914e-01    8,782576025e-02   -9,629759938e-02    0,000000000e+00    0,000000000e+00    0,000000000e+00    0,000000000e+00
      884000000   -2,658550441e-01   -3,572628796e-01    1,200466044e-02   -2,261341512e-01    0,000000000e+00    0,000000000e+00    0,000000000e+00    0,000000000e+00
      898000000   -4,564260244e-01   -1,449280325e-02   -2,140604258e-01   -2,083043456e-01    0,000000000e+00    0,000000000e+00    0,000000000e+00    0,000000000e+00
      912000000   -2,343053371e-01    2,759039700e-01   -3,358863294e-01    6,323491782e-02    0,000000000e+00    0,000000000e+00    0,000000000e+00    0,000000000e+00
      926000000    5,571520701e-02    2,563679516e-01   -2,064658552e-01    2,598859072e-01    0,000000000e+00    0,000000000e+00    0,000000000e+00    0,000000000e+00
      940000000    2,063432634e-01    8,149144799e-02   -3,154490143e-02    3,225530982e-01    0,000000000e+00    0,000000000e+00    0,000000000e+00    0,000000000e+00
      954000000    2,182510644e-01   -1,236762404e-01    1,307734549e-01    3,008104861e-01    0,000000000e+00    0,000000000e+00    0,000000000e+00    0,000000000e+00
      968000000    1,174303815e-01   -2,927094102e-01    2,675567269e-01    2,150362879e-01    0,000000000e+00    0,000000000e+00    0,000000000e+00    0,000000000e+00
      982000000   -7,470203191e-02   -3,859682381e-01    3,597686887e-01    6,387064606e-02    0,000000000e+00    0,000000000e+00    0,000000000e+00    0,000000000e+00
      996000000   -3,118899167e-01   -3,347680569e-01    3,630182445e-01   -1,433353573e-01    0,000000000e+00    0,000000000e+00    0,000000000e+00    0,000000000e+00
     1010000000   -4,576582611e-01   -1,187468246e-01    2,182929218e-01   -3,353720009e-01    0,000000000e+00    0,000000000e+00    0,000000000e+00    0,000000000e+00
     1024000000   -4,171482027e-01    1,431622058e-01   -3,325836360e-02   -3,839772046e-01    0,000000000e+00    0,000000000e+00    0,000000000e+00    0,000000000e+00
     1038000000   -2,187376171e-01    2,862938344e-01   -2,382795364e-01   -2,555828393e-01    0,000000000e+00    0,000000000e+00    0,000000000e+00    0,000000000e+00
     1052000000   -1,802662015e-02    2,755404413e-01   -3,088129163e-01   -4,713941738e-02    0,000000000e+00    0,000000000e+00    0,000000000e+00    0,000000000e+00
     1066000000    1,311842799e-01    1,646125615e-01   -2,518183589e-01    1,391737759e-01    0,000000000e+00    0,000000000e+00    0,000000000e+00    0,000000000e+00
     1080000000    1,902375966e-01    9,636900388e-03   -1,160567701e-01    2,522732615e-01    0,000000000e+00    0,000000000e+00    0,000000000e+00    0,000000000e+00
     1094000000    1,623779088e-01   -1,643819660e-01    5,998615548e-02    2,904165387e-01    0,000000000e+00    0,000000000e+00    0,000000000e+00    0,000000000e+00
     1108000000    1,457539666e-02   -2,967183292e-01    2,591392398e-01    2,324988544e-01    0,000000000e+00    0,000000000e+00    0,000000000e+00    0,000000000e+00
     1122000000   -2,155992985e-01   -2,875549793e-01    4,383677244e-01    2,631697059e-02    0,000000000e+00    0,000000000e+00    0,000000000e+00    0,000000000e+00
     1136000000   -3,237415552e-01   -3,655866906e-02    3,998436332e-01   -3,439394236e-01    0,000000000e+00    0,000000000e+00    0,000000000e+00    0,000000000e+00
     1150000000   -1,042034999e-01    1,367626488e-01    4,721113294e-02   -5,312508941e-01    0,000000000e+00    0,000000000e+00    0,000000000e+00    0,000000000e+00
     1164000000    8,511671424e-02   -1,376614813e-02   -2,501712441e-01   -4,037380219e-01    0,000000000e+00    0,000000000e+00    0,000000000e+00    0,000000000e+00
     1178000000    2,730549127e-02   -2,500220239e-01   -3,689855635e-01   -1,788559705e-01    0,000000000e+00    0,000000000e+00    0,000000000e+00    0,000000000e+00
     1192000000   -2,248275727e-01   -3,472631276e-01   -3,429726064e-01    4,126698896e-02    0,000000000e+00    0,000000000e+00    0,000000000e+00    0,000000000e+00
     1206000000   -4,789484143e-01   -1,792398989e-01   -1,863636822e-01    1,847010106e-01    0,000000000e+00    0,000000000e+00    0,000000000e+00    0,000000000e+00
     1220000000   -5,032531023e-01    1,321765482e-01   -1,318129338e-02    1,752203554e-01    0,000000000e+00    0,000000000e+00    0,000000000e+00    0,000000000e+00
     1234000000   -3,014128506e-01    3,428495228e-01    7,124540210e-02    8,182483166e-02    0,000000000e+00    0,000000000e+00    0,000000000e+00    0,000000000e+00
     1248000000   -5,837724730e-02    3,523365557e-01    6,672578305e-02   -3,384386655e-03    0,000000000e+00    0,000000000e+00    0,000000000e+00    0,000000000e+00
     1262000000    1,027616411e-01    2,539248168e-01    2,808243036e-02   -2,395954356e-02    0,000000000e+00    0,000000000e+00    0,000000000e+00    0,000000000e+00
     1276000000    1,960461736e-01    1,037018150e-01    6,041251123e-03   -1,150929928e-02    0,000000000e+00    0,000000000e+00    0,000000000e+00    0,000000000e+00
     1290000000    2,158232033e-01   -6,180150807e-02    1,147999428e-02    2,779793367e-02    0,000000000e+00    0,000000000e+00    0,000000000e+00    0,000000000e+00
     1304000000    1,669281423e-01   -2,319025993e-01    6,564600766e-02    5,699595809e-02    0,000000000e+00    0,000000000e+00    0,000000000e+00    0,000000000e+00
     1318000000    2,760823444e-02   -3,652791679e-01    1,684765369e-01    1,713122800e-02    0,000000000e+00    0,000000000e+00    0,000000000e+00    0,000000000e+00
     1332000000   -1,478952616e-01   -3,927625418e-01    1,055174693e-01   -1,725910902e-01    0,000000000e+00    0,000000000e+00    0,000000000e+00    0,000000000e+00
     1346000000   -3,640258610e-01   -3,912693858e-01   -6,425238401e-02   -2,322846279e-02    0,000000000e+00    0,000000000e+00    0,000000000e+00    0,000000000e+00
     1360000000   -5,779837966e-01   -2,022257149e-01    6,591791660e-02    9,247040004e-02    0,000000000e+00    0,000000000e+00    0,000000000e+00    0,000000000e+00
     1374000000   -6,309052706e-01    1,120813116e-01    1,762289256e-01    5,899168923e-02    0,000000000e+00    0,000000000e+00    0,000000000e+00    0,000000000e+00
     1388000000   -4,742194116e-01    3,571893275e-01    2,140865177e-01   -1,532544475e-02    0,000000000e+00    0,000000000e+00    0,000000000e+00    0,000000000e+00
     1402000000   -2,397545278e-01    4,450859129e-01    2,128425837e-01   -8,245467395e-02    0,000000000e+00    0,000000000e+00    0,000000000e+00    0,000000000e+00
     1416000000   -3,689132258e-02    4,137354791e-01    1,969781965e-01   -9,564784169e-02    0,000000000e+00    0,000000000e+00    0,000000000e+00    0,000000000e+00
     1430000000    1,083393395e-01    3,023729324e-01    1,875497401e-01   -1,141896322e-01    0,000000000e+00    0,000000000e+00    0,000000000e+00    0,000000000e+00
     1444000000    1,982670724e-01    1,517377943e-01    1,579447091e-01   -1,123557389e-01    0,000000000e+00    0,000000000e+00    0,000000000e+00    0,000000000e+00
     1458000000    2,270266712e-01   -1,642058045e-02    1,517202258e-01   -9,045519680e-02    0,000000000e+00    0,000000000e+00    0,000000000e+00    0,000000000e+00
     1472000000    1,857311875e-01   -1,901169717e-01    1,369979978e-01   -4,179235548e-02    0,000000000e+00    0,000000000e+00    0,000000000e+00    0,000000000e+00
     1486000000    6,858420372e-02   -3,622397780e-01    1,662417650e-01    2,872954868e-02    0,000000000e+00    0,000000000e+00    0,000000000e+00    0,000000000e+00
     1500000000   -1,597643495e-01   -4,821109176e-01    2,322998345e-01    8,443579078e-02    0,000000000e+00    0,000000000e+00    0,000000000e+00    0,000000000e+00
