! NanoVNA-App
! Date: 2025-09-25 15:41:38
! Start: 100MHz Stop: 1,5GHz Points: 101
! S-Parameter data: F S11 S21 S12 S22
# Hz S RI R 50
!     Frequency           S11_Real           S11_Imag           S21_Real           S21_Imag           S12_Real           S12_Imag           S22_Real           S22_Imag
      100000000   -2,873502299e-02   -4,243975505e-03    3,739021719e-01   -7,215368152e-01    0,000000000e+00    0,000000000e+00    0,000000000e+00    0,000000000e+00
      114000000   -1,650698110e-02    1,147221867e-02   -8,907887340e-02   -8,051024079e-01    0,000000000e+00    0,000000000e+00    0,000000000e+00    0,000000000e+00
      128000000    3,405900206e-03    1,073750574e-02   -5,144454241e-01   -6,204007864e-01    0,000000000e+00    0,000000000e+00    0,000000000e+00    0,000000000e+00
      142000000    1,466678362e-02   -2,647724235e-03   -7,667247653e-01   -2,363059670e-01    0,000000000e+00    0,000000000e+00    0,000000000e+00    0,000000000e+00
      156000000    1,616669446e-02   -1,434151921e-02   -7,718438506e-01    2,233135402e-01    0,000000000e+00    0,000000000e+00    0,000000000e+00    0,000000000e+00
      170000000    1,710930094e-02   -2,242384478e-02   -5,179489851e-01    6,045691967e-01    0,000000000e+00    0,000000000e+00    0,000000000e+00    0,000000000e+00
      184000000    2,132584341e-02   -3,718309477e-02   -1,014392972e-01    7,857124805e-01    0,000000000e+00    0,000000000e+00    0,000000000e+00    0,000000000e+00
      198000000    1,326758321e-02   -6,255215406e-02    3,432115018e-01    7,123352289e-01    0,000000000e+00    0,000000000e+00    0,000000000e+00    0,000000000e+00
      212000000   -1,844428293e-02   -8,128110319e-02    6,777648926e-01    4,097832143e-01    0,000000000e+00    0,000000000e+00    0,000000000e+00    0,000000000e+00
      226000000   -6,134264544e-02   -6,925810128e-02    7,953948379e-01   -3,049317747e-02    0,000000000e+00    0,000000000e+00    0,000000000e+00    0,000000000e+00
      240000000   -8,220602572e-02   -2,582724392e-02    6,458161473e-01   -4,665164948e-01    0,000000000e+00    0,000000000e+00    0,000000000e+00    0,000000000e+00
      254000000   -6,341627985e-02    1,690427959e-02    2,760213017e-01   -7,429722548e-01    0,000000000e+00    0,000000000e+00    0,000000000e+00    0,000000000e+00
      268000000   -2,398056164e-02    2,877139300e-02   -1,780867130e-01   -7,639656663e-01    0,000000000e+00    0,000000000e+00    0,000000000e+00    0,000000000e+00
      282000000    4,147794098e-03    1,208423451e-02   -5,614864230e-01   -5,353453159e-01    0,000000000e+00    0,000000000e+00    0,000000000e+00    0,000000000e+00
      296000000    9,801117703e-03   -7,618011907e-03   -7,594156861e-01   -1,396007985e-01    0,000000000e+00    0,000000000e+00    0,000000000e+00    0,000000000e+00
      310000000    1,143412665e-02   -1,600053348e-02   -7,112104297e-01    2,983832657e-01    0,000000000e+00    0,000000000e+00    0,000000000e+00    0,000000000e+00
      324000000    2,012136579e-02   -2,670363896e-02   -4,266562462e-01    6,368383169e-01    0,000000000e+00    0,000000000e+00    0,000000000e+00    0,000000000e+00
      338000000    2,584417537e-02   -5,246979371e-02   -9,808537550e-03    7,609384060e-01    0,000000000e+00    0,000000000e+00    0,000000000e+00    0,000000000e+00
      352000000    7,653134875e-03   -8,482152969e-02    4,060232341e-01    6,387584209e-01    0,000000000e+00    0,000000000e+00    0,000000000e+00    0,000000000e+00
      366000000   -3,440184891e-02   -9,517909586e-02    6,896504760e-01    3,117589056e-01    0,000000000e+00    0,000000000e+00    0,000000000e+00    0,000000000e+00
      380000000   -7,052258402e-02   -7,097556442e-02    7,467255592e-01   -1,257870346e-01    0,000000000e+00    0,000000000e+00    0,000000000e+00    0,000000000e+00
      394000000   -7,192397118e-02   -3,251002356e-02    5,455674529e-01   -5,215352178e-01    0,000000000e+00    0,000000000e+00    0,000000000e+00    0,000000000e+00
      408000000   -4,619953409e-02   -1,649933495e-02    1,595525742e-01   -7,312455773e-01    0,000000000e+00    0,000000000e+00    0,000000000e+00    0,000000000e+00
      422000000   -2,831061371e-02   -3,223128989e-02   -2,665213645e-01   -6,947050095e-01    0,000000000e+00    0,000000000e+00    0,000000000e+00    0,000000000e+00
      436000000   -4,044336081e-02   -5,170283839e-02   -6,031849980e-01   -4,318303466e-01    0,000000000e+00    0,000000000e+00    0,000000000e+00    0,000000000e+00
      450000000   -6,684988737e-02   -4,366808385e-02   -7,398589253e-01   -2,181113139e-02    0,000000000e+00    0,000000000e+00    0,000000000e+00    0,000000000e+00
      464000000   -7,288676500e-02   -1,213218365e-02   -6,180924177e-01    3,961986005e-01    0,000000000e+00    0,000000000e+00    0,000000000e+00    0,000000000e+00
      478000000   -4,735865444e-02    1,133199967e-02   -2,820521891e-01    6,669572592e-01    0,000000000e+00    0,000000000e+00    0,000000000e+00    0,000000000e+00
      492000000   -1,555928774e-02    5,670669023e-03    1,372489333e-01    7,006378770e-01    0,000000000e+00    0,000000000e+00    0,000000000e+00    0,000000000e+00
      506000000   -2,542033326e-03   -1,557867229e-02    4,978695512e-01    5,026425719e-01    0,000000000e+00    0,000000000e+00    0,000000000e+00    0,000000000e+00
      520000000   -4,901963752e-03   -3,131953627e-02    6,869099736e-01    1,418092251e-01    0,000000000e+00    0,000000000e+00    0,000000000e+00    0,000000000e+00
      534000000   -3,343455261e-03   -3,839220852e-02    6,432636380e-01   -2,615819275e-01    0,000000000e+00    0,000000000e+00    0,000000000e+00    0,000000000e+00
      548000000    6,519369781e-03   -5,378540978e-02    3,813377023e-01   -5,663824677e-01    0,000000000e+00    0,000000000e+00    0,000000000e+00    0,000000000e+00
      562000000    3,295246977e-03   -8,956636488e-02    3,358349437e-03   -6,713002920e-01    0,000000000e+00    0,000000000e+00    0,000000000e+00    0,000000000e+00
      576000000   -3,433921933e-02   -1,241253465e-01   -3,674613833e-01   -5,567120910e-01    0,000000000e+00    0,000000000e+00    0,000000000e+00    0,000000000e+00
      590000000   -9,570842981e-02   -1,225252226e-01   -6,211156845e-01   -2,628988922e-01    0,000000000e+00    0,000000000e+00    0,000000000e+00    0,000000000e+00
      604000000   -1,390032917e-01   -7,200150192e-02   -6,642134786e-01    1,370472163e-01    0,000000000e+00    0,000000000e+00    0,000000000e+00    0,000000000e+00
      618000000   -1,288599968e-01   -1,010262314e-02   -4,640811682e-01    4,929088056e-01    0,000000000e+00    0,000000000e+00    0,000000000e+00    0,000000000e+00
      632000000   -8,498030156e-02    1,553640608e-02   -1,003092453e-01    6,623508930e-01    0,000000000e+00    0,000000000e+00    0,000000000e+00    0,000000000e+00
      646000000   -5,203585327e-02    1,147885923e-03    2,866138220e-01    5,944917798e-01    0,000000000e+00    0,000000000e+00    0,000000000e+00    0,000000000e+00
      660000000   -5,312433094e-02   -2,069769613e-02    5,649793744e-01    3,240123689e-01    0,000000000e+00    0,000000000e+00    0,000000000e+00    0,000000000e+00
      674000000   -7,000094652e-02   -1,700627245e-02    6,409742832e-01   -6,289933622e-02    0,000000000e+00    0,000000000e+00    0,000000000e+00    0,000000000e+00
      688000000   -6,712342799e-02    8,660456166e-03    4,703499675e-01   -4,237476587e-01    0,000000000e+00    0,000000000e+00    0,000000000e+00    0,000000000e+00
      702000000   -3,566153720e-02    2,595515363e-02    1,193583906e-01   -6,117020249e-01    0,000000000e+00    0,000000000e+00    0,000000000e+00    0,000000000e+00
      716000000    2,743609482e-03    1,608638093e-02   -2,595714927e-01   -5,450068712e-01    0,000000000e+00    0,000000000e+00    0,000000000e+00    0,000000000e+00
      730000000    3,669134900e-02   -1,450402290e-02   -5,216785669e-01   -2,713636160e-01    0,000000000e+00    0,000000000e+00    0,000000000e+00    0,000000000e+00
      744000000    6,190194935e-02   -6,475178152e-02   -5,597638488e-01    9,885364026e-02    0,000000000e+00    0,000000000e+00    0,000000000e+00    0,000000000e+00
      758000000    6,079195440e-02   -1,522361189e-01   -3,659886420e-01    3,999142945e-01    0,000000000e+00    0,000000000e+00    0,000000000e+00    0,000000000e+00
      772000000   -1,752731577e-02   -2,568682432e-01   -4,547751322e-02    5,095462799e-01    0,000000000e+00    0,000000000e+00    0,000000000e+00    0,000000000e+00
      786000000   -2,023870796e-01   -2,915928662e-01    2,596996427e-01    3,995544910e-01    0,000000000e+00    0,000000000e+00    0,000000000e+00    0,000000000e+00
      800000000   -4,084773660e-01   -1,270444095e-01    4,074550271e-01    1,185132340e-01    0,000000000e+00    0,000000000e+00    0,000000000e+00    0,000000000e+00
      814000000   -3,768953085e-01    2,015273422e-01    2,962565124e-01   -1,513177156e-01    0,000000000e+00    0,000000000e+00    0,000000000e+00    0,000000000e+00
      828000000   -6,249713525e-02    3,479920328e-01    8,227334917e-02   -1,899223775e-01    0,000000000e+00    0,000000000e+00    0,000000000e+00    0,000000000e+00
      842000000    2,113579661e-01    1,856980771e-01   -3,864722094e-03   -9,297768772e-02    0,000000000e+00    0,000000000e+00    0,000000000e+00    0,000000000e+00
      856000000    2,660390735e-01   -1,056029871e-01    3,599106148e-02   -3,672778606e-02    0,000000000e+00    0,000000000e+00    0,000000000e+00    0,000000000e+00
      870000000    8,307284117e-02   -3,511188328e-01    8,902938664e-02   -9,758032858e-02    0,000000000e+00    0,000000000e+00    0,000000000e+00    0,000000000e+00
      884000000   -2,669367194e-01   -3,558886945e-01    1,160373352e-02   -2,277352214e-01    0,000000000e+00    0,000000000e+00    0,000000000e+00    0,000000000e+00
      898000000   -4,581941664e-01   -1,413802803e-02   -2,157161683e-01   -2,103696316e-01    0,000000000e+00    0,000000000e+00    0,000000000e+00    0,000000000e+00
      912000000   -2,345482409e-01    2,792162597e-01   -3,352100849e-01    7,943492383e-02    0,000000000e+00    0,000000000e+00    0,000000000e+00    0,000000000e+00
      926000000    5,659990013e-02    2,609612346e-01   -2,065780312e-01    2,617317438e-01    0,000000000e+00    0,000000000e+00    0,000000000e+00    0,000000000e+00
      940000000    2,108343244e-01    8,527900279e-02   -3,140997887e-02    3,249345422e-01    0,000000000e+00    0,000000000e+00    0,000000000e+00    0,000000000e+00
      954000000    2,217376083e-01   -1,200775728e-01    1,321045905e-01    3,001375496e-01    0,000000000e+00    0,000000000e+00    0,000000000e+00    0,000000000e+00
      968000000    1,172399968e-01   -2,924803197e-01    2,679065466e-01    2,130028158e-01    0,000000000e+00    0,000000000e+00    0,000000000e+00    0,000000000e+00
      982000000   -7,513795048e-02   -3,852168024e-01    3,608595133e-01    6,217892468e-02    0,000000000e+00    0,000000000e+00    0,000000000e+00    0,000000000e+00
      996000000   -3,093965352e-01   -3,294987679e-01    3,628031909e-01   -1,427092701e-01    0,000000000e+00    0,000000000e+00    0,000000000e+00    0,000000000e+00
     1010000000   -4,592206478e-01   -1,189070120e-01    2,193405181e-01   -3,358321190e-01    0,000000000e+00    0,000000000e+00    0,000000000e+00    0,000000000e+00
     1024000000   -4,123458862e-01    1,428059936e-01   -3,307051584e-02   -3,851243854e-01    0,000000000e+00    0,000000000e+00    0,000000000e+00    0,000000000e+00
     1038000000   -2,264630497e-01    2,874843478e-01   -2,435194254e-01   -2,555228174e-01    0,000000000e+00    0,000000000e+00    0,000000000e+00    0,000000000e+00
     1052000000   -1,314369962e-02    2,824989855e-01   -3,105212748e-01   -4,690502211e-02    0,000000000e+00    0,000000000e+00    0,000000000e+00    0,000000000e+00
     1066000000    1,345924288e-01    1,667924672e-01   -2,541272342e-01    1,396009028e-01    0,000000000e+00    0,000000000e+00    0,000000000e+00    0,000000000e+00
     1080000000    1,896407306e-01    7,707793266e-03   -1,164855883e-01    2,547043562e-01    0,000000000e+00    0,000000000e+00    0,000000000e+00    0,000000000e+00
     1094000000    1,598042995e-01   -1,675815284e-01    5,961968005e-02    2,925545275e-01    0,000000000e+00    0,000000000e+00    0,000000000e+00    0,000000000e+00
     1108000000    1,935677230e-02   -2,980576754e-01    2,613837123e-01    2,343155593e-01    0,000000000e+00    0,000000000e+00    0,000000000e+00    0,000000000e+00
     1122000000   -2,114546299e-01   -2,822211981e-01    4,400116205e-01    2,538542449e-02    0,000000000e+00    0,000000000e+00    0,000000000e+00    0,000000000e+00
     1136000000   -3,279829323e-01   -3,115308285e-02    3,993063569e-01   -3,451946974e-01    0,000000000e+00    0,000000000e+00    0,000000000e+00    0,000000000e+00
     1150000000   -1,062955558e-01    1,350696534e-01    5,025490746e-02   -5,323390365e-01    0,000000000e+00    0,000000000e+00    0,000000000e+00    0,000000000e+00
     1164000000    8,852867037e-02   -1,837107353e-02   -2,504808903e-01   -4,016956389e-01    0,000000000e+00    0,000000000e+00    0,000000000e+00    0,000000000e+00
     1178000000    2,921063080e-02   -2,497711927e-01   -3,695611358e-01   -1,764085740e-01    0,000000000e+00    0,000000000e+00    0,000000000e+00    0,000000000e+00
     1192000000   -2,212340981e-01   -3,444805145e-01   -3,401356637e-01    3,972032666e-02    0,000000000e+00    0,000000000e+00    0,000000000e+00    0,000000000e+00
     1206000000   -4,775052965e-01   -1,818091571e-01   -1,922287196e-01    1,818876117e-01    0,000000000e+00    0,000000000e+00    0,000000000e+00    0,000000000e+00
     1220000000   -5,075656176e-01    1,379971802e-01   -1,113370433e-02    1,703201085e-01    0,000000000e+00    0,000000000e+00    0,000000000e+00    0,000000000e+00
     1234000000   -2,990675867e-01    3,482000530e-01    7,453107834e-02    8,294920623e-02    0,000000000e+00    0,000000000e+00    0,000000000e+00    0,000000000e+00
     1248000000   -5,992924795e-02    3,544814289e-01    7,015262544e-02    9,767839219e-04    0,000000000e+00    0,000000000e+00    0,000000000e+00    0,000000000e+00
     1262000000    1,053576171e-01    2,601015270e-01    2,759908698e-02   -2,509723604e-02    0,000000000e+00    0,000000000e+00    0,000000000e+00    0,000000000e+00
     1276000000    2,044757754e-01    1,103701964e-01    5,560094956e-03   -8,598928340e-03    0,000000000e+00    0,000000000e+00    0,000000000e+00    0,000000000e+00
     1290000000    2,182784230e-01   -6,120599806e-02    9,937075898e-03    2,729510888e-02    0,000000000e+00    0,000000000e+00    0,000000000e+00    0,000000000e+00
     1304000000    1,634127051e-01   -2,341562212e-01    6,294971704e-02    5,362143368e-02    0,000000000e+00    0,000000000e+00    0,000000000e+00    0,000000000e+00
     1318000000    2,899798937e-02   -3,654530644e-01    1,709227711e-01    1,382109430e-02    0,000000000e+00    0,000000000e+00    0,000000000e+00    0,000000000e+00
     1332000000   -1,520105302e-01   -3,951311409e-01    9,283341467e-02   -1,785467416e-01    0,000000000e+00    0,000000000e+00    0,000000000e+00    0,000000000e+00
     1346000000   -3,616583943e-01   -3,958565593e-01   -5,940712988e-02   -2,172160521e-02    0,000000000e+00    0,000000000e+00    0,000000000e+00    0,000000000e+00
     1360000000   -5,862751007e-01   -2,052354366e-01    6,041631103e-02    8,842086047e-02    0,000000000e+00    0,000000000e+00    0,000000000e+00    0,000000000e+00
     1374000000   -6,229742765e-01    1,080425680e-01    1,837328225e-01    5,000909790e-02    0,000000000e+00    0,000000000e+00    0,000000000e+00    0,000000000e+00
     1388000000   -4,782851040e-01    3,483088613e-01    2,157815248e-01   -3,080818430e-02    0,000000000e+00    0,000000000e+00    0,000000000e+00    0,000000000e+00
     1402000000   -2,475678325e-01    4,437632561e-01    2,071465254e-01   -7,615334541e-02    0,000000000e+00    0,000000000e+00    0,000000000e+00    0,000000000e+00
     1416000000   -4,143790901e-02    4,133534431e-01    1,952383369e-01   -9,729044884e-02    0,000000000e+00    0,000000000e+00    0,000000000e+00    0,000000000e+00
     1430000000    1,158193350e-01    3,049917221e-01    1,924531609e-01   -1,323854029e-01    0,000000000e+00    0,000000000e+00    0,000000000e+00    0,000000000e+00
     1444000000    2,020713985e-01    1,551298499e-01    1,576479226e-01   -1,101948768e-01    0,000000000e+00    0,000000000e+00    0,000000000e+00    0,000000000e+00
     1458000000    2,326703370e-01   -8,429821581e-03    1,452814639e-01   -9,002019465e-02    0,000000000e+00    0,000000000e+00    0,000000000e+00    0,000000000e+00
     1472000000    1,949597895e-01   -1,929798722e-01    1,495815665e-01   -4,157431051e-02    0,000000000e+00    0,000000000e+00    0,000000000e+00    0,000000000e+00
     1486000000    7,206052542e-02   -3,667800128e-01    1,689612716e-01    2,446031757e-02    0,000000000e+00    0,000000000e+00    0,000000000e+00    0,000000000e+00
     1500000000   -1,595996618e-01   -4,964784384e-01    2,258973569e-01    7,721573114e-02    0,000000000e+00    0,000000000e+00    0,000000000e+00    0,000000000e+00
