! NanoVNA-App
! Date: 2025-09-25 15:45:47
! Start: 100MHz Stop: 1,5GHz Points: 101
! S-Parameter data: F S11 S21 S12 S22
# Hz S RI R 50
!     Frequency           S11_Real           S11_Imag           S21_Real           S21_Imag           S12_Real           S12_Imag           S22_Real           S22_Imag
      100000000   -2,878749929e-02   -4,251896404e-03    3,740381598e-01   -7,215710282e-01    0,000000000e+00    0,000000000e+00    0,000000000e+00    0,000000000e+00
      114000000   -1,657123864e-02    1,151058637e-02   -8,911313117e-02   -8,052591681e-01    0,000000000e+00    0,000000000e+00    0,000000000e+00    0,000000000e+00
      128000000    3,445148701e-03    1,068204641e-02   -5,144402981e-01   -6,203984618e-01    0,000000000e+00    0,000000000e+00    0,000000000e+00    0,000000000e+00
      142000000    1,462099329e-02   -2,676775679e-03   -7,669137120e-01   -2,366364598e-01    0,000000000e+00    0,000000000e+00    0,000000000e+00    0,000000000e+00
      156000000    1,634021290e-02   -1,415083930e-02   -7,700096965e-01    2,243058085e-01    0,000000000e+00    0,000000000e+00    0,000000000e+00    0,000000000e+00
      170000000    1,703046262e-02   -2,242193185e-02   -5,180855393e-01    6,047686338e-01    0,000000000e+00    0,000000000e+00    0,000000000e+00    0,000000000e+00
      184000000    2,131317370e-02   -3,713041544e-02   -1,013554782e-01    7,861386538e-01    0,000000000e+00    0,000000000e+00    0,000000000e+00    0,000000000e+00
      198000000    1,324948855e-02   -6,253277510e-02    3,426015377e-01    7,120315433e-01    0,000000000e+00    0,000000000e+00    0,000000000e+00    0,000000000e+00
      212000000   -1,848008856e-02   -8,127941191e-02    6,778613329e-01    4,096404910e-01    0,000000000e+00    0,000000000e+00    0,000000000e+00    0,000000000e+00
      226000000   -6,133949384e-02   -6,924803555e-02    7,954484224e-01   -3,046868928e-02    0,000000000e+00    0,000000000e+00    0,000000000e+00    0,000000000e+00
      240000000   -8,230775595e-02   -2,579103038e-02    6,461528540e-01   -4,667256773e-01    0,000000000e+00    0,000000000e+00    0,000000000e+00    0,000000000e+00
      254000000   -6,347473711e-02    1,697113551e-02    2,763175666e-01   -7,430008054e-01    0,000000000e+00    0,000000000e+00    0,000000000e+00    0,000000000e+00
      268000000   -2,397274598e-02    2,888499014e-02   -1,778654754e-01   -7,638280392e-01    0,000000000e+00    0,000000000e+00    0,000000000e+00    0,000000000e+00
      282000000    4,155143630e-03    1,204148121e-02   -5,619188547e-01   -5,357314348e-01    0,000000000e+00    0,000000000e+00    0,000000000e+00    0,000000000e+00
      296000000    9,822685272e-03   -7,570597809e-03   -7,595196962e-01   -1,394888163e-01    0,000000000e+00    0,000000000e+00    0,000000000e+00    0,000000000e+00
      310000000    1,139986515e-02   -1,600908302e-02   -7,133040428e-01    2,990830541e-01    0,000000000e+00    0,000000000e+00    0,000000000e+00    0,000000000e+00
      324000000    1,998542994e-02   -2,661669441e-02   -4,270223677e-01    6,380089521e-01    0,000000000e+00    0,000000000e+00    0,000000000e+00    0,000000000e+00
      338000000    2,573554032e-02   -5,230292305e-02   -9,339238517e-03    7,592127323e-01    0,000000000e+00    0,000000000e+00    0,000000000e+00    0,000000000e+00
      352000000    7,662010379e-03   -8,472605795e-02    4,066115320e-01    6,391023397e-01    0,000000000e+00    0,000000000e+00    0,000000000e+00    0,000000000e+00
      366000000   -3,408880159e-02   -9,532310069e-02    6,909230351e-01    3,113133609e-01    0,000000000e+00    0,000000000e+00    0,000000000e+00    0,000000000e+00
      380000000   -7,042156160e-02   -7,112210989e-02    7,472513914e-01   -1,259137839e-01    0,000000000e+00    0,000000000e+00    0,000000000e+00    0,000000000e+00
      394000000   -7,211063057e-02   -3,246112168e-02    5,460830331e-01   -5,215482712e-01    0,000000000e+00    0,000000000e+00    0,000000000e+00    0,000000000e+00
      408000000   -4,623598978e-02   -1,650090143e-02    1,611365080e-01   -7,318165302e-01    0,000000000e+00    0,000000000e+00    0,000000000e+00    0,000000000e+00
      422000000   -2,810619771e-02   -3,212992102e-02   -2,659254372e-01   -6,948530674e-01    0,000000000e+00    0,000000000e+00    0,000000000e+00    0,000000000e+00
      436000000   -4,060949385e-02   -5,180086195e-02   -6,034577489e-01   -4,322224259e-01    0,000000000e+00    0,000000000e+00    0,000000000e+00    0,000000000e+00
      450000000   -6,707204133e-02   -4,398992285e-02   -7,396844625e-01   -2,216164209e-02    0,000000000e+00    0,000000000e+00    0,000000000e+00    0,000000000e+00
      464000000   -7,336449623e-02   -1,189064793e-02   -6,185972095e-01    3,966484070e-01    0,000000000e+00    0,000000000e+00    0,000000000e+00    0,000000000e+00
      478000000   -4,765877128e-02    1,160733122e-02   -2,831678391e-01    6,671960354e-01    0,000000000e+00    0,000000000e+00    0,000000000e+00    0,000000000e+00
      492000000   -1,576119289e-02    5,809693132e-03    1,373066157e-01    7,016054988e-01    0,000000000e+00    0,000000000e+00    0,000000000e+00    0,000000000e+00
      506000000   -2,240138361e-03   -1,594015583e-02    4,983506501e-01    5,025764108e-01    0,000000000e+00    0,000000000e+00    0,000000000e+00    0,000000000e+00
      520000000   -4,726332612e-03   -3,104420938e-02    6,877459884e-01    1,420888603e-01    0,000000000e+00    0,000000000e+00    0,000000000e+00    0,000000000e+00
      534000000   -3,680923488e-03   -3,811576962e-02    6,429609656e-01   -2,621832192e-01    0,000000000e+00    0,000000000e+00    0,000000000e+00    0,000000000e+00
      548000000    6,143896375e-03   -5,390816554e-02    3,814494610e-01   -5,666177869e-01    0,000000000e+00    0,000000000e+00    0,000000000e+00    0,000000000e+00
      562000000    3,233074676e-03   -8,969096094e-02    2,494008513e-03   -6,716812849e-01    0,000000000e+00    0,000000000e+00    0,000000000e+00    0,000000000e+00
      576000000   -3,348191828e-02   -1,239921302e-01   -3,678787053e-01   -5,573958158e-01    0,000000000e+00    0,000000000e+00    0,000000000e+00    0,000000000e+00
      590000000   -9,588249028e-02   -1,226644441e-01   -6,210325956e-01   -2,651380301e-01    0,000000000e+00    0,000000000e+00    0,000000000e+00    0,000000000e+00
      604000000   -1,388451606e-01   -7,248526812e-02   -6,641613841e-01    1,356402785e-01    0,000000000e+00    0,000000000e+00    0,000000000e+00    0,000000000e+00
      618000000   -1,290771812e-01   -1,000576280e-02   -4,653735161e-01    4,931074083e-01    0,000000000e+00    0,000000000e+00    0,000000000e+00    0,000000000e+00
      632000000   -8,411202580e-02    1,616763510e-02   -9,984080493e-02    6,623528004e-01    0,000000000e+00    0,000000000e+00    0,000000000e+00    0,000000000e+00
      646000000   -5,151153728e-02    1,225552987e-03    2,858569324e-01    5,933675170e-01    0,000000000e+00    0,000000000e+00    0,000000000e+00    0,000000000e+00
      660000000   -5,372364819e-02   -2,146149799e-02    5,641962886e-01    3,241157830e-01    0,000000000e+00    0,000000000e+00    0,000000000e+00    0,000000000e+00
      674000000   -7,003944367e-02   -1,615587994e-02    6,406305432e-01   -6,312488765e-02    0,000000000e+00    0,000000000e+00    0,000000000e+00    0,000000000e+00
      688000000   -6,761491299e-02    8,692290634e-03    4,707587361e-01   -4,242992401e-01    0,000000000e+00    0,000000000e+00    0,000000000e+00    0,000000000e+00
      702000000   -3,679362312e-02    2,620068938e-02    1,249586195e-01   -6,060687304e-01    0,000000000e+00    0,000000000e+00    0,000000000e+00    0,000000000e+00
      716000000    2,977341181e-03    1,666138507e-02   -2,590794861e-01   -5,457199812e-01    0,000000000e+00    0,000000000e+00    0,000000000e+00    0,000000000e+00
      730000000    3,620037436e-02   -1,428580191e-02   -5,210083723e-01   -2,714838684e-01    0,000000000e+00    0,000000000e+00    0,000000000e+00    0,000000000e+00
      744000000    6,248008832e-02   -6,554415077e-02   -5,603660345e-01    9,842855483e-02    0,000000000e+00    0,000000000e+00    0,000000000e+00    0,000000000e+00
      758000000    6,156183407e-02   -1,517586410e-01   -3,665864766e-01    4,005806446e-01    0,000000000e+00    0,000000000e+00    0,000000000e+00    0,000000000e+00
      772000000   -1,694255508e-02   -2,562711835e-01   -4,594066739e-02    5,106540918e-01    0,000000000e+00    0,000000000e+00    0,000000000e+00    0,000000000e+00
      786000000   -2,022851408e-01   -2,915603817e-01    2,590854764e-01    3,995882869e-01    0,000000000e+00    0,000000000e+00    0,000000000e+00    0,000000000e+00
      800000000   -4,081374407e-01   -1,276389062e-01    4,081420302e-01    1,183973923e-01    0,000000000e+00    0,000000000e+00    0,000000000e+00    0,000000000e+00
      814000000   -3,776936829e-01    2,006765604e-01    2,969914377e-01   -1,517166942e-01    0,000000000e+00    0,000000000e+00    0,000000000e+00    0,000000000e+00
      828000000   -6,272952259e-02    3,482021689e-01    8,307477832e-02   -1,912734807e-01    0,000000000e+00    0,000000000e+00    0,000000000e+00    0,000000000e+00
      842000000    2,115241587e-01    1,860790998e-01   -3,567897016e-03   -9,384170920e-02    0,000000000e+00    0,000000000e+00    0,000000000e+00    0,000000000e+00
      856000000    2,660077512e-01   -1,053716913e-01    3,477100655e-02   -3,702828288e-02    0,000000000e+00    0,000000000e+00    0,000000000e+00    0,000000000e+00
      870000000    8,322270215e-02   -3,518298566e-01    8,885513991e-02   -9,715402871e-02    0,000000000e+00    0,000000000e+00    0,000000000e+00    0,000000000e+00
      884000000   -2,662953138e-01   -3,560583591e-01    1,212465111e-02   -2,270598263e-01    0,000000000e+00    0,000000000e+00    0,000000000e+00    0,000000000e+00
      898000000   -4,585186243e-01   -1,456865948e-02   -2,151270807e-01   -2,102858424e-01    0,000000000e+00    0,000000000e+00    0,000000000e+00    0,000000000e+00
      912000000   -2,356572002e-01    2,783668935e-01   -3,412812352e-01    6,598309427e-02    0,000000000e+00    0,000000000e+00    0,000000000e+00    0,000000000e+00
      926000000    5,381127447e-02    2,643905878e-01   -2,102696151e-01    2,624973655e-01    0,000000000e+00    0,000000000e+00    0,000000000e+00    0,000000000e+00
      940000000    2,106908113e-01    8,350462466e-02   -3,063603677e-02    3,259868920e-01    0,000000000e+00    0,000000000e+00    0,000000000e+00    0,000000000e+00
      954000000    2,231537551e-01   -1,219709218e-01    1,312017888e-01    3,005146384e-01    0,000000000e+00    0,000000000e+00    0,000000000e+00    0,000000000e+00
      968000000    1,188252419e-01   -2,933646739e-01    2,682388723e-01    2,155231684e-01    0,000000000e+00    0,000000000e+00    0,000000000e+00    0,000000000e+00
      982000000   -7,638213784e-02   -3,864750862e-01    3,604626358e-01    6,260427833e-02    0,000000000e+00    0,000000000e+00    0,000000000e+00    0,000000000e+00
      996000000   -3,082688153e-01   -3,308584392e-01    3,631551266e-01   -1,438315362e-01    0,000000000e+00    0,000000000e+00    0,000000000e+00    0,000000000e+00
     1010000000   -4,600473940e-01   -1,129892841e-01    2,198343873e-01   -3,353477716e-01    0,000000000e+00    0,000000000e+00    0,000000000e+00    0,000000000e+00
     1024000000   -4,156029522e-01    1,388615668e-01   -3,202642500e-02   -3,866804242e-01    0,000000000e+00    0,000000000e+00    0,000000000e+00    0,000000000e+00
     1038000000   -2,266587168e-01    2,893284261e-01   -2,420538962e-01   -2,560994625e-01    0,000000000e+00    0,000000000e+00    0,000000000e+00    0,000000000e+00
     1052000000   -1,289567258e-02    2,836017907e-01   -3,112882972e-01   -4,675488546e-02    0,000000000e+00    0,000000000e+00    0,000000000e+00    0,000000000e+00
     1066000000    1,321355104e-01    1,653372198e-01   -2,520726323e-01    1,366258711e-01    0,000000000e+00    0,000000000e+00    0,000000000e+00    0,000000000e+00
     1080000000    1,961787939e-01    9,135796688e-03   -1,175256968e-01    2,538858652e-01    0,000000000e+00    0,000000000e+00    0,000000000e+00    0,000000000e+00
     1094000000    1,590200067e-01   -1,646375209e-01    5,946910009e-02    2,927779853e-01    0,000000000e+00    0,000000000e+00    0,000000000e+00    0,000000000e+00
     1108000000    1,687294059e-02   -2,947852015e-01    2,590754628e-01    2,348233312e-01    0,000000000e+00    0,000000000e+00    0,000000000e+00    0,000000000e+00
     1122000000   -2,094120830e-01   -2,810003757e-01    4,355186224e-01    2,380357869e-02    0,000000000e+00    0,000000000e+00    0,000000000e+00    0,000000000e+00
     1136000000   -3,268249929e-01   -3,330175951e-02    4,003480077e-01   -3,454513848e-01    0,000000000e+00    0,000000000e+00    0,000000000e+00    0,000000000e+00
     1150000000   -1,054003835e-01    1,371720582e-01    4,900585115e-02   -5,312321782e-01    0,000000000e+00    0,000000000e+00    0,000000000e+00    0,000000000e+00
     1164000000    8,383094519e-02   -1,814983785e-02   -2,494830787e-01   -4,037064016e-01    0,000000000e+00    0,000000000e+00    0,000000000e+00    0,000000000e+00
     1178000000    2,607807145e-02   -2,477143705e-01   -3,701716363e-01   -1,801924407e-01    0,000000000e+00    0,000000000e+00    0,000000000e+00    0,000000000e+00
     1192000000   -2,230993956e-01   -3,486781716e-01   -3,444443941e-01    3,985894099e-02    0,000000000e+00    0,000000000e+00    0,000000000e+00    0,000000000e+00
     1206000000   -4,773303270e-01   -1,796804219e-01   -1,897788942e-01    1,871656924e-01    0,000000000e+00    0,000000000e+00    0,000000000e+00    0,000000000e+00
     1220000000   -5,001469851e-01    1,329772919e-01   -8,341434412e-03    1,767604351e-01    0,000000000e+00    0,000000000e+00    0,000000000e+00    0,000000000e+00
     1234000000   -3,040435314e-01    3,435550332e-01    6,780155748e-02    8,355734497e-02    0,000000000e+00    0,000000000e+00    0,000000000e+00    0,000000000e+00
     1248000000   -5,684479326e-02    3,602879941e-01    6,808977574e-02    2,794723958e-03    0,000000000e+00    0,000000000e+00    0,000000000e+00    0,000000000e+00
     1262000000    1,075086743e-01    2,639178932e-01    2,881047502e-02   -2,414324693e-02    0,000000000e+00    0,000000000e+00    0,000000000e+00    0,000000000e+00
     1276000000    2,029711604e-01    1,059584767e-01    8,244054392e-03   -8,740459569e-03    0,000000000e+00    0,000000000e+00    0,000000000e+00    0,000000000e+00
     1290000000    2,175891101e-01   -6,422163546e-02    1,133339666e-02    2,600952610e-02    0,000000000e+00    0,000000000e+00    0,000000000e+00    0,000000000e+00
     1304000000    1,669606566e-01   -2,323079109e-01    6,367690861e-02    5,827241763e-02    0,000000000e+00    0,000000000e+00    0,000000000e+00    0,000000000e+00
     1318000000    2,485208213e-02   -3,604289591e-01    1,649042368e-01    1,827428304e-02    0,000000000e+00    0,000000000e+00    0,000000000e+00    0,000000000e+00
     1332000000   -1,471984833e-01   -3,972365558e-01    1,077457517e-01   -1,811584681e-01    0,000000000e+00    0,000000000e+00    0,000000000e+00    0,000000000e+00
     1346000000   -3,602201045e-01   -3,875051141e-01   -6,013027579e-02   -1,769544557e-02    0,000000000e+00    0,000000000e+00    0,000000000e+00    0,000000000e+00
     1360000000   -5,854112506e-01   -2,054159790e-01    7,387280464e-02    8,842586726e-02    0,000000000e+00    0,000000000e+00    0,000000000e+00    0,000000000e+00
     1374000000   -6,379426718e-01    1,076633409e-01    1,690449715e-01    5,515628681e-02    0,000000000e+00    0,000000000e+00    0,000000000e+00    0,000000000e+00
     1388000000   -4,779922366e-01    3,461753428e-01    2,183791548e-01   -2,938528731e-02    0,000000000e+00    0,000000000e+00    0,000000000e+00    0,000000000e+00
     1402000000   -2,514722943e-01    4,428336024e-01    2,077265382e-01   -9,294082224e-02    0,000000000e+00    0,000000000e+00    0,000000000e+00    0,000000000e+00
     1416000000   -3,906519338e-02    4,124255478e-01    1,903021485e-01   -9,883395582e-02    0,000000000e+00    0,000000000e+00    0,000000000e+00    0,000000000e+00
     1430000000    1,077121347e-01    3,038424850e-01    2,107336819e-01   -1,057049036e-01    0,000000000e+00    0,000000000e+00    0,000000000e+00    0,000000000e+00
     1444000000    2,006360292e-01    1,507160366e-01    1,730275601e-01   -1,124743149e-01    0,000000000e+00    0,000000000e+00    0,000000000e+00    0,000000000e+00
     1458000000    2,355747223e-01   -1,402783301e-02    1,514025182e-01   -9,657657146e-02    0,000000000e+00    0,000000000e+00    0,000000000e+00    0,000000000e+00
     1472000000    1,916225702e-01   -1,936562806e-01    1,460847557e-01   -4,701546207e-02    0,000000000e+00    0,000000000e+00    0,000000000e+00    0,000000000e+00
     1486000000    6,900998205e-02   -3,631027639e-01    1,708563119e-01    1,826649345e-02    0,000000000e+00    0,000000000e+00    0,000000000e+00    0,000000000e+00
     1500000000   -1,646990329e-01   -4,808426499e-01    2,185983956e-01    8,281307667e-02    0,000000000e+00    0,000000000e+00    0,000000000e+00    0,000000000e+00
