! NanoVNA-App
! Date: 2025-09-25 15:43:55
! Start: 100MHz Stop: 1,5GHz Points: 101
! S-Parameter data: F S11 S21 S12 S22
# Hz S RI R 50
!     Frequency           S11_Real           S11_Imag           S21_Real           S21_Imag           S12_Real           S12_Imag           S22_Real           S22_Imag
      100000000   -2,874026261e-02   -4,245404620e-03    3,739592731e-01   -7,215949893e-01    0,000000000e+00    0,000000000e+00    0,000000000e+00    0,000000000e+00
      114000000   -1,652214304e-02    1,149675250e-02   -8,910249174e-02   -8,052830100e-01    0,000000000e+00    0,000000000e+00    0,000000000e+00    0,000000000e+00
      128000000    3,382514929e-03    1,070557907e-02   -5,143174529e-01   -6,202214360e-01    0,000000000e+00    0,000000000e+00    0,000000000e+00    0,000000000e+00
      142000000    1,465837378e-02   -2,662757412e-03   -7,668635249e-01   -2,365851402e-01    0,000000000e+00    0,000000000e+00    0,000000000e+00    0,000000000e+00
      156000000    1,626442745e-02   -1,410678588e-02   -7,694594264e-01    2,240705937e-01    0,000000000e+00    0,000000000e+00    0,000000000e+00    0,000000000e+00
      170000000    1,714374870e-02   -2,251180634e-02   -5,179294944e-01    6,044324040e-01    0,000000000e+00    0,000000000e+00    0,000000000e+00    0,000000000e+00
      184000000    2,133424766e-02   -3,714141622e-02   -1,015009210e-01    7,855976224e-01    0,000000000e+00    0,000000000e+00    0,000000000e+00    0,000000000e+00
      198000000    1,321647875e-02   -6,253965944e-02    3,431141376e-01    7,120375037e-01    0,000000000e+00    0,000000000e+00    0,000000000e+00    0,000000000e+00
      212000000   -1,844240911e-02   -8,124638349e-02    6,776722074e-01    4,098149538e-01    0,000000000e+00    0,000000000e+00    0,000000000e+00    0,000000000e+00
      226000000   -6,139643118e-02   -6,926120073e-02    7,954771519e-01   -3,050794639e-02    0,000000000e+00    0,000000000e+00    0,000000000e+00    0,000000000e+00
      240000000   -8,221828938e-02   -2,575128898e-02    6,458181143e-01   -4,669248760e-01    0,000000000e+00    0,000000000e+00    0,000000000e+00    0,000000000e+00
      254000000   -6,340466440e-02    1,694079675e-02    2,759754956e-01   -7,428473234e-01    0,000000000e+00    0,000000000e+00    0,000000000e+00    0,000000000e+00
      268000000   -2,396922559e-02    2,877037972e-02   -1,778998524e-01   -7,636206150e-01    0,000000000e+00    0,000000000e+00    0,000000000e+00    0,000000000e+00
      282000000    4,139179364e-03    1,203307882e-02   -5,615143180e-01   -5,356132984e-01    0,000000000e+00    0,000000000e+00    0,000000000e+00    0,000000000e+00
      296000000    9,807926603e-03   -7,635850459e-03   -7,593764067e-01   -1,395658851e-01    0,000000000e+00    0,000000000e+00    0,000000000e+00    0,000000000e+00
      310000000    1,152005885e-02   -1,598475873e-02   -7,131993175e-01    2,981900573e-01    0,000000000e+00    0,000000000e+00    0,000000000e+00    0,000000000e+00
      324000000    1,992131583e-02   -2,654851414e-02   -4,274963439e-01    6,367563605e-01    0,000000000e+00    0,000000000e+00    0,000000000e+00    0,000000000e+00
      338000000    2,585441619e-02   -5,210369453e-02   -7,140676025e-03    7,619138956e-01    0,000000000e+00    0,000000000e+00    0,000000000e+00    0,000000000e+00
      352000000    7,281363010e-03   -8,472818136e-02    4,066804349e-01    6,389828920e-01    0,000000000e+00    0,000000000e+00    0,000000000e+00    0,000000000e+00
      366000000   -3,436420485e-02   -9,539946169e-02    6,903340816e-01    3,116257191e-01    0,000000000e+00    0,000000000e+00    0,000000000e+00    0,000000000e+00
      380000000   -7,025589794e-02   -7,120095193e-02    7,471173406e-01   -1,255149245e-01    0,000000000e+00    0,000000000e+00    0,000000000e+00    0,000000000e+00
      394000000   -7,227747887e-02   -3,246085718e-02    5,469027758e-01   -5,208216310e-01    0,000000000e+00    0,000000000e+00    0,000000000e+00    0,000000000e+00
      408000000   -4,646623880e-02   -1,671794243e-02    1,607301235e-01   -7,315791249e-01    0,000000000e+00    0,000000000e+00    0,000000000e+00    0,000000000e+00
      422000000   -2,841517702e-02   -3,186215088e-02   -2,667037547e-01   -6,944406629e-01    0,000000000e+00    0,000000000e+00    0,000000000e+00    0,000000000e+00
      436000000   -4,069283977e-02   -5,164663494e-02   -6,036973000e-01   -4,324368834e-01    0,000000000e+00    0,000000000e+00    0,000000000e+00    0,000000000e+00
      450000000   -6,690839678e-02   -4,369403794e-02   -7,400875092e-01   -2,171461657e-02    0,000000000e+00    0,000000000e+00    0,000000000e+00    0,000000000e+00
      464000000   -7,283938676e-02   -1,173692942e-02   -6,178399324e-01    3,970061839e-01    0,000000000e+00    0,000000000e+00    0,000000000e+00    0,000000000e+00
      478000000   -4,748146981e-02    1,134482399e-02   -2,827776968e-01    6,672192812e-01    0,000000000e+00    0,000000000e+00    0,000000000e+00    0,000000000e+00
      492000000   -1,536123734e-02    5,695670377e-03    1,362085044e-01    7,013179064e-01    0,000000000e+00    0,000000000e+00    0,000000000e+00    0,000000000e+00
      506000000   -2,840826986e-03   -1,596053503e-02    4,978868663e-01    5,022407174e-01    0,000000000e+00    0,000000000e+00    0,000000000e+00    0,000000000e+00
      520000000   -4,856739659e-03   -3,157380968e-02    6,868404150e-01    1,427584440e-01    0,000000000e+00    0,000000000e+00    0,000000000e+00    0,000000000e+00
      534000000   -3,611413296e-03   -3,803284094e-02    6,433211565e-01   -2,620549500e-01    0,000000000e+00    0,000000000e+00    0,000000000e+00    0,000000000e+00
      548000000    6,285968702e-03   -5,379720777e-02    3,811959624e-01   -5,657374859e-01    0,000000000e+00    0,000000000e+00    0,000000000e+00    0,000000000e+00
      562000000    3,017844632e-03   -8,913116902e-02    2,808259800e-03   -6,708958149e-01    0,000000000e+00    0,000000000e+00    0,000000000e+00    0,000000000e+00
      576000000   -3,418815136e-02   -1,243933141e-01   -3,676705658e-01   -5,575086474e-01    0,000000000e+00    0,000000000e+00    0,000000000e+00    0,000000000e+00
      590000000   -9,568761289e-02   -1,226385683e-01   -6,190289259e-01   -2,632683218e-01    0,000000000e+00    0,000000000e+00    0,000000000e+00    0,000000000e+00
      604000000   -1,387116462e-01   -7,239481807e-02   -6,642869711e-01    1,363614053e-01    0,000000000e+00    0,000000000e+00    0,000000000e+00    0,000000000e+00
      618000000   -1,297753602e-01   -9,993569925e-03   -4,649605155e-01    4,924582243e-01    0,000000000e+00    0,000000000e+00    0,000000000e+00    0,000000000e+00
      632000000   -8,484401554e-02    1,572841220e-02   -9,989238530e-02    6,622406244e-01    0,000000000e+00    0,000000000e+00    0,000000000e+00    0,000000000e+00
      646000000   -5,212566257e-02    7,590395981e-04    2,859442234e-01    5,938925147e-01    0,000000000e+00    0,000000000e+00    0,000000000e+00    0,000000000e+00
      660000000   -5,413512513e-02   -2,070825547e-02    5,646821856e-01    3,228224218e-01    0,000000000e+00    0,000000000e+00    0,000000000e+00    0,000000000e+00
      674000000   -7,007158548e-02   -1,685922407e-02    6,408945918e-01   -6,315769255e-02    0,000000000e+00    0,000000000e+00    0,000000000e+00    0,000000000e+00
      688000000   -6,710673124e-02    8,748332039e-03    4,709292650e-01   -4,231537879e-01    0,000000000e+00    0,000000000e+00    0,000000000e+00    0,000000000e+00
      702000000   -3,598112613e-02    2,519168146e-02    1,231621951e-01   -6,031695604e-01    0,000000000e+00    0,000000000e+00    0,000000000e+00    0,000000000e+00
      716000000    4,369534086e-03    1,600556076e-02   -2,595599592e-01   -5,441206098e-01    0,000000000e+00    0,000000000e+00    0,000000000e+00    0,000000000e+00
      730000000    3,633124381e-02   -1,418790407e-02   -5,218586922e-01   -2,713575661e-01    0,000000000e+00    0,000000000e+00    0,000000000e+00    0,000000000e+00
      744000000    6,225363165e-02   -6,440471858e-02   -5,605017543e-01    9,830924869e-02    0,000000000e+00    0,000000000e+00    0,000000000e+00    0,000000000e+00
      758000000    6,101283804e-02   -1,512806416e-01   -3,659189641e-01    4,001225829e-01    0,000000000e+00    0,000000000e+00    0,000000000e+00    0,000000000e+00
      772000000   -1,766061224e-02   -2,559608519e-01   -4,419828951e-02    5,092939734e-01    0,000000000e+00    0,000000000e+00    0,000000000e+00    0,000000000e+00
      786000000   -2,024688870e-01   -2,915886343e-01    2,595421374e-01    3,996056914e-01    0,000000000e+00    0,000000000e+00    0,000000000e+00    0,000000000e+00
      800000000   -4,065420628e-01   -1,279175580e-01    4,074248374e-01    1,189316064e-01    0,000000000e+00    0,000000000e+00    0,000000000e+00    0,000000000e+00
      814000000   -3,777900338e-01    2,016119361e-01    2,965587080e-01   -1,510137022e-01    0,000000000e+00    0,000000000e+00    0,000000000e+00    0,000000000e+00
      828000000   -6,300730258e-02    3,470427394e-01    8,257126808e-02   -1,915939599e-01    0,000000000e+00    0,000000000e+00    0,000000000e+00    0,000000000e+00
      842000000    2,113764584e-01    1,859279424e-01   -3,854796523e-03   -9,350636601e-02    0,000000000e+00    0,000000000e+00    0,000000000e+00    0,000000000e+00
      856000000    2,662180960e-01   -1,052658856e-01    3,566493839e-02   -3,701261804e-02    0,000000000e+00    0,000000000e+00    0,000000000e+00    0,000000000e+00
      870000000    8,261623979e-02   -3,515185416e-01    8,882998675e-02   -9,723367542e-02    0,000000000e+00    0,000000000e+00    0,000000000e+00    0,000000000e+00
      884000000   -2,669542432e-01   -3,551346362e-01    1,133642625e-02   -2,275055051e-01    0,000000000e+00    0,000000000e+00    0,000000000e+00    0,000000000e+00
      898000000   -4,578650594e-01   -1,334105153e-02   -2,154335082e-01   -2,087326646e-01    0,000000000e+00    0,000000000e+00    0,000000000e+00    0,000000000e+00
      912000000   -2,353741378e-01    2,778858542e-01   -3,337360620e-01    6,245621294e-02    0,000000000e+00    0,000000000e+00    0,000000000e+00    0,000000000e+00
      926000000    5,642908439e-02    2,615262866e-01   -2,064084113e-01    2,607443631e-01    0,000000000e+00    0,000000000e+00    0,000000000e+00    0,000000000e+00
      940000000    2,074807286e-01    8,253240585e-02   -3,224457428e-02    3,238352239e-01    0,000000000e+00    0,000000000e+00    0,000000000e+00    0,000000000e+00
      954000000    2,201384157e-01   -1,200125590e-01    1,304588765e-01    3,026636839e-01    0,000000000e+00    0,000000000e+00    0,000000000e+00    0,000000000e+00
      968000000    1,162445918e-01   -2,952597439e-01    2,680931091e-01    2,136075795e-01    0,000000000e+00    0,000000000e+00    0,000000000e+00    0,000000000e+00
      982000000   -7,830778509e-02   -3,863336146e-01    3,604745269e-01    6,273575127e-02    0,000000000e+00    0,000000000e+00    0,000000000e+00    0,000000000e+00
      996000000   -3,113269210e-01   -3,344502151e-01    3,627090752e-01   -1,439481974e-01    0,000000000e+00    0,000000000e+00    0,000000000e+00    0,000000000e+00
     1010000000   -4,617230594e-01   -1,133000031e-01    2,181145400e-01   -3,352156878e-01    0,000000000e+00    0,000000000e+00    0,000000000e+00    0,000000000e+00
     1024000000   -4,120037854e-01    1,438111812e-01   -3,377691284e-02   -3,856148422e-01    0,000000000e+00    0,000000000e+00    0,000000000e+00    0,000000000e+00
     1038000000   -2,215209454e-01    2,906476259e-01   -2,427096963e-01   -2,586672306e-01    0,000000000e+00    0,000000000e+00    0,000000000e+00    0,000000000e+00
     1052000000   -1,325328089e-02    2,764121890e-01   -3,101033270e-01   -4,826599732e-02    0,000000000e+00    0,000000000e+00    0,000000000e+00    0,000000000e+00
     1066000000    1,351960301e-01    1,697645783e-01   -2,519485354e-01    1,398177743e-01    0,000000000e+00    0,000000000e+00    0,000000000e+00    0,000000000e+00
     1080000000    1,916516870e-01    7,394543849e-03   -1,149370968e-01    2,563071251e-01    0,000000000e+00    0,000000000e+00    0,000000000e+00    0,000000000e+00
     1094000000    1,601864696e-01   -1,654229015e-01    5,978688598e-02    2,937848568e-01    0,000000000e+00    0,000000000e+00    0,000000000e+00    0,000000000e+00
     1108000000    2,109661885e-02   -2,985406220e-01    2,585790455e-01    2,341549397e-01    0,000000000e+00    0,000000000e+00    0,000000000e+00    0,000000000e+00
     1122000000   -2,164719552e-01   -2,850963175e-01    4,376116395e-01    2,309902012e-02    0,000000000e+00    0,000000000e+00    0,000000000e+00    0,000000000e+00
     1136000000   -3,272720277e-01   -3,616163135e-02    3,964119554e-01   -3,430593908e-01    0,000000000e+00    0,000000000e+00    0,000000000e+00    0,000000000e+00
     1150000000   -1,045821309e-01    1,370061338e-01    4,858418927e-02   -5,312179327e-01    0,000000000e+00    0,000000000e+00    0,000000000e+00    0,000000000e+00
     1164000000    8,191101998e-02   -1,739449613e-02   -2,542132735e-01   -4,062581956e-01    0,000000000e+00    0,000000000e+00    0,000000000e+00    0,000000000e+00
     1178000000    2,726954781e-02   -2,493950427e-01   -3,705596328e-01   -1,788076013e-01    0,000000000e+00    0,000000000e+00    0,000000000e+00    0,000000000e+00
     1192000000   -2,219641060e-01   -3,481867313e-01   -3,443553746e-01    4,285692796e-02    0,000000000e+00    0,000000000e+00    0,000000000e+00    0,000000000e+00
     1206000000   -4,823813438e-01   -1,810058504e-01   -1,932165027e-01    1,776648015e-01    0,000000000e+00    0,000000000e+00    0,000000000e+00    0,000000000e+00
     1220000000   -5,025243759e-01    1,429184079e-01   -1,281567570e-02    1,760155708e-01    0,000000000e+00    0,000000000e+00    0,000000000e+00    0,000000000e+00
     1234000000   -3,032021224e-01    3,470104039e-01    6,995309144e-02    8,164628595e-02    0,000000000e+00    0,000000000e+00    0,000000000e+00    0,000000000e+00
     1248000000   -5,879203603e-02    3,574374020e-01    7,306963205e-02    3,991544247e-03    0,000000000e+00    0,000000000e+00    0,000000000e+00    0,000000000e+00
     1262000000    1,095523462e-01    2,658155560e-01    3,139586374e-02   -2,232080698e-02    0,000000000e+00    0,000000000e+00    0,000000000e+00    0,000000000e+00
     1276000000    1,985013187e-01    1,073355451e-01    5,636890419e-03   -1,022965461e-02    0,000000000e+00    0,000000000e+00    0,000000000e+00    0,000000000e+00
     1290000000    2,213530093e-01   -6,111641601e-02    9,639375843e-03    2,697179466e-02    0,000000000e+00    0,000000000e+00    0,000000000e+00    0,000000000e+00
     1304000000    1,633999348e-01   -2,306602746e-01    5,996200815e-02    5,802650005e-02    0,000000000e+00    0,000000000e+00    0,000000000e+00    0,000000000e+00
     1318000000    2,625669912e-02   -3,655128777e-01    1,743686944e-01    1,310983952e-02    0,000000000e+00    0,000000000e+00    0,000000000e+00    0,000000000e+00
     1332000000   -1,505931765e-01   -3,937559426e-01    9,706877172e-02   -1,752398163e-01    0,000000000e+00    0,000000000e+00    0,000000000e+00    0,000000000e+00
     1346000000   -3,569755554e-01   -3,956093192e-01   -5,572585016e-02   -2,752649784e-02    0,000000000e+00    0,000000000e+00    0,000000000e+00    0,000000000e+00
     1360000000   -5,784009695e-01   -1,982589513e-01    6,059022993e-02    9,282441437e-02    0,000000000e+00    0,000000000e+00    0,000000000e+00    0,000000000e+00
     1374000000   -6,291685700e-01    1,081791222e-01    1,774530560e-01    5,651361495e-02    0,000000000e+00    0,000000000e+00    0,000000000e+00    0,000000000e+00
     1388000000   -4,785187840e-01    3,503865600e-01    2,134738266e-01   -1,997688413e-02    0,000000000e+00    0,000000000e+00    0,000000000e+00    0,000000000e+00
     1402000000   -2,483468950e-01    4,445589483e-01    1,980576217e-01   -7,441669703e-02    0,000000000e+00    0,000000000e+00    0,000000000e+00    0,000000000e+00
     1416000000   -3,855726868e-02    4,072586298e-01    1,918628365e-01   -1,109632328e-01    0,000000000e+00    0,000000000e+00    0,000000000e+00    0,000000000e+00
     1430000000    1,174727902e-01    3,048570156e-01    2,117312253e-01   -1,027078182e-01    0,000000000e+00    0,000000000e+00    0,000000000e+00    0,000000000e+00
     1444000000    2,005571872e-01    1,573515087e-01    1,669736207e-01   -1,005387455e-01    0,000000000e+00    0,000000000e+00    0,000000000e+00    0,000000000e+00
     1458000000    2,380259186e-01   -1,387205534e-02    1,529496908e-01   -8,340966702e-02    0,000000000e+00    0,000000000e+00    0,000000000e+00    0,000000000e+00
     1472000000    1,882033944e-01   -1,911392659e-01    1,374400258e-01   -3,270406649e-02    0,000000000e+00    0,000000000e+00    0,000000000e+00    0,000000000e+00
     1486000000    7,492110878e-02   -3,610443771e-01    1,772074699e-01    2,793617360e-02    0,000000000e+00    0,000000000e+00    0,000000000e+00    0,000000000e+00
     1500000000   -1,658900380e-01   -4,773090780e-01    2,392462939e-01    9,799285233e-02    0,000000000e+00    0,000000000e+00    0,000000000e+00    0,000000000e+00
