! NanoVNA-App
! Date: 2025-09-25 15:38:44
! Start: 100MHz Stop: 1,5GHz Points: 101
! S-Parameter data: F S11 S21 S12 S22
# Hz S RI R 50
!     Frequency           S11_Real           S11_Imag           S21_Real           S21_Imag           S12_Real           S12_Imag           S22_Real           S22_Imag
      100000000   -2,868694440e-02   -4,231826868e-03    3,738454282e-01   -7,214795947e-01    0,000000000e+00    0,000000000e+00    0,000000000e+00    0,000000000e+00
      114000000   -1,646846719e-02    1,146883238e-02   -8,915575594e-02   -8,051946163e-01    0,000000000e+00    0,000000000e+00    0,000000000e+00    0,000000000e+00
      128000000    3,498859471e-03    1,068587042e-02   -5,144846439e-01   -6,202863455e-01    0,000000000e+00    0,000000000e+00    0,000000000e+00    0,000000000e+00
      142000000    1,469441224e-02   -2,610324882e-03   -7,668349743e-01   -2,363586277e-01    0,000000000e+00    0,000000000e+00    0,000000000e+00    0,000000000e+00
      156000000    1,592741720e-02   -1,461253501e-02   -7,709925175e-01    2,217541039e-01    0,000000000e+00    0,000000000e+00    0,000000000e+00    0,000000000e+00
      170000000    1,720337756e-02   -2,254500799e-02   -5,178112984e-01    6,045701504e-01    0,000000000e+00    0,000000000e+00    0,000000000e+00    0,000000000e+00
      184000000    2,141194418e-02   -3,720300272e-02   -1,012115628e-01    7,860476971e-01    0,000000000e+00    0,000000000e+00    0,000000000e+00    0,000000000e+00
      198000000    1,328868885e-02   -6,260578334e-02    3,430677950e-01    7,118394971e-01    0,000000000e+00    0,000000000e+00    0,000000000e+00    0,000000000e+00
      212000000   -1,841290668e-02   -8,125372976e-02    6,776578426e-01    4,097075760e-01    0,000000000e+00    0,000000000e+00    0,000000000e+00    0,000000000e+00
      226000000   -6,124568358e-02   -6,918153167e-02    7,952970862e-01   -3,065118939e-02    0,000000000e+00    0,000000000e+00    0,000000000e+00    0,000000000e+00
      240000000   -8,206212521e-02   -2,580792271e-02    6,456185579e-01   -4,668484628e-01    0,000000000e+00    0,000000000e+00    0,000000000e+00    0,000000000e+00
      254000000   -6,329193711e-02    1,687444933e-02    2,758656740e-01   -7,427456975e-01    0,000000000e+00    0,000000000e+00    0,000000000e+00    0,000000000e+00
      268000000   -2,394346893e-02    2,861329541e-02   -1,778074950e-01   -7,635614872e-01    0,000000000e+00    0,000000000e+00    0,000000000e+00    0,000000000e+00
      282000000    4,120051861e-03    1,203895453e-02   -5,615627170e-01   -5,353218317e-01    0,000000000e+00    0,000000000e+00    0,000000000e+00    0,000000000e+00
      296000000    9,823385626e-03   -7,541234605e-03   -7,590810657e-01   -1,391808540e-01    0,000000000e+00    0,000000000e+00    0,000000000e+00    0,000000000e+00
      310000000    1,167253777e-02   -1,591070555e-02   -7,122898698e-01    2,981639802e-01    0,000000000e+00    0,000000000e+00    0,000000000e+00    0,000000000e+00
      324000000    2,018500865e-02   -2,694712207e-02   -4,270645678e-01    6,374878287e-01    0,000000000e+00    0,000000000e+00    0,000000000e+00    0,000000000e+00
      338000000    2,578563243e-02   -5,265755579e-02   -7,766899187e-03    7,618609071e-01    0,000000000e+00    0,000000000e+00    0,000000000e+00    0,000000000e+00
      352000000    7,319391239e-03   -8,471928537e-02    4,057647884e-01    6,388950944e-01    0,000000000e+00    0,000000000e+00    0,000000000e+00    0,000000000e+00
      366000000   -3,453249112e-02   -9,526181221e-02    6,892890930e-01    3,104857504e-01    0,000000000e+00    0,000000000e+00    0,000000000e+00    0,000000000e+00
      380000000   -7,016635686e-02   -7,094589621e-02    7,472602725e-01   -1,251987517e-01    0,000000000e+00    0,000000000e+00    0,000000000e+00    0,000000000e+00
      394000000   -7,205012441e-02   -3,265885636e-02    5,467974544e-01   -5,209546685e-01    0,000000000e+00    0,000000000e+00    0,000000000e+00    0,000000000e+00
      408000000   -4,612720385e-02   -1,656300202e-02    1,607358158e-01   -7,332081795e-01    0,000000000e+00    0,000000000e+00    0,000000000e+00    0,000000000e+00
      422000000   -2,823874541e-02   -3,230611235e-02   -2,669357061e-01   -6,944358349e-01    0,000000000e+00    0,000000000e+00    0,000000000e+00    0,000000000e+00
      436000000   -4,058718681e-02   -5,175394565e-02   -6,027663946e-01   -4,314148426e-01    0,000000000e+00    0,000000000e+00    0,000000000e+00    0,000000000e+00
      450000000   -6,718435884e-02   -4,387776181e-02   -7,398796082e-01   -2,220993116e-02    0,000000000e+00    0,000000000e+00    0,000000000e+00    0,000000000e+00
      464000000   -7,280490547e-02   -1,228667703e-02   -6,180537939e-01    3,970305026e-01    0,000000000e+00    0,000000000e+00    0,000000000e+00    0,000000000e+00
      478000000   -4,722543433e-02    1,100914832e-02   -2,822320163e-01    6,664893627e-01    0,000000000e+00    0,000000000e+00    0,000000000e+00    0,000000000e+00
      492000000   -1,542275865e-02    5,663779099e-03    1,376135796e-01    7,006468773e-01    0,000000000e+00    0,000000000e+00    0,000000000e+00    0,000000000e+00
      506000000   -2,880166052e-03   -1,592194289e-02    4,979661107e-01    5,018756390e-01    0,000000000e+00    0,000000000e+00    0,000000000e+00    0,000000000e+00
      520000000   -5,142627284e-03   -3,121698834e-02    6,867750287e-01    1,419641823e-01    0,000000000e+00    0,000000000e+00    0,000000000e+00    0,000000000e+00
      534000000   -3,667796263e-03   -3,817192838e-02    6,429520845e-01   -2,621791661e-01    0,000000000e+00    0,000000000e+00    0,000000000e+00    0,000000000e+00
      548000000    6,401202176e-03   -5,425721779e-02    3,814703524e-01   -5,661025643e-01    0,000000000e+00    0,000000000e+00    0,000000000e+00    0,000000000e+00
      562000000    3,049738705e-03   -8,925508708e-02    2,609520219e-03   -6,707500219e-01    0,000000000e+00    0,000000000e+00    0,000000000e+00    0,000000000e+00
      576000000   -3,393438458e-02   -1,246766299e-01   -3,678990006e-01   -5,574783683e-01    0,000000000e+00    0,000000000e+00    0,000000000e+00    0,000000000e+00
      590000000   -9,570790827e-02   -1,226153374e-01   -6,183705926e-01   -2,641355395e-01    0,000000000e+00    0,000000000e+00    0,000000000e+00    0,000000000e+00
      604000000   -1,388645768e-01   -7,250835001e-02   -6,642997861e-01    1,364564300e-01    0,000000000e+00    0,000000000e+00    0,000000000e+00    0,000000000e+00
      618000000   -1,291597486e-01   -1,050833054e-02   -4,641886950e-01    4,919424653e-01    0,000000000e+00    0,000000000e+00    0,000000000e+00    0,000000000e+00
      632000000   -8,414258808e-02    1,562187728e-02   -1,000072509e-01    6,612651944e-01    0,000000000e+00    0,000000000e+00    0,000000000e+00    0,000000000e+00
      646000000   -5,137079954e-02    7,432523998e-04    2,856859565e-01    5,935714841e-01    0,000000000e+00    0,000000000e+00    0,000000000e+00    0,000000000e+00
      660000000   -5,385465547e-02   -2,119325288e-02    5,648891330e-01    3,230049908e-01    0,000000000e+00    0,000000000e+00    0,000000000e+00    0,000000000e+00
      674000000   -7,000682503e-02   -1,716111600e-02    6,410610676e-01   -6,324961036e-02    0,000000000e+00    0,000000000e+00    0,000000000e+00    0,000000000e+00
      688000000   -6,690182537e-02    8,504386060e-03    4,701857865e-01   -4,234654009e-01    0,000000000e+00    0,000000000e+00    0,000000000e+00    0,000000000e+00
      702000000   -3,633699566e-02    2,619794011e-02    1,212178692e-01   -6,071762443e-01    0,000000000e+00    0,000000000e+00    0,000000000e+00    0,000000000e+00
      716000000    4,256874789e-03    1,573065855e-02   -2,589653134e-01   -5,446130633e-01    0,000000000e+00    0,000000000e+00    0,000000000e+00    0,000000000e+00
      730000000    3,728109598e-02   -1,314520836e-02   -5,219388008e-01   -2,713255882e-01    0,000000000e+00    0,000000000e+00    0,000000000e+00    0,000000000e+00
      744000000    6,290525198e-02   -6,595114619e-02   -5,600649714e-01    9,896613657e-02    0,000000000e+00    0,000000000e+00    0,000000000e+00    0,000000000e+00
      758000000    6,088152528e-02   -1,516879201e-01   -3,665505052e-01    4,001695216e-01    0,000000000e+00    0,000000000e+00    0,000000000e+00    0,000000000e+00
      772000000   -1,715607941e-02   -2,565414906e-01   -4,651388153e-02    5,079998970e-01    0,000000000e+00    0,000000000e+00    0,000000000e+00    0,000000000e+00
      786000000   -2,032112330e-01   -2,917299271e-01    2,596794367e-01    3,983364105e-01    0,000000000e+00    0,000000000e+00    0,000000000e+00    0,000000000e+00
      800000000   -4,070748687e-01   -1,267712563e-01    4,062378407e-01    1,175900400e-01    0,000000000e+00    0,000000000e+00    0,000000000e+00    0,000000000e+00
      814000000   -3,754914999e-01    2,032644004e-01    2,956916392e-01   -1,510661691e-01    0,000000000e+00    0,000000000e+00    0,000000000e+00    0,000000000e+00
      828000000   -6,195970625e-02    3,474659622e-01    8,220725507e-02   -1,896386296e-01    0,000000000e+00    0,000000000e+00    0,000000000e+00    0,000000000e+00
      842000000    2,124463171e-01    1,848508567e-01   -3,090191167e-03   -9,255332500e-02    0,000000000e+00    0,000000000e+00    0,000000000e+00    0,000000000e+00
      856000000    2,655070424e-01   -1,063828841e-01    3,648208082e-02   -3,691402450e-02    0,000000000e+00    0,000000000e+00    0,000000000e+00    0,000000000e+00
      870000000    8,158377558e-02   -3,519598544e-01    8,927464485e-02   -9,772617370e-02    0,000000000e+00    0,000000000e+00    0,000000000e+00    0,000000000e+00
      884000000   -2,684688270e-01   -3,548395932e-01    1,146539953e-02   -2,279024273e-01    0,000000000e+00    0,000000000e+00    0,000000000e+00    0,000000000e+00
      898000000   -4,576864839e-01   -1,321963780e-02   -2,164203525e-01   -2,101002932e-01    0,000000000e+00    0,000000000e+00    0,000000000e+00    0,000000000e+00
      912000000   -2,352991402e-01    2,780849040e-01   -3,384938240e-01    6,493681669e-02    0,000000000e+00    0,000000000e+00    0,000000000e+00    0,000000000e+00
      926000000    5,375756696e-02    2,626582980e-01   -2,113932520e-01    2,636621892e-01    0,000000000e+00    0,000000000e+00    0,000000000e+00    0,000000000e+00
      940000000    2,107430547e-01    8,481320739e-02   -3,036724217e-02    3,277138770e-01    0,000000000e+00    0,000000000e+00    0,000000000e+00    0,000000000e+00
      954000000    2,209270746e-01   -1,198330894e-01    1,306762993e-01    3,016140759e-01    0,000000000e+00    0,000000000e+00    0,000000000e+00    0,000000000e+00
      968000000    1,154711023e-01   -2,919629514e-01    2,698102295e-01    2,151267827e-01    0,000000000e+00    0,000000000e+00    0,000000000e+00    0,000000000e+00
      982000000   -7,447675616e-02   -3,855833113e-01    3,605903089e-01    6,376860291e-02    0,000000000e+00    0,000000000e+00    0,000000000e+00    0,000000000e+00
      996000000   -3,100694120e-01   -3,286005557e-01    3,630086780e-01   -1,439545453e-01    0,000000000e+00    0,000000000e+00    0,000000000e+00    0,000000000e+00
     1010000000   -4,625625610e-01   -1,136316955e-01    2,218741328e-01   -3,371064663e-01    0,000000000e+00    0,000000000e+00    0,000000000e+00    0,000000000e+00
     1024000000   -4,125103652e-01    1,410272270e-01   -2,974523976e-02   -3,837735653e-01    0,000000000e+00    0,000000000e+00    0,000000000e+00    0,000000000e+00
     1038000000   -2,250727713e-01    2,863111496e-01   -2,423355877e-01   -2,555018663e-01    0,000000000e+00    0,000000000e+00    0,000000000e+00    0,000000000e+00
     1052000000   -1,107952744e-02    2,780442238e-01   -3,119696975e-01   -4,570341483e-02    0,000000000e+00    0,000000000e+00    0,000000000e+00    0,000000000e+00
     1066000000    1,351728886e-01    1,689729989e-01   -2,542768419e-01    1,417804956e-01    0,000000000e+00    0,000000000e+00    0,000000000e+00    0,000000000e+00
     1080000000    1,916067302e-01    5,607293919e-03   -1,173282340e-01    2,548659444e-01    0,000000000e+00    0,000000000e+00    0,000000000e+00    0,000000000e+00
     1094000000    1,577039659e-01   -1,626258790e-01    6,207822636e-02    2,906523645e-01    0,000000000e+00    0,000000000e+00    0,000000000e+00    0,000000000e+00
     1108000000    1,963420957e-02   -2,937643826e-01    2,621917129e-01    2,340286970e-01    0,000000000e+00    0,000000000e+00    0,000000000e+00    0,000000000e+00
     1122000000   -2,160374224e-01   -2,788237631e-01    4,388472736e-01    2,161805704e-02    0,000000000e+00    0,000000000e+00    0,000000000e+00    0,000000000e+00
     1136000000   -3,276374340e-01   -2,541456930e-02    4,033401310e-01   -3,460074961e-01    0,000000000e+00    0,000000000e+00    0,000000000e+00    0,000000000e+00
     1150000000   -1,066068336e-01    1,330682039e-01    4,981543869e-02   -5,294660330e-01    0,000000000e+00    0,000000000e+00    0,000000000e+00    0,000000000e+00
     1164000000    8,354689926e-02   -1,437581144e-02   -2,520159185e-01   -4,041631222e-01    0,000000000e+00    0,000000000e+00    0,000000000e+00    0,000000000e+00
     1178000000    3,042479418e-02   -2,525040805e-01   -3,673836589e-01   -1,772790998e-01    0,000000000e+00    0,000000000e+00    0,000000000e+00    0,000000000e+00
     1192000000   -2,241238952e-01   -3,519805968e-01   -3,423427343e-01    3,995139152e-02    0,000000000e+00    0,000000000e+00    0,000000000e+00    0,000000000e+00
     1206000000   -4,845555425e-01   -1,767013818e-01   -1,885779947e-01    1,801507175e-01    0,000000000e+00    0,000000000e+00    0,000000000e+00    0,000000000e+00
     1220000000   -5,026778579e-01    1,379579604e-01   -3,074324457e-03    1,770560145e-01    0,000000000e+00    0,000000000e+00    0,000000000e+00    0,000000000e+00
     1234000000   -2,967175543e-01    3,464164734e-01    7,803272456e-02    8,376079798e-02    0,000000000e+00    0,000000000e+00    0,000000000e+00    0,000000000e+00
     1248000000   -6,381115317e-02    3,625172973e-01    6,248036399e-02   -1,472500735e-04    0,000000000e+00    0,000000000e+00    0,000000000e+00    0,000000000e+00
     1262000000    1,067962274e-01    2,554075420e-01    2,841096744e-02   -2,817649022e-02    0,000000000e+00    0,000000000e+00    0,000000000e+00    0,000000000e+00
     1276000000    2,024158090e-01    1,093655154e-01    6,217201706e-03   -4,334330559e-03    0,000000000e+00    0,000000000e+00    0,000000000e+00    0,000000000e+00
     1290000000    2,219770402e-01   -6,159006432e-02    9,252048098e-03    2,456556261e-02    0,000000000e+00    0,000000000e+00    0,000000000e+00    0,000000000e+00
     1304000000    1,664594859e-01   -2,347232848e-01    5,979609862e-02    5,693661422e-02    0,000000000e+00    0,000000000e+00    0,000000000e+00    0,000000000e+00
     1318000000    2,070930041e-02   -3,649312258e-01    1,684468240e-01    1,897225156e-02    0,000000000e+00    0,000000000e+00    0,000000000e+00    0,000000000e+00
     1332000000   -1,472595930e-01   -3,932186067e-01    1,037496850e-01   -1,776387841e-01    0,000000000e+00    0,000000000e+00    0,000000000e+00    0,000000000e+00
     1346000000   -3,595056236e-01   -3,922052681e-01   -5,898546800e-02   -1,761120558e-02    0,000000000e+00    0,000000000e+00    0,000000000e+00    0,000000000e+00
     1360000000   -5,823719501e-01   -2,038051188e-01    6,733027101e-02    8,672022820e-02    0,000000000e+00    0,000000000e+00    0,000000000e+00    0,000000000e+00
     1374000000   -6,279758811e-01    9,839280695e-02    1,841202378e-01    4,337679967e-02    0,000000000e+00    0,000000000e+00    0,000000000e+00    0,000000000e+00
     1388000000   -4,728435874e-01    3,512004018e-01    2,243272960e-01   -3,172844648e-02    0,000000000e+00    0,000000000e+00    0,000000000e+00    0,000000000e+00
     1402000000   -2,443323284e-01    4,420467317e-01    2,088999003e-01   -8,171185851e-02    0,000000000e+00    0,000000000e+00    0,000000000e+00    0,000000000e+00
     1416000000   -3,915266693e-02    4,143969119e-01    1,882178336e-01   -9,609140456e-02    0,000000000e+00    0,000000000e+00    0,000000000e+00    0,000000000e+00
     1430000000    1,188476607e-01    3,120934963e-01    2,061414719e-01   -1,231181324e-01    0,000000000e+00    0,000000000e+00    0,000000000e+00    0,000000000e+00
     1444000000    1,982236952e-01    1,551525742e-01    1,608991474e-01   -1,160017774e-01    0,000000000e+00    0,000000000e+00    0,000000000e+00    0,000000000e+00
     1458000000    2,280815244e-01   -1,631886512e-02    1,392861158e-01   -9,274163842e-02    0,000000000e+00    0,000000000e+00    0,000000000e+00    0,000000000e+00
     1472000000    1,935532093e-01   -2,022729069e-01    1,456784457e-01   -4,159907624e-02    0,000000000e+00    0,000000000e+00    0,000000000e+00    0,000000000e+00
     1486000000    6,324095279e-02   -3,656524122e-01    1,570572257e-01    1,967622526e-02    0,000000000e+00    0,000000000e+00    0,000000000e+00    0,000000000e+00
     1500000000   -1,647174358e-01   -4,925748706e-01    2,352920622e-01    7,692459971e-02    0,000000000e+00    0,000000000e+00    0,000000000e+00    0,000000000e+00
