! NanoVNA-App
! Date: 2025-09-25 15:41:04
! Start: 100MHz Stop: 1,5GHz Points: 101
! S-Parameter data: F S11 S21 S12 S22
# Hz S RI R 50
!     Frequency           S11_Real           S11_Imag           S21_Real           S21_Imag           S12_Real           S12_Imag           S22_Real           S22_Imag
      100000000   -2,871056646e-02   -4,245653283e-03    3,739074767e-01   -7,215148807e-01    0,000000000e+00    0,000000000e+00    0,000000000e+00    0,000000000e+00
      114000000   -1,647142135e-02    1,147946902e-02   -8,900538087e-02   -8,053795695e-01    0,000000000e+00    0,000000000e+00    0,000000000e+00    0,000000000e+00
      128000000    3,459392814e-03    1,069062762e-02   -5,145717263e-01   -6,203911901e-01    0,000000000e+00    0,000000000e+00    0,000000000e+00    0,000000000e+00
      142000000    1,467663050e-02   -2,627210459e-03   -7,668051124e-01   -2,364051342e-01    0,000000000e+00    0,000000000e+00    0,000000000e+00    0,000000000e+00
      156000000    1,637990400e-02   -1,409884449e-02   -7,698297501e-01    2,243831456e-01    0,000000000e+00    0,000000000e+00    0,000000000e+00    0,000000000e+00
      170000000    1,714044996e-02   -2,251723595e-02   -5,178682208e-01    6,044991612e-01    0,000000000e+00    0,000000000e+00    0,000000000e+00    0,000000000e+00
      184000000    2,139285952e-02   -3,719905391e-02   -1,015764624e-01    7,854936123e-01    0,000000000e+00    0,000000000e+00    0,000000000e+00    0,000000000e+00
      198000000    1,328717452e-02   -6,257477403e-02    3,430401981e-01    7,121824026e-01    0,000000000e+00    0,000000000e+00    0,000000000e+00    0,000000000e+00
      212000000   -1,837921329e-02   -8,132001013e-02    6,779196262e-01    4,098624587e-01    0,000000000e+00    0,000000000e+00    0,000000000e+00    0,000000000e+00
      226000000   -6,129333377e-02   -6,923120469e-02    7,952648997e-01   -3,053997830e-02    0,000000000e+00    0,000000000e+00    0,000000000e+00    0,000000000e+00
      240000000   -8,216665685e-02   -2,581384778e-02    6,454399824e-01   -4,668216109e-01    0,000000000e+00    0,000000000e+00    0,000000000e+00    0,000000000e+00
      254000000   -6,334925443e-02    1,692989282e-02    2,756189406e-01   -7,426722646e-01    0,000000000e+00    0,000000000e+00    0,000000000e+00    0,000000000e+00
      268000000   -2,399565093e-02    2,870292217e-02   -1,774989367e-01   -7,636031508e-01    0,000000000e+00    0,000000000e+00    0,000000000e+00    0,000000000e+00
      282000000    4,062843509e-03    1,208065078e-02   -5,614117980e-01   -5,355864167e-01    0,000000000e+00    0,000000000e+00    0,000000000e+00    0,000000000e+00
      296000000    9,899700060e-03   -7,624142803e-03   -7,592794299e-01   -1,396410614e-01    0,000000000e+00    0,000000000e+00    0,000000000e+00    0,000000000e+00
      310000000    1,153435092e-02   -1,604793034e-02   -7,109789252e-01    2,976966798e-01    0,000000000e+00    0,000000000e+00    0,000000000e+00    0,000000000e+00
      324000000    2,023600601e-02   -2,665048093e-02   -4,266084731e-01    6,374965310e-01    0,000000000e+00    0,000000000e+00    0,000000000e+00    0,000000000e+00
      338000000    2,557006665e-02   -5,225159228e-02   -1,110382099e-02    7,601611018e-01    0,000000000e+00    0,000000000e+00    0,000000000e+00    0,000000000e+00
      352000000    7,492272183e-03   -8,479876816e-02    4,061098099e-01    6,396016479e-01    0,000000000e+00    0,000000000e+00    0,000000000e+00    0,000000000e+00
      366000000   -3,429191187e-02   -9,542922676e-02    6,903351545e-01    3,111326694e-01    0,000000000e+00    0,000000000e+00    0,000000000e+00    0,000000000e+00
      380000000   -7,018252462e-02   -7,111685723e-02    7,472307086e-01   -1,254428923e-01    0,000000000e+00    0,000000000e+00    0,000000000e+00    0,000000000e+00
      394000000   -7,207699120e-02   -3,259304911e-02    5,461531878e-01   -5,220144391e-01    0,000000000e+00    0,000000000e+00    0,000000000e+00    0,000000000e+00
      408000000   -4,652237892e-02   -1,647407934e-02    1,615944505e-01   -7,323412895e-01    0,000000000e+00    0,000000000e+00    0,000000000e+00    0,000000000e+00
      422000000   -2,824334987e-02   -3,200059384e-02   -2,664707601e-01   -6,951451302e-01    0,000000000e+00    0,000000000e+00    0,000000000e+00    0,000000000e+00
      436000000   -4,061617702e-02   -5,204109848e-02   -6,033708453e-01   -4,319844544e-01    0,000000000e+00    0,000000000e+00    0,000000000e+00    0,000000000e+00
      450000000   -6,684586406e-02   -4,389915615e-02   -7,397800088e-01   -2,187813073e-02    0,000000000e+00    0,000000000e+00    0,000000000e+00    0,000000000e+00
      464000000   -7,293707132e-02   -1,180819049e-02   -6,179695725e-01    3,971951306e-01    0,000000000e+00    0,000000000e+00    0,000000000e+00    0,000000000e+00
      478000000   -4,723349214e-02    1,143023930e-02   -2,822253108e-01    6,675550938e-01    0,000000000e+00    0,000000000e+00    0,000000000e+00    0,000000000e+00
      492000000   -1,559231058e-02    5,675052758e-03    1,370439827e-01    7,003761530e-01    0,000000000e+00    0,000000000e+00    0,000000000e+00    0,000000000e+00
      506000000   -2,804372460e-03   -1,553221513e-02    4,985538721e-01    5,024436712e-01    0,000000000e+00    0,000000000e+00    0,000000000e+00    0,000000000e+00
      520000000   -4,861568566e-03   -3,147015348e-02    6,877152324e-01    1,421725750e-01    0,000000000e+00    0,000000000e+00    0,000000000e+00    0,000000000e+00
      534000000   -3,808023874e-03   -3,806367517e-02    6,425021887e-01   -2,618932128e-01    0,000000000e+00    0,000000000e+00    0,000000000e+00    0,000000000e+00
      548000000    6,443597842e-03   -5,391773954e-02    3,813691139e-01   -5,658302307e-01    0,000000000e+00    0,000000000e+00    0,000000000e+00    0,000000000e+00
      562000000    3,287914908e-03   -8,965826035e-02    2,909502480e-03   -6,711931825e-01    0,000000000e+00    0,000000000e+00    0,000000000e+00    0,000000000e+00
      576000000   -3,383072838e-02   -1,243852004e-01   -3,674758673e-01   -5,572059751e-01    0,000000000e+00    0,000000000e+00    0,000000000e+00    0,000000000e+00
      590000000   -9,578578174e-02   -1,229481697e-01   -6,211966872e-01   -2,652923465e-01    0,000000000e+00    0,000000000e+00    0,000000000e+00    0,000000000e+00
      604000000   -1,387962401e-01   -7,203017175e-02   -6,641401052e-01    1,370474398e-01    0,000000000e+00    0,000000000e+00    0,000000000e+00    0,000000000e+00
      618000000   -1,288883984e-01   -9,913247079e-03   -4,644117653e-01    4,924893379e-01    0,000000000e+00    0,000000000e+00    0,000000000e+00    0,000000000e+00
      632000000   -8,417597413e-02    1,627655141e-02   -1,011981815e-01    6,613998413e-01    0,000000000e+00    0,000000000e+00    0,000000000e+00    0,000000000e+00
      646000000   -5,212584138e-02   -1,684182498e-04    2,861067951e-01    5,937957764e-01    0,000000000e+00    0,000000000e+00    0,000000000e+00    0,000000000e+00
      660000000   -5,402342975e-02   -2,013437450e-02    5,642530322e-01    3,240101039e-01    0,000000000e+00    0,000000000e+00    0,000000000e+00    0,000000000e+00
      674000000   -7,016810030e-02   -1,663578488e-02    6,407405734e-01   -6,317289919e-02    0,000000000e+00    0,000000000e+00    0,000000000e+00    0,000000000e+00
      688000000   -6,741096824e-02    8,730316535e-03    4,706793427e-01   -4,236939847e-01    0,000000000e+00    0,000000000e+00    0,000000000e+00    0,000000000e+00
      702000000   -3,637569770e-02    2,639362589e-02    1,202197447e-01   -6,075422168e-01    0,000000000e+00    0,000000000e+00    0,000000000e+00    0,000000000e+00
      716000000    2,733236644e-03    1,610308141e-02   -2,593542039e-01   -5,451070070e-01    0,000000000e+00    0,000000000e+00    0,000000000e+00    0,000000000e+00
      730000000    3,673000634e-02   -1,324187964e-02   -5,216215849e-01   -2,710060179e-01    0,000000000e+00    0,000000000e+00    0,000000000e+00    0,000000000e+00
      744000000    6,333149970e-02   -6,543890387e-02   -5,601427555e-01    9,837286919e-02    0,000000000e+00    0,000000000e+00    0,000000000e+00    0,000000000e+00
      758000000    6,075765938e-02   -1,521408111e-01   -3,653368354e-01    4,000581205e-01    0,000000000e+00    0,000000000e+00    0,000000000e+00    0,000000000e+00
      772000000   -1,744415238e-02   -2,564093471e-01   -4,490791634e-02    5,089012384e-01    0,000000000e+00    0,000000000e+00    0,000000000e+00    0,000000000e+00
      786000000   -2,029239982e-01   -2,911684811e-01    2,594140768e-01    3,986248970e-01    0,000000000e+00    0,000000000e+00    0,000000000e+00    0,000000000e+00
      800000000   -4,069836140e-01   -1,265646964e-01    4,067192078e-01    1,186044440e-01    0,000000000e+00    0,000000000e+00    0,000000000e+00    0,000000000e+00
      814000000   -3,767448664e-01    2,014120519e-01    2,958455086e-01   -1,509144008e-01    0,000000000e+00    0,000000000e+00    0,000000000e+00    0,000000000e+00
      828000000   -6,180600077e-02    3,471150696e-01    8,230137080e-02   -1,899122000e-01    0,000000000e+00    0,000000000e+00    0,000000000e+00    0,000000000e+00
      842000000    2,118276805e-01    1,857129037e-01   -3,309189808e-03   -9,265172482e-02    0,000000000e+00    0,000000000e+00    0,000000000e+00    0,000000000e+00
      856000000    2,659635842e-01   -1,061452553e-01    3,592529148e-02   -3,666726872e-02    0,000000000e+00    0,000000000e+00    0,000000000e+00    0,000000000e+00
      870000000    8,228574693e-02   -3,516593874e-01    8,888160437e-02   -9,801405668e-02    0,000000000e+00    0,000000000e+00    0,000000000e+00    0,000000000e+00
      884000000   -2,676190734e-01   -3,562721610e-01    1,117987372e-02   -2,284101397e-01    0,000000000e+00    0,000000000e+00    0,000000000e+00    0,000000000e+00
      898000000   -4,569205344e-01   -1,374354400e-02   -2,154744565e-01   -2,101375312e-01    0,000000000e+00    0,000000000e+00    0,000000000e+00    0,000000000e+00
      912000000   -2,358198762e-01    2,787742019e-01   -3,315199018e-01    7,969750464e-02    0,000000000e+00    0,000000000e+00    0,000000000e+00    0,000000000e+00
      926000000    5,388127267e-02    2,623069584e-01   -2,116347998e-01    2,617441118e-01    0,000000000e+00    0,000000000e+00    0,000000000e+00    0,000000000e+00
      940000000    2,103290260e-01    8,582669497e-02   -3,033754043e-02    3,262449503e-01    0,000000000e+00    0,000000000e+00    0,000000000e+00    0,000000000e+00
      954000000    2,218975872e-01   -1,203383505e-01    1,326392740e-01    3,011607528e-01    0,000000000e+00    0,000000000e+00    0,000000000e+00    0,000000000e+00
      968000000    1,170383915e-01   -2,935791910e-01    2,682985365e-01    2,130883187e-01    0,000000000e+00    0,000000000e+00    0,000000000e+00    0,000000000e+00
      982000000   -7,918669283e-02   -3,847606480e-01    3,624354899e-01    6,195137650e-02    0,000000000e+00    0,000000000e+00    0,000000000e+00    0,000000000e+00
      996000000   -3,102782965e-01   -3,282231987e-01    3,626354039e-01   -1,438530385e-01    0,000000000e+00    0,000000000e+00    0,000000000e+00    0,000000000e+00
     1010000000   -4,565720558e-01   -1,183039621e-01    2,174081951e-01   -3,350543380e-01    0,000000000e+00    0,000000000e+00    0,000000000e+00    0,000000000e+00
     1024000000   -4,182367325e-01    1,408230513e-01   -3,185999393e-02   -3,845375180e-01    0,000000000e+00    0,000000000e+00    0,000000000e+00    0,000000000e+00
     1038000000   -2,249148637e-01    2,916620970e-01   -2,406140417e-01   -2,570230961e-01    0,000000000e+00    0,000000000e+00    0,000000000e+00    0,000000000e+00
     1052000000   -1,743088104e-02    2,789937258e-01   -3,086599708e-01   -4,720494151e-02    0,000000000e+00    0,000000000e+00    0,000000000e+00    0,000000000e+00
     1066000000    1,331613362e-01    1,706886441e-01   -2,527129352e-01    1,400669962e-01    0,000000000e+00    0,000000000e+00    0,000000000e+00    0,000000000e+00
     1080000000    1,940646619e-01    7,354590576e-03   -1,140749454e-01    2,543326318e-01    0,000000000e+00    0,000000000e+00    0,000000000e+00    0,000000000e+00
     1094000000    1,584292501e-01   -1,650422961e-01    6,044436619e-02    2,911812961e-01    0,000000000e+00    0,000000000e+00    0,000000000e+00    0,000000000e+00
     1108000000    1,690568589e-02   -2,995876670e-01    2,613352239e-01    2,332912385e-01    0,000000000e+00    0,000000000e+00    0,000000000e+00    0,000000000e+00
     1122000000   -2,176895589e-01   -2,816931307e-01    4,414983392e-01    2,565383352e-02    0,000000000e+00    0,000000000e+00    0,000000000e+00    0,000000000e+00
     1136000000   -3,281612098e-01   -3,198041022e-02    3,992027938e-01   -3,451265395e-01    0,000000000e+00    0,000000000e+00    0,000000000e+00    0,000000000e+00
     1150000000   -1,070279703e-01    1,417848319e-01    4,988669604e-02   -5,313496590e-01    0,000000000e+00    0,000000000e+00    0,000000000e+00    0,000000000e+00
     1164000000    8,807712048e-02   -1,717860065e-02   -2,535016835e-01   -4,039695859e-01    0,000000000e+00    0,000000000e+00    0,000000000e+00    0,000000000e+00
     1178000000    2,519379556e-02   -2,552734017e-01   -3,700399697e-01   -1,785745323e-01    0,000000000e+00    0,000000000e+00    0,000000000e+00    0,000000000e+00
     1192000000   -2,219263911e-01   -3,446801007e-01   -3,407273889e-01    4,291916639e-02    0,000000000e+00    0,000000000e+00    0,000000000e+00    0,000000000e+00
     1206000000   -4,770587981e-01   -1,810326129e-01   -1,884886622e-01    1,809821278e-01    0,000000000e+00    0,000000000e+00    0,000000000e+00    0,000000000e+00
     1220000000   -5,013663769e-01    1,432391405e-01   -8,025851101e-03    1,785280257e-01    0,000000000e+00    0,000000000e+00    0,000000000e+00    0,000000000e+00
     1234000000   -3,028488457e-01    3,392550945e-01    7,620475441e-02    7,545138150e-02    0,000000000e+00    0,000000000e+00    0,000000000e+00    0,000000000e+00
     1248000000   -6,080313027e-02    3,546718061e-01    6,923919916e-02    6,219243631e-03    0,000000000e+00    0,000000000e+00    0,000000000e+00    0,000000000e+00
     1262000000    1,117902547e-01    2,609059811e-01    3,273317590e-02   -2,397067472e-02    0,000000000e+00    0,000000000e+00    0,000000000e+00    0,000000000e+00
     1276000000    1,994414479e-01    1,015122756e-01    5,880689248e-03   -1,430892386e-02    0,000000000e+00    0,000000000e+00    0,000000000e+00    0,000000000e+00
     1290000000    2,202855945e-01   -6,495376676e-02    8,846568875e-03    2,447201684e-02    0,000000000e+00    0,000000000e+00    0,000000000e+00    0,000000000e+00
     1304000000    1,669068187e-01   -2,325976938e-01    6,894453615e-02    5,863027647e-02    0,000000000e+00    0,000000000e+00    0,000000000e+00    0,000000000e+00
     1318000000    2,625830658e-02   -3,603178561e-01    1,684334874e-01    1,983032934e-02    0,000000000e+00    0,000000000e+00    0,000000000e+00    0,000000000e+00
     1332000000   -1,540021747e-01   -3,946542740e-01    9,907113761e-02   -1,826546788e-01    0,000000000e+00    0,000000000e+00    0,000000000e+00    0,000000000e+00
     1346000000   -3,565655947e-01   -3,886612952e-01   -5,236852914e-02   -1,613778435e-02    0,000000000e+00    0,000000000e+00    0,000000000e+00    0,000000000e+00
     1360000000   -5,885551572e-01   -1,990771294e-01    5,676859990e-02    8,863515407e-02    0,000000000e+00    0,000000000e+00    0,000000000e+00    0,000000000e+00
     1374000000   -6,363883615e-01    1,024101973e-01    1,707232893e-01    4,760894924e-02    0,000000000e+00    0,000000000e+00    0,000000000e+00    0,000000000e+00
     1388000000   -4,749620259e-01    3,584048748e-01    2,147689462e-01   -1,512723695e-02    0,000000000e+00    0,000000000e+00    0,000000000e+00    0,000000000e+00
     1402000000   -2,465964407e-01    4,452237487e-01    2,176511884e-01   -8,425033838e-02    0,000000000e+00    0,000000000e+00    0,000000000e+00    0,000000000e+00
     1416000000   -4,068240523e-02    4,146471024e-01    1,961997449e-01   -1,016966701e-01    0,000000000e+00    0,000000000e+00    0,000000000e+00    0,000000000e+00
     1430000000    1,107262671e-01    3,033934534e-01    1,729790121e-01   -1,237787753e-01    0,000000000e+00    0,000000000e+00    0,000000000e+00    0,000000000e+00
     1444000000    2,032831907e-01    1,512959003e-01    1,706104577e-01   -1,030861363e-01    0,000000000e+00    0,000000000e+00    0,000000000e+00    0,000000000e+00
     1458000000    2,269336432e-01   -1,491068397e-02    1,491054744e-01   -9,748291969e-02    0,000000000e+00    0,000000000e+00    0,000000000e+00    0,000000000e+00
     1472000000    1,930364072e-01   -1,958442032e-01    1,423252076e-01   -5,217233300e-02    0,000000000e+00    0,000000000e+00    0,000000000e+00    0,000000000e+00
     1486000000    6,332927942e-02   -3,662025332e-01    1,533000320e-01    8,906274103e-03    0,000000000e+00    0,000000000e+00    0,000000000e+00    0,000000000e+00
     1500000000   -1,607763022e-01   -4,960248470e-01    2,416163236e-01    7,831831276e-02    0,000000000e+00    0,000000000e+00    0,000000000e+00    0,000000000e+00
