! NanoVNA-App
! Date: 2025-09-25 15:40:33
! Start: 100MHz Stop: 1,5GHz Points: 101
! S-Parameter data: F S11 S21 S12 S22
# Hz S RI R 50
!     Frequency           S11_Real           S11_Imag           S21_Real           S21_Imag           S12_Real           S12_Imag           S22_Real           S22_Imag
      100000000   -2,868388593e-02   -4,234152846e-03    3,738338053e-01   -7,214903831e-01    0,000000000e+00    0,000000000e+00    0,000000000e+00    0,000000000e+00
      114000000   -1,648915373e-02    1,144874841e-02   -8,916262537e-02   -8,051239848e-01    0,000000000e+00    0,000000000e+00    0,000000000e+00    0,000000000e+00
      128000000    3,411851125e-03    1,065473258e-02   -5,143307447e-01   -6,199852228e-01    0,000000000e+00    0,000000000e+00    0,000000000e+00    0,000000000e+00
      142000000    1,469750237e-02   -2,623653272e-03   -7,669067979e-01   -2,364063263e-01    0,000000000e+00    0,000000000e+00    0,000000000e+00    0,000000000e+00
      156000000    1,591148973e-02   -1,463535894e-02   -7,708970904e-01    2,217099667e-01    0,000000000e+00    0,000000000e+00    0,000000000e+00    0,000000000e+00
      170000000    1,724527031e-02   -2,246269956e-02   -5,177112818e-01    6,042960882e-01    0,000000000e+00    0,000000000e+00    0,000000000e+00    0,000000000e+00
      184000000    2,144912072e-02   -3,717486188e-02   -1,013569906e-01    7,856767178e-01    0,000000000e+00    0,000000000e+00    0,000000000e+00    0,000000000e+00
      198000000    1,330241375e-02   -6,257691234e-02    3,430210650e-01    7,116979361e-01    0,000000000e+00    0,000000000e+00    0,000000000e+00    0,000000000e+00
      212000000   -1,838696934e-02   -8,128190041e-02    6,776036024e-01    4,097419083e-01    0,000000000e+00    0,000000000e+00    0,000000000e+00    0,000000000e+00
      226000000   -6,128883734e-02   -6,923546642e-02    7,952780724e-01   -3,052361682e-02    0,000000000e+00    0,000000000e+00    0,000000000e+00    0,000000000e+00
      240000000   -8,215187490e-02   -2,584145591e-02    6,458885670e-01   -4,665849507e-01    0,000000000e+00    0,000000000e+00    0,000000000e+00    0,000000000e+00
      254000000   -6,326047331e-02    1,689021476e-02    2,758483887e-01   -7,426443696e-01    0,000000000e+00    0,000000000e+00    0,000000000e+00    0,000000000e+00
      268000000   -2,398430370e-02    2,872301266e-02   -1,781687140e-01   -7,638596892e-01    0,000000000e+00    0,000000000e+00    0,000000000e+00    0,000000000e+00
      282000000    4,065837711e-03    1,198329777e-02   -5,614151955e-01   -5,356290936e-01    0,000000000e+00    0,000000000e+00    0,000000000e+00    0,000000000e+00
      296000000    9,909314103e-03   -7,637950592e-03   -7,592529655e-01   -1,394692361e-01    0,000000000e+00    0,000000000e+00    0,000000000e+00    0,000000000e+00
      310000000    1,165504754e-02   -1,591781899e-02   -7,127596140e-01    2,982759476e-01    0,000000000e+00    0,000000000e+00    0,000000000e+00    0,000000000e+00
      324000000    2,028749138e-02   -2,656581812e-02   -4,270026982e-01    6,380770206e-01    0,000000000e+00    0,000000000e+00    0,000000000e+00    0,000000000e+00
      338000000    2,592014335e-02   -5,236048251e-02   -1,053756755e-02    7,603641748e-01    0,000000000e+00    0,000000000e+00    0,000000000e+00    0,000000000e+00
      352000000    7,523793261e-03   -8,496066928e-02    4,060276747e-01    6,385565996e-01    0,000000000e+00    0,000000000e+00    0,000000000e+00    0,000000000e+00
      366000000   -3,426626697e-02   -9,556145966e-02    6,903325915e-01    3,111075759e-01    0,000000000e+00    0,000000000e+00    0,000000000e+00    0,000000000e+00
      380000000   -7,029945403e-02   -7,105113566e-02    7,465656400e-01   -1,254667342e-01    0,000000000e+00    0,000000000e+00    0,000000000e+00    0,000000000e+00
      394000000   -7,226141542e-02   -3,253176063e-02    5,464141369e-01   -5,204036832e-01    0,000000000e+00    0,000000000e+00    0,000000000e+00    0,000000000e+00
      408000000   -4,629778862e-02   -1,642576605e-02    1,623806953e-01   -7,311717868e-01    0,000000000e+00    0,000000000e+00    0,000000000e+00    0,000000000e+00
      422000000   -2,835769020e-02   -3,221749142e-02   -2,676537037e-01   -6,943179369e-01    0,000000000e+00    0,000000000e+00    0,000000000e+00    0,000000000e+00
      436000000   -4,064226151e-02   -5,170704424e-02   -6,033224463e-01   -4,317559898e-01    0,000000000e+00    0,000000000e+00    0,000000000e+00    0,000000000e+00
      450000000   -6,733491272e-02   -4,357006028e-02   -7,398591042e-01   -2,194431052e-02    0,000000000e+00    0,000000000e+00    0,000000000e+00    0,000000000e+00
      464000000   -7,253751159e-02   -1,176598202e-02   -6,179734468e-01    3,963016272e-01    0,000000000e+00    0,000000000e+00    0,000000000e+00    0,000000000e+00
      478000000   -4,737484828e-02    1,129225828e-02   -2,826648355e-01    6,666603684e-01    0,000000000e+00    0,000000000e+00    0,000000000e+00    0,000000000e+00
      492000000   -1,592424139e-02    5,667287391e-03    1,370503753e-01    7,012383342e-01    0,000000000e+00    0,000000000e+00    0,000000000e+00    0,000000000e+00
      506000000   -2,856998704e-03   -1,581990719e-02    4,976948798e-01    5,026484132e-01    0,000000000e+00    0,000000000e+00    0,000000000e+00    0,000000000e+00
      520000000   -5,343583412e-03   -3,152123839e-02    6,882084608e-01    1,406463832e-01    0,000000000e+00    0,000000000e+00    0,000000000e+00    0,000000000e+00
      534000000   -3,474930301e-03   -3,794135898e-02    6,429494023e-01   -2,613110542e-01    0,000000000e+00    0,000000000e+00    0,000000000e+00    0,000000000e+00
      548000000    6,099191029e-03   -5,388286710e-02    3,813016713e-01   -5,661545992e-01    0,000000000e+00    0,000000000e+00    0,000000000e+00    0,000000000e+00
      562000000    3,487246344e-03   -8,918559551e-02    2,700695768e-03   -6,717494726e-01    0,000000000e+00    0,000000000e+00    0,000000000e+00    0,000000000e+00
      576000000   -3,393107653e-02   -1,244692579e-01   -3,675296009e-01   -5,574173331e-01    0,000000000e+00    0,000000000e+00    0,000000000e+00    0,000000000e+00
      590000000   -9,570693225e-02   -1,225001737e-01   -6,199749112e-01   -2,622842491e-01    0,000000000e+00    0,000000000e+00    0,000000000e+00    0,000000000e+00
      604000000   -1,386378258e-01   -7,241585106e-02   -6,639629006e-01    1,365894377e-01    0,000000000e+00    0,000000000e+00    0,000000000e+00    0,000000000e+00
      618000000   -1,295175105e-01   -9,876339696e-03   -4,649124444e-01    4,929053187e-01    0,000000000e+00    0,000000000e+00    0,000000000e+00    0,000000000e+00
      632000000   -8,388350159e-02    1,587021723e-02   -9,944371134e-02    6,623128653e-01    0,000000000e+00    0,000000000e+00    0,000000000e+00    0,000000000e+00
      646000000   -5,138586462e-02    8,244813653e-04    2,855792642e-01    5,943806171e-01    0,000000000e+00    0,000000000e+00    0,000000000e+00    0,000000000e+00
      660000000   -5,361279473e-02   -2,167574316e-02    5,650531650e-01    3,225876093e-01    0,000000000e+00    0,000000000e+00    0,000000000e+00    0,000000000e+00
      674000000   -6,909020245e-02   -1,665141247e-02    6,408078074e-01   -6,334926188e-02    0,000000000e+00    0,000000000e+00    0,000000000e+00    0,000000000e+00
      688000000   -6,733626872e-02    8,800793439e-03    4,708815217e-01   -4,242761135e-01    0,000000000e+00    0,000000000e+00    0,000000000e+00    0,000000000e+00
      702000000   -3,522419557e-02    2,644420229e-02    1,219292358e-01   -6,084080338e-01    0,000000000e+00    0,000000000e+00    0,000000000e+00    0,000000000e+00
      716000000    3,194594756e-03    1,664382964e-02   -2,587318420e-01   -5,449684262e-01    0,000000000e+00    0,000000000e+00    0,000000000e+00    0,000000000e+00
      730000000    3,751267865e-02   -1,386997569e-02   -5,215340853e-01   -2,707970440e-01    0,000000000e+00    0,000000000e+00    0,000000000e+00    0,000000000e+00
      744000000    6,282070279e-02   -6,478395313e-02   -5,598987937e-01    9,874615818e-02    0,000000000e+00    0,000000000e+00    0,000000000e+00    0,000000000e+00
      758000000    6,113463640e-02   -1,516755074e-01   -3,657096326e-01    4,001889527e-01    0,000000000e+00    0,000000000e+00    0,000000000e+00    0,000000000e+00
      772000000   -1,717182249e-02   -2,564461529e-01   -4,511799291e-02    5,086298585e-01    0,000000000e+00    0,000000000e+00    0,000000000e+00    0,000000000e+00
      786000000   -2,036263794e-01   -2,920518219e-01    2,600663304e-01    3,982366025e-01    0,000000000e+00    0,000000000e+00    0,000000000e+00    0,000000000e+00
      800000000   -4,079646170e-01   -1,257161498e-01    4,071357846e-01    1,184842810e-01    0,000000000e+00    0,000000000e+00    0,000000000e+00    0,000000000e+00
      814000000   -3,754380941e-01    2,014933676e-01    2,957545519e-01   -1,503046900e-01    0,000000000e+00    0,000000000e+00    0,000000000e+00    0,000000000e+00
      828000000   -6,205688044e-02    3,467563987e-01    8,293746412e-02   -1,899944246e-01    0,000000000e+00    0,000000000e+00    0,000000000e+00    0,000000000e+00
      842000000    2,115218639e-01    1,850817502e-01   -3,326493315e-03   -9,231588244e-02    0,000000000e+00    0,000000000e+00    0,000000000e+00    0,000000000e+00
      856000000    2,660599649e-01   -1,060242206e-01    3,694115952e-02   -3,652064502e-02    0,000000000e+00    0,000000000e+00    0,000000000e+00    0,000000000e+00
      870000000    8,157266676e-02   -3,514454663e-01    8,912467957e-02   -9,754265845e-02    0,000000000e+00    0,000000000e+00    0,000000000e+00    0,000000000e+00
      884000000   -2,680450082e-01   -3,557268977e-01    1,127531659e-02   -2,279714346e-01    0,000000000e+00    0,000000000e+00    0,000000000e+00    0,000000000e+00
      898000000   -4,574010670e-01   -1,403701864e-02   -2,154915035e-01   -2,099547237e-01    0,000000000e+00    0,000000000e+00    0,000000000e+00    0,000000000e+00
      912000000   -2,355531007e-01    2,792910337e-01   -3,244373202e-01    7,212417573e-02    0,000000000e+00    0,000000000e+00    0,000000000e+00    0,000000000e+00
      926000000    5,474237353e-02    2,604925632e-01   -2,085382491e-01    2,605203390e-01    0,000000000e+00    0,000000000e+00    0,000000000e+00    0,000000000e+00
      940000000    2,104831934e-01    8,447764069e-02   -3,121457435e-02    3,259673715e-01    0,000000000e+00    0,000000000e+00    0,000000000e+00    0,000000000e+00
      954000000    2,183151245e-01   -1,213477626e-01    1,316786259e-01    3,008536696e-01    0,000000000e+00    0,000000000e+00    0,000000000e+00    0,000000000e+00
      968000000    1,172684580e-01   -2,975647151e-01    2,687860727e-01    2,130322605e-01    0,000000000e+00    0,000000000e+00    0,000000000e+00    0,000000000e+00
      982000000   -7,416702062e-02   -3,859849870e-01    3,609403074e-01    6,245705485e-02    0,000000000e+00    0,000000000e+00    0,000000000e+00    0,000000000e+00
      996000000   -3,094486892e-01   -3,296210766e-01    3,630925715e-01   -1,440293491e-01    0,000000000e+00    0,000000000e+00    0,000000000e+00    0,000000000e+00
     1010000000   -4,584355354e-01   -1,131350100e-01    2,185819596e-01   -3,364030123e-01    0,000000000e+00    0,000000000e+00    0,000000000e+00    0,000000000e+00
     1024000000   -4,132804573e-01    1,417613178e-01   -3,036203794e-02   -3,844674230e-01    0,000000000e+00    0,000000000e+00    0,000000000e+00    0,000000000e+00
     1038000000   -2,201126814e-01    2,878648341e-01   -2,432230115e-01   -2,567895055e-01    0,000000000e+00    0,000000000e+00    0,000000000e+00    0,000000000e+00
     1052000000   -1,174206845e-02    2,822097838e-01   -3,100667894e-01   -4,592945799e-02    0,000000000e+00    0,000000000e+00    0,000000000e+00    0,000000000e+00
     1066000000    1,321140528e-01    1,656307727e-01   -2,529731095e-01    1,383371353e-01    0,000000000e+00    0,000000000e+00    0,000000000e+00    0,000000000e+00
     1080000000    1,911497116e-01    1,052283403e-02   -1,152836382e-01    2,540812194e-01    0,000000000e+00    0,000000000e+00    0,000000000e+00    0,000000000e+00
     1094000000    1,582936496e-01   -1,635700613e-01    6,107331812e-02    2,914165556e-01    0,000000000e+00    0,000000000e+00    0,000000000e+00    0,000000000e+00
     1108000000    1,927731186e-02   -2,925187051e-01    2,604813278e-01    2,335920930e-01    0,000000000e+00    0,000000000e+00    0,000000000e+00    0,000000000e+00
     1122000000   -2,125516832e-01   -2,870085835e-01    4,399589896e-01    2,429053187e-02    0,000000000e+00    0,000000000e+00    0,000000000e+00    0,000000000e+00
     1136000000   -3,189013004e-01   -2,795619145e-02    4,020057917e-01   -3,452798128e-01    0,000000000e+00    0,000000000e+00    0,000000000e+00    0,000000000e+00
     1150000000   -1,078626513e-01    1,381782144e-01    4,702874273e-02   -5,319620371e-01    0,000000000e+00    0,000000000e+00    0,000000000e+00    0,000000000e+00
     1164000000    8,503476530e-02   -2,092191949e-02   -2,514317930e-01   -4,033982456e-01    0,000000000e+00    0,000000000e+00    0,000000000e+00    0,000000000e+00
     1178000000    2,477850020e-02   -2,514180541e-01   -3,704704344e-01   -1,796079725e-01    0,000000000e+00    0,000000000e+00    0,000000000e+00    0,000000000e+00
     1192000000   -2,214678526e-01   -3,463511765e-01   -3,405043185e-01    4,103096947e-02    0,000000000e+00    0,000000000e+00    0,000000000e+00    0,000000000e+00
     1206000000   -4,790376723e-01   -1,783070415e-01   -1,892459542e-01    1,838392466e-01    0,000000000e+00    0,000000000e+00    0,000000000e+00    0,000000000e+00
     1220000000   -5,059019327e-01    1,403236240e-01   -9,603410028e-03    1,775366068e-01    0,000000000e+00    0,000000000e+00    0,000000000e+00    0,000000000e+00
     1234000000   -2,969485521e-01    3,419504762e-01    7,559247315e-02    7,924810797e-02    0,000000000e+00    0,000000000e+00    0,000000000e+00    0,000000000e+00
     1248000000   -5,850974843e-02    3,599869907e-01    6,644523144e-02    1,816456323e-03    0,000000000e+00    0,000000000e+00    0,000000000e+00    0,000000000e+00
     1262000000    1,098805144e-01    2,640276551e-01    3,073529527e-02   -2,095350809e-02    0,000000000e+00    0,000000000e+00    0,000000000e+00    0,000000000e+00
     1276000000    2,018194050e-01    1,106996983e-01    3,034796100e-03   -5,074857734e-03    0,000000000e+00    0,000000000e+00    0,000000000e+00    0,000000000e+00
     1290000000    2,225975543e-01   -6,302816421e-02    1,013198774e-02    2,593511157e-02    0,000000000e+00    0,000000000e+00    0,000000000e+00    0,000000000e+00
     1304000000    1,671216488e-01   -2,347125262e-01    6,354947388e-02    5,705290288e-02    0,000000000e+00    0,000000000e+00    0,000000000e+00    0,000000000e+00
     1318000000    2,396105789e-02   -3,633699715e-01    1,701529622e-01    1,574470103e-02    0,000000000e+00    0,000000000e+00    0,000000000e+00    0,000000000e+00
     1332000000   -1,474059522e-01   -4,007241130e-01    9,693776071e-02   -1,834162921e-01    0,000000000e+00    0,000000000e+00    0,000000000e+00    0,000000000e+00
     1346000000   -3,563128114e-01   -3,969034553e-01   -4,967207089e-02   -2,636449784e-02    0,000000000e+00    0,000000000e+00    0,000000000e+00    0,000000000e+00
     1360000000   -5,866541266e-01   -2,044836879e-01    5,907412618e-02    8,698098361e-02    0,000000000e+00    0,000000000e+00    0,000000000e+00    0,000000000e+00
     1374000000   -6,273497343e-01    1,076681837e-01    1,726125926e-01    5,407082289e-02    0,000000000e+00    0,000000000e+00    0,000000000e+00    0,000000000e+00
     1388000000   -4,713695049e-01    3,523906767e-01    2,112486809e-01   -1,817061566e-02    0,000000000e+00    0,000000000e+00    0,000000000e+00    0,000000000e+00
     1402000000   -2,486124337e-01    4,485396445e-01    2,102341801e-01   -7,405324280e-02    0,000000000e+00    0,000000000e+00    0,000000000e+00    0,000000000e+00
     1416000000   -3,475407138e-02    4,091381729e-01    2,037921995e-01   -1,011268198e-01    0,000000000e+00    0,000000000e+00    0,000000000e+00    0,000000000e+00
     1430000000    1,170943007e-01    3,037203252e-01    1,725797653e-01   -1,331676543e-01    0,000000000e+00    0,000000000e+00    0,000000000e+00    0,000000000e+00
     1444000000    1,986396760e-01    1,597397923e-01    1,660484523e-01   -1,154176518e-01    0,000000000e+00    0,000000000e+00    0,000000000e+00    0,000000000e+00
     1458000000    2,290090322e-01   -1,270269323e-02    1,399214864e-01   -8,620677888e-02    0,000000000e+00    0,000000000e+00    0,000000000e+00    0,000000000e+00
     1472000000    1,903037578e-01   -2,012994885e-01    1,454316676e-01   -5,434869602e-02    0,000000000e+00    0,000000000e+00    0,000000000e+00    0,000000000e+00
     1486000000    6,097341701e-02   -3,662594855e-01    1,537231356e-01    2,830571495e-02    0,000000000e+00    0,000000000e+00    0,000000000e+00    0,000000000e+00
     1500000000   -1,568031013e-01   -4,951310456e-01    2,339207232e-01    7,357255369e-02    0,000000000e+00    0,000000000e+00    0,000000000e+00    0,000000000e+00
