! NanoVNA-App
! Date: 2025-09-25 15:40:19
! Start: 100MHz Stop: 1,5GHz Points: 101
! S-Parameter data: F S11 S21 S12 S22
# Hz S RI R 50
!     Frequency           S11_Real           S11_Imag           S21_Real           S21_Imag           S12_Real           S12_Imag           S22_Real           S22_Imag
      100000000   -2,863047644e-02   -4,231887870e-03    3,738645911e-01   -7,214842439e-01    0,000000000e+00    0,000000000e+00    0,000000000e+00    0,000000000e+00
      114000000   -1,642388850e-02    1,148140710e-02   -8,927643299e-02   -8,052262664e-01    0,000000000e+00    0,000000000e+00    0,000000000e+00    0,000000000e+00
      128000000    3,538806690e-03    1,065348368e-02   -5,146047473e-01   -6,201855540e-01    0,000000000e+00    0,000000000e+00    0,000000000e+00    0,000000000e+00
      142000000    1,475288626e-02   -2,629665658e-03   -7,667426467e-01   -2,362627536e-01    0,000000000e+00    0,000000000e+00    0,000000000e+00    0,000000000e+00
      156000000    1,608264633e-02   -1,426556148e-02   -7,684925795e-01    2,236921340e-01    0,000000000e+00    0,000000000e+00    0,000000000e+00    0,000000000e+00
      170000000    1,724443585e-02   -2,248918265e-02   -5,179603696e-01    6,043648720e-01    0,000000000e+00    0,000000000e+00    0,000000000e+00    0,000000000e+00
      184000000    2,139390446e-02   -3,722320870e-02   -1,012541950e-01    7,856769562e-01    0,000000000e+00    0,000000000e+00    0,000000000e+00    0,000000000e+00
      198000000    1,333416905e-02   -6,253433973e-02    3,432573974e-01    7,119233012e-01    0,000000000e+00    0,000000000e+00    0,000000000e+00    0,000000000e+00
      212000000   -1,833519526e-02   -8,128787577e-02    6,779440045e-01    4,098190367e-01    0,000000000e+00    0,000000000e+00    0,000000000e+00    0,000000000e+00
      226000000   -6,122957170e-02   -6,926691532e-02    7,952741385e-01   -3,052781150e-02    0,000000000e+00    0,000000000e+00    0,000000000e+00    0,000000000e+00
      240000000   -8,213364333e-02   -2,583096363e-02    6,456813216e-01   -4,667499959e-01    0,000000000e+00    0,000000000e+00    0,000000000e+00    0,000000000e+00
      254000000   -6,321777403e-02    1,688076183e-02    2,758394480e-01   -7,426427007e-01    0,000000000e+00    0,000000000e+00    0,000000000e+00    0,000000000e+00
      268000000   -2,384978719e-02    2,869276144e-02   -1,775766462e-01   -7,638247609e-01    0,000000000e+00    0,000000000e+00    0,000000000e+00    0,000000000e+00
      282000000    4,173784517e-03    1,203168277e-02   -5,615693331e-01   -5,350620151e-01    0,000000000e+00    0,000000000e+00    0,000000000e+00    0,000000000e+00
      296000000    9,944961406e-03   -7,649559528e-03   -7,593238950e-01   -1,396412551e-01    0,000000000e+00    0,000000000e+00    0,000000000e+00    0,000000000e+00
      310000000    1,155327260e-02   -1,588698290e-02   -7,124183178e-01    2,990026474e-01    0,000000000e+00    0,000000000e+00    0,000000000e+00    0,000000000e+00
      324000000    2,006796002e-02   -2,688069269e-02   -4,268662632e-01    6,374230385e-01    0,000000000e+00    0,000000000e+00    0,000000000e+00    0,000000000e+00
      338000000    2,603505179e-02   -5,245140567e-02   -9,498737752e-03    7,616246939e-01    0,000000000e+00    0,000000000e+00    0,000000000e+00    0,000000000e+00
      352000000    7,405325305e-03   -8,497471362e-02    4,064831138e-01    6,399615407e-01    0,000000000e+00    0,000000000e+00    0,000000000e+00    0,000000000e+00
      366000000   -3,414699435e-02   -9,523116797e-02    6,905319691e-01    3,115049005e-01    0,000000000e+00    0,000000000e+00    0,000000000e+00    0,000000000e+00
      380000000   -7,038769126e-02   -7,125125825e-02    7,465618253e-01   -1,256394833e-01    0,000000000e+00    0,000000000e+00    0,000000000e+00    0,000000000e+00
      394000000   -7,213071734e-02   -3,258236125e-02    5,469037890e-01   -5,208127499e-01    0,000000000e+00    0,000000000e+00    0,000000000e+00    0,000000000e+00
      408000000   -4,636928439e-02   -1,647560857e-02    1,608724296e-01   -7,319331169e-01    0,000000000e+00    0,000000000e+00    0,000000000e+00    0,000000000e+00
      422000000   -2,845561504e-02   -3,231235966e-02   -2,679204941e-01   -6,951840520e-01    0,000000000e+00    0,000000000e+00    0,000000000e+00    0,000000000e+00
      436000000   -4,063742235e-02   -5,189862102e-02   -6,029470563e-01   -4,321451485e-01    0,000000000e+00    0,000000000e+00    0,000000000e+00    0,000000000e+00
      450000000   -6,677281111e-02   -4,376109317e-02   -7,393147945e-01   -2,186541446e-02    0,000000000e+00    0,000000000e+00    0,000000000e+00    0,000000000e+00
      464000000   -7,251181453e-02   -1,204487775e-02   -6,176988482e-01    3,965739906e-01    0,000000000e+00    0,000000000e+00    0,000000000e+00    0,000000000e+00
      478000000   -4,737257585e-02    1,131541096e-02   -2,827754915e-01    6,673466563e-01    0,000000000e+00    0,000000000e+00    0,000000000e+00    0,000000000e+00
      492000000   -1,577130891e-02    5,374331027e-03    1,370228529e-01    7,010973096e-01    0,000000000e+00    0,000000000e+00    0,000000000e+00    0,000000000e+00
      506000000   -2,591500757e-03   -1,582347415e-02    4,977903664e-01    5,024136901e-01    0,000000000e+00    0,000000000e+00    0,000000000e+00    0,000000000e+00
      520000000   -5,225529429e-03   -3,154085949e-02    6,867142320e-01    1,417081952e-01    0,000000000e+00    0,000000000e+00    0,000000000e+00    0,000000000e+00
      534000000   -3,375852248e-03   -3,821682557e-02    6,433050632e-01   -2,616306245e-01    0,000000000e+00    0,000000000e+00    0,000000000e+00    0,000000000e+00
      548000000    6,357826758e-03   -5,410591513e-02    3,809213340e-01   -5,660614967e-01    0,000000000e+00    0,000000000e+00    0,000000000e+00    0,000000000e+00
      562000000    3,460718784e-03   -8,968637884e-02    2,409155015e-03   -6,715114713e-01    0,000000000e+00    0,000000000e+00    0,000000000e+00    0,000000000e+00
      576000000   -3,421293944e-02   -1,241479591e-01   -3,678716123e-01   -5,572459698e-01    0,000000000e+00    0,000000000e+00    0,000000000e+00    0,000000000e+00
      590000000   -9,573875368e-02   -1,226770282e-01   -6,211518049e-01   -2,627398968e-01    0,000000000e+00    0,000000000e+00    0,000000000e+00    0,000000000e+00
      604000000   -1,384165585e-01   -7,245185226e-02   -6,633331180e-01    1,369283795e-01    0,000000000e+00    0,000000000e+00    0,000000000e+00    0,000000000e+00
      618000000   -1,293273419e-01   -1,056064852e-02   -4,643776417e-01    4,922611117e-01    0,000000000e+00    0,000000000e+00    0,000000000e+00    0,000000000e+00
      632000000   -8,399350941e-02    1,544048637e-02   -1,008488983e-01    6,616505980e-01    0,000000000e+00    0,000000000e+00    0,000000000e+00    0,000000000e+00
      646000000   -5,137323216e-02    4,889192060e-04    2,860370874e-01    5,931580663e-01    0,000000000e+00    0,000000000e+00    0,000000000e+00    0,000000000e+00
      660000000   -5,396649614e-02   -2,124375664e-02    5,644848943e-01    3,237429857e-01    0,000000000e+00    0,000000000e+00    0,000000000e+00    0,000000000e+00
      674000000   -6,999333203e-02   -1,610556059e-02    6,407336593e-01   -6,260830164e-02    0,000000000e+00    0,000000000e+00    0,000000000e+00    0,000000000e+00
      688000000   -6,650684029e-02    9,089210071e-03    4,706231654e-01   -4,239974618e-01    0,000000000e+00    0,000000000e+00    0,000000000e+00    0,000000000e+00
      702000000   -3,588164225e-02    2,579683438e-02    1,170435846e-01   -6,100489497e-01    0,000000000e+00    0,000000000e+00    0,000000000e+00    0,000000000e+00
      716000000    4,062384833e-03    1,572393067e-02   -2,594996989e-01   -5,443146229e-01    0,000000000e+00    0,000000000e+00    0,000000000e+00    0,000000000e+00
      730000000    3,731129691e-02   -1,409528684e-02   -5,220412612e-01   -2,708027065e-01    0,000000000e+00    0,000000000e+00    0,000000000e+00    0,000000000e+00
      744000000    6,311222911e-02   -6,496003270e-02   -5,605542064e-01    9,922297299e-02    0,000000000e+00    0,000000000e+00    0,000000000e+00    0,000000000e+00
      758000000    6,159688160e-02   -1,515737176e-01   -3,660124242e-01    3,995594084e-01    0,000000000e+00    0,000000000e+00    0,000000000e+00    0,000000000e+00
      772000000   -1,785012707e-02   -2,559683621e-01   -4,544373229e-02    5,084048510e-01    0,000000000e+00    0,000000000e+00    0,000000000e+00    0,000000000e+00
      786000000   -2,025326192e-01   -2,910650373e-01    2,594939470e-01    3,985002935e-01    0,000000000e+00    0,000000000e+00    0,000000000e+00    0,000000000e+00
      800000000   -4,070022106e-01   -1,264478117e-01    4,067024291e-01    1,178986579e-01    0,000000000e+00    0,000000000e+00    0,000000000e+00    0,000000000e+00
      814000000   -3,760922253e-01    2,029032111e-01    2,953811288e-01   -1,512635052e-01    0,000000000e+00    0,000000000e+00    0,000000000e+00    0,000000000e+00
      828000000   -6,257463247e-02    3,477868736e-01    8,192325383e-02   -1,896700561e-01    0,000000000e+00    0,000000000e+00    0,000000000e+00    0,000000000e+00
      842000000    2,115157545e-01    1,848057061e-01   -3,283378435e-03   -9,254588187e-02    0,000000000e+00    0,000000000e+00    0,000000000e+00    0,000000000e+00
      856000000    2,659247816e-01   -1,061363891e-01    3,665153310e-02   -3,642401844e-02    0,000000000e+00    0,000000000e+00    0,000000000e+00    0,000000000e+00
      870000000    8,231987059e-02   -3,520449102e-01    8,962015063e-02   -9,748199582e-02    0,000000000e+00    0,000000000e+00    0,000000000e+00    0,000000000e+00
      884000000   -2,666472793e-01   -3,543695807e-01    1,133046672e-02   -2,275177985e-01    0,000000000e+00    0,000000000e+00    0,000000000e+00    0,000000000e+00
      898000000   -4,572568834e-01   -1,350596361e-02   -2,147012055e-01   -2,103191018e-01    0,000000000e+00    0,000000000e+00    0,000000000e+00    0,000000000e+00
      912000000   -2,349072695e-01    2,783578336e-01   -3,437160552e-01    7,082699984e-02    0,000000000e+00    0,000000000e+00    0,000000000e+00    0,000000000e+00
      926000000    5,539693311e-02    2,611524761e-01   -2,129934579e-01    2,601493895e-01    0,000000000e+00    0,000000000e+00    0,000000000e+00    0,000000000e+00
      940000000    2,093404531e-01    8,233715594e-02   -3,253029659e-02    3,245027661e-01    0,000000000e+00    0,000000000e+00    0,000000000e+00    0,000000000e+00
      954000000    2,191220373e-01   -1,197936460e-01    1,320677847e-01    3,020446002e-01    0,000000000e+00    0,000000000e+00    0,000000000e+00    0,000000000e+00
      968000000    1,188373417e-01   -2,951287031e-01    2,672469020e-01    2,128833830e-01    0,000000000e+00    0,000000000e+00    0,000000000e+00    0,000000000e+00
      982000000   -7,845792174e-02   -3,823599219e-01    3,605292737e-01    6,262931973e-02    0,000000000e+00    0,000000000e+00    0,000000000e+00    0,000000000e+00
      996000000   -3,132040799e-01   -3,301199079e-01    3,633452058e-01   -1,427614242e-01    0,000000000e+00    0,000000000e+00    0,000000000e+00    0,000000000e+00
     1010000000   -4,635950625e-01   -1,192674041e-01    2,193744034e-01   -3,360338509e-01    0,000000000e+00    0,000000000e+00    0,000000000e+00    0,000000000e+00
     1024000000   -4,152027071e-01    1,482393593e-01   -3,145236149e-02   -3,849843740e-01    0,000000000e+00    0,000000000e+00    0,000000000e+00    0,000000000e+00
     1038000000   -2,267804593e-01    2,907209396e-01   -2,421550900e-01   -2,579034865e-01    0,000000000e+00    0,000000000e+00    0,000000000e+00    0,000000000e+00
     1052000000   -1,606906019e-02    2,793042958e-01   -3,113716841e-01   -4,795894399e-02    0,000000000e+00    0,000000000e+00    0,000000000e+00    0,000000000e+00
     1066000000    1,319620013e-01    1,717068553e-01   -2,501067817e-01    1,352427751e-01    0,000000000e+00    0,000000000e+00    0,000000000e+00    0,000000000e+00
     1080000000    1,952714026e-01    7,579876110e-03   -1,166043803e-01    2,541399300e-01    0,000000000e+00    0,000000000e+00    0,000000000e+00    0,000000000e+00
     1094000000    1,615956575e-01   -1,611888409e-01    6,016565114e-02    2,938144207e-01    0,000000000e+00    0,000000000e+00    0,000000000e+00    0,000000000e+00
     1108000000    1,560699940e-02   -2,961212695e-01    2,627215981e-01    2,320702225e-01    0,000000000e+00    0,000000000e+00    0,000000000e+00    0,000000000e+00
     1122000000   -2,098834664e-01   -2,825406194e-01    4,400613010e-01    2,050376125e-02    0,000000000e+00    0,000000000e+00    0,000000000e+00    0,000000000e+00
     1136000000   -3,269670308e-01   -3,266778961e-02    4,006572664e-01   -3,446697593e-01    0,000000000e+00    0,000000000e+00    0,000000000e+00    0,000000000e+00
     1150000000   -1,081128344e-01    1,407079250e-01    4,746370763e-02   -5,296950936e-01    0,000000000e+00    0,000000000e+00    0,000000000e+00    0,000000000e+00
     1164000000    8,090230078e-02   -1,768088713e-02   -2,524967194e-01   -4,049746692e-01    0,000000000e+00    0,000000000e+00    0,000000000e+00    0,000000000e+00
     1178000000    2,949279360e-02   -2,506923676e-01   -3,672212958e-01   -1,777612716e-01    0,000000000e+00    0,000000000e+00    0,000000000e+00    0,000000000e+00
     1192000000   -2,215550244e-01   -3,506411016e-01   -3,395518064e-01    4,016884416e-02    0,000000000e+00    0,000000000e+00    0,000000000e+00    0,000000000e+00
     1206000000   -4,779252708e-01   -1,805577427e-01   -1,881915927e-01    1,834684759e-01    0,000000000e+00    0,000000000e+00    0,000000000e+00    0,000000000e+00
     1220000000   -5,029149055e-01    1,320895553e-01   -9,294070303e-03    1,789858788e-01    0,000000000e+00    0,000000000e+00    0,000000000e+00    0,000000000e+00
     1234000000   -2,999787927e-01    3,480313718e-01    7,414855063e-02    7,941467315e-02    0,000000000e+00    0,000000000e+00    0,000000000e+00    0,000000000e+00
     1248000000   -5,518299341e-02    3,567990065e-01    6,839921325e-02   -3,265565727e-03    0,000000000e+00    0,000000000e+00    0,000000000e+00    0,000000000e+00
     1262000000    1,029058322e-01    2,587948143e-01    2,925967239e-02   -2,611580491e-02    0,000000000e+00    0,000000000e+00    0,000000000e+00    0,000000000e+00
     1276000000    2,003014088e-01    1,059108973e-01    5,124097224e-03   -7,927870378e-03    0,000000000e+00    0,000000000e+00    0,000000000e+00    0,000000000e+00
     1290000000    2,210372388e-01   -6,524326652e-02    8,689476177e-03    2,166932076e-02    0,000000000e+00    0,000000000e+00    0,000000000e+00    0,000000000e+00
     1304000000    1,677072495e-01   -2,326072901e-01    6,457141042e-02    6,000358239e-02    0,000000000e+00    0,000000000e+00    0,000000000e+00    0,000000000e+00
     1318000000    2,458567172e-02   -3,611391783e-01    1,747568697e-01    2,197919600e-02    0,000000000e+00    0,000000000e+00    0,000000000e+00    0,000000000e+00
     1332000000   -1,509745717e-01   -3,993597031e-01    1,032276973e-01   -1,757076383e-01    0,000000000e+00    0,000000000e+00    0,000000000e+00    0,000000000e+00
     1346000000   -3,612959981e-01   -3,964397609e-01   -5,516696721e-02   -2,331711166e-02    0,000000000e+00    0,000000000e+00    0,000000000e+00    0,000000000e+00
     1360000000   -5,779755712e-01   -2,025129497e-01    6,811975688e-02    8,904203027e-02    0,000000000e+00    0,000000000e+00    0,000000000e+00    0,000000000e+00
     1374000000   -6,347609758e-01    1,081960574e-01    1,786474735e-01    5,953187495e-02    0,000000000e+00    0,000000000e+00    0,000000000e+00    0,000000000e+00
     1388000000   -4,750228524e-01    3,491667211e-01    2,201483697e-01   -2,964380197e-02    0,000000000e+00    0,000000000e+00    0,000000000e+00    0,000000000e+00
     1402000000   -2,415921837e-01    4,439602792e-01    2,186054438e-01   -7,048625499e-02    0,000000000e+00    0,000000000e+00    0,000000000e+00    0,000000000e+00
     1416000000   -3,982349858e-02    4,067411423e-01    1,956254393e-01   -1,160049587e-01    0,000000000e+00    0,000000000e+00    0,000000000e+00    0,000000000e+00
     1430000000    1,069267318e-01    3,035459220e-01    1,948989034e-01   -9,857757390e-02    0,000000000e+00    0,000000000e+00    0,000000000e+00    0,000000000e+00
     1444000000    2,011088282e-01    1,557943523e-01    1,654202938e-01   -1,043603346e-01    0,000000000e+00    0,000000000e+00    0,000000000e+00    0,000000000e+00
     1458000000    2,312352210e-01   -1,091771573e-02    1,445174068e-01   -7,932771742e-02    0,000000000e+00    0,000000000e+00    0,000000000e+00    0,000000000e+00
     1472000000    1,850488186e-01   -1,915734410e-01    1,313718408e-01   -4,898669198e-02    0,000000000e+00    0,000000000e+00    0,000000000e+00    0,000000000e+00
     1486000000    7,130391896e-02   -3,706850111e-01    1,675000638e-01    1,165990997e-02    0,000000000e+00    0,000000000e+00    0,000000000e+00    0,000000000e+00
     1500000000   -1,649173498e-01   -4,921121001e-01    2,304697186e-01    7,508773357e-02    0,000000000e+00    0,000000000e+00    0,000000000e+00    0,000000000e+00
