! NanoVNA-App
! Date: 2025-09-25 15:43:15
! Start: 100MHz Stop: 1,5GHz Points: 101
! S-Parameter data: F S11 S21 S12 S22
# Hz S RI R 50
!     Frequency           S11_Real           S11_Imag           S21_Real           S21_Imag           S12_Real           S12_Imag           S22_Real           S22_Imag
      100000000   -2,879250795e-02   -4,258067813e-03    3,739602566e-01   -7,216362357e-01    0,000000000e+00    0,000000000e+00    0,000000000e+00    0,000000000e+00
      114000000   -1,656296663e-02    1,150245033e-02   -8,919479698e-02   -8,052919507e-01    0,000000000e+00    0,000000000e+00    0,000000000e+00    0,000000000e+00
      128000000    3,346447600e-03    1,075706724e-02   -5,144655704e-01   -6,202980280e-01    0,000000000e+00    0,000000000e+00    0,000000000e+00    0,000000000e+00
      142000000    1,461103279e-02   -2,643459942e-03   -7,670338154e-01   -2,364743352e-01    0,000000000e+00    0,000000000e+00    0,000000000e+00    0,000000000e+00
      156000000    1,550400350e-02   -1,437076274e-02   -7,672609687e-01    2,226525694e-01    0,000000000e+00    0,000000000e+00    0,000000000e+00    0,000000000e+00
      170000000    1,707360335e-02   -2,241411805e-02   -5,178743601e-01    6,044204235e-01    0,000000000e+00    0,000000000e+00    0,000000000e+00    0,000000000e+00
      184000000    2,133000642e-02   -3,717634454e-02   -1,013515145e-01    7,857717276e-01    0,000000000e+00    0,000000000e+00    0,000000000e+00    0,000000000e+00
      198000000    1,317302231e-02   -6,249576434e-02    3,431587517e-01    7,121277452e-01    0,000000000e+00    0,000000000e+00    0,000000000e+00    0,000000000e+00
      212000000   -1,843690313e-02   -8,125650883e-02    6,779223084e-01    4,098959565e-01    0,000000000e+00    0,000000000e+00    0,000000000e+00    0,000000000e+00
      226000000   -6,137255207e-02   -6,925866008e-02    7,954452038e-01   -3,042334691e-02    0,000000000e+00    0,000000000e+00    0,000000000e+00    0,000000000e+00
      240000000   -8,229123056e-02   -2,581287920e-02    6,458845139e-01   -4,666253626e-01    0,000000000e+00    0,000000000e+00    0,000000000e+00    0,000000000e+00
      254000000   -6,347114593e-02    1,700861566e-02    2,760082483e-01   -7,433217168e-01    0,000000000e+00    0,000000000e+00    0,000000000e+00    0,000000000e+00
      268000000   -2,399038151e-02    2,873837575e-02   -1,781223416e-01   -7,638487220e-01    0,000000000e+00    0,000000000e+00    0,000000000e+00    0,000000000e+00
      282000000    4,082259256e-03    1,204678603e-02   -5,615876317e-01   -5,353391171e-01    0,000000000e+00    0,000000000e+00    0,000000000e+00    0,000000000e+00
      296000000    9,705959819e-03   -7,564128377e-03   -7,592561841e-01   -1,396460682e-01    0,000000000e+00    0,000000000e+00    0,000000000e+00    0,000000000e+00
      310000000    1,157171931e-02   -1,609153301e-02   -7,126697898e-01    2,982318103e-01    0,000000000e+00    0,000000000e+00    0,000000000e+00    0,000000000e+00
      324000000    2,016610838e-02   -2,663099580e-02   -4,270836115e-01    6,373263597e-01    0,000000000e+00    0,000000000e+00    0,000000000e+00    0,000000000e+00
      338000000    2,571647055e-02   -5,198501796e-02   -9,235382080e-03    7,594259977e-01    0,000000000e+00    0,000000000e+00    0,000000000e+00    0,000000000e+00
      352000000    7,476628758e-03   -8,458579332e-02    4,056897461e-01    6,394507289e-01    0,000000000e+00    0,000000000e+00    0,000000000e+00    0,000000000e+00
      366000000   -3,432394564e-02   -9,536194801e-02    6,904488802e-01    3,107237220e-01    0,000000000e+00    0,000000000e+00    0,000000000e+00    0,000000000e+00
      380000000   -7,029751688e-02   -7,120364904e-02    7,472707629e-01   -1,258886158e-01    0,000000000e+00    0,000000000e+00    0,000000000e+00    0,000000000e+00
      394000000   -7,238376886e-02   -3,240948543e-02    5,464407206e-01   -5,217095613e-01    0,000000000e+00    0,000000000e+00    0,000000000e+00    0,000000000e+00
      408000000   -4,634406418e-02   -1,645919681e-02    1,620804071e-01   -7,315977812e-01    0,000000000e+00    0,000000000e+00    0,000000000e+00    0,000000000e+00
      422000000   -2,816433087e-02   -3,203571215e-02   -2,668042481e-01   -6,946884990e-01    0,000000000e+00    0,000000000e+00    0,000000000e+00    0,000000000e+00
      436000000   -4,068204015e-02   -5,164785311e-02   -6,032673120e-01   -4,314552844e-01    0,000000000e+00    0,000000000e+00    0,000000000e+00    0,000000000e+00
      450000000   -6,734953821e-02   -4,367363825e-02   -7,401490211e-01   -2,137153223e-02    0,000000000e+00    0,000000000e+00    0,000000000e+00    0,000000000e+00
      464000000   -7,345047593e-02   -1,198258344e-02   -6,179685593e-01    3,965338767e-01    0,000000000e+00    0,000000000e+00    0,000000000e+00    0,000000000e+00
      478000000   -4,773307592e-02    1,128344238e-02   -2,829179466e-01    6,671175361e-01    0,000000000e+00    0,000000000e+00    0,000000000e+00    0,000000000e+00
      492000000   -1,586673222e-02    5,723749287e-03    1,369711906e-01    7,013698220e-01    0,000000000e+00    0,000000000e+00    0,000000000e+00    0,000000000e+00
      506000000   -2,717068186e-03   -1,568893716e-02    4,973956048e-01    5,027259588e-01    0,000000000e+00    0,000000000e+00    0,000000000e+00    0,000000000e+00
      520000000   -4,955348093e-03   -3,095811978e-02    6,871569753e-01    1,415859461e-01    0,000000000e+00    0,000000000e+00    0,000000000e+00    0,000000000e+00
      534000000   -3,561170306e-03   -3,863498569e-02    6,427556872e-01   -2,617323995e-01    0,000000000e+00    0,000000000e+00    0,000000000e+00    0,000000000e+00
      548000000    6,221216172e-03   -5,374490470e-02    3,812284768e-01   -5,660715699e-01    0,000000000e+00    0,000000000e+00    0,000000000e+00    0,000000000e+00
      562000000    3,660832299e-03   -8,950839192e-02    2,882662695e-03   -6,709552407e-01    0,000000000e+00    0,000000000e+00    0,000000000e+00    0,000000000e+00
      576000000   -3,391607106e-02   -1,247251928e-01   -3,688281476e-01   -5,572720766e-01    0,000000000e+00    0,000000000e+00    0,000000000e+00    0,000000000e+00
      590000000   -9,582588822e-02   -1,225390136e-01   -6,179929972e-01   -2,649535239e-01    0,000000000e+00    0,000000000e+00    0,000000000e+00    0,000000000e+00
      604000000   -1,387010515e-01   -7,222896814e-02   -6,635286212e-01    1,369384229e-01    0,000000000e+00    0,000000000e+00    0,000000000e+00    0,000000000e+00
      618000000   -1,292601228e-01   -9,432819672e-03   -4,641316235e-01    4,930660427e-01    0,000000000e+00    0,000000000e+00    0,000000000e+00    0,000000000e+00
      632000000   -8,505412936e-02    1,623007841e-02   -1,002664343e-01    6,615827084e-01    0,000000000e+00    0,000000000e+00    0,000000000e+00    0,000000000e+00
      646000000   -5,157709867e-02    1,135878498e-03    2,849760652e-01    5,940841436e-01    0,000000000e+00    0,000000000e+00    0,000000000e+00    0,000000000e+00
      660000000   -5,340644345e-02   -2,090563625e-02    5,647220016e-01    3,237745166e-01    0,000000000e+00    0,000000000e+00    0,000000000e+00    0,000000000e+00
      674000000   -6,912969798e-02   -1,675956696e-02    6,407300830e-01   -6,314470619e-02    0,000000000e+00    0,000000000e+00    0,000000000e+00    0,000000000e+00
      688000000   -6,639137864e-02    9,228831157e-03    4,708894193e-01   -4,244195223e-01    0,000000000e+00    0,000000000e+00    0,000000000e+00    0,000000000e+00
      702000000   -3,515533358e-02    2,607722394e-02    1,197551265e-01   -6,064407229e-01    0,000000000e+00    0,000000000e+00    0,000000000e+00    0,000000000e+00
      716000000    3,734680125e-03    1,537471730e-02   -2,595553100e-01   -5,449616909e-01    0,000000000e+00    0,000000000e+00    0,000000000e+00    0,000000000e+00
      730000000    3,739267960e-02   -1,370560750e-02   -5,219568014e-01   -2,709106505e-01    0,000000000e+00    0,000000000e+00    0,000000000e+00    0,000000000e+00
      744000000    6,233064458e-02   -6,570087373e-02   -5,604840517e-01    9,882241488e-02    0,000000000e+00    0,000000000e+00    0,000000000e+00    0,000000000e+00
      758000000    6,087277830e-02   -1,521391422e-01   -3,666076958e-01    4,008777738e-01    0,000000000e+00    0,000000000e+00    0,000000000e+00    0,000000000e+00
      772000000   -1,768145338e-02   -2,556160986e-01   -4,590638354e-02    5,088743567e-01    0,000000000e+00    0,000000000e+00    0,000000000e+00    0,000000000e+00
      786000000   -2,021415234e-01   -2,908185124e-01    2,592282593e-01    3,985556364e-01    0,000000000e+00    0,000000000e+00    0,000000000e+00    0,000000000e+00
      800000000   -4,082525373e-01   -1,263703108e-01    4,072462022e-01    1,183817238e-01    0,000000000e+00    0,000000000e+00    0,000000000e+00    0,000000000e+00
      814000000   -3,773093224e-01    2,018835992e-01    2,968915105e-01   -1,510342062e-01    0,000000000e+00    0,000000000e+00    0,000000000e+00    0,000000000e+00
      828000000   -6,195728108e-02    3,474942148e-01    8,243381977e-02   -1,906618774e-01    0,000000000e+00    0,000000000e+00    0,000000000e+00    0,000000000e+00
      842000000    2,114841640e-01    1,856572181e-01   -3,467485541e-03   -9,324624389e-02    0,000000000e+00    0,000000000e+00    0,000000000e+00    0,000000000e+00
      856000000    2,663595974e-01   -1,058158353e-01    3,603472933e-02   -3,709099814e-02    0,000000000e+00    0,000000000e+00    0,000000000e+00    0,000000000e+00
      870000000    8,264891058e-02   -3,517625332e-01    8,838197589e-02   -9,759818017e-02    0,000000000e+00    0,000000000e+00    0,000000000e+00    0,000000000e+00
      884000000   -2,678705156e-01   -3,552846014e-01    1,184645202e-02   -2,271999270e-01    0,000000000e+00    0,000000000e+00    0,000000000e+00    0,000000000e+00
      898000000   -4,584613144e-01   -1,375112776e-02   -2,157363445e-01   -2,095337659e-01    0,000000000e+00    0,000000000e+00    0,000000000e+00    0,000000000e+00
      912000000   -2,354398519e-01    2,781273723e-01   -3,256422877e-01    7,091844082e-02    0,000000000e+00    0,000000000e+00    0,000000000e+00    0,000000000e+00
      926000000    5,627574772e-02    2,613058984e-01   -2,091550678e-01    2,635529339e-01    0,000000000e+00    0,000000000e+00    0,000000000e+00    0,000000000e+00
      940000000    2,098283768e-01    8,585970849e-02   -3,182381019e-02    3,257730603e-01    0,000000000e+00    0,000000000e+00    0,000000000e+00    0,000000000e+00
      954000000    2,188190669e-01   -1,196311861e-01    1,318342239e-01    3,003987670e-01    0,000000000e+00    0,000000000e+00    0,000000000e+00    0,000000000e+00
      968000000    1,184602901e-01   -2,935015857e-01    2,682501674e-01    2,151181251e-01    0,000000000e+00    0,000000000e+00    0,000000000e+00    0,000000000e+00
      982000000   -7,722492516e-02   -3,865930140e-01    3,608362675e-01    6,202927232e-02    0,000000000e+00    0,000000000e+00    0,000000000e+00    0,000000000e+00
      996000000   -3,093901277e-01   -3,314494193e-01    3,617836833e-01   -1,428219825e-01    0,000000000e+00    0,000000000e+00    0,000000000e+00    0,000000000e+00
     1010000000   -4,629624486e-01   -1,183471009e-01    2,197083980e-01   -3,351513445e-01    0,000000000e+00    0,000000000e+00    0,000000000e+00    0,000000000e+00
     1024000000   -4,165025055e-01    1,474386156e-01   -3,333842009e-02   -3,873639703e-01    0,000000000e+00    0,000000000e+00    0,000000000e+00    0,000000000e+00
     1038000000   -2,251829654e-01    2,905201614e-01   -2,398838848e-01   -2,562608719e-01    0,000000000e+00    0,000000000e+00    0,000000000e+00    0,000000000e+00
     1052000000   -1,518997829e-02    2,825099528e-01   -3,092600703e-01   -4,680709168e-02    0,000000000e+00    0,000000000e+00    0,000000000e+00    0,000000000e+00
     1066000000    1,310360432e-01    1,664381176e-01   -2,492600083e-01    1,393156946e-01    0,000000000e+00    0,000000000e+00    0,000000000e+00    0,000000000e+00
     1080000000    1,930987835e-01    6,634965073e-03   -1,161168665e-01    2,547185719e-01    0,000000000e+00    0,000000000e+00    0,000000000e+00    0,000000000e+00
     1094000000    1,576632559e-01   -1,621113867e-01    6,093757972e-02    2,907618880e-01    0,000000000e+00    0,000000000e+00    0,000000000e+00    0,000000000e+00
     1108000000    2,101288922e-02   -2,942337692e-01    2,572613955e-01    2,314602584e-01    0,000000000e+00    0,000000000e+00    0,000000000e+00    0,000000000e+00
     1122000000   -2,125632763e-01   -2,857224941e-01    4,405812323e-01    2,507592365e-02    0,000000000e+00    0,000000000e+00    0,000000000e+00    0,000000000e+00
     1136000000   -3,228721321e-01   -3,223760054e-02    3,995954096e-01   -3,426733613e-01    0,000000000e+00    0,000000000e+00    0,000000000e+00    0,000000000e+00
     1150000000   -1,088421866e-01    1,414323449e-01    4,682853818e-02   -5,319491029e-01    0,000000000e+00    0,000000000e+00    0,000000000e+00    0,000000000e+00
     1164000000    8,063241839e-02   -1,775117032e-02   -2,513719499e-01   -4,051749408e-01    0,000000000e+00    0,000000000e+00    0,000000000e+00    0,000000000e+00
     1178000000    2,779109590e-02   -2,492864728e-01   -3,732362390e-01   -1,788479835e-01    0,000000000e+00    0,000000000e+00    0,000000000e+00    0,000000000e+00
     1192000000   -2,209021449e-01   -3,434655666e-01   -3,422644734e-01    4,551796988e-02    0,000000000e+00    0,000000000e+00    0,000000000e+00    0,000000000e+00
     1206000000   -4,771465659e-01   -1,820463836e-01   -1,885515004e-01    1,807787865e-01    0,000000000e+00    0,000000000e+00    0,000000000e+00    0,000000000e+00
     1220000000   -5,056732893e-01    1,365621686e-01   -9,061539546e-03    1,745164990e-01    0,000000000e+00    0,000000000e+00    0,000000000e+00    0,000000000e+00
     1234000000   -2,965750992e-01    3,476277292e-01    7,513798028e-02    8,060854673e-02    0,000000000e+00    0,000000000e+00    0,000000000e+00    0,000000000e+00
     1248000000   -6,447143853e-02    3,523696065e-01    6,741501391e-02   -1,819334342e-03    0,000000000e+00    0,000000000e+00    0,000000000e+00    0,000000000e+00
     1262000000    1,083770469e-01    2,589781880e-01    2,847918868e-02   -2,661719546e-02    0,000000000e+00    0,000000000e+00    0,000000000e+00    0,000000000e+00
     1276000000    2,028361261e-01    1,036541089e-01    5,338775925e-03   -9,584611282e-03    0,000000000e+00    0,000000000e+00    0,000000000e+00    0,000000000e+00
     1290000000    2,168708146e-01   -6,147368625e-02    1,037345082e-02    2,683078498e-02    0,000000000e+00    0,000000000e+00    0,000000000e+00    0,000000000e+00
     1304000000    1,618342102e-01   -2,333752066e-01    5,939330906e-02    5,859501287e-02    0,000000000e+00    0,000000000e+00    0,000000000e+00    0,000000000e+00
     1318000000    2,465961501e-02   -3,636019826e-01    1,696821451e-01    2,211971581e-02    0,000000000e+00    0,000000000e+00    0,000000000e+00    0,000000000e+00
     1332000000   -1,514270604e-01   -3,947523832e-01    9,243326634e-02   -1,809891909e-01    0,000000000e+00    0,000000000e+00    0,000000000e+00    0,000000000e+00
     1346000000   -3,580251634e-01   -3,937361836e-01   -6,071675569e-02   -2,751092054e-02    0,000000000e+00    0,000000000e+00    0,000000000e+00    0,000000000e+00
     1360000000   -5,797216296e-01   -2,047386765e-01    6,982748210e-02    8,589322120e-02    0,000000000e+00    0,000000000e+00    0,000000000e+00    0,000000000e+00
     1374000000   -6,276761889e-01    9,763630480e-02    1,802040637e-01    4,299013689e-02    0,000000000e+00    0,000000000e+00    0,000000000e+00    0,000000000e+00
     1388000000   -4,704430103e-01    3,493158221e-01    2,296747118e-01   -2,784917131e-02    0,000000000e+00    0,000000000e+00    0,000000000e+00    0,000000000e+00
     1402000000   -2,389320582e-01    4,442752004e-01    2,128227353e-01   -7,590094954e-02    0,000000000e+00    0,000000000e+00    0,000000000e+00    0,000000000e+00
     1416000000   -4,104658216e-02    4,089974463e-01    1,973667890e-01   -1,073676050e-01    0,000000000e+00    0,000000000e+00    0,000000000e+00    0,000000000e+00
     1430000000    1,073500365e-01    3,067465425e-01    1,847591251e-01   -1,118751243e-01    0,000000000e+00    0,000000000e+00    0,000000000e+00    0,000000000e+00
     1444000000    2,000963092e-01    1,646256000e-01    1,628343761e-01   -9,883490950e-02    0,000000000e+00    0,000000000e+00    0,000000000e+00    0,000000000e+00
     1458000000    2,321853340e-01   -1,231200527e-02    1,520974487e-01   -9,577332437e-02    0,000000000e+00    0,000000000e+00    0,000000000e+00    0,000000000e+00
     1472000000    1,931467056e-01   -1,909037381e-01    1,453526318e-01   -3,702331334e-02    0,000000000e+00    0,000000000e+00    0,000000000e+00    0,000000000e+00
     1486000000    6,403443217e-02   -3,649641871e-01    1,621768177e-01    2,228574455e-02    0,000000000e+00    0,000000000e+00    0,000000000e+00    0,000000000e+00
     1500000000   -1,601762474e-01   -4,887287319e-01    2,281504720e-01    6,984148920e-02    0,000000000e+00    0,000000000e+00    0,000000000e+00    0,000000000e+00
