! NanoVNA-App
! Date: 2025-09-25 15:40:33
! Start: 100MHz Stop: 1,5GHz Points: 101
! S-Parameter data: F S11 S21 S12 S22
# Hz S RI R 50
!     Frequency           S11_Real           S11_Imag           S21_Real           S21_Imag           S12_Real           S12_Imag           S22_Real           S22_Imag
      100000000   -2,865656093e-02   -4,242286086e-03    3,738889098e-01   -7,214789987e-01    0,000000000e+00    0,000000000e+00    0,000000000e+00    0,000000000e+00
      114000000   -1,645428501e-02    1,147284638e-02   -8,919347823e-02   -8,050864339e-01    0,000000000e+00    0,000000000e+00    0,000000000e+00    0,000000000e+00
      128000000    3,474195255e-03    1,067125332e-02   -5,144668221e-01   -6,200366616e-01    0,000000000e+00    0,000000000e+00    0,000000000e+00    0,000000000e+00
      142000000    1,470969710e-02   -2,640821971e-03   -7,669211030e-01   -2,365410924e-01    0,000000000e+00    0,000000000e+00    0,000000000e+00    0,000000000e+00
      156000000    1,489740983e-02   -1,450929977e-02   -7,640851736e-01    2,201612890e-01    0,000000000e+00    0,000000000e+00    0,000000000e+00    0,000000000e+00
      170000000    1,716768183e-02   -2,253973484e-02   -5,176432133e-01    6,043035984e-01    0,000000000e+00    0,000000000e+00    0,000000000e+00    0,000000000e+00
      184000000    2,140086517e-02   -3,719991073e-02   -1,012850329e-01    7,858973145e-01    0,000000000e+00    0,000000000e+00    0,000000000e+00    0,000000000e+00
      198000000    1,325026806e-02   -6,261595339e-02    3,430798948e-01    7,118743658e-01    0,000000000e+00    0,000000000e+00    0,000000000e+00    0,000000000e+00
      212000000   -1,838170551e-02   -8,129033446e-02    6,777482629e-01    4,096976221e-01    0,000000000e+00    0,000000000e+00    0,000000000e+00    0,000000000e+00
      226000000   -6,133581325e-02   -6,915830821e-02    7,953299284e-01   -3,053648211e-02    0,000000000e+00    0,000000000e+00    0,000000000e+00    0,000000000e+00
      240000000   -8,217645437e-02   -2,581080608e-02    6,457924843e-01   -4,666602612e-01    0,000000000e+00    0,000000000e+00    0,000000000e+00    0,000000000e+00
      254000000   -6,332781166e-02    1,687950082e-02    2,759220600e-01   -7,425134182e-01    0,000000000e+00    0,000000000e+00    0,000000000e+00    0,000000000e+00
      268000000   -2,397825569e-02    2,871071920e-02   -1,781476587e-01   -7,640348673e-01    0,000000000e+00    0,000000000e+00    0,000000000e+00    0,000000000e+00
      282000000    4,033020232e-03    1,201753039e-02   -5,614890456e-01   -5,355983973e-01    0,000000000e+00    0,000000000e+00    0,000000000e+00    0,000000000e+00
      296000000    9,841847233e-03   -7,623876911e-03   -7,593363523e-01   -1,394996643e-01    0,000000000e+00    0,000000000e+00    0,000000000e+00    0,000000000e+00
      310000000    1,146231219e-02   -1,597571373e-02   -7,109547853e-01    2,990760207e-01    0,000000000e+00    0,000000000e+00    0,000000000e+00    0,000000000e+00
      324000000    2,019233257e-02   -2,664938942e-02   -4,279692769e-01    6,370874643e-01    0,000000000e+00    0,000000000e+00    0,000000000e+00    0,000000000e+00
      338000000    2,563339658e-02   -5,239510536e-02   -6,512415130e-03    7,604901791e-01    0,000000000e+00    0,000000000e+00    0,000000000e+00    0,000000000e+00
      352000000    7,321301382e-03   -8,472248912e-02    4,065093994e-01    6,397314072e-01    0,000000000e+00    0,000000000e+00    0,000000000e+00    0,000000000e+00
      366000000   -3,428338096e-02   -9,536817670e-02    6,898821592e-01    3,113337159e-01    0,000000000e+00    0,000000000e+00    0,000000000e+00    0,000000000e+00
      380000000   -7,024767995e-02   -7,110241055e-02    7,468213439e-01   -1,261442602e-01    0,000000000e+00    0,000000000e+00    0,000000000e+00    0,000000000e+00
      394000000   -7,179671526e-02   -3,252566606e-02    5,468708873e-01   -5,201801062e-01    0,000000000e+00    0,000000000e+00    0,000000000e+00    0,000000000e+00
      408000000   -4,618021846e-02   -1,651846990e-02    1,620606929e-01   -7,322091460e-01    0,000000000e+00    0,000000000e+00    0,000000000e+00    0,000000000e+00
      422000000   -2,842910402e-02   -3,208403662e-02   -2,677095532e-01   -6,943344474e-01    0,000000000e+00    0,000000000e+00    0,000000000e+00    0,000000000e+00
      436000000   -4,070799798e-02   -5,172858387e-02   -6,034021378e-01   -4,316717684e-01    0,000000000e+00    0,000000000e+00    0,000000000e+00    0,000000000e+00
      450000000   -6,685985625e-02   -4,349856079e-02   -7,394860983e-01   -2,172283642e-02    0,000000000e+00    0,000000000e+00    0,000000000e+00    0,000000000e+00
      464000000   -7,298253477e-02   -1,207531616e-02   -6,176654696e-01    3,968607187e-01    0,000000000e+00    0,000000000e+00    0,000000000e+00    0,000000000e+00
      478000000   -4,728191718e-02    1,113483775e-02   -2,825041711e-01    6,671301723e-01    0,000000000e+00    0,000000000e+00    0,000000000e+00    0,000000000e+00
      492000000   -1,559926011e-02    5,653632339e-03    1,372416317e-01    7,013930082e-01    0,000000000e+00    0,000000000e+00    0,000000000e+00    0,000000000e+00
      506000000   -2,742821118e-03   -1,571884565e-02    4,979926944e-01    5,025587082e-01    0,000000000e+00    0,000000000e+00    0,000000000e+00    0,000000000e+00
      520000000   -4,787591752e-03   -3,129669651e-02    6,858359575e-01    1,423560232e-01    0,000000000e+00    0,000000000e+00    0,000000000e+00    0,000000000e+00
      534000000   -3,528022906e-03   -3,786223009e-02    6,430808306e-01   -2,614266872e-01    0,000000000e+00    0,000000000e+00    0,000000000e+00    0,000000000e+00
      548000000    6,534122396e-03   -5,404856429e-02    3,813747764e-01   -5,664041042e-01    0,000000000e+00    0,000000000e+00    0,000000000e+00    0,000000000e+00
      562000000    3,758643288e-03   -8,946893364e-02    4,338682629e-03   -6,699541807e-01    0,000000000e+00    0,000000000e+00    0,000000000e+00    0,000000000e+00
      576000000   -3,425328806e-02   -1,243398860e-01   -3,684967756e-01   -5,571905971e-01    0,000000000e+00    0,000000000e+00    0,000000000e+00    0,000000000e+00
      590000000   -9,581677616e-02   -1,227886751e-01   -6,203842163e-01   -2,660532892e-01    0,000000000e+00    0,000000000e+00    0,000000000e+00    0,000000000e+00
      604000000   -1,387834102e-01   -7,245075703e-02   -6,633239388e-01    1,364969015e-01    0,000000000e+00    0,000000000e+00    0,000000000e+00    0,000000000e+00
      618000000   -1,287617385e-01   -9,986597113e-03   -4,638471305e-01    4,933609068e-01    0,000000000e+00    0,000000000e+00    0,000000000e+00    0,000000000e+00
      632000000   -8,485247940e-02    1,556419209e-02   -1,004106104e-01    6,628134847e-01    0,000000000e+00    0,000000000e+00    0,000000000e+00    0,000000000e+00
      646000000   -5,185869336e-02   -4,157763397e-05    2,859238088e-01    5,939445496e-01    0,000000000e+00    0,000000000e+00    0,000000000e+00    0,000000000e+00
      660000000   -5,422686413e-02   -2,073795721e-02    5,642350912e-01    3,229620457e-01    0,000000000e+00    0,000000000e+00    0,000000000e+00    0,000000000e+00
      674000000   -6,939541548e-02   -1,628991216e-02    6,407105327e-01   -6,331577152e-02    0,000000000e+00    0,000000000e+00    0,000000000e+00    0,000000000e+00
      688000000   -6,640491635e-02    9,059762582e-03    4,712381959e-01   -4,237712324e-01    0,000000000e+00    0,000000000e+00    0,000000000e+00    0,000000000e+00
      702000000   -3,711108491e-02    2,550461143e-02    1,254176199e-01   -6,079613566e-01    0,000000000e+00    0,000000000e+00    0,000000000e+00    0,000000000e+00
      716000000    3,419082845e-03    1,674917340e-02   -2,594734430e-01   -5,444993973e-01    0,000000000e+00    0,000000000e+00    0,000000000e+00    0,000000000e+00
      730000000    3,753703833e-02   -1,377749629e-02   -5,215965509e-01   -2,712523043e-01    0,000000000e+00    0,000000000e+00    0,000000000e+00    0,000000000e+00
      744000000    6,275779754e-02   -6,573007256e-02   -5,602436662e-01    9,871494025e-02    0,000000000e+00    0,000000000e+00    0,000000000e+00    0,000000000e+00
      758000000    6,181662530e-02   -1,519605666e-01   -3,660075665e-01    4,000144303e-01    0,000000000e+00    0,000000000e+00    0,000000000e+00    0,000000000e+00
      772000000   -1,810322516e-02   -2,565693855e-01   -4,563729465e-02    5,082390904e-01    0,000000000e+00    0,000000000e+00    0,000000000e+00    0,000000000e+00
      786000000   -2,032976002e-01   -2,919194102e-01    2,597061098e-01    3,991451561e-01    0,000000000e+00    0,000000000e+00    0,000000000e+00    0,000000000e+00
      800000000   -4,069277048e-01   -1,272135526e-01    4,067550600e-01    1,183478236e-01    0,000000000e+00    0,000000000e+00    0,000000000e+00    0,000000000e+00
      814000000   -3,760513961e-01    2,028577924e-01    2,956594527e-01   -1,512338668e-01    0,000000000e+00    0,000000000e+00    0,000000000e+00    0,000000000e+00
      828000000   -6,234794855e-02    3,480681479e-01    8,241497725e-02   -1,900736690e-01    0,000000000e+00    0,000000000e+00    0,000000000e+00    0,000000000e+00
      842000000    2,121174932e-01    1,853255630e-01   -2,924438799e-03   -9,289094806e-02    0,000000000e+00    0,000000000e+00    0,000000000e+00    0,000000000e+00
      856000000    2,658174336e-01   -1,060278565e-01    3,611118719e-02   -3,720883653e-02    0,000000000e+00    0,000000000e+00    0,000000000e+00    0,000000000e+00
      870000000    8,253529668e-02   -3,513602316e-01    8,909327537e-02   -9,810446948e-02    0,000000000e+00    0,000000000e+00    0,000000000e+00    0,000000000e+00
      884000000   -2,667491138e-01   -3,549390435e-01    1,203071699e-02   -2,283367813e-01    0,000000000e+00    0,000000000e+00    0,000000000e+00    0,000000000e+00
      898000000   -4,579368830e-01   -1,380847301e-02   -2,158514261e-01   -2,107576877e-01    0,000000000e+00    0,000000000e+00    0,000000000e+00    0,000000000e+00
      912000000   -2,336042523e-01    2,797426581e-01   -3,246387243e-01    7,131140679e-02    0,000000000e+00    0,000000000e+00    0,000000000e+00    0,000000000e+00
      926000000    5,454320088e-02    2,613876760e-01   -2,119105458e-01    2,621608377e-01    0,000000000e+00    0,000000000e+00    0,000000000e+00    0,000000000e+00
      940000000    2,086196393e-01    8,584057540e-02   -2,990791947e-02    3,250077665e-01    0,000000000e+00    0,000000000e+00    0,000000000e+00    0,000000000e+00
      954000000    2,213454098e-01   -1,241950467e-01    1,313741058e-01    2,999968529e-01    0,000000000e+00    0,000000000e+00    0,000000000e+00    0,000000000e+00
      968000000    1,151437312e-01   -2,940445244e-01    2,679671645e-01    2,150718719e-01    0,000000000e+00    0,000000000e+00    0,000000000e+00    0,000000000e+00
      982000000   -7,551892102e-02   -3,822164834e-01    3,625162840e-01    6,314937770e-02    0,000000000e+00    0,000000000e+00    0,000000000e+00    0,000000000e+00
      996000000   -3,106684685e-01   -3,344430029e-01    3,622711897e-01   -1,432715505e-01    0,000000000e+00    0,000000000e+00    0,000000000e+00    0,000000000e+00
     1010000000   -4,587628543e-01   -1,207876280e-01    2,189599276e-01   -3,353751600e-01    0,000000000e+00    0,000000000e+00    0,000000000e+00    0,000000000e+00
     1024000000   -4,205551744e-01    1,431547999e-01   -2,943277359e-02   -3,840880096e-01    0,000000000e+00    0,000000000e+00    0,000000000e+00    0,000000000e+00
     1038000000   -2,213988900e-01    2,906607389e-01   -2,427403033e-01   -2,570147812e-01    0,000000000e+00    0,000000000e+00    0,000000000e+00    0,000000000e+00
     1052000000   -1,298543345e-02    2,780547440e-01   -3,106403649e-01   -4,649515077e-02    0,000000000e+00    0,000000000e+00    0,000000000e+00    0,000000000e+00
     1066000000    1,338428855e-01    1,658507437e-01   -2,522376478e-01    1,399239898e-01    0,000000000e+00    0,000000000e+00    0,000000000e+00    0,000000000e+00
     1080000000    1,908736825e-01    8,426274173e-03   -1,134896651e-01    2,541042566e-01    0,000000000e+00    0,000000000e+00    0,000000000e+00    0,000000000e+00
     1094000000    1,624141335e-01   -1,625026613e-01    6,052786484e-02    2,907226086e-01    0,000000000e+00    0,000000000e+00    0,000000000e+00    0,000000000e+00
     1108000000    2,010216005e-02   -2,986527979e-01    2,604196966e-01    2,355709225e-01    0,000000000e+00    0,000000000e+00    0,000000000e+00    0,000000000e+00
     1122000000   -2,091208547e-01   -2,809474766e-01    4,402056634e-01    2,385324240e-02    0,000000000e+00    0,000000000e+00    0,000000000e+00    0,000000000e+00
     1136000000   -3,277731836e-01   -3,267421201e-02    3,998630643e-01   -3,477022648e-01    0,000000000e+00    0,000000000e+00    0,000000000e+00    0,000000000e+00
     1150000000   -1,087922156e-01    1,400091350e-01    4,402570054e-02   -5,304766893e-01    0,000000000e+00    0,000000000e+00    0,000000000e+00    0,000000000e+00
     1164000000    8,631621301e-02   -1,808151975e-02   -2,508370280e-01   -4,032566845e-01    0,000000000e+00    0,000000000e+00    0,000000000e+00    0,000000000e+00
     1178000000    2,511877939e-02   -2,562330067e-01   -3,718705475e-01   -1,810433120e-01    0,000000000e+00    0,000000000e+00    0,000000000e+00    0,000000000e+00
     1192000000   -2,203521878e-01   -3,503157198e-01   -3,397172093e-01    3,777784854e-02    0,000000000e+00    0,000000000e+00    0,000000000e+00    0,000000000e+00
     1206000000   -4,778367579e-01   -1,840059310e-01   -1,869258881e-01    1,799058914e-01    0,000000000e+00    0,000000000e+00    0,000000000e+00    0,000000000e+00
     1220000000   -4,991085827e-01    1,398174465e-01   -6,780119147e-03    1,760604680e-01    0,000000000e+00    0,000000000e+00    0,000000000e+00    0,000000000e+00
     1234000000   -3,060995042e-01    3,408102691e-01    7,182317227e-02    7,715503126e-02    0,000000000e+00    0,000000000e+00    0,000000000e+00    0,000000000e+00
     1248000000   -5,726174265e-02    3,613606691e-01    6,423842162e-02    1,542036771e-04    0,000000000e+00    0,000000000e+00    0,000000000e+00    0,000000000e+00
     1262000000    1,070709378e-01    2,564664483e-01    2,617515810e-02   -2,425104193e-02    0,000000000e+00    0,000000000e+00    0,000000000e+00    0,000000000e+00
     1276000000    2,018987387e-01    1,089792550e-01    3,766507842e-03   -5,967585370e-03    0,000000000e+00    0,000000000e+00    0,000000000e+00    0,000000000e+00
     1290000000    2,185868025e-01   -6,393644959e-02    8,826639503e-03    2,366124280e-02    0,000000000e+00    0,000000000e+00    0,000000000e+00    0,000000000e+00
     1304000000    1,670948267e-01   -2,319535911e-01    6,452094764e-02    6,187776849e-02    0,000000000e+00    0,000000000e+00    0,000000000e+00    0,000000000e+00
     1318000000    2,518002130e-02   -3,655122817e-01    1,721336991e-01    1,502175629e-02    0,000000000e+00    0,000000000e+00    0,000000000e+00    0,000000000e+00
     1332000000   -1,462934464e-01   -3,963394165e-01    1,030101776e-01   -1,780553460e-01    0,000000000e+00    0,000000000e+00    0,000000000e+00    0,000000000e+00
     1346000000   -3,666903079e-01   -3,939109147e-01   -5,519666523e-02   -2,414485067e-02    0,000000000e+00    0,000000000e+00    0,000000000e+00    0,000000000e+00
     1360000000   -5,884366632e-01   -2,077960223e-01    6,106390432e-02    7,895718515e-02    0,000000000e+00    0,000000000e+00    0,000000000e+00    0,000000000e+00
     1374000000   -6,180564165e-01    9,719916433e-02    1,833455712e-01    4,135686159e-02    0,000000000e+00    0,000000000e+00    0,000000000e+00    0,000000000e+00
     1388000000   -4,760066867e-01    3,527109623e-01    2,043277770e-01   -3,281885758e-02    0,000000000e+00    0,000000000e+00    0,000000000e+00    0,000000000e+00
     1402000000   -2,433819771e-01    4,418589771e-01    2,099431455e-01   -8,533120155e-02    0,000000000e+00    0,000000000e+00    0,000000000e+00    0,000000000e+00
     1416000000   -3,900600225e-02    4,148567915e-01    1,985677332e-01   -1,110622436e-01    0,000000000e+00    0,000000000e+00    0,000000000e+00    0,000000000e+00
     1430000000    1,015058905e-01    3,080373704e-01    1,664082706e-01   -1,042701453e-01    0,000000000e+00    0,000000000e+00    0,000000000e+00    0,000000000e+00
     1444000000    2,008723915e-01    1,543828845e-01    1,650958359e-01   -1,148029044e-01    0,000000000e+00    0,000000000e+00    0,000000000e+00    0,000000000e+00
     1458000000    2,309442163e-01   -9,928312153e-03    1,470446289e-01   -8,107413352e-02    0,000000000e+00    0,000000000e+00    0,000000000e+00    0,000000000e+00
     1472000000    1,924448162e-01   -1,895937324e-01    1,475069970e-01   -3,598041460e-02    0,000000000e+00    0,000000000e+00    0,000000000e+00    0,000000000e+00
     1486000000    6,647084653e-02   -3,638413250e-01    1,571139544e-01    1,982567646e-02    0,000000000e+00    0,000000000e+00    0,000000000e+00    0,000000000e+00
     1500000000   -1,620242149e-01   -4,916361272e-01    2,224147916e-01    7,693451643e-02    0,000000000e+00    0,000000000e+00    0,000000000e+00    0,000000000e+00
