! NanoVNA-App
! Date: 2025-09-25 15:44:12
! Start: 100MHz Stop: 1,5GHz Points: 101
! S-Parameter data: F S11 S21 S12 S22
# Hz S RI R 50
!     Frequency           S11_Real           S11_Imag           S21_Real           S21_Imag           S12_Real           S12_Imag           S22_Real           S22_Imag
      100000000   -2,874607779e-02   -4,258766305e-03    3,739311993e-01   -7,215396762e-01    0,000000000e+00    0,000000000e+00    0,000000000e+00    0,000000000e+00
      114000000   -1,654235646e-02    1,151029952e-02   -8,910387009e-02   -8,052471280e-01    0,000000000e+00    0,000000000e+00    0,000000000e+00    0,000000000e+00
      128000000    3,431485733e-03    1,073210873e-02   -5,146275163e-01   -6,203138232e-01    0,000000000e+00    0,000000000e+00    0,000000000e+00    0,000000000e+00
      142000000    1,463253703e-02   -2,647323767e-03   -7,669533491e-01   -2,365961820e-01    0,000000000e+00    0,000000000e+00    0,000000000e+00    0,000000000e+00
      156000000    1,625779271e-02   -1,410558634e-02   -7,695047855e-01    2,241382152e-01    0,000000000e+00    0,000000000e+00    0,000000000e+00    0,000000000e+00
      170000000    1,714749448e-02   -2,250158414e-02   -5,179309845e-01    6,046172380e-01    0,000000000e+00    0,000000000e+00    0,000000000e+00    0,000000000e+00
      184000000    2,127084136e-02   -3,714082018e-02   -1,011771262e-01    7,858622670e-01    0,000000000e+00    0,000000000e+00    0,000000000e+00    0,000000000e+00
      198000000    1,316028554e-02   -6,250381470e-02    3,431243896e-01    7,118800879e-01    0,000000000e+00    0,000000000e+00    0,000000000e+00    0,000000000e+00
      212000000   -1,845553145e-02   -8,125660568e-02    6,780470610e-01    4,098081887e-01    0,000000000e+00    0,000000000e+00    0,000000000e+00    0,000000000e+00
      226000000   -6,136724725e-02   -6,917949021e-02    7,953809500e-01   -3,057117946e-02    0,000000000e+00    0,000000000e+00    0,000000000e+00    0,000000000e+00
      240000000   -8,222714812e-02   -2,581889369e-02    6,456500888e-01   -4,667916298e-01    0,000000000e+00    0,000000000e+00    0,000000000e+00    0,000000000e+00
      254000000   -6,339956075e-02    1,696765982e-02    2,758811712e-01   -7,428168058e-01    0,000000000e+00    0,000000000e+00    0,000000000e+00    0,000000000e+00
      268000000   -2,393084578e-02    2,885874920e-02   -1,781099737e-01   -7,638244629e-01    0,000000000e+00    0,000000000e+00    0,000000000e+00    0,000000000e+00
      282000000    4,063621629e-03    1,204359997e-02   -5,616652369e-01   -5,357159376e-01    0,000000000e+00    0,000000000e+00    0,000000000e+00    0,000000000e+00
      296000000    9,826656431e-03   -7,549307309e-03   -7,594525218e-01   -1,396413445e-01    0,000000000e+00    0,000000000e+00    0,000000000e+00    0,000000000e+00
      310000000    1,148041058e-02   -1,611352898e-02   -7,127601504e-01    2,974599302e-01    0,000000000e+00    0,000000000e+00    0,000000000e+00    0,000000000e+00
      324000000    1,999179646e-02   -2,672509290e-02   -4,275404513e-01    6,370795369e-01    0,000000000e+00    0,000000000e+00    0,000000000e+00    0,000000000e+00
      338000000    2,580993250e-02   -5,215077847e-02   -9,382680058e-03    7,590115070e-01    0,000000000e+00    0,000000000e+00    0,000000000e+00    0,000000000e+00
      352000000    7,496831939e-03   -8,483270556e-02    4,058909118e-01    6,395755410e-01    0,000000000e+00    0,000000000e+00    0,000000000e+00    0,000000000e+00
      366000000   -3,427430615e-02   -9,529887885e-02    6,903169155e-01    3,110747039e-01    0,000000000e+00    0,000000000e+00    0,000000000e+00    0,000000000e+00
      380000000   -7,041151822e-02   -7,101506740e-02    7,471839786e-01   -1,252339035e-01    0,000000000e+00    0,000000000e+00    0,000000000e+00    0,000000000e+00
      394000000   -7,224266976e-02   -3,281151876e-02    5,450140834e-01   -5,208199024e-01    0,000000000e+00    0,000000000e+00    0,000000000e+00    0,000000000e+00
      408000000   -4,608295858e-02   -1,632294990e-02    1,628019512e-01   -7,306462526e-01    0,000000000e+00    0,000000000e+00    0,000000000e+00    0,000000000e+00
      422000000   -2,831837349e-02   -3,225923702e-02   -2,665879130e-01   -6,949245334e-01    0,000000000e+00    0,000000000e+00    0,000000000e+00    0,000000000e+00
      436000000   -4,068567976e-02   -5,182405189e-02   -6,030510664e-01   -4,317550063e-01    0,000000000e+00    0,000000000e+00    0,000000000e+00    0,000000000e+00
      450000000   -6,739563495e-02   -4,370791838e-02   -7,397378683e-01   -2,162690274e-02    0,000000000e+00    0,000000000e+00    0,000000000e+00    0,000000000e+00
      464000000   -7,306089997e-02   -1,169452537e-02   -6,183241606e-01    3,969648480e-01    0,000000000e+00    0,000000000e+00    0,000000000e+00    0,000000000e+00
      478000000   -4,740713164e-02    1,154548302e-02   -2,827962637e-01    6,673711538e-01    0,000000000e+00    0,000000000e+00    0,000000000e+00    0,000000000e+00
      492000000   -1,577904262e-02    5,442519207e-03    1,373083591e-01    7,006765604e-01    0,000000000e+00    0,000000000e+00    0,000000000e+00    0,000000000e+00
      506000000   -2,469540341e-03   -1,556427777e-02    4,976969659e-01    5,030382872e-01    0,000000000e+00    0,000000000e+00    0,000000000e+00    0,000000000e+00
      520000000   -5,343587603e-03   -3,126515821e-02    6,877140403e-01    1,412788182e-01    0,000000000e+00    0,000000000e+00    0,000000000e+00    0,000000000e+00
      534000000   -3,487501992e-03   -3,798894212e-02    6,429119110e-01   -2,614279091e-01    0,000000000e+00    0,000000000e+00    0,000000000e+00    0,000000000e+00
      548000000    6,244235206e-03   -5,433973670e-02    3,812284768e-01   -5,663543344e-01    0,000000000e+00    0,000000000e+00    0,000000000e+00    0,000000000e+00
      562000000    3,206030000e-03   -8,919975162e-02    2,714074217e-03   -6,709345579e-01    0,000000000e+00    0,000000000e+00    0,000000000e+00    0,000000000e+00
      576000000   -3,423659876e-02   -1,243090108e-01   -3,684505224e-01   -5,568666458e-01    0,000000000e+00    0,000000000e+00    0,000000000e+00    0,000000000e+00
      590000000   -9,598633647e-02   -1,227379665e-01   -6,209968328e-01   -2,630469203e-01    0,000000000e+00    0,000000000e+00    0,000000000e+00    0,000000000e+00
      604000000   -1,388349533e-01   -7,224317640e-02   -6,643794179e-01    1,368938684e-01    0,000000000e+00    0,000000000e+00    0,000000000e+00    0,000000000e+00
      618000000   -1,289154738e-01   -9,857013822e-03   -4,652700722e-01    4,925732613e-01    0,000000000e+00    0,000000000e+00    0,000000000e+00    0,000000000e+00
      632000000   -8,455289900e-02    1,656481437e-02   -9,965601563e-02    6,620759964e-01    0,000000000e+00    0,000000000e+00    0,000000000e+00    0,000000000e+00
      646000000   -5,237874761e-02    1,253216760e-03    2,862789035e-01    5,945010185e-01    0,000000000e+00    0,000000000e+00    0,000000000e+00    0,000000000e+00
      660000000   -5,410096049e-02   -2,040528134e-02    5,652559400e-01    3,239719272e-01    0,000000000e+00    0,000000000e+00    0,000000000e+00    0,000000000e+00
      674000000   -6,898980588e-02   -1,640600339e-02    6,412010789e-01   -6,299915165e-02    0,000000000e+00    0,000000000e+00    0,000000000e+00    0,000000000e+00
      688000000   -6,695315242e-02    8,750900626e-03    4,708126783e-01   -4,239363372e-01    0,000000000e+00    0,000000000e+00    0,000000000e+00    0,000000000e+00
      702000000   -3,486404195e-02    2,591001429e-02    1,199986413e-01   -6,033343077e-01    0,000000000e+00    0,000000000e+00    0,000000000e+00    0,000000000e+00
      716000000    4,266095348e-03    1,633501239e-02   -2,592890263e-01   -5,442156196e-01    0,000000000e+00    0,000000000e+00    0,000000000e+00    0,000000000e+00
      730000000    3,672481701e-02   -1,309167594e-02   -5,217547417e-01   -2,713970244e-01    0,000000000e+00    0,000000000e+00    0,000000000e+00    0,000000000e+00
      744000000    6,190441921e-02   -6,499677896e-02   -5,606155396e-01    9,835084528e-02    0,000000000e+00    0,000000000e+00    0,000000000e+00    0,000000000e+00
      758000000    6,044710800e-02   -1,514052451e-01   -3,663526177e-01    4,008377790e-01    0,000000000e+00    0,000000000e+00    0,000000000e+00    0,000000000e+00
      772000000   -1,633447595e-02   -2,561178505e-01   -4,537788406e-02    5,091478825e-01    0,000000000e+00    0,000000000e+00    0,000000000e+00    0,000000000e+00
      786000000   -2,026449591e-01   -2,914100289e-01    2,598669529e-01    3,995420635e-01    0,000000000e+00    0,000000000e+00    0,000000000e+00    0,000000000e+00
      800000000   -4,069488049e-01   -1,279839426e-01    4,070070982e-01    1,188464016e-01    0,000000000e+00    0,000000000e+00    0,000000000e+00    0,000000000e+00
      814000000   -3,775141537e-01    2,020866126e-01    2,966999114e-01   -1,513722539e-01    0,000000000e+00    0,000000000e+00    0,000000000e+00    0,000000000e+00
      828000000   -6,378641725e-02    3,476846516e-01    8,228148520e-02   -1,912678182e-01    0,000000000e+00    0,000000000e+00    0,000000000e+00    0,000000000e+00
      842000000    2,113446295e-01    1,859698445e-01   -3,938343376e-03   -9,382215142e-02    0,000000000e+00    0,000000000e+00    0,000000000e+00    0,000000000e+00
      856000000    2,659120560e-01   -1,055274159e-01    3,532923386e-02   -3,692178801e-02    0,000000000e+00    0,000000000e+00    0,000000000e+00    0,000000000e+00
      870000000    8,344308287e-02   -3,505430520e-01    8,810536563e-02   -9,699914604e-02    0,000000000e+00    0,000000000e+00    0,000000000e+00    0,000000000e+00
      884000000   -2,670050263e-01   -3,560347259e-01    1,163815055e-02   -2,264702767e-01    0,000000000e+00    0,000000000e+00    0,000000000e+00    0,000000000e+00
      898000000   -4,585889280e-01   -1,375528518e-02   -2,158381641e-01   -2,092303038e-01    0,000000000e+00    0,000000000e+00    0,000000000e+00    0,000000000e+00
      912000000   -2,352978438e-01    2,780972421e-01   -3,410601020e-01    7,472411543e-02    0,000000000e+00    0,000000000e+00    0,000000000e+00    0,000000000e+00
      926000000    5,431631580e-02    2,610508502e-01   -2,113678306e-01    2,600494325e-01    0,000000000e+00    0,000000000e+00    0,000000000e+00    0,000000000e+00
      940000000    2,089761645e-01    8,602606505e-02   -3,111679666e-02    3,272973001e-01    0,000000000e+00    0,000000000e+00    0,000000000e+00    0,000000000e+00
      954000000    2,195893526e-01   -1,206068620e-01    1,310073584e-01    3,025804162e-01    0,000000000e+00    0,000000000e+00    0,000000000e+00    0,000000000e+00
      968000000    1,198953018e-01   -2,942736149e-01    2,687515914e-01    2,130952179e-01    0,000000000e+00    0,000000000e+00    0,000000000e+00    0,000000000e+00
      982000000   -7,600694895e-02   -3,814429939e-01    3,598075509e-01    6,345151365e-02    0,000000000e+00    0,000000000e+00    0,000000000e+00    0,000000000e+00
      996000000   -3,082476854e-01   -3,309518397e-01    3,616673350e-01   -1,416430771e-01    0,000000000e+00    0,000000000e+00    0,000000000e+00    0,000000000e+00
     1010000000   -4,636339545e-01   -1,174861491e-01    2,192412913e-01   -3,353062570e-01    0,000000000e+00    0,000000000e+00    0,000000000e+00    0,000000000e+00
     1024000000   -4,162170589e-01    1,419257224e-01   -3,196143359e-02   -3,859930038e-01    0,000000000e+00    0,000000000e+00    0,000000000e+00    0,000000000e+00
     1038000000   -2,233933508e-01    2,870673835e-01   -2,396213561e-01   -2,553173602e-01    0,000000000e+00    0,000000000e+00    0,000000000e+00    0,000000000e+00
     1052000000   -1,137675904e-02    2,808006704e-01   -3,091092706e-01   -4,661242664e-02    0,000000000e+00    0,000000000e+00    0,000000000e+00    0,000000000e+00
     1066000000    1,312155128e-01    1,665000916e-01   -2,525335252e-01    1,383150667e-01    0,000000000e+00    0,000000000e+00    0,000000000e+00    0,000000000e+00
     1080000000    1,947818249e-01    7,529791445e-03   -1,170170829e-01    2,542756796e-01    0,000000000e+00    0,000000000e+00    0,000000000e+00    0,000000000e+00
     1094000000    1,627213359e-01   -1,642280370e-01    5,836699530e-02    2,917720675e-01    0,000000000e+00    0,000000000e+00    0,000000000e+00    0,000000000e+00
     1108000000    1,821691729e-02   -2,936493456e-01    2,600051165e-01    2,327489555e-01    0,000000000e+00    0,000000000e+00    0,000000000e+00    0,000000000e+00
     1122000000   -2,166316062e-01   -2,833978832e-01    4,372684360e-01    2,531768195e-02    0,000000000e+00    0,000000000e+00    0,000000000e+00    0,000000000e+00
     1136000000   -3,222791255e-01   -2,655757219e-02    3,977811038e-01   -3,433329761e-01    0,000000000e+00    0,000000000e+00    0,000000000e+00    0,000000000e+00
     1150000000   -1,080754995e-01    1,433414668e-01    4,772925377e-02   -5,300658941e-01    0,000000000e+00    0,000000000e+00    0,000000000e+00    0,000000000e+00
     1164000000    8,318981528e-02   -1,460420713e-02   -2,533882856e-01   -4,038889408e-01    0,000000000e+00    0,000000000e+00    0,000000000e+00    0,000000000e+00
     1178000000    2,957774512e-02   -2,504469752e-01   -3,705160022e-01   -1,793703735e-01    0,000000000e+00    0,000000000e+00    0,000000000e+00    0,000000000e+00
     1192000000   -2,213469148e-01   -3,454796076e-01   -3,434037864e-01    4,364134744e-02    0,000000000e+00    0,000000000e+00    0,000000000e+00    0,000000000e+00
     1206000000   -4,750717580e-01   -1,812982261e-01   -1,863618791e-01    1,839221269e-01    0,000000000e+00    0,000000000e+00    0,000000000e+00    0,000000000e+00
     1220000000   -4,996512532e-01    1,399075538e-01   -9,029057808e-03    1,746374220e-01    0,000000000e+00    0,000000000e+00    0,000000000e+00    0,000000000e+00
     1234000000   -2,988889813e-01    3,350863159e-01    7,225308567e-02    7,336650044e-02    0,000000000e+00    0,000000000e+00    0,000000000e+00    0,000000000e+00
     1248000000   -5,686927587e-02    3,574239016e-01    6,285376102e-02   -8,300290938e-05    0,000000000e+00    0,000000000e+00    0,000000000e+00    0,000000000e+00
     1262000000    1,143465936e-01    2,622834742e-01    3,169871494e-02   -2,593295090e-02    0,000000000e+00    0,000000000e+00    0,000000000e+00    0,000000000e+00
     1276000000    2,030130178e-01    1,031400040e-01    9,345245548e-03   -1,396933105e-02    0,000000000e+00    0,000000000e+00    0,000000000e+00    0,000000000e+00
     1290000000    2,210815847e-01   -6,223025545e-02    1,006693393e-02    2,751168795e-02    0,000000000e+00    0,000000000e+00    0,000000000e+00    0,000000000e+00
     1304000000    1,661339998e-01   -2,320068628e-01    6,579826772e-02    5,835299566e-02    0,000000000e+00    0,000000000e+00    0,000000000e+00    0,000000000e+00
     1318000000    2,635872923e-02   -3,619557619e-01    1,742956489e-01    1,395935379e-02    0,000000000e+00    0,000000000e+00    0,000000000e+00    0,000000000e+00
     1332000000   -1,477805525e-01   -4,000737965e-01    1,034035310e-01   -1,816543341e-01    0,000000000e+00    0,000000000e+00    0,000000000e+00    0,000000000e+00
     1346000000   -3,572131693e-01   -3,888284862e-01   -5,035121739e-02   -2,463045157e-02    0,000000000e+00    0,000000000e+00    0,000000000e+00    0,000000000e+00
     1360000000   -5,823823810e-01   -1,986840069e-01    6,730616093e-02    8,825816959e-02    0,000000000e+00    0,000000000e+00    0,000000000e+00    0,000000000e+00
     1374000000   -6,293627024e-01    1,155296266e-01    1,736004949e-01    5,195567757e-02    0,000000000e+00    0,000000000e+00    0,000000000e+00    0,000000000e+00
     1388000000   -4,724736810e-01    3,542824388e-01    2,217127085e-01   -2,960226871e-02    0,000000000e+00    0,000000000e+00    0,000000000e+00    0,000000000e+00
     1402000000   -2,457719594e-01    4,417201281e-01    2,031192631e-01   -8,542656898e-02    0,000000000e+00    0,000000000e+00    0,000000000e+00    0,000000000e+00
     1416000000   -3,942718357e-02    4,127672017e-01    1,871622652e-01   -9,377822280e-02    0,000000000e+00    0,000000000e+00    0,000000000e+00    0,000000000e+00
     1430000000    1,090775654e-01    3,042602837e-01    1,840754151e-01   -1,181806698e-01    0,000000000e+00    0,000000000e+00    0,000000000e+00    0,000000000e+00
     1444000000    2,033423632e-01    1,579026282e-01    1,630131453e-01   -1,026258469e-01    0,000000000e+00    0,000000000e+00    0,000000000e+00    0,000000000e+00
     1458000000    2,275674939e-01   -1,191424485e-02    1,377684772e-01   -8,712681383e-02    0,000000000e+00    0,000000000e+00    0,000000000e+00    0,000000000e+00
     1472000000    1,894691437e-01   -1,881782413e-01    1,446480453e-01   -3,297154605e-02    0,000000000e+00    0,000000000e+00    0,000000000e+00    0,000000000e+00
     1486000000    6,376682967e-02   -3,639211953e-01    1,594108641e-01    2,038281038e-02    0,000000000e+00    0,000000000e+00    0,000000000e+00    0,000000000e+00
     1500000000   -1,534964442e-01   -4,844991863e-01    2,417540997e-01    9,806640446e-02    0,000000000e+00    0,000000000e+00    0,000000000e+00    0,000000000e+00
