! NanoVNA-App
! Date: 2025-09-25 15:43:03
! Start: 100MHz Stop: 1,5GHz Points: 101
! S-Parameter data: F S11 S21 S12 S22
# Hz S RI R 50
!     Frequency           S11_Real           S11_Imag           S21_Real           S21_Imag           S12_Real           S12_Imag           S22_Real           S22_Imag
      100000000   -2,878150344e-02   -4,245735239e-03    3,739905655e-01   -7,215929031e-01    0,000000000e+00    0,000000000e+00    0,000000000e+00    0,000000000e+00
      114000000   -1,654902473e-02    1,149368379e-02   -8,916871250e-02   -8,053748012e-01    0,000000000e+00    0,000000000e+00    0,000000000e+00    0,000000000e+00
      128000000    3,390851663e-03    1,067187265e-02   -5,145006180e-01   -6,201472282e-01    0,000000000e+00    0,000000000e+00    0,000000000e+00    0,000000000e+00
      142000000    1,462873071e-02   -2,634685021e-03   -7,667079568e-01   -2,363236994e-01    0,000000000e+00    0,000000000e+00    0,000000000e+00    0,000000000e+00
      156000000    1,505298540e-02   -1,468062215e-02   -7,664190531e-01    2,183232754e-01    0,000000000e+00    0,000000000e+00    0,000000000e+00    0,000000000e+00
      170000000    1,709194295e-02   -2,242829651e-02   -5,178163052e-01    6,043516397e-01    0,000000000e+00    0,000000000e+00    0,000000000e+00    0,000000000e+00
      184000000    2,130939625e-02   -3,716916218e-02   -1,014900729e-01    7,858665586e-01    0,000000000e+00    0,000000000e+00    0,000000000e+00    0,000000000e+00
      198000000    1,324610412e-02   -6,251195073e-02    3,430348039e-01    7,120779157e-01    0,000000000e+00    0,000000000e+00    0,000000000e+00    0,000000000e+00
      212000000   -1,846466213e-02   -8,131694794e-02    6,777301431e-01    4,099424183e-01    0,000000000e+00    0,000000000e+00    0,000000000e+00    0,000000000e+00
      226000000   -6,143445149e-02   -6,919992715e-02    7,954237461e-01   -3,047267534e-02    0,000000000e+00    0,000000000e+00    0,000000000e+00    0,000000000e+00
      240000000   -8,229552954e-02   -2,580901794e-02    6,459351182e-01   -4,667390585e-01    0,000000000e+00    0,000000000e+00    0,000000000e+00    0,000000000e+00
      254000000   -6,343629211e-02    1,692673564e-02    2,761210203e-01   -7,429062128e-01    0,000000000e+00    0,000000000e+00    0,000000000e+00    0,000000000e+00
      268000000   -2,404481731e-02    2,878889069e-02   -1,776401848e-01   -7,638152242e-01    0,000000000e+00    0,000000000e+00    0,000000000e+00    0,000000000e+00
      282000000    4,009413067e-03    1,206343994e-02   -5,616184473e-01   -5,355997682e-01    0,000000000e+00    0,000000000e+00    0,000000000e+00    0,000000000e+00
      296000000    9,838555008e-03   -7,520744111e-03   -7,593015432e-01   -1,394938529e-01    0,000000000e+00    0,000000000e+00    0,000000000e+00    0,000000000e+00
      310000000    1,149384305e-02   -1,614793576e-02   -7,120905519e-01    2,975338399e-01    0,000000000e+00    0,000000000e+00    0,000000000e+00    0,000000000e+00
      324000000    1,987174340e-02   -2,666792460e-02   -4,278674126e-01    6,368307471e-01    0,000000000e+00    0,000000000e+00    0,000000000e+00    0,000000000e+00
      338000000    2,586699091e-02   -5,195304751e-02   -8,866447024e-03    7,602049708e-01    0,000000000e+00    0,000000000e+00    0,000000000e+00    0,000000000e+00
      352000000    7,420446724e-03   -8,500456065e-02    4,062612057e-01    6,392769217e-01    0,000000000e+00    0,000000000e+00    0,000000000e+00    0,000000000e+00
      366000000   -3,429739177e-02   -9,537214041e-02    6,900371909e-01    3,114131689e-01    0,000000000e+00    0,000000000e+00    0,000000000e+00    0,000000000e+00
      380000000   -7,019055635e-02   -7,127472758e-02    7,472012043e-01   -1,261744499e-01    0,000000000e+00    0,000000000e+00    0,000000000e+00    0,000000000e+00
      394000000   -7,216604799e-02   -3,267927468e-02    5,471993685e-01   -5,217536092e-01    0,000000000e+00    0,000000000e+00    0,000000000e+00    0,000000000e+00
      408000000   -4,619432241e-02   -1,625962183e-02    1,608261168e-01   -7,303681970e-01    0,000000000e+00    0,000000000e+00    0,000000000e+00    0,000000000e+00
      422000000   -2,828398533e-02   -3,194308281e-02   -2,669714391e-01   -6,944267750e-01    0,000000000e+00    0,000000000e+00    0,000000000e+00    0,000000000e+00
      436000000   -4,045954347e-02   -5,144664645e-02   -6,032623053e-01   -4,316723347e-01    0,000000000e+00    0,000000000e+00    0,000000000e+00    0,000000000e+00
      450000000   -6,689050794e-02   -4,398861527e-02   -7,392653823e-01   -2,164151892e-02    0,000000000e+00    0,000000000e+00    0,000000000e+00    0,000000000e+00
      464000000   -7,281957567e-02   -1,204487402e-02   -6,183154583e-01    3,972297311e-01    0,000000000e+00    0,000000000e+00    0,000000000e+00    0,000000000e+00
      478000000   -4,724738747e-02    1,178008784e-02   -2,825679183e-01    6,670563221e-01    0,000000000e+00    0,000000000e+00    0,000000000e+00    0,000000000e+00
      492000000   -1,569377445e-02    6,043710280e-03    1,374941170e-01    7,013741136e-01    0,000000000e+00    0,000000000e+00    0,000000000e+00    0,000000000e+00
      506000000   -2,912379568e-03   -1,576748490e-02    4,970730543e-01    5,025785565e-01    0,000000000e+00    0,000000000e+00    0,000000000e+00    0,000000000e+00
      520000000   -5,411046091e-03   -3,163982928e-02    6,876651049e-01    1,406178623e-01    0,000000000e+00    0,000000000e+00    0,000000000e+00    0,000000000e+00
      534000000   -3,868214088e-03   -3,825787455e-02    6,429030299e-01   -2,616186142e-01    0,000000000e+00    0,000000000e+00    0,000000000e+00    0,000000000e+00
      548000000    6,197617855e-03   -5,385016650e-02    3,810646534e-01   -5,663499832e-01    0,000000000e+00    0,000000000e+00    0,000000000e+00    0,000000000e+00
      562000000    3,603204852e-03   -8,926209062e-02    3,293891670e-03   -6,708099246e-01    0,000000000e+00    0,000000000e+00    0,000000000e+00    0,000000000e+00
      576000000   -3,390915692e-02   -1,239984334e-01   -3,682648242e-01   -5,572515726e-01    0,000000000e+00    0,000000000e+00    0,000000000e+00    0,000000000e+00
      590000000   -9,583209455e-02   -1,226089671e-01   -6,185668707e-01   -2,634488940e-01    0,000000000e+00    0,000000000e+00    0,000000000e+00    0,000000000e+00
      604000000   -1,390068084e-01   -7,232454419e-02   -6,641058326e-01    1,362969130e-01    0,000000000e+00    0,000000000e+00    0,000000000e+00    0,000000000e+00
      618000000   -1,291040778e-01   -1,045351662e-02   -4,644148052e-01    4,915856123e-01    0,000000000e+00    0,000000000e+00    0,000000000e+00    0,000000000e+00
      632000000   -8,496224135e-02    1,610737480e-02   -1,006831974e-01    6,616395116e-01    0,000000000e+00    0,000000000e+00    0,000000000e+00    0,000000000e+00
      646000000   -5,132002756e-02    6,304809940e-04    2,846811414e-01    5,943956375e-01    0,000000000e+00    0,000000000e+00    0,000000000e+00    0,000000000e+00
      660000000   -5,382818356e-02   -2,125840634e-02    5,647100210e-01    3,225455880e-01    0,000000000e+00    0,000000000e+00    0,000000000e+00    0,000000000e+00
      674000000   -6,991591305e-02   -1,615627855e-02    6,407538056e-01   -6,309141964e-02    0,000000000e+00    0,000000000e+00    0,000000000e+00    0,000000000e+00
      688000000   -6,677663326e-02    8,852430619e-03    4,708723128e-01   -4,244280756e-01    0,000000000e+00    0,000000000e+00    0,000000000e+00    0,000000000e+00
      702000000   -3,682213277e-02    2,520926110e-02    1,224375367e-01   -6,028187871e-01    0,000000000e+00    0,000000000e+00    0,000000000e+00    0,000000000e+00
      716000000    3,620745381e-03    1,695764251e-02   -2,596326172e-01   -5,443561077e-01    0,000000000e+00    0,000000000e+00    0,000000000e+00    0,000000000e+00
      730000000    3,730431944e-02   -1,403427962e-02   -5,217083693e-01   -2,718263566e-01    0,000000000e+00    0,000000000e+00    0,000000000e+00    0,000000000e+00
      744000000    6,305385381e-02   -6,486295909e-02   -5,602987409e-01    9,849888086e-02    0,000000000e+00    0,000000000e+00    0,000000000e+00    0,000000000e+00
      758000000    6,125482544e-02   -1,526110172e-01   -3,663247228e-01    4,008836448e-01    0,000000000e+00    0,000000000e+00    0,000000000e+00    0,000000000e+00
      772000000   -1,784522273e-02   -2,556923628e-01   -4,588177428e-02    5,092065930e-01    0,000000000e+00    0,000000000e+00    0,000000000e+00    0,000000000e+00
      786000000   -2,020202428e-01   -2,903167307e-01    2,593913972e-01    3,988819718e-01    0,000000000e+00    0,000000000e+00    0,000000000e+00    0,000000000e+00
      800000000   -4,082251191e-01   -1,265376508e-01    4,071506560e-01    1,189547330e-01    0,000000000e+00    0,000000000e+00    0,000000000e+00    0,000000000e+00
      814000000   -3,756324053e-01    2,022357732e-01    2,966713011e-01   -1,515626162e-01    0,000000000e+00    0,000000000e+00    0,000000000e+00    0,000000000e+00
      828000000   -6,279807538e-02    3,474108875e-01    8,287402242e-02   -1,907941997e-01    0,000000000e+00    0,000000000e+00    0,000000000e+00    0,000000000e+00
      842000000    2,113813013e-01    1,860720664e-01   -3,836860880e-03   -9,310878068e-02    0,000000000e+00    0,000000000e+00    0,000000000e+00    0,000000000e+00
      856000000    2,664141059e-01   -1,055741310e-01    3,585689142e-02   -3,705786169e-02    0,000000000e+00    0,000000000e+00    0,000000000e+00    0,000000000e+00
      870000000    8,343377709e-02   -3,514883816e-01    8,901599795e-02   -9,744914621e-02    0,000000000e+00    0,000000000e+00    0,000000000e+00    0,000000000e+00
      884000000   -2,664868236e-01   -3,565454781e-01    1,142704021e-02   -2,273483425e-01    0,000000000e+00    0,000000000e+00    0,000000000e+00    0,000000000e+00
      898000000   -4,578958154e-01   -1,308340579e-02   -2,154273540e-01   -2,092131823e-01    0,000000000e+00    0,000000000e+00    0,000000000e+00    0,000000000e+00
      912000000   -2,344601303e-01    2,785005867e-01   -3,333954513e-01    6,323102862e-02    0,000000000e+00    0,000000000e+00    0,000000000e+00    0,000000000e+00
      926000000    5,457407609e-02    2,622489631e-01   -2,104279548e-01    2,602115273e-01    0,000000000e+00    0,000000000e+00    0,000000000e+00    0,000000000e+00
      940000000    2,081064284e-01    8,335165679e-02   -3,062554076e-02    3,246385157e-01    0,000000000e+00    0,000000000e+00    0,000000000e+00    0,000000000e+00
      954000000    2,214790732e-01   -1,239169836e-01    1,314987540e-01    3,010637760e-01    0,000000000e+00    0,000000000e+00    0,000000000e+00    0,000000000e+00
      968000000    1,163868532e-01   -2,930891812e-01    2,670881152e-01    2,132239789e-01    0,000000000e+00    0,000000000e+00    0,000000000e+00    0,000000000e+00
      982000000   -7,537651807e-02   -3,810221255e-01    3,624617755e-01    6,073520705e-02    0,000000000e+00    0,000000000e+00    0,000000000e+00    0,000000000e+00
      996000000   -3,112990856e-01   -3,289844096e-01    3,630884290e-01   -1,444850713e-01    0,000000000e+00    0,000000000e+00    0,000000000e+00    0,000000000e+00
     1010000000   -4,581171274e-01   -1,188773364e-01    2,180477977e-01   -3,352841735e-01    0,000000000e+00    0,000000000e+00    0,000000000e+00    0,000000000e+00
     1024000000   -4,136681259e-01    1,447891742e-01   -3,139220923e-02   -3,856889606e-01    0,000000000e+00    0,000000000e+00    0,000000000e+00    0,000000000e+00
     1038000000   -2,226487100e-01    2,910867929e-01   -2,427774668e-01   -2,559928596e-01    0,000000000e+00    0,000000000e+00    0,000000000e+00    0,000000000e+00
     1052000000   -1,268219948e-02    2,846127450e-01   -3,091280162e-01   -4,878283292e-02    0,000000000e+00    0,000000000e+00    0,000000000e+00    0,000000000e+00
     1066000000    1,314206570e-01    1,709275991e-01   -2,525730431e-01    1,381507516e-01    0,000000000e+00    0,000000000e+00    0,000000000e+00    0,000000000e+00
     1080000000    1,909834146e-01    1,015295833e-02   -1,139049828e-01    2,540059090e-01    0,000000000e+00    0,000000000e+00    0,000000000e+00    0,000000000e+00
     1094000000    1,570186019e-01   -1,637920886e-01    6,259169430e-02    2,913687527e-01    0,000000000e+00    0,000000000e+00    0,000000000e+00    0,000000000e+00
     1108000000    1,985008083e-02   -2,932469249e-01    2,612830400e-01    2,363853902e-01    0,000000000e+00    0,000000000e+00    0,000000000e+00    0,000000000e+00
     1122000000   -2,131394148e-01   -2,864733338e-01    4,390209317e-01    2,717677690e-02    0,000000000e+00    0,000000000e+00    0,000000000e+00    0,000000000e+00
     1136000000   -3,272938132e-01   -2,643405274e-02    4,016430080e-01   -3,451077938e-01    0,000000000e+00    0,000000000e+00    0,000000000e+00    0,000000000e+00
     1150000000   -1,081351489e-01    1,354798079e-01    4,890713096e-02   -5,295362473e-01    0,000000000e+00    0,000000000e+00    0,000000000e+00    0,000000000e+00
     1164000000    8,384741843e-02   -1,299946941e-02   -2,502634525e-01   -4,037848115e-01    0,000000000e+00    0,000000000e+00    0,000000000e+00    0,000000000e+00
     1178000000    3,072918393e-02   -2,531780005e-01   -3,712390363e-01   -1,810403168e-01    0,000000000e+00    0,000000000e+00    0,000000000e+00    0,000000000e+00
     1192000000   -2,175995260e-01   -3,478371799e-01   -3,371361196e-01    4,129771143e-02    0,000000000e+00    0,000000000e+00    0,000000000e+00    0,000000000e+00
     1206000000   -4,796835780e-01   -1,790859997e-01   -1,928970069e-01    1,831309497e-01    0,000000000e+00    0,000000000e+00    0,000000000e+00    0,000000000e+00
     1220000000   -5,085969567e-01    1,396818459e-01   -9,742220864e-03    1,791553497e-01    0,000000000e+00    0,000000000e+00    0,000000000e+00    0,000000000e+00
     1234000000   -3,003465235e-01    3,373582959e-01    7,200795412e-02    7,981642336e-02    0,000000000e+00    0,000000000e+00    0,000000000e+00    0,000000000e+00
     1248000000   -6,428749114e-02    3,618283868e-01    6,196047366e-02    1,789756003e-03    0,000000000e+00    0,000000000e+00    0,000000000e+00    0,000000000e+00
     1262000000    1,074022278e-01    2,597943842e-01    2,620792761e-02   -2,454238944e-02    0,000000000e+00    0,000000000e+00    0,000000000e+00    0,000000000e+00
     1276000000    2,026096433e-01    1,093610004e-01    6,977776997e-03   -4,808661994e-03    0,000000000e+00    0,000000000e+00    0,000000000e+00    0,000000000e+00
     1290000000    2,233138531e-01   -6,322579831e-02    1,532735024e-02    2,747249044e-02    0,000000000e+00    0,000000000e+00    0,000000000e+00    0,000000000e+00
     1304000000    1,683164984e-01   -2,297708690e-01    6,097449735e-02    5,939087272e-02    0,000000000e+00    0,000000000e+00    0,000000000e+00    0,000000000e+00
     1318000000    2,662434615e-02   -3,644673526e-01    1,700059623e-01    2,488700300e-02    0,000000000e+00    0,000000000e+00    0,000000000e+00    0,000000000e+00
     1332000000   -1,491030455e-01   -3,968521953e-01    1,000077873e-01   -1,830314547e-01    0,000000000e+00    0,000000000e+00    0,000000000e+00    0,000000000e+00
     1346000000   -3,637934327e-01   -3,869306147e-01   -5,444032326e-02   -2,364817634e-02    0,000000000e+00    0,000000000e+00    0,000000000e+00    0,000000000e+00
     1360000000   -5,815652609e-01   -2,023364305e-01    6,218815595e-02    8,834500611e-02    0,000000000e+00    0,000000000e+00    0,000000000e+00    0,000000000e+00
     1374000000   -6,281623840e-01    1,002297401e-01    1,789672226e-01    4,435429722e-02    0,000000000e+00    0,000000000e+00    0,000000000e+00    0,000000000e+00
     1388000000   -4,768904746e-01    3,440125287e-01    2,126775086e-01   -3,739865497e-02    0,000000000e+00    0,000000000e+00    0,000000000e+00    0,000000000e+00
     1402000000   -2,421450317e-01    4,469975233e-01    2,161838561e-01   -7,700619847e-02    0,000000000e+00    0,000000000e+00    0,000000000e+00    0,000000000e+00
     1416000000   -3,571729362e-02    4,110826254e-01    1,990095377e-01   -1,048436984e-01    0,000000000e+00    0,000000000e+00    0,000000000e+00    0,000000000e+00
     1430000000    1,160317212e-01    3,086027503e-01    2,012440115e-01   -1,278818846e-01    0,000000000e+00    0,000000000e+00    0,000000000e+00    0,000000000e+00
     1444000000    2,049922794e-01    1,529539078e-01    1,704830080e-01   -1,056422517e-01    0,000000000e+00    0,000000000e+00    0,000000000e+00    0,000000000e+00
     1458000000    2,352137864e-01   -8,957611397e-03    1,436991990e-01   -8,244137466e-02    0,000000000e+00    0,000000000e+00    0,000000000e+00    0,000000000e+00
     1472000000    1,912147105e-01   -1,917585135e-01    1,336735487e-01   -3,715573624e-02    0,000000000e+00    0,000000000e+00    0,000000000e+00    0,000000000e+00
     1486000000    6,565370411e-02   -3,666126728e-01    1,511261165e-01    4,919645377e-03    0,000000000e+00    0,000000000e+00    0,000000000e+00    0,000000000e+00
     1500000000   -1,595449299e-01   -4,852633178e-01    2,252083719e-01    9,075390548e-02    0,000000000e+00    0,000000000e+00    0,000000000e+00    0,000000000e+00
