! NanoVNA-App
! Date: 2025-09-25 15:45:34
! Start: 100MHz Stop: 1,5GHz Points: 101
! S-Parameter data: F S11 S21 S12 S22
# Hz S RI R 50
!     Frequency           S11_Real           S11_Imag           S21_Real           S21_Imag           S12_Real           S12_Imag           S22_Real           S22_Imag
      100000000   -2,878599800e-02   -4,251967650e-03    3,740059435e-01   -7,215718627e-01    0,000000000e+00    0,000000000e+00    0,000000000e+00    0,000000000e+00
      114000000   -1,657182910e-02    1,149314828e-02   -8,911930025e-02   -8,052545786e-01    0,000000000e+00    0,000000000e+00    0,000000000e+00    0,000000000e+00
      128000000    3,368565580e-03    1,074824110e-02   -5,144512057e-01   -6,204932928e-01    0,000000000e+00    0,000000000e+00    0,000000000e+00    0,000000000e+00
      142000000    1,462593861e-02   -2,673723502e-03   -7,670174837e-01   -2,365218252e-01    0,000000000e+00    0,000000000e+00    0,000000000e+00    0,000000000e+00
      156000000    1,466959715e-02   -1,454897411e-02   -7,636936307e-01    2,187689692e-01    0,000000000e+00    0,000000000e+00    0,000000000e+00    0,000000000e+00
      170000000    1,699746400e-02   -2,249271795e-02   -5,180391669e-01    6,044992208e-01    0,000000000e+00    0,000000000e+00    0,000000000e+00    0,000000000e+00
      184000000    2,130798250e-02   -3,711633384e-02   -1,013472602e-01    7,856781483e-01    0,000000000e+00    0,000000000e+00    0,000000000e+00    0,000000000e+00
      198000000    1,322291419e-02   -6,250758469e-02    3,430615962e-01    7,121366262e-01    0,000000000e+00    0,000000000e+00    0,000000000e+00    0,000000000e+00
      212000000   -1,843871363e-02   -8,130425960e-02    6,778813601e-01    4,097610414e-01    0,000000000e+00    0,000000000e+00    0,000000000e+00    0,000000000e+00
      226000000   -6,141602248e-02   -6,923650205e-02    7,954634428e-01   -3,043326363e-02    0,000000000e+00    0,000000000e+00    0,000000000e+00    0,000000000e+00
      240000000   -8,234410733e-02   -2,579086460e-02    6,460305452e-01   -4,667209387e-01    0,000000000e+00    0,000000000e+00    0,000000000e+00    0,000000000e+00
      254000000   -6,340998411e-02    1,696358249e-02    2,761479914e-01   -7,426947951e-01    0,000000000e+00    0,000000000e+00    0,000000000e+00    0,000000000e+00
      268000000   -2,396207117e-02    2,878245153e-02   -1,776966006e-01   -7,640314102e-01    0,000000000e+00    0,000000000e+00    0,000000000e+00    0,000000000e+00
      282000000    4,096449353e-03    1,211244799e-02   -5,617974401e-01   -5,358791351e-01    0,000000000e+00    0,000000000e+00    0,000000000e+00    0,000000000e+00
      296000000    9,925629944e-03   -7,667718455e-03   -7,593282461e-01   -1,396588534e-01    0,000000000e+00    0,000000000e+00    0,000000000e+00    0,000000000e+00
      310000000    1,141049340e-02   -1,610877924e-02   -7,127855420e-01    2,973830402e-01    0,000000000e+00    0,000000000e+00    0,000000000e+00    0,000000000e+00
      324000000    1,995019242e-02   -2,675803192e-02   -4,265066683e-01    6,367326975e-01    0,000000000e+00    0,000000000e+00    0,000000000e+00    0,000000000e+00
      338000000    2,569091506e-02   -5,186849833e-02   -7,880957797e-03    7,593725920e-01    0,000000000e+00    0,000000000e+00    0,000000000e+00    0,000000000e+00
      352000000    7,700949907e-03   -8,471269161e-02    4,064492285e-01    6,393530965e-01    0,000000000e+00    0,000000000e+00    0,000000000e+00    0,000000000e+00
      366000000   -3,451683745e-02   -9,566468000e-02    6,899062395e-01    3,111683130e-01    0,000000000e+00    0,000000000e+00    0,000000000e+00    0,000000000e+00
      380000000   -7,038313895e-02   -7,106648386e-02    7,472233772e-01   -1,251524091e-01    0,000000000e+00    0,000000000e+00    0,000000000e+00    0,000000000e+00
      394000000   -7,213795930e-02   -3,241943568e-02    5,465165973e-01   -5,209381580e-01    0,000000000e+00    0,000000000e+00    0,000000000e+00    0,000000000e+00
      408000000   -4,656967521e-02   -1,626369357e-02    1,602873653e-01   -7,318737507e-01    0,000000000e+00    0,000000000e+00    0,000000000e+00    0,000000000e+00
      422000000   -2,823599055e-02   -3,226157650e-02   -2,678816617e-01   -6,952940822e-01    0,000000000e+00    0,000000000e+00    0,000000000e+00    0,000000000e+00
      436000000   -4,053798690e-02   -5,149142072e-02   -6,036473513e-01   -4,316324294e-01    0,000000000e+00    0,000000000e+00    0,000000000e+00    0,000000000e+00
      450000000   -6,737029552e-02   -4,396792874e-02   -7,395950556e-01   -2,246077918e-02    0,000000000e+00    0,000000000e+00    0,000000000e+00    0,000000000e+00
      464000000   -7,292593271e-02   -1,218267530e-02   -6,182209849e-01    3,970844746e-01    0,000000000e+00    0,000000000e+00    0,000000000e+00    0,000000000e+00
      478000000   -4,753783345e-02    1,143720374e-02   -2,836001515e-01    6,674379110e-01    0,000000000e+00    0,000000000e+00    0,000000000e+00    0,000000000e+00
      492000000   -1,586664096e-02    5,648508668e-03    1,371192485e-01    7,012500167e-01    0,000000000e+00    0,000000000e+00    0,000000000e+00    0,000000000e+00
      506000000   -2,568061696e-03   -1,588630490e-02    4,979577065e-01    5,022914410e-01    0,000000000e+00    0,000000000e+00    0,000000000e+00    0,000000000e+00
      520000000   -4,700763151e-03   -3,197230771e-02    6,897974014e-01    1,417635828e-01    0,000000000e+00    0,000000000e+00    0,000000000e+00    0,000000000e+00
      534000000   -3,948406316e-03   -3,789811209e-02    6,428241134e-01   -2,622318566e-01    0,000000000e+00    0,000000000e+00    0,000000000e+00    0,000000000e+00
      548000000    6,245125551e-03   -5,408834293e-02    3,816359043e-01   -5,662263036e-01    0,000000000e+00    0,000000000e+00    0,000000000e+00    0,000000000e+00
      562000000    3,084624652e-03   -8,974018693e-02    2,602765569e-03   -6,716904640e-01    0,000000000e+00    0,000000000e+00    0,000000000e+00    0,000000000e+00
      576000000   -3,405492753e-02   -1,241967157e-01   -3,680420220e-01   -5,568018556e-01    0,000000000e+00    0,000000000e+00    0,000000000e+00    0,000000000e+00
      590000000   -9,572037309e-02   -1,228319183e-01   -6,199894547e-01   -2,629314363e-01    0,000000000e+00    0,000000000e+00    0,000000000e+00    0,000000000e+00
      604000000   -1,385984868e-01   -7,265456766e-02   -6,639463902e-01    1,362794489e-01    0,000000000e+00    0,000000000e+00    0,000000000e+00    0,000000000e+00
      618000000   -1,296492368e-01   -9,981421754e-03   -4,649728239e-01    4,924923480e-01    0,000000000e+00    0,000000000e+00    0,000000000e+00    0,000000000e+00
      632000000   -8,468572795e-02    1,554974820e-02   -1,000768915e-01    6,625798941e-01    0,000000000e+00    0,000000000e+00    0,000000000e+00    0,000000000e+00
      646000000   -5,174265802e-02    7,561434904e-05    2,856152952e-01    5,935496688e-01    0,000000000e+00    0,000000000e+00    0,000000000e+00    0,000000000e+00
      660000000   -5,389399827e-02   -2,033137344e-02    5,649445057e-01    3,236124218e-01    0,000000000e+00    0,000000000e+00    0,000000000e+00    0,000000000e+00
      674000000   -7,028178871e-02   -1,657208428e-02    6,408291459e-01   -6,291799992e-02    0,000000000e+00    0,000000000e+00    0,000000000e+00    0,000000000e+00
      688000000   -6,761261076e-02    9,142003953e-03    4,711054564e-01   -4,242355824e-01    0,000000000e+00    0,000000000e+00    0,000000000e+00    0,000000000e+00
      702000000   -3,633907810e-02    2,498246357e-02    1,207687929e-01   -6,042559743e-01    0,000000000e+00    0,000000000e+00    0,000000000e+00    0,000000000e+00
      716000000    3,240505699e-03    1,582279243e-02   -2,594690025e-01   -5,442042947e-01    0,000000000e+00    0,000000000e+00    0,000000000e+00    0,000000000e+00
      730000000    3,690813854e-02   -1,454385556e-02   -5,217208266e-01   -2,718204260e-01    0,000000000e+00    0,000000000e+00    0,000000000e+00    0,000000000e+00
      744000000    6,257332116e-02   -6,553485990e-02   -5,604743958e-01    9,926278144e-02    0,000000000e+00    0,000000000e+00    0,000000000e+00    0,000000000e+00
      758000000    6,057782099e-02   -1,515068263e-01   -3,667770028e-01    4,001734853e-01    0,000000000e+00    0,000000000e+00    0,000000000e+00    0,000000000e+00
      772000000   -1,764911413e-02   -2,564047575e-01   -4,585069790e-02    5,094992518e-01    0,000000000e+00    0,000000000e+00    0,000000000e+00    0,000000000e+00
      786000000   -2,014269680e-01   -2,909737527e-01    2,598201036e-01    4,000121951e-01    0,000000000e+00    0,000000000e+00    0,000000000e+00    0,000000000e+00
      800000000   -4,064691961e-01   -1,268191040e-01    4,073581696e-01    1,190364435e-01    0,000000000e+00    0,000000000e+00    0,000000000e+00    0,000000000e+00
      814000000   -3,773270249e-01    2,010190040e-01    2,975138426e-01   -1,510932297e-01    0,000000000e+00    0,000000000e+00    0,000000000e+00    0,000000000e+00
      828000000   -6,336724758e-02    3,470831513e-01    8,288178593e-02   -1,913057715e-01    0,000000000e+00    0,000000000e+00    0,000000000e+00    0,000000000e+00
      842000000    2,117227018e-01    1,861195266e-01   -4,109274130e-03   -9,374734759e-02    0,000000000e+00    0,000000000e+00    0,000000000e+00    0,000000000e+00
      856000000    2,662450373e-01   -1,051611453e-01    3,503772616e-02   -3,719519824e-02    0,000000000e+00    0,000000000e+00    0,000000000e+00    0,000000000e+00
      870000000    8,310388029e-02   -3,510670960e-01    8,787344396e-02   -9,646660089e-02    0,000000000e+00    0,000000000e+00    0,000000000e+00    0,000000000e+00
      884000000   -2,669944167e-01   -3,561341465e-01    1,098644361e-02   -2,266675085e-01    0,000000000e+00    0,000000000e+00    0,000000000e+00    0,000000000e+00
      898000000   -4,575114548e-01   -1,507064700e-02   -2,139821947e-01   -2,096676826e-01    0,000000000e+00    0,000000000e+00    0,000000000e+00    0,000000000e+00
      912000000   -2,359529138e-01    2,792259157e-01   -3,447355032e-01    7,062347978e-02    0,000000000e+00    0,000000000e+00    0,000000000e+00    0,000000000e+00
      926000000    5,344299600e-02    2,612700462e-01   -2,111127377e-01    2,601638138e-01    0,000000000e+00    0,000000000e+00    0,000000000e+00    0,000000000e+00
      940000000    2,083058953e-01    8,320169896e-02   -3,062255308e-02    3,250224590e-01    0,000000000e+00    0,000000000e+00    0,000000000e+00    0,000000000e+00
      954000000    2,211124748e-01   -1,225344986e-01    1,328843534e-01    3,004111052e-01    0,000000000e+00    0,000000000e+00    0,000000000e+00    0,000000000e+00
      968000000    1,157187223e-01   -2,956658304e-01    2,685050964e-01    2,135258913e-01    0,000000000e+00    0,000000000e+00    0,000000000e+00    0,000000000e+00
      982000000   -7,942958176e-02   -3,861274719e-01    3,613510132e-01    6,291894615e-02    0,000000000e+00    0,000000000e+00    0,000000000e+00    0,000000000e+00
      996000000   -3,095400333e-01   -3,343201578e-01    3,629193604e-01   -1,425338984e-01    0,000000000e+00    0,000000000e+00    0,000000000e+00    0,000000000e+00
     1010000000   -4,622581303e-01   -1,158782765e-01    2,194644064e-01   -3,363646269e-01    0,000000000e+00    0,000000000e+00    0,000000000e+00    0,000000000e+00
     1024000000   -4,177855551e-01    1,416439712e-01   -2,910682186e-02   -3,850480914e-01    0,000000000e+00    0,000000000e+00    0,000000000e+00    0,000000000e+00
     1038000000   -2,222305536e-01    2,869877517e-01   -2,405671030e-01   -2,557910979e-01    0,000000000e+00    0,000000000e+00    0,000000000e+00    0,000000000e+00
     1052000000   -1,692131720e-02    2,799371183e-01   -3,098182082e-01   -4,580327496e-02    0,000000000e+00    0,000000000e+00    0,000000000e+00    0,000000000e+00
     1066000000    1,339615732e-01    1,710167378e-01   -2,500785887e-01    1,356467605e-01    0,000000000e+00    0,000000000e+00    0,000000000e+00    0,000000000e+00
     1080000000    1,928261369e-01    1,115355827e-02   -1,145573482e-01    2,537936866e-01    0,000000000e+00    0,000000000e+00    0,000000000e+00    0,000000000e+00
     1094000000    1,588121653e-01   -1,608544737e-01    6,066082418e-02    2,922507524e-01    0,000000000e+00    0,000000000e+00    0,000000000e+00    0,000000000e+00
     1108000000    1,674780622e-02   -2,980936468e-01    2,613418698e-01    2,317114025e-01    0,000000000e+00    0,000000000e+00    0,000000000e+00    0,000000000e+00
     1122000000   -2,116030753e-01   -2,793056965e-01    4,380280674e-01    2,631259523e-02    0,000000000e+00    0,000000000e+00    0,000000000e+00    0,000000000e+00
     1136000000   -3,217085898e-01   -3,306487575e-02    4,001231194e-01   -3,422791362e-01    0,000000000e+00    0,000000000e+00    0,000000000e+00    0,000000000e+00
     1150000000   -1,111382991e-01    1,380219907e-01    4,716377705e-02   -5,271830559e-01    0,000000000e+00    0,000000000e+00    0,000000000e+00    0,000000000e+00
     1164000000    8,270990849e-02   -1,665654033e-02   -2,507551014e-01   -4,027926326e-01    0,000000000e+00    0,000000000e+00    0,000000000e+00    0,000000000e+00
     1178000000    2,981250547e-02   -2,480735183e-01   -3,728723228e-01   -1,795822233e-01    0,000000000e+00    0,000000000e+00    0,000000000e+00    0,000000000e+00
     1192000000   -2,185879499e-01   -3,489045203e-01   -3,386292756e-01    3,957477957e-02    0,000000000e+00    0,000000000e+00    0,000000000e+00    0,000000000e+00
     1206000000   -4,753567576e-01   -1,863156557e-01   -1,890192032e-01    1,829012781e-01    0,000000000e+00    0,000000000e+00    0,000000000e+00    0,000000000e+00
     1220000000   -4,989398122e-01    1,362803280e-01   -9,095000103e-03    1,745765805e-01    0,000000000e+00    0,000000000e+00    0,000000000e+00    0,000000000e+00
     1234000000   -2,998407185e-01    3,413343430e-01    7,788739353e-02    8,285947144e-02    0,000000000e+00    0,000000000e+00    0,000000000e+00    0,000000000e+00
     1248000000   -6,224847212e-02    3,604439497e-01    6,314409524e-02   -1,101624453e-03    0,000000000e+00    0,000000000e+00    0,000000000e+00    0,000000000e+00
     1262000000    1,062785313e-01    2,614659369e-01    2,809434757e-02   -2,635453641e-02    0,000000000e+00    0,000000000e+00    0,000000000e+00    0,000000000e+00
     1276000000    2,046653777e-01    1,082043275e-01    8,798686787e-03   -8,210121654e-03    0,000000000e+00    0,000000000e+00    0,000000000e+00    0,000000000e+00
     1290000000    2,211917341e-01   -6,554496288e-02    1,042737439e-02    1,900689118e-02    0,000000000e+00    0,000000000e+00    0,000000000e+00    0,000000000e+00
     1304000000    1,652764380e-01   -2,349167615e-01    6,040934846e-02    5,532469973e-02    0,000000000e+00    0,000000000e+00    0,000000000e+00    0,000000000e+00
     1318000000    2,679325081e-02   -3,645116687e-01    1,748585105e-01    2,259084396e-02    0,000000000e+00    0,000000000e+00    0,000000000e+00    0,000000000e+00
     1332000000   -1,526868939e-01   -3,976840377e-01    1,051784679e-01   -1,739165187e-01    0,000000000e+00    0,000000000e+00    0,000000000e+00    0,000000000e+00
     1346000000   -3,649615645e-01   -3,883517087e-01   -6,437089294e-02   -2,093867585e-02    0,000000000e+00    0,000000000e+00    0,000000000e+00    0,000000000e+00
     1360000000   -5,823643804e-01   -2,046104223e-01    6,162548810e-02    8,876215667e-02    0,000000000e+00    0,000000000e+00    0,000000000e+00    0,000000000e+00
     1374000000   -6,259818673e-01    1,063669696e-01    1,810144037e-01    6,548100710e-02    0,000000000e+00    0,000000000e+00    0,000000000e+00    0,000000000e+00
     1388000000   -4,772470295e-01    3,557485640e-01    2,134341151e-01   -1,607776992e-02    0,000000000e+00    0,000000000e+00    0,000000000e+00    0,000000000e+00
     1402000000   -2,488121688e-01    4,482887685e-01    2,005124092e-01   -7,502813637e-02    0,000000000e+00    0,000000000e+00    0,000000000e+00    0,000000000e+00
     1416000000   -3,142746910e-02    4,139979482e-01    2,073508948e-01   -1,026270613e-01    0,000000000e+00    0,000000000e+00    0,000000000e+00    0,000000000e+00
     1430000000    1,110218465e-01    2,963364720e-01    1,829729527e-01   -1,004521772e-01    0,000000000e+00    0,000000000e+00    0,000000000e+00    0,000000000e+00
     1444000000    2,006862313e-01    1,553847790e-01    1,689785272e-01   -1,208616868e-01    0,000000000e+00    0,000000000e+00    0,000000000e+00    0,000000000e+00
     1458000000    2,287562340e-01   -1,297786366e-02    1,423180103e-01   -9,454911202e-02    0,000000000e+00    0,000000000e+00    0,000000000e+00    0,000000000e+00
     1472000000    1,917921454e-01   -1,920031607e-01    1,393799484e-01   -3,393055499e-02    0,000000000e+00    0,000000000e+00    0,000000000e+00    0,000000000e+00
     1486000000    6,598314643e-02   -3,730348647e-01    1,548296958e-01    1,584498398e-02    0,000000000e+00    0,000000000e+00    0,000000000e+00    0,000000000e+00
     1500000000   -1,605242640e-01   -4,883228242e-01    2,251455188e-01    7,457584888e-02    0,000000000e+00    0,000000000e+00    0,000000000e+00    0,000000000e+00
