! NanoVNA-App
! Date: 2025-09-25 15:40:04
! Start: 100MHz Stop: 1,5GHz Points: 101
! S-Parameter data: F S11 S21 S12 S22
# Hz S RI R 50
!     Frequency           S11_Real           S11_Imag           S21_Real           S21_Imag           S12_Real           S12_Imag           S22_Real           S22_Imag
      100000000   -2,859978937e-02   -4,225285724e-03    3,737896681e-01   -7,214692831e-01    0,000000000e+00    0,000000000e+00    0,000000000e+00    0,000000000e+00
      114000000   -1,639228687e-02    1,150943711e-02   -8,929099888e-02   -8,050975800e-01    0,000000000e+00    0,000000000e+00    0,000000000e+00    0,000000000e+00
      128000000    3,488180693e-03    1,069966983e-02   -5,142853260e-01   -6,199944615e-01    0,000000000e+00    0,000000000e+00    0,000000000e+00    0,000000000e+00
      142000000    1,478292048e-02   -2,646437846e-03   -7,667800784e-01   -2,362598330e-01    0,000000000e+00    0,000000000e+00    0,000000000e+00    0,000000000e+00
      156000000    1,614460908e-02   -1,423143875e-02   -7,685097456e-01    2,236148864e-01    0,000000000e+00    0,000000000e+00    0,000000000e+00    0,000000000e+00
      170000000    1,726770215e-02   -2,241846919e-02   -5,177908540e-01    6,042686105e-01    0,000000000e+00    0,000000000e+00    0,000000000e+00    0,000000000e+00
      184000000    2,145318314e-02   -3,716553375e-02   -1,012414843e-01    7,854106426e-01    0,000000000e+00    0,000000000e+00    0,000000000e+00    0,000000000e+00
      198000000    1,340005454e-02   -6,258076429e-02    3,431752026e-01    7,118360400e-01    0,000000000e+00    0,000000000e+00    0,000000000e+00    0,000000000e+00
      212000000   -1,832712628e-02   -8,129861206e-02    6,777648926e-01    4,096406996e-01    0,000000000e+00    0,000000000e+00    0,000000000e+00    0,000000000e+00
      226000000   -6,115388870e-02   -6,921081245e-02    7,951925993e-01   -3,061747923e-02    0,000000000e+00    0,000000000e+00    0,000000000e+00    0,000000000e+00
      240000000   -8,204253763e-02   -2,581840567e-02    6,454196572e-01   -4,667060077e-01    0,000000000e+00    0,000000000e+00    0,000000000e+00    0,000000000e+00
      254000000   -6,325086206e-02    1,685656607e-02    2,757930458e-01   -7,429306507e-01    0,000000000e+00    0,000000000e+00    0,000000000e+00    0,000000000e+00
      268000000   -2,377772145e-02    2,860552445e-02   -1,776673645e-01   -7,637739778e-01    0,000000000e+00    0,000000000e+00    0,000000000e+00    0,000000000e+00
      282000000    4,150678869e-03    1,197680086e-02   -5,614878535e-01   -5,353891850e-01    0,000000000e+00    0,000000000e+00    0,000000000e+00    0,000000000e+00
      296000000    9,958596900e-03   -7,593035232e-03   -7,593007684e-01   -1,394856870e-01    0,000000000e+00    0,000000000e+00    0,000000000e+00    0,000000000e+00
      310000000    1,173663419e-02   -1,627994701e-02   -7,119647264e-01    2,966776490e-01    0,000000000e+00    0,000000000e+00    0,000000000e+00    0,000000000e+00
      324000000    2,022448555e-02   -2,681222185e-02   -4,278252423e-01    6,375300288e-01    0,000000000e+00    0,000000000e+00    0,000000000e+00    0,000000000e+00
      338000000    2,566146478e-02   -5,256297812e-02   -6,857362576e-03    7,592134476e-01    0,000000000e+00    0,000000000e+00    0,000000000e+00    0,000000000e+00
      352000000    7,682580035e-03   -8,482247591e-02    4,056966305e-01    6,383853555e-01    0,000000000e+00    0,000000000e+00    0,000000000e+00    0,000000000e+00
      366000000   -3,434531763e-02   -9,545866400e-02    6,902172565e-01    3,108195364e-01    0,000000000e+00    0,000000000e+00    0,000000000e+00    0,000000000e+00
      380000000   -7,007791102e-02   -7,117128372e-02    7,474237680e-01   -1,254099607e-01    0,000000000e+00    0,000000000e+00    0,000000000e+00    0,000000000e+00
      394000000   -7,205406576e-02   -3,265733272e-02    5,456466079e-01   -5,220177770e-01    0,000000000e+00    0,000000000e+00    0,000000000e+00    0,000000000e+00
      408000000   -4,599843547e-02   -1,674918644e-02    1,609762311e-01   -7,327151299e-01    0,000000000e+00    0,000000000e+00    0,000000000e+00    0,000000000e+00
      422000000   -2,810961753e-02   -3,219864517e-02   -2,665249407e-01   -6,944824457e-01    0,000000000e+00    0,000000000e+00    0,000000000e+00    0,000000000e+00
      436000000   -4,039368778e-02   -5,195767060e-02   -6,034041643e-01   -4,323068857e-01    0,000000000e+00    0,000000000e+00    0,000000000e+00    0,000000000e+00
      450000000   -6,716356426e-02   -4,399654642e-02   -7,397279739e-01   -2,192017063e-02    0,000000000e+00    0,000000000e+00    0,000000000e+00    0,000000000e+00
      464000000   -7,292111218e-02   -1,187080238e-02   -6,180671453e-01    3,971061707e-01    0,000000000e+00    0,000000000e+00    0,000000000e+00    0,000000000e+00
      478000000   -4,735448584e-02    1,105127484e-02   -2,830214500e-01    6,672830582e-01    0,000000000e+00    0,000000000e+00    0,000000000e+00    0,000000000e+00
      492000000   -1,610765792e-02    5,555613432e-03    1,367010325e-01    7,005800605e-01    0,000000000e+00    0,000000000e+00    0,000000000e+00    0,000000000e+00
      506000000   -2,600941341e-03   -1,551567577e-02    4,982415140e-01    5,026731491e-01    0,000000000e+00    0,000000000e+00    0,000000000e+00    0,000000000e+00
      520000000   -5,173338577e-03   -3,117191419e-02    6,865298152e-01    1,417935193e-01    0,000000000e+00    0,000000000e+00    0,000000000e+00    0,000000000e+00
      534000000   -3,346560756e-03   -3,821030259e-02    6,432803273e-01   -2,621540725e-01    0,000000000e+00    0,000000000e+00    0,000000000e+00    0,000000000e+00
      548000000    6,591031794e-03   -5,395141244e-02    3,817992806e-01   -5,661110282e-01    0,000000000e+00    0,000000000e+00    0,000000000e+00    0,000000000e+00
      562000000    3,297637217e-03   -8,932346851e-02    3,134433646e-03   -6,708607078e-01    0,000000000e+00    0,000000000e+00    0,000000000e+00    0,000000000e+00
      576000000   -3,370274231e-02   -1,244323328e-01   -3,681218922e-01   -5,576156378e-01    0,000000000e+00    0,000000000e+00    0,000000000e+00    0,000000000e+00
      590000000   -9,559426457e-02   -1,225114688e-01   -6,187395453e-01   -2,646352053e-01    0,000000000e+00    0,000000000e+00    0,000000000e+00    0,000000000e+00
      604000000   -1,385262311e-01   -7,265838236e-02   -6,637361646e-01    1,363070756e-01    0,000000000e+00    0,000000000e+00    0,000000000e+00    0,000000000e+00
      618000000   -1,286664754e-01   -1,000369620e-02   -4,636430144e-01    4,918309450e-01    0,000000000e+00    0,000000000e+00    0,000000000e+00    0,000000000e+00
      632000000   -8,422479779e-02    1,630564593e-02   -1,004043892e-01    6,624173522e-01    0,000000000e+00    0,000000000e+00    0,000000000e+00    0,000000000e+00
      646000000   -5,236376822e-02    3,877271083e-04    2,852502465e-01    5,949054360e-01    0,000000000e+00    0,000000000e+00    0,000000000e+00    0,000000000e+00
      660000000   -5,331400782e-02   -2,030013502e-02    5,643826127e-01    3,235493302e-01    0,000000000e+00    0,000000000e+00    0,000000000e+00    0,000000000e+00
      674000000   -6,947892904e-02   -1,619494706e-02    6,405919790e-01   -6,333794445e-02    0,000000000e+00    0,000000000e+00    0,000000000e+00    0,000000000e+00
      688000000   -6,658325344e-02    8,615330793e-03    4,697227478e-01   -4,238342047e-01    0,000000000e+00    0,000000000e+00    0,000000000e+00    0,000000000e+00
      702000000   -3,474322706e-02    2,569448762e-02    1,197306141e-01   -6,070905924e-01    0,000000000e+00    0,000000000e+00    0,000000000e+00    0,000000000e+00
      716000000    2,900526626e-03    1,589648798e-02   -2,602969408e-01   -5,447691083e-01    0,000000000e+00    0,000000000e+00    0,000000000e+00    0,000000000e+00
      730000000    3,669697046e-02   -1,332055684e-02   -5,221430063e-01   -2,709585428e-01    0,000000000e+00    0,000000000e+00    0,000000000e+00    0,000000000e+00
      744000000    6,227024645e-02   -6,471975148e-02   -5,598055720e-01    9,887398779e-02    0,000000000e+00    0,000000000e+00    0,000000000e+00    0,000000000e+00
      758000000    6,070500612e-02   -1,518976986e-01   -3,659606278e-01    4,003684223e-01    0,000000000e+00    0,000000000e+00    0,000000000e+00    0,000000000e+00
      772000000   -1,790564135e-02   -2,565307021e-01   -4,502838477e-02    5,091229677e-01    0,000000000e+00    0,000000000e+00    0,000000000e+00    0,000000000e+00
      786000000   -2,030911595e-01   -2,910587490e-01    2,594061196e-01    3,977470994e-01    0,000000000e+00    0,000000000e+00    0,000000000e+00    0,000000000e+00
      800000000   -4,083148539e-01   -1,264250576e-01    4,066917896e-01    1,180901974e-01    0,000000000e+00    0,000000000e+00    0,000000000e+00    0,000000000e+00
      814000000   -3,765649498e-01    2,020452768e-01    2,958922982e-01   -1,510106474e-01    0,000000000e+00    0,000000000e+00    0,000000000e+00    0,000000000e+00
      828000000   -6,099166349e-02    3,486189246e-01    8,199024200e-02   -1,891263425e-01    0,000000000e+00    0,000000000e+00    0,000000000e+00    0,000000000e+00
      842000000    2,116845995e-01    1,846344471e-01   -3,277741140e-03   -9,271002561e-02    0,000000000e+00    0,000000000e+00    0,000000000e+00    0,000000000e+00
      856000000    2,658776939e-01   -1,065023765e-01    3,697517142e-02   -3,683616593e-02    0,000000000e+00    0,000000000e+00    0,000000000e+00    0,000000000e+00
      870000000    8,199565113e-02   -3,519690037e-01    8,898214251e-02   -9,826541692e-02    0,000000000e+00    0,000000000e+00    0,000000000e+00    0,000000000e+00
      884000000   -2,681254148e-01   -3,553974032e-01    1,155930851e-02   -2,275920212e-01    0,000000000e+00    0,000000000e+00    0,000000000e+00    0,000000000e+00
      898000000   -4,564938247e-01   -1,348588802e-02   -2,157713920e-01   -2,101331055e-01    0,000000000e+00    0,000000000e+00    0,000000000e+00    0,000000000e+00
      912000000   -2,346602827e-01    2,784498334e-01   -3,442861140e-01    6,978985667e-02    0,000000000e+00    0,000000000e+00    0,000000000e+00    0,000000000e+00
      926000000    5,449940264e-02    2,601347268e-01   -2,114833444e-01    2,611473501e-01    0,000000000e+00    0,000000000e+00    0,000000000e+00    0,000000000e+00
      940000000    2,094491869e-01    8,556878567e-02   -3,055590019e-02    3,261457980e-01    0,000000000e+00    0,000000000e+00    0,000000000e+00    0,000000000e+00
      954000000    2,226491719e-01   -1,224538237e-01    1,312956810e-01    2,998806834e-01    0,000000000e+00    0,000000000e+00    0,000000000e+00    0,000000000e+00
      968000000    1,197223216e-01   -2,936757207e-01    2,689473927e-01    2,140857875e-01    0,000000000e+00    0,000000000e+00    0,000000000e+00    0,000000000e+00
      982000000   -7,589612901e-02   -3,819677234e-01    3,601156473e-01    6,259436160e-02    0,000000000e+00    0,000000000e+00    0,000000000e+00    0,000000000e+00
      996000000   -3,084754050e-01   -3,330523074e-01    3,620258868e-01   -1,445795447e-01    0,000000000e+00    0,000000000e+00    0,000000000e+00    0,000000000e+00
     1010000000   -4,640652239e-01   -1,169462726e-01    2,194183916e-01   -3,344813883e-01    0,000000000e+00    0,000000000e+00    0,000000000e+00    0,000000000e+00
     1024000000   -4,132519364e-01    1,458717734e-01   -3,115612082e-02   -3,861225247e-01    0,000000000e+00    0,000000000e+00    0,000000000e+00    0,000000000e+00
     1038000000   -2,210420966e-01    2,862129807e-01   -2,421502620e-01   -2,543452978e-01    0,000000000e+00    0,000000000e+00    0,000000000e+00    0,000000000e+00
     1052000000   -1,800695807e-02    2,810919285e-01   -3,095684946e-01   -4,821028560e-02    0,000000000e+00    0,000000000e+00    0,000000000e+00    0,000000000e+00
     1066000000    1,314594895e-01    1,649935991e-01   -2,469368428e-01    1,416499764e-01    0,000000000e+00    0,000000000e+00    0,000000000e+00    0,000000000e+00
     1080000000    1,929173023e-01    4,105873872e-03   -1,158246771e-01    2,546145320e-01    0,000000000e+00    0,000000000e+00    0,000000000e+00    0,000000000e+00
     1094000000    1,581375450e-01   -1,640619338e-01    6,065226719e-02    2,936548591e-01    0,000000000e+00    0,000000000e+00    0,000000000e+00    0,000000000e+00
     1108000000    1,767277345e-02   -2,995408475e-01    2,637822330e-01    2,350295484e-01    0,000000000e+00    0,000000000e+00    0,000000000e+00    0,000000000e+00
     1122000000   -2,151637375e-01   -2,786270082e-01    4,385737479e-01    2,387215383e-02    0,000000000e+00    0,000000000e+00    0,000000000e+00    0,000000000e+00
     1136000000   -3,229664266e-01   -3,155252710e-02    4,007265866e-01   -3,440892994e-01    0,000000000e+00    0,000000000e+00    0,000000000e+00    0,000000000e+00
     1150000000   -1,091585010e-01    1,355571151e-01    4,720815644e-02   -5,300154090e-01    0,000000000e+00    0,000000000e+00    0,000000000e+00    0,000000000e+00
     1164000000    8,626697958e-02   -2,018022537e-02   -2,519485950e-01   -4,041973054e-01    0,000000000e+00    0,000000000e+00    0,000000000e+00    0,000000000e+00
     1178000000    2,444849908e-02   -2,527612448e-01   -3,739810884e-01   -1,779598296e-01    0,000000000e+00    0,000000000e+00    0,000000000e+00    0,000000000e+00
     1192000000   -2,240135819e-01   -3,452835977e-01   -3,380334973e-01    4,058555886e-02    0,000000000e+00    0,000000000e+00    0,000000000e+00    0,000000000e+00
     1206000000   -4,853278697e-01   -1,792325824e-01   -1,922995597e-01    1,818228513e-01    0,000000000e+00    0,000000000e+00    0,000000000e+00    0,000000000e+00
     1220000000   -4,963475168e-01    1,404261887e-01   -6,984309759e-03    1,749597937e-01    0,000000000e+00    0,000000000e+00    0,000000000e+00    0,000000000e+00
     1234000000   -2,998552620e-01    3,463312984e-01    7,280377299e-02    8,246692270e-02    0,000000000e+00    0,000000000e+00    0,000000000e+00    0,000000000e+00
     1248000000   -5,788802356e-02    3,559301794e-01    6,624395400e-02    1,605935628e-03    0,000000000e+00    0,000000000e+00    0,000000000e+00    0,000000000e+00
     1262000000    1,101757735e-01    2,569875717e-01    2,649523877e-02   -2,324805036e-02    0,000000000e+00    0,000000000e+00    0,000000000e+00    0,000000000e+00
     1276000000    2,017088830e-01    1,118096411e-01    7,406979334e-03   -4,337118939e-03    0,000000000e+00    0,000000000e+00    0,000000000e+00    0,000000000e+00
     1290000000    2,232804745e-01   -6,333047897e-02    1,279524993e-02    2,644016966e-02    0,000000000e+00    0,000000000e+00    0,000000000e+00    0,000000000e+00
     1304000000    1,659906805e-01   -2,365109473e-01    6,277535856e-02    5,664260685e-02    0,000000000e+00    0,000000000e+00    0,000000000e+00    0,000000000e+00
     1318000000    2,513022907e-02   -3,654913604e-01    1,678503752e-01    1,449039765e-02    0,000000000e+00    0,000000000e+00    0,000000000e+00    0,000000000e+00
     1332000000   -1,522509754e-01   -3,961611986e-01    9,648127854e-02   -1,806079894e-01    0,000000000e+00    0,000000000e+00    0,000000000e+00    0,000000000e+00
     1346000000   -3,657936752e-01   -3,967466950e-01   -5,801682547e-02   -2,117224969e-02    0,000000000e+00    0,000000000e+00    0,000000000e+00    0,000000000e+00
     1360000000   -5,886347890e-01   -2,110599875e-01    6,201941147e-02    8,569013327e-02    0,000000000e+00    0,000000000e+00    0,000000000e+00    0,000000000e+00
     1374000000   -6,324102879e-01    1,081926525e-01    1,719336510e-01    5,644563958e-02    0,000000000e+00    0,000000000e+00    0,000000000e+00    0,000000000e+00
     1388000000   -4,663193822e-01    3,502268493e-01    2,272155285e-01   -2,661772445e-02    0,000000000e+00    0,000000000e+00    0,000000000e+00    0,000000000e+00
     1402000000   -2,447209805e-01    4,447375238e-01    2,191943675e-01   -7,910399139e-02    0,000000000e+00    0,000000000e+00    0,000000000e+00    0,000000000e+00
     1416000000   -3,467832133e-02    4,109497070e-01    1,958756000e-01   -1,135755703e-01    0,000000000e+00    0,000000000e+00    0,000000000e+00    0,000000000e+00
     1430000000    1,065653637e-01    3,048332632e-01    1,723776013e-01   -1,179141849e-01    0,000000000e+00    0,000000000e+00    0,000000000e+00    0,000000000e+00
     1444000000    1,957454383e-01    1,577648371e-01    1,555462927e-01   -1,052851528e-01    0,000000000e+00    0,000000000e+00    0,000000000e+00    0,000000000e+00
     1458000000    2,327911258e-01   -1,357087400e-02    1,545221359e-01   -8,158400655e-02    0,000000000e+00    0,000000000e+00    0,000000000e+00    0,000000000e+00
     1472000000    1,873611361e-01   -1,924565881e-01    1,361370683e-01   -3,340854868e-02    0,000000000e+00    0,000000000e+00    0,000000000e+00    0,000000000e+00
     1486000000    6,306679547e-02   -3,704558015e-01    1,597255170e-01    1,636155695e-02    0,000000000e+00    0,000000000e+00    0,000000000e+00    0,000000000e+00
     1500000000   -1,621889025e-01   -5,008581281e-01    2,337433994e-01    6,644450873e-02    0,000000000e+00    0,000000000e+00    0,000000000e+00    0,000000000e+00
