! NanoVNA-App
! Date: 2025-09-25 15:39:26
! Start: 100MHz Stop: 1,5GHz Points: 101
! S-Parameter data: F S11 S21 S12 S22
# Hz S RI R 50
!     Frequency           S11_Real           S11_Imag           S21_Real           S21_Imag           S12_Real           S12_Imag           S22_Real           S22_Imag
      100000000   -2,863275819e-02   -4,222249147e-03    3,738196790e-01   -7,215402722e-01    0,000000000e+00    0,000000000e+00    0,000000000e+00    0,000000000e+00
      114000000   -1,644012332e-02    1,144118328e-02   -8,927091211e-02   -8,050844669e-01    0,000000000e+00    0,000000000e+00    0,000000000e+00    0,000000000e+00
      128000000    3,491916694e-03    1,074131485e-02   -5,145386457e-01   -6,202498078e-01    0,000000000e+00    0,000000000e+00    0,000000000e+00    0,000000000e+00
      142000000    1,473414525e-02   -2,629440511e-03   -7,667546868e-01   -2,362597436e-01    0,000000000e+00    0,000000000e+00    0,000000000e+00    0,000000000e+00
      156000000    1,517132670e-02   -1,453012414e-02   -7,652516365e-01    2,215065211e-01    0,000000000e+00    0,000000000e+00    0,000000000e+00    0,000000000e+00
      170000000    1,726370119e-02   -2,249060012e-02   -5,179847479e-01    6,044165492e-01    0,000000000e+00    0,000000000e+00    0,000000000e+00    0,000000000e+00
      184000000    2,148411982e-02   -3,717066720e-02   -1,012376174e-01    7,856308818e-01    0,000000000e+00    0,000000000e+00    0,000000000e+00    0,000000000e+00
      198000000    1,329458505e-02   -6,256823242e-02    3,431019187e-01    7,119283080e-01    0,000000000e+00    0,000000000e+00    0,000000000e+00    0,000000000e+00
      212000000   -1,837093011e-02   -8,127971739e-02    6,778705120e-01    4,097081125e-01    0,000000000e+00    0,000000000e+00    0,000000000e+00    0,000000000e+00
      226000000   -6,128616631e-02   -6,920878589e-02    7,953028679e-01   -3,066569567e-02    0,000000000e+00    0,000000000e+00    0,000000000e+00    0,000000000e+00
      240000000   -8,205161989e-02   -2,585206926e-02    6,455696225e-01   -4,668800235e-01    0,000000000e+00    0,000000000e+00    0,000000000e+00    0,000000000e+00
      254000000   -6,326371431e-02    1,684184186e-02    2,759350836e-01   -7,427434325e-01    0,000000000e+00    0,000000000e+00    0,000000000e+00    0,000000000e+00
      268000000   -2,383097075e-02    2,872929908e-02   -1,780042648e-01   -7,634350061e-01    0,000000000e+00    0,000000000e+00    0,000000000e+00    0,000000000e+00
      282000000    4,129147157e-03    1,194530260e-02   -5,615615845e-01   -5,355141759e-01    0,000000000e+00    0,000000000e+00    0,000000000e+00    0,000000000e+00
      296000000    9,946430102e-03   -7,506467868e-03   -7,590943575e-01   -1,393450201e-01    0,000000000e+00    0,000000000e+00    0,000000000e+00    0,000000000e+00
      310000000    1,161220297e-02   -1,615897566e-02   -7,112065554e-01    2,974912822e-01    0,000000000e+00    0,000000000e+00    0,000000000e+00    0,000000000e+00
      324000000    2,017006837e-02   -2,659531124e-02   -4,263500869e-01    6,368796825e-01    0,000000000e+00    0,000000000e+00    0,000000000e+00    0,000000000e+00
      338000000    2,581617609e-02   -5,198172852e-02   -8,544128388e-03    7,593390346e-01    0,000000000e+00    0,000000000e+00    0,000000000e+00    0,000000000e+00
      352000000    7,454987150e-03   -8,488857001e-02    4,056112766e-01    6,397294998e-01    0,000000000e+00    0,000000000e+00    0,000000000e+00    0,000000000e+00
      366000000   -3,461410105e-02   -9,563199431e-02    6,894305348e-01    3,109627366e-01    0,000000000e+00    0,000000000e+00    0,000000000e+00    0,000000000e+00
      380000000   -7,021333277e-02   -7,110029459e-02    7,472161055e-01   -1,255889833e-01    0,000000000e+00    0,000000000e+00    0,000000000e+00    0,000000000e+00
      394000000   -7,208897173e-02   -3,292620555e-02    5,453118086e-01   -5,222401619e-01    0,000000000e+00    0,000000000e+00    0,000000000e+00    0,000000000e+00
      408000000   -4,608901963e-02   -1,655279659e-02    1,602449864e-01   -7,314661145e-01    0,000000000e+00    0,000000000e+00    0,000000000e+00    0,000000000e+00
      422000000   -2,830838785e-02   -3,236730397e-02   -2,675305903e-01   -6,947662830e-01    0,000000000e+00    0,000000000e+00    0,000000000e+00    0,000000000e+00
      436000000   -4,063606635e-02   -5,173662305e-02   -6,040266156e-01   -4,312044382e-01    0,000000000e+00    0,000000000e+00    0,000000000e+00    0,000000000e+00
      450000000   -6,692224741e-02   -4,376225919e-02   -7,397120595e-01   -2,159800753e-02    0,000000000e+00    0,000000000e+00    0,000000000e+00    0,000000000e+00
      464000000   -7,273808867e-02   -1,213122346e-02   -6,184138656e-01    3,965297043e-01    0,000000000e+00    0,000000000e+00    0,000000000e+00    0,000000000e+00
      478000000   -4,774725437e-02    1,118300669e-02   -2,823301256e-01    6,672489643e-01    0,000000000e+00    0,000000000e+00    0,000000000e+00    0,000000000e+00
      492000000   -1,594970375e-02    5,288305692e-03    1,369891614e-01    7,004588246e-01    0,000000000e+00    0,000000000e+00    0,000000000e+00    0,000000000e+00
      506000000   -2,605814952e-03   -1,605474576e-02    4,980207384e-01    5,019178391e-01    0,000000000e+00    0,000000000e+00    0,000000000e+00    0,000000000e+00
      520000000   -5,158555228e-03   -3,145489469e-02    6,875653863e-01    1,404476911e-01    0,000000000e+00    0,000000000e+00    0,000000000e+00    0,000000000e+00
      534000000   -3,173420206e-03   -3,799797222e-02    6,431747079e-01   -2,619763017e-01    0,000000000e+00    0,000000000e+00    0,000000000e+00    0,000000000e+00
      548000000    6,185686681e-03   -5,431396514e-02    3,816049695e-01   -5,661519170e-01    0,000000000e+00    0,000000000e+00    0,000000000e+00    0,000000000e+00
      562000000    3,469142830e-03   -8,927649260e-02    2,886572387e-03   -6,710235476e-01    0,000000000e+00    0,000000000e+00    0,000000000e+00    0,000000000e+00
      576000000   -3,370976076e-02   -1,243289933e-01   -3,677295744e-01   -5,571917892e-01    0,000000000e+00    0,000000000e+00    0,000000000e+00    0,000000000e+00
      590000000   -9,565586597e-02   -1,226088181e-01   -6,199829578e-01   -2,621316612e-01    0,000000000e+00    0,000000000e+00    0,000000000e+00    0,000000000e+00
      604000000   -1,385360956e-01   -7,214808464e-02   -6,633321643e-01    1,368209124e-01    0,000000000e+00    0,000000000e+00    0,000000000e+00    0,000000000e+00
      618000000   -1,293366402e-01   -1,035253238e-02   -4,641331136e-01    4,932622910e-01    0,000000000e+00    0,000000000e+00    0,000000000e+00    0,000000000e+00
      632000000   -8,486189693e-02    1,613867283e-02   -9,956780821e-02    6,621053815e-01    0,000000000e+00    0,000000000e+00    0,000000000e+00    0,000000000e+00
      646000000   -5,255862698e-02    5,360491341e-04    2,856756747e-01    5,937287211e-01    0,000000000e+00    0,000000000e+00    0,000000000e+00    0,000000000e+00
      660000000   -5,323190242e-02   -2,065093629e-02    5,647813082e-01    3,230619133e-01    0,000000000e+00    0,000000000e+00    0,000000000e+00    0,000000000e+00
      674000000   -6,936219335e-02   -1,616943441e-02    6,403909922e-01   -6,311465055e-02    0,000000000e+00    0,000000000e+00    0,000000000e+00    0,000000000e+00
      688000000   -6,738732755e-02    9,914771654e-03    4,695176184e-01   -4,237720370e-01    0,000000000e+00    0,000000000e+00    0,000000000e+00    0,000000000e+00
      702000000   -3,637485951e-02    2,543313056e-02    1,253040433e-01   -6,068810225e-01    0,000000000e+00    0,000000000e+00    0,000000000e+00    0,000000000e+00
      716000000    4,015331622e-03    1,575506479e-02   -2,590976655e-01   -5,448856950e-01    0,000000000e+00    0,000000000e+00    0,000000000e+00    0,000000000e+00
      730000000    3,732410446e-02   -1,342102326e-02   -5,221230388e-01   -2,705920637e-01    0,000000000e+00    0,000000000e+00    0,000000000e+00    0,000000000e+00
      744000000    6,247982383e-02   -6,471914798e-02   -5,599430799e-01    9,891413897e-02    0,000000000e+00    0,000000000e+00    0,000000000e+00    0,000000000e+00
      758000000    6,111196429e-02   -1,512211859e-01   -3,659536242e-01    4,002981186e-01    0,000000000e+00    0,000000000e+00    0,000000000e+00    0,000000000e+00
      772000000   -1,666663028e-02   -2,560215294e-01   -4,510810971e-02    5,086867809e-01    0,000000000e+00    0,000000000e+00    0,000000000e+00    0,000000000e+00
      786000000   -2,029759288e-01   -2,908418179e-01    2,595511973e-01    3,979803920e-01    0,000000000e+00    0,000000000e+00    0,000000000e+00    0,000000000e+00
      800000000   -4,074119031e-01   -1,272547245e-01    4,069042504e-01    1,180317476e-01    0,000000000e+00    0,000000000e+00    0,000000000e+00    0,000000000e+00
      814000000   -3,756733537e-01    2,023844570e-01    2,950145304e-01   -1,506341398e-01    0,000000000e+00    0,000000000e+00    0,000000000e+00    0,000000000e+00
      828000000   -6,155697256e-02    3,470401168e-01    8,207462728e-02   -1,898318529e-01    0,000000000e+00    0,000000000e+00    0,000000000e+00    0,000000000e+00
      842000000    2,121086121e-01    1,848505437e-01   -2,610995434e-03   -9,247118980e-02    0,000000000e+00    0,000000000e+00    0,000000000e+00    0,000000000e+00
      856000000    2,656052411e-01   -1,066372246e-01    3,663530946e-02   -3,709670156e-02    0,000000000e+00    0,000000000e+00    0,000000000e+00    0,000000000e+00
      870000000    8,205812424e-02   -3,514849246e-01    8,947131783e-02   -9,807929397e-02    0,000000000e+00    0,000000000e+00    0,000000000e+00    0,000000000e+00
      884000000   -2,667093873e-01   -3,561009765e-01    1,125417557e-02   -2,281737775e-01    0,000000000e+00    0,000000000e+00    0,000000000e+00    0,000000000e+00
      898000000   -4,579248130e-01   -1,329267956e-02   -2,159490734e-01   -2,101475149e-01    0,000000000e+00    0,000000000e+00    0,000000000e+00    0,000000000e+00
      912000000   -2,352373153e-01    2,783953249e-01   -3,397395909e-01    6,265933812e-02    0,000000000e+00    0,000000000e+00    0,000000000e+00    0,000000000e+00
      926000000    5,334549770e-02    2,623872459e-01   -2,112592459e-01    2,620018721e-01    0,000000000e+00    0,000000000e+00    0,000000000e+00    0,000000000e+00
      940000000    2,074971944e-01    8,323688805e-02   -3,128839657e-02    3,250150383e-01    0,000000000e+00    0,000000000e+00    0,000000000e+00    0,000000000e+00
      954000000    2,203061730e-01   -1,200657636e-01    1,313681453e-01    3,002054393e-01    0,000000000e+00    0,000000000e+00    0,000000000e+00    0,000000000e+00
      968000000    1,157864332e-01   -2,957639992e-01    2,684040368e-01    2,137975991e-01    0,000000000e+00    0,000000000e+00    0,000000000e+00    0,000000000e+00
      982000000   -7,647870481e-02   -3,816084564e-01    3,599500656e-01    6,364914775e-02    0,000000000e+00    0,000000000e+00    0,000000000e+00    0,000000000e+00
      996000000   -3,117952347e-01   -3,340065181e-01    3,627333939e-01   -1,444666237e-01    0,000000000e+00    0,000000000e+00    0,000000000e+00    0,000000000e+00
     1010000000   -4,591657519e-01   -1,198202223e-01    2,204773277e-01   -3,371933103e-01    0,000000000e+00    0,000000000e+00    0,000000000e+00    0,000000000e+00
     1024000000   -4,189762771e-01    1,439483017e-01   -3,089883178e-02   -3,855271935e-01    0,000000000e+00    0,000000000e+00    0,000000000e+00    0,000000000e+00
     1038000000   -2,198083848e-01    2,919992805e-01   -2,425657660e-01   -2,565251887e-01    0,000000000e+00    0,000000000e+00    0,000000000e+00    0,000000000e+00
     1052000000   -1,588200592e-02    2,766488492e-01   -3,113383651e-01   -4,682205617e-02    0,000000000e+00    0,000000000e+00    0,000000000e+00    0,000000000e+00
     1066000000    1,352640837e-01    1,666166782e-01   -2,515043616e-01    1,394609958e-01    0,000000000e+00    0,000000000e+00    0,000000000e+00    0,000000000e+00
     1080000000    1,892782897e-01    7,098712958e-03   -1,155274063e-01    2,543457747e-01    0,000000000e+00    0,000000000e+00    0,000000000e+00    0,000000000e+00
     1094000000    1,597612202e-01   -1,601965576e-01    5,919992551e-02    2,890984416e-01    0,000000000e+00    0,000000000e+00    0,000000000e+00    0,000000000e+00
     1108000000    2,117838711e-02   -2,964841425e-01    2,595788538e-01    2,362203449e-01    0,000000000e+00    0,000000000e+00    0,000000000e+00    0,000000000e+00
     1122000000   -2,105094790e-01   -2,830342352e-01    4,394379854e-01    2,414715663e-02    0,000000000e+00    0,000000000e+00    0,000000000e+00    0,000000000e+00
     1136000000   -3,275816441e-01   -3,291039914e-02    3,977008164e-01   -3,455830514e-01    0,000000000e+00    0,000000000e+00    0,000000000e+00    0,000000000e+00
     1150000000   -1,011964232e-01    1,407654583e-01    4,763334244e-02   -5,294424891e-01    0,000000000e+00    0,000000000e+00    0,000000000e+00    0,000000000e+00
     1164000000    8,516642451e-02   -2,162280679e-02   -2,529342175e-01   -4,028322399e-01    0,000000000e+00    0,000000000e+00    0,000000000e+00    0,000000000e+00
     1178000000    2,812970988e-02   -2,536348104e-01   -3,701939285e-01   -1,769856960e-01    0,000000000e+00    0,000000000e+00    0,000000000e+00    0,000000000e+00
     1192000000   -2,208348513e-01   -3,475909531e-01   -3,388805091e-01    4,156934842e-02    0,000000000e+00    0,000000000e+00    0,000000000e+00    0,000000000e+00
     1206000000   -4,853125811e-01   -1,797966808e-01   -1,915578395e-01    1,833358109e-01    0,000000000e+00    0,000000000e+00    0,000000000e+00    0,000000000e+00
     1220000000   -5,009230971e-01    1,413789541e-01   -7,766894531e-03    1,793921888e-01    0,000000000e+00    0,000000000e+00    0,000000000e+00    0,000000000e+00
     1234000000   -2,995395362e-01    3,389414847e-01    7,343856990e-02    7,259665430e-02    0,000000000e+00    0,000000000e+00    0,000000000e+00    0,000000000e+00
     1248000000   -5,991522968e-02    3,582965434e-01    6,967570633e-02   -3,697186185e-04    0,000000000e+00    0,000000000e+00    0,000000000e+00    0,000000000e+00
     1262000000    1,060049459e-01    2,598451674e-01    2,839242853e-02   -2,648126706e-02    0,000000000e+00    0,000000000e+00    0,000000000e+00    0,000000000e+00
     1276000000    2,049316168e-01    1,027808934e-01    4,729467910e-03   -8,299185894e-03    0,000000000e+00    0,000000000e+00    0,000000000e+00    0,000000000e+00
     1290000000    2,168027014e-01   -6,095403805e-02    9,859059937e-03    2,893832326e-02    0,000000000e+00    0,000000000e+00    0,000000000e+00    0,000000000e+00
     1304000000    1,662719697e-01   -2,353772521e-01    5,980136618e-02    5,882330984e-02    0,000000000e+00    0,000000000e+00    0,000000000e+00    0,000000000e+00
     1318000000    2,459392138e-02   -3,672256470e-01    1,735003740e-01    1,123260986e-02    0,000000000e+00    0,000000000e+00    0,000000000e+00    0,000000000e+00
     1332000000   -1,517176032e-01   -3,931861222e-01    9,810417145e-02   -1,784596294e-01    0,000000000e+00    0,000000000e+00    0,000000000e+00    0,000000000e+00
     1346000000   -3,642403781e-01   -3,920280635e-01   -5,965008959e-02   -1,540672407e-02    0,000000000e+00    0,000000000e+00    0,000000000e+00    0,000000000e+00
     1360000000   -5,923042893e-01   -2,067125589e-01    5,732911080e-02    7,513851672e-02    0,000000000e+00    0,000000000e+00    0,000000000e+00    0,000000000e+00
     1374000000   -6,213815212e-01    1,007891968e-01    1,846119165e-01    4,222936183e-02    0,000000000e+00    0,000000000e+00    0,000000000e+00    0,000000000e+00
     1388000000   -4,773989916e-01    3,448225856e-01    2,259193212e-01   -2,799305506e-02    0,000000000e+00    0,000000000e+00    0,000000000e+00    0,000000000e+00
     1402000000   -2,468784004e-01    4,409465790e-01    2,073147595e-01   -8,727006614e-02    0,000000000e+00    0,000000000e+00    0,000000000e+00    0,000000000e+00
     1416000000   -4,026528820e-02    4,184426069e-01    1,980419159e-01   -9,523149580e-02    0,000000000e+00    0,000000000e+00    0,000000000e+00    0,000000000e+00
     1430000000    1,180068851e-01    3,063822389e-01    1,938153654e-01   -1,436083317e-01    0,000000000e+00    0,000000000e+00    0,000000000e+00    0,000000000e+00
     1444000000    1,980790794e-01    1,577449143e-01    1,623523235e-01   -1,129291803e-01    0,000000000e+00    0,000000000e+00    0,000000000e+00    0,000000000e+00
     1458000000    2,348084599e-01   -1,296208519e-02    1,486593932e-01   -8,524018526e-02    0,000000000e+00    0,000000000e+00    0,000000000e+00    0,000000000e+00
     1472000000    1,887780279e-01   -1,924874932e-01    1,423349679e-01   -3,913478926e-02    0,000000000e+00    0,000000000e+00    0,000000000e+00    0,000000000e+00
     1486000000    7,057143003e-02   -3,615241945e-01    1,673702896e-01    1,975391619e-02    0,000000000e+00    0,000000000e+00    0,000000000e+00    0,000000000e+00
     1500000000   -1,666993052e-01   -4,978855848e-01    2,313102335e-01    7,121587545e-02    0,000000000e+00    0,000000000e+00    0,000000000e+00    0,000000000e+00
