! NanoVNA-App
! Date: 2025-09-25 15:41:15
! Start: 100MHz Stop: 1,5GHz Points: 101
! S-Parameter data: F S11 S21 S12 S22
# Hz S RI R 50
!     Frequency           S11_Real           S11_Imag           S21_Real           S21_Imag           S12_Real           S12_Imag           S22_Real           S22_Imag
      100000000   -2,872394957e-02   -4,247560166e-03    3,739054501e-01   -7,215204835e-01    0,000000000e+00    0,000000000e+00    0,000000000e+00    0,000000000e+00
      114000000   -1,651429385e-02    1,147248223e-02   -8,912964165e-02   -8,051527143e-01    0,000000000e+00    0,000000000e+00    0,000000000e+00    0,000000000e+00
      128000000    3,493856639e-03    1,066304371e-02   -5,143591166e-01   -6,201651096e-01    0,000000000e+00    0,000000000e+00    0,000000000e+00    0,000000000e+00
      142000000    1,467529498e-02   -2,642822452e-03   -7,667691708e-01   -2,364613712e-01    0,000000000e+00    0,000000000e+00    0,000000000e+00    0,000000000e+00
      156000000    1,645664498e-02   -1,405235101e-02   -7,720016241e-01    2,245751768e-01    0,000000000e+00    0,000000000e+00    0,000000000e+00    0,000000000e+00
      170000000    1,718211547e-02   -2,252690122e-02   -5,179665685e-01    6,045655012e-01    0,000000000e+00    0,000000000e+00    0,000000000e+00    0,000000000e+00
      184000000    2,135544457e-02   -3,719056770e-02   -1,014842391e-01    7,859218717e-01    0,000000000e+00    0,000000000e+00    0,000000000e+00    0,000000000e+00
      198000000    1,326899976e-02   -6,256143004e-02    3,431561589e-01    7,121671438e-01    0,000000000e+00    0,000000000e+00    0,000000000e+00    0,000000000e+00
      212000000   -1,843518950e-02   -8,132331818e-02    6,776801944e-01    4,098128378e-01    0,000000000e+00    0,000000000e+00    0,000000000e+00    0,000000000e+00
      226000000   -6,133834645e-02   -6,929152459e-02    7,953321934e-01   -3,046339005e-02    0,000000000e+00    0,000000000e+00    0,000000000e+00    0,000000000e+00
      240000000   -8,221144229e-02   -2,580510639e-02    6,457079649e-01   -4,665945470e-01    0,000000000e+00    0,000000000e+00    0,000000000e+00    0,000000000e+00
      254000000   -6,338720024e-02    1,688632369e-02    2,761791945e-01   -7,429350615e-01    0,000000000e+00    0,000000000e+00    0,000000000e+00    0,000000000e+00
      268000000   -2,389723249e-02    2,873380110e-02   -1,781937480e-01   -7,638888359e-01    0,000000000e+00    0,000000000e+00    0,000000000e+00    0,000000000e+00
      282000000    4,103491548e-03    1,209582854e-02   -5,616185069e-01   -5,353983045e-01    0,000000000e+00    0,000000000e+00    0,000000000e+00    0,000000000e+00
      296000000    9,944817051e-03   -7,491166238e-03   -7,592402697e-01   -1,396275312e-01    0,000000000e+00    0,000000000e+00    0,000000000e+00    0,000000000e+00
      310000000    1,159006264e-02   -1,599949971e-02   -7,125164270e-01    2,990712225e-01    0,000000000e+00    0,000000000e+00    0,000000000e+00    0,000000000e+00
      324000000    2,016887441e-02   -2,668805793e-02   -4,262384772e-01    6,371901035e-01    0,000000000e+00    0,000000000e+00    0,000000000e+00    0,000000000e+00
      338000000    2,590261027e-02   -5,232353136e-02   -1,019997336e-02    7,603732944e-01    0,000000000e+00    0,000000000e+00    0,000000000e+00    0,000000000e+00
      352000000    7,566518616e-03   -8,483382314e-02    4,073424041e-01    6,394622922e-01    0,000000000e+00    0,000000000e+00    0,000000000e+00    0,000000000e+00
      366000000   -3,458206356e-02   -9,541758895e-02    6,901661158e-01    3,117713332e-01    0,000000000e+00    0,000000000e+00    0,000000000e+00    0,000000000e+00
      380000000   -7,033046335e-02   -7,109489292e-02    7,470715046e-01   -1,259102523e-01    0,000000000e+00    0,000000000e+00    0,000000000e+00    0,000000000e+00
      394000000   -7,199396193e-02   -3,240932152e-02    5,460249782e-01   -5,211845040e-01    0,000000000e+00    0,000000000e+00    0,000000000e+00    0,000000000e+00
      408000000   -4,634704068e-02   -1,626206562e-02    1,603254825e-01   -7,311599851e-01    0,000000000e+00    0,000000000e+00    0,000000000e+00    0,000000000e+00
      422000000   -2,802860923e-02   -3,225923330e-02   -2,667204440e-01   -6,954153180e-01    0,000000000e+00    0,000000000e+00    0,000000000e+00    0,000000000e+00
      436000000   -4,054182395e-02   -5,158882216e-02   -6,035048962e-01   -4,314652681e-01    0,000000000e+00    0,000000000e+00    0,000000000e+00    0,000000000e+00
      450000000   -6,747266650e-02   -4,407859221e-02   -7,398968339e-01   -2,204135060e-02    0,000000000e+00    0,000000000e+00    0,000000000e+00    0,000000000e+00
      464000000   -7,298848778e-02   -1,212059520e-02   -6,181107163e-01    3,964449763e-01    0,000000000e+00    0,000000000e+00    0,000000000e+00    0,000000000e+00
      478000000   -4,742632061e-02    1,091149729e-02   -2,831640840e-01    6,673043966e-01    0,000000000e+00    0,000000000e+00    0,000000000e+00    0,000000000e+00
      492000000   -1,535971742e-02    5,576416384e-03    1,370968521e-01    7,011909485e-01    0,000000000e+00    0,000000000e+00    0,000000000e+00    0,000000000e+00
      506000000   -2,842759248e-03   -1,607542299e-02    4,973608553e-01    5,023292899e-01    0,000000000e+00    0,000000000e+00    0,000000000e+00    0,000000000e+00
      520000000   -5,083607510e-03   -3,146509081e-02    6,872740388e-01    1,411442757e-01    0,000000000e+00    0,000000000e+00    0,000000000e+00    0,000000000e+00
      534000000   -3,550611204e-03   -3,828084841e-02    6,426382661e-01   -2,621202767e-01    0,000000000e+00    0,000000000e+00    0,000000000e+00    0,000000000e+00
      548000000    6,396081299e-03   -5,404797941e-02    3,808034360e-01   -5,660386682e-01    0,000000000e+00    0,000000000e+00    0,000000000e+00    0,000000000e+00
      562000000    3,721622750e-03   -8,933310956e-02    3,074413398e-03   -6,709088683e-01    0,000000000e+00    0,000000000e+00    0,000000000e+00    0,000000000e+00
      576000000   -3,371699154e-02   -1,246185675e-01   -3,675903678e-01   -5,582019687e-01    0,000000000e+00    0,000000000e+00    0,000000000e+00    0,000000000e+00
      590000000   -9,590229392e-02   -1,229040548e-01   -6,213120222e-01   -2,649930716e-01    0,000000000e+00    0,000000000e+00    0,000000000e+00    0,000000000e+00
      604000000   -1,392928362e-01   -7,240872830e-02   -6,641544104e-01    1,365072578e-01    0,000000000e+00    0,000000000e+00    0,000000000e+00    0,000000000e+00
      618000000   -1,288287342e-01   -9,401512332e-03   -4,639493525e-01    4,931060672e-01    0,000000000e+00    0,000000000e+00    0,000000000e+00    0,000000000e+00
      632000000   -8,416666090e-02    1,645192131e-02   -1,002203003e-01    6,622052789e-01    0,000000000e+00    0,000000000e+00    0,000000000e+00    0,000000000e+00
      646000000   -5,211566761e-02    9,050447261e-04    2,849985361e-01    5,941866636e-01    0,000000000e+00    0,000000000e+00    0,000000000e+00    0,000000000e+00
      660000000   -5,299305916e-02   -2,065091953e-02    5,655100346e-01    3,241037726e-01    0,000000000e+00    0,000000000e+00    0,000000000e+00    0,000000000e+00
      674000000   -6,960753351e-02   -1,614511386e-02    6,406419277e-01   -6,322795153e-02    0,000000000e+00    0,000000000e+00    0,000000000e+00    0,000000000e+00
      688000000   -6,663701683e-02    8,832792751e-03    4,710144699e-01   -4,234258533e-01    0,000000000e+00    0,000000000e+00    0,000000000e+00    0,000000000e+00
      702000000   -3,546576574e-02    2,597721480e-02    1,201102361e-01   -6,083815098e-01    0,000000000e+00    0,000000000e+00    0,000000000e+00    0,000000000e+00
      716000000    4,151626956e-03    1,618410647e-02   -2,603397667e-01   -5,456795096e-01    0,000000000e+00    0,000000000e+00    0,000000000e+00    0,000000000e+00
      730000000    3,747426718e-02   -1,341178268e-02   -5,216020346e-01   -2,715736330e-01    0,000000000e+00    0,000000000e+00    0,000000000e+00    0,000000000e+00
      744000000    6,231252104e-02   -6,473868340e-02   -5,603081584e-01    9,853690118e-02    0,000000000e+00    0,000000000e+00    0,000000000e+00    0,000000000e+00
      758000000    6,150405481e-02   -1,527149528e-01   -3,661331236e-01    3,998823166e-01    0,000000000e+00    0,000000000e+00    0,000000000e+00    0,000000000e+00
      772000000   -1,771511510e-02   -2,557389736e-01   -4,499343038e-02    5,089704394e-01    0,000000000e+00    0,000000000e+00    0,000000000e+00    0,000000000e+00
      786000000   -2,020732164e-01   -2,913555503e-01    2,594531178e-01    3,982040286e-01    0,000000000e+00    0,000000000e+00    0,000000000e+00    0,000000000e+00
      800000000   -4,068942070e-01   -1,268436015e-01    4,072883427e-01    1,186016053e-01    0,000000000e+00    0,000000000e+00    0,000000000e+00    0,000000000e+00
      814000000   -3,769723773e-01    2,013673037e-01    2,964288294e-01   -1,508534551e-01    0,000000000e+00    0,000000000e+00    0,000000000e+00    0,000000000e+00
      828000000   -6,261605024e-02    3,475275636e-01    8,239782602e-02   -1,902713776e-01    0,000000000e+00    0,000000000e+00    0,000000000e+00    0,000000000e+00
      842000000    2,119827420e-01    1,856428981e-01   -3,046346130e-03   -9,264243394e-02    0,000000000e+00    0,000000000e+00    0,000000000e+00    0,000000000e+00
      856000000    2,664493620e-01   -1,059506088e-01    3,642893583e-02   -3,649041057e-02    0,000000000e+00    0,000000000e+00    0,000000000e+00    0,000000000e+00
      870000000    8,264166862e-02   -3,511692882e-01    8,896370232e-02   -9,725727886e-02    0,000000000e+00    0,000000000e+00    0,000000000e+00    0,000000000e+00
      884000000   -2,686953247e-01   -3,564909995e-01    1,093912683e-02   -2,276800424e-01    0,000000000e+00    0,000000000e+00    0,000000000e+00    0,000000000e+00
      898000000   -4,578468800e-01   -1,275408734e-02   -2,157280147e-01   -2,096084356e-01    0,000000000e+00    0,000000000e+00    0,000000000e+00    0,000000000e+00
      912000000   -2,357641309e-01    2,779632807e-01   -3,303138316e-01    8,003202826e-02    0,000000000e+00    0,000000000e+00    0,000000000e+00    0,000000000e+00
      926000000    5,427516997e-02    2,634038329e-01   -2,077134550e-01    2,636940777e-01    0,000000000e+00    0,000000000e+00    0,000000000e+00    0,000000000e+00
      940000000    2,106280774e-01    8,343077451e-02   -3,050116636e-02    3,250741661e-01    0,000000000e+00    0,000000000e+00    0,000000000e+00    0,000000000e+00
      954000000    2,217721790e-01   -1,202303991e-01    1,328426898e-01    3,018045127e-01    0,000000000e+00    0,000000000e+00    0,000000000e+00    0,000000000e+00
      968000000    1,173323467e-01   -2,917083800e-01    2,684478760e-01    2,125881314e-01    0,000000000e+00    0,000000000e+00    0,000000000e+00    0,000000000e+00
      982000000   -7,761131972e-02   -3,833839297e-01    3,613620996e-01    6,319493800e-02    0,000000000e+00    0,000000000e+00    0,000000000e+00    0,000000000e+00
      996000000   -3,090181947e-01   -3,326243162e-01    3,625746965e-01   -1,427437216e-01    0,000000000e+00    0,000000000e+00    0,000000000e+00    0,000000000e+00
     1010000000   -4,571409822e-01   -1,194795743e-01    2,188802361e-01   -3,352243304e-01    0,000000000e+00    0,000000000e+00    0,000000000e+00    0,000000000e+00
     1024000000   -4,136104584e-01    1,464200020e-01   -3,121455945e-02   -3,866648376e-01    0,000000000e+00    0,000000000e+00    0,000000000e+00    0,000000000e+00
     1038000000   -2,210090905e-01    2,906539738e-01   -2,402803153e-01   -2,574340403e-01    0,000000000e+00    0,000000000e+00    0,000000000e+00    0,000000000e+00
     1052000000   -1,302311663e-02    2,820536792e-01   -3,126340508e-01   -4,724677280e-02    0,000000000e+00    0,000000000e+00    0,000000000e+00    0,000000000e+00
     1066000000    1,341855526e-01    1,661610603e-01   -2,481396794e-01    1,400746256e-01    0,000000000e+00    0,000000000e+00    0,000000000e+00    0,000000000e+00
     1080000000    1,906687915e-01    9,487218224e-03   -1,155022085e-01    2,528531551e-01    0,000000000e+00    0,000000000e+00    0,000000000e+00    0,000000000e+00
     1094000000    1,600303501e-01   -1,610656977e-01    6,015656143e-02    2,917441130e-01    0,000000000e+00    0,000000000e+00    0,000000000e+00    0,000000000e+00
     1108000000    1,379283238e-02   -2,962302268e-01    2,589476407e-01    2,343689948e-01    0,000000000e+00    0,000000000e+00    0,000000000e+00    0,000000000e+00
     1122000000   -2,126623839e-01   -2,800574005e-01    4,394150972e-01    2,479489334e-02    0,000000000e+00    0,000000000e+00    0,000000000e+00    0,000000000e+00
     1136000000   -3,278231919e-01   -2,709040791e-02    3,982943594e-01   -3,454656005e-01    0,000000000e+00    0,000000000e+00    0,000000000e+00    0,000000000e+00
     1150000000   -1,023360863e-01    1,370535642e-01    4,907518625e-02   -5,277700424e-01    0,000000000e+00    0,000000000e+00    0,000000000e+00    0,000000000e+00
     1164000000    8,549637347e-02   -1,607966237e-02   -2,518371046e-01   -4,009335339e-01    0,000000000e+00    0,000000000e+00    0,000000000e+00    0,000000000e+00
     1178000000    2,803498693e-02   -2,499957681e-01   -3,691293299e-01   -1,757325381e-01    0,000000000e+00    0,000000000e+00    0,000000000e+00    0,000000000e+00
     1192000000   -2,255685776e-01   -3,468039930e-01   -3,399486840e-01    4,304075241e-02    0,000000000e+00    0,000000000e+00    0,000000000e+00    0,000000000e+00
     1206000000   -4,771329463e-01   -1,778932065e-01   -1,864888668e-01    1,838087887e-01    0,000000000e+00    0,000000000e+00    0,000000000e+00    0,000000000e+00
     1220000000   -5,043812394e-01    1,401351839e-01   -1,147400215e-02    1,763336062e-01    0,000000000e+00    0,000000000e+00    0,000000000e+00    0,000000000e+00
     1234000000   -3,053538799e-01    3,471024632e-01    7,333021611e-02    8,361883461e-02    0,000000000e+00    0,000000000e+00    0,000000000e+00    0,000000000e+00
     1248000000   -5,603203177e-02    3,618376255e-01    6,788066775e-02   -2,804643300e-04    0,000000000e+00    0,000000000e+00    0,000000000e+00    0,000000000e+00
     1262000000    1,103288457e-01    2,540972531e-01    3,227030858e-02   -2,195586823e-02    0,000000000e+00    0,000000000e+00    0,000000000e+00    0,000000000e+00
     1276000000    2,061371803e-01    1,066192091e-01    9,900190867e-03   -7,206407376e-03    0,000000000e+00    0,000000000e+00    0,000000000e+00    0,000000000e+00
     1290000000    2,201950401e-01   -6,043635681e-02    1,077839546e-02    2,590019815e-02    0,000000000e+00    0,000000000e+00    0,000000000e+00    0,000000000e+00
     1304000000    1,662366539e-01   -2,353688180e-01    6,409412622e-02    5,515335873e-02    0,000000000e+00    0,000000000e+00    0,000000000e+00    0,000000000e+00
     1318000000    2,480486780e-02   -3,617790043e-01    1,744849831e-01    1,775350422e-02    0,000000000e+00    0,000000000e+00    0,000000000e+00    0,000000000e+00
     1332000000   -1,508743763e-01   -3,967526555e-01    9,974443913e-02   -1,824720204e-01    0,000000000e+00    0,000000000e+00    0,000000000e+00    0,000000000e+00
     1346000000   -3,599688709e-01   -3,956371248e-01   -5,251346156e-02   -3,063933738e-02    0,000000000e+00    0,000000000e+00    0,000000000e+00    0,000000000e+00
     1360000000   -5,812979341e-01   -2,035087496e-01    7,047507167e-02    8,513111621e-02    0,000000000e+00    0,000000000e+00    0,000000000e+00    0,000000000e+00
     1374000000   -6,271351576e-01    1,140605509e-01    1,822649837e-01    5,226733908e-02    0,000000000e+00    0,000000000e+00    0,000000000e+00    0,000000000e+00
     1388000000   -4,751336277e-01    3,481706977e-01    2,159654051e-01   -3,108450957e-02    0,000000000e+00    0,000000000e+00    0,000000000e+00    0,000000000e+00
     1402000000   -2,497584522e-01    4,456199408e-01    2,104711682e-01   -7,237852365e-02    0,000000000e+00    0,000000000e+00    0,000000000e+00    0,000000000e+00
     1416000000   -3,600716963e-02    4,089827240e-01    2,010452598e-01   -1,071538478e-01    0,000000000e+00    0,000000000e+00    0,000000000e+00    0,000000000e+00
     1430000000    1,136410907e-01    2,998754978e-01    1,829184443e-01   -1,032094955e-01    0,000000000e+00    0,000000000e+00    0,000000000e+00    0,000000000e+00
     1444000000    2,004002482e-01    1,587517858e-01    1,666121781e-01   -1,065439284e-01    0,000000000e+00    0,000000000e+00    0,000000000e+00    0,000000000e+00
     1458000000    2,321276069e-01   -1,183577441e-02    1,435735971e-01   -7,687998563e-02    0,000000000e+00    0,000000000e+00    0,000000000e+00    0,000000000e+00
     1472000000    1,928877980e-01   -1,941502541e-01    1,388718933e-01   -4,847295210e-02    0,000000000e+00    0,000000000e+00    0,000000000e+00    0,000000000e+00
     1486000000    6,538669765e-02   -3,680334389e-01    1,660793126e-01    8,052274585e-03    0,000000000e+00    0,000000000e+00    0,000000000e+00    0,000000000e+00
     1500000000   -1,590456367e-01   -4,910832644e-01    2,388965786e-01    8,681264520e-02    0,000000000e+00    0,000000000e+00    0,000000000e+00    0,000000000e+00
