! NanoVNA-App
! Date: 2025-09-25 15:43:07
! Start: 100MHz Stop: 1,5GHz Points: 101
! S-Parameter data: F S11 S21 S12 S22
# Hz S RI R 50
!     Frequency           S11_Real           S11_Imag           S21_Real           S21_Imag           S12_Real           S12_Imag           S22_Real           S22_Imag
      100000000   -2,878632396e-02   -4,264343530e-03    3,739610314e-01   -7,215522528e-01    0,000000000e+00    0,000000000e+00    0,000000000e+00    0,000000000e+00
      114000000   -1,654320583e-02    1,149436086e-02   -8,919774741e-02   -8,052814603e-01    0,000000000e+00    0,000000000e+00    0,000000000e+00    0,000000000e+00
      128000000    3,409036901e-03    1,063995529e-02   -5,145670176e-01   -6,204464436e-01    0,000000000e+00    0,000000000e+00    0,000000000e+00    0,000000000e+00
      142000000    1,462339703e-02   -2,650129609e-03   -7,668892145e-01   -2,364630699e-01    0,000000000e+00    0,000000000e+00    0,000000000e+00    0,000000000e+00
      156000000    1,580300555e-02   -1,463310048e-02   -7,710659504e-01    2,217701972e-01    0,000000000e+00    0,000000000e+00    0,000000000e+00    0,000000000e+00
      170000000    1,704922505e-02   -2,253011987e-02   -5,180885196e-01    6,045280099e-01    0,000000000e+00    0,000000000e+00    0,000000000e+00    0,000000000e+00
      184000000    2,135304734e-02   -3,715602681e-02   -1,015153527e-01    7,858662605e-01    0,000000000e+00    0,000000000e+00    0,000000000e+00    0,000000000e+00
      198000000    1,318494603e-02   -6,254898012e-02    3,432405293e-01    7,120825648e-01    0,000000000e+00    0,000000000e+00    0,000000000e+00    0,000000000e+00
      212000000   -1,842783950e-02   -8,127852529e-02    6,779021621e-01    4,097356498e-01    0,000000000e+00    0,000000000e+00    0,000000000e+00    0,000000000e+00
      226000000   -6,136466190e-02   -6,923990697e-02    7,953690290e-01   -3,043499216e-02    0,000000000e+00    0,000000000e+00    0,000000000e+00    0,000000000e+00
      240000000   -8,223505318e-02   -2,581063844e-02    6,456301212e-01   -4,666070342e-01    0,000000000e+00    0,000000000e+00    0,000000000e+00    0,000000000e+00
      254000000   -6,342509389e-02    1,695845462e-02    2,761766613e-01   -7,425118685e-01    0,000000000e+00    0,000000000e+00    0,000000000e+00    0,000000000e+00
      268000000   -2,399600856e-02    2,877535485e-02   -1,776013523e-01   -7,642318606e-01    0,000000000e+00    0,000000000e+00    0,000000000e+00    0,000000000e+00
      282000000    3,992149141e-03    1,210023742e-02   -5,616456270e-01   -5,354281664e-01    0,000000000e+00    0,000000000e+00    0,000000000e+00    0,000000000e+00
      296000000    9,889873676e-03   -7,576606702e-03   -7,594009638e-01   -1,396238655e-01    0,000000000e+00    0,000000000e+00    0,000000000e+00    0,000000000e+00
      310000000    1,138218958e-02   -1,615238935e-02   -7,124269605e-01    2,977287769e-01    0,000000000e+00    0,000000000e+00    0,000000000e+00    0,000000000e+00
      324000000    2,006005868e-02   -2,671030909e-02   -4,278324246e-01    6,366314292e-01    0,000000000e+00    0,000000000e+00    0,000000000e+00    0,000000000e+00
      338000000    2,569425851e-02   -5,229166523e-02   -7,222856861e-03    7,598968744e-01    0,000000000e+00    0,000000000e+00    0,000000000e+00    0,000000000e+00
      352000000    7,551283576e-03   -8,491423726e-02    4,063105881e-01    6,396217346e-01    0,000000000e+00    0,000000000e+00    0,000000000e+00    0,000000000e+00
      366000000   -3,410858288e-02   -9,563527256e-02    6,905280948e-01    3,111641109e-01    0,000000000e+00    0,000000000e+00    0,000000000e+00    0,000000000e+00
      380000000   -7,024078816e-02   -7,094843686e-02    7,470635772e-01   -1,255970597e-01    0,000000000e+00    0,000000000e+00    0,000000000e+00    0,000000000e+00
      394000000   -7,228501141e-02   -3,259835392e-02    5,451143384e-01   -5,210709572e-01    0,000000000e+00    0,000000000e+00    0,000000000e+00    0,000000000e+00
      408000000   -4,622971639e-02   -1,641897857e-02    1,612990797e-01   -7,318257093e-01    0,000000000e+00    0,000000000e+00    0,000000000e+00    0,000000000e+00
      422000000   -2,858189307e-02   -3,206565604e-02   -2,674181759e-01   -6,944588423e-01    0,000000000e+00    0,000000000e+00    0,000000000e+00    0,000000000e+00
      436000000   -4,057145864e-02   -5,204416066e-02   -6,037430167e-01   -4,320183694e-01    0,000000000e+00    0,000000000e+00    0,000000000e+00    0,000000000e+00
      450000000   -6,725585461e-02   -4,401772097e-02   -7,402004004e-01   -2,213364094e-02    0,000000000e+00    0,000000000e+00    0,000000000e+00    0,000000000e+00
      464000000   -7,306537032e-02   -1,165392529e-02   -6,181562543e-01    3,968581557e-01    0,000000000e+00    0,000000000e+00    0,000000000e+00    0,000000000e+00
      478000000   -4,749701917e-02    1,130159199e-02   -2,837154865e-01    6,666333079e-01    0,000000000e+00    0,000000000e+00    0,000000000e+00    0,000000000e+00
      492000000   -1,586068049e-02    5,847995169e-03    1,371348202e-01    7,016382217e-01    0,000000000e+00    0,000000000e+00    0,000000000e+00    0,000000000e+00
      506000000   -2,644776367e-03   -1,562003698e-02    4,973436892e-01    5,031928420e-01    0,000000000e+00    0,000000000e+00    0,000000000e+00    0,000000000e+00
      520000000   -4,855718929e-03   -3,134096041e-02    6,881027222e-01    1,404355913e-01    0,000000000e+00    0,000000000e+00    0,000000000e+00    0,000000000e+00
      534000000   -3,836623626e-03   -3,818127140e-02    6,433819532e-01   -2,618061900e-01    0,000000000e+00    0,000000000e+00    0,000000000e+00    0,000000000e+00
      548000000    6,343143061e-03   -5,429097638e-02    3,817988634e-01   -5,665184259e-01    0,000000000e+00    0,000000000e+00    0,000000000e+00    0,000000000e+00
      562000000    3,381848335e-03   -8,918321878e-02    2,406051848e-03   -6,709564924e-01    0,000000000e+00    0,000000000e+00    0,000000000e+00    0,000000000e+00
      576000000   -3,390695155e-02   -1,244624108e-01   -3,679896295e-01   -5,576617122e-01    0,000000000e+00    0,000000000e+00    0,000000000e+00    0,000000000e+00
      590000000   -9,554003924e-02   -1,227597520e-01   -6,189723015e-01   -2,654705048e-01    0,000000000e+00    0,000000000e+00    0,000000000e+00    0,000000000e+00
      604000000   -1,387609541e-01   -7,226562500e-02   -6,640654802e-01    1,366262138e-01    0,000000000e+00    0,000000000e+00    0,000000000e+00    0,000000000e+00
      618000000   -1,296107769e-01   -9,990176186e-03   -4,648923278e-01    4,929005206e-01    0,000000000e+00    0,000000000e+00    0,000000000e+00    0,000000000e+00
      632000000   -8,462508768e-02    1,656018570e-02   -1,000810862e-01    6,626393795e-01    0,000000000e+00    0,000000000e+00    0,000000000e+00    0,000000000e+00
      646000000   -5,231606215e-02    1,666123717e-04    2,863594890e-01    5,937263370e-01    0,000000000e+00    0,000000000e+00    0,000000000e+00    0,000000000e+00
      660000000   -5,364866555e-02   -2,150364965e-02    5,640922189e-01    3,230624199e-01    0,000000000e+00    0,000000000e+00    0,000000000e+00    0,000000000e+00
      674000000   -7,034081221e-02   -1,625123248e-02    6,408833265e-01   -6,320112199e-02    0,000000000e+00    0,000000000e+00    0,000000000e+00    0,000000000e+00
      688000000   -6,735811383e-02    8,783856407e-03    4,709880352e-01   -4,238749146e-01    0,000000000e+00    0,000000000e+00    0,000000000e+00    0,000000000e+00
      702000000   -3,544457257e-02    2,645170130e-02    1,224808618e-01   -6,025987267e-01    0,000000000e+00    0,000000000e+00    0,000000000e+00    0,000000000e+00
      716000000    2,629487542e-03    1,630996913e-02   -2,597830892e-01   -5,443689823e-01    0,000000000e+00    0,000000000e+00    0,000000000e+00    0,000000000e+00
      730000000    3,630616888e-02   -1,432080474e-02   -5,218685269e-01   -2,713590562e-01    0,000000000e+00    0,000000000e+00    0,000000000e+00    0,000000000e+00
      744000000    6,257674098e-02   -6,457393616e-02   -5,602330565e-01    9,835189581e-02    0,000000000e+00    0,000000000e+00    0,000000000e+00    0,000000000e+00
      758000000    6,134289876e-02   -1,524651349e-01   -3,671995401e-01    4,004596770e-01    0,000000000e+00    0,000000000e+00    0,000000000e+00    0,000000000e+00
      772000000   -1,770364866e-02   -2,556488812e-01   -4,519574344e-02    5,102599263e-01    0,000000000e+00    0,000000000e+00    0,000000000e+00    0,000000000e+00
      786000000   -2,031572461e-01   -2,917916179e-01    2,593100667e-01    3,991965652e-01    0,000000000e+00    0,000000000e+00    0,000000000e+00    0,000000000e+00
      800000000   -4,079468250e-01   -1,266288906e-01    4,068761170e-01    1,186640710e-01    0,000000000e+00    0,000000000e+00    0,000000000e+00    0,000000000e+00
      814000000   -3,773096204e-01    2,021768242e-01    2,965202034e-01   -1,509926617e-01    0,000000000e+00    0,000000000e+00    0,000000000e+00    0,000000000e+00
      828000000   -6,318549067e-02    3,477987945e-01    8,279047906e-02   -1,907862127e-01    0,000000000e+00    0,000000000e+00    0,000000000e+00    0,000000000e+00
      842000000    2,113573402e-01    1,864802241e-01   -3,440542845e-03   -9,316454083e-02    0,000000000e+00    0,000000000e+00    0,000000000e+00    0,000000000e+00
      856000000    2,657400370e-01   -1,054223329e-01    3,563962504e-02   -3,682050854e-02    0,000000000e+00    0,000000000e+00    0,000000000e+00    0,000000000e+00
      870000000    8,315607160e-02   -3,514393866e-01    8,862099051e-02   -9,702076018e-02    0,000000000e+00    0,000000000e+00    0,000000000e+00    0,000000000e+00
      884000000   -2,669142485e-01   -3,563636243e-01    1,079208776e-02   -2,273893207e-01    0,000000000e+00    0,000000000e+00    0,000000000e+00    0,000000000e+00
      898000000   -4,570727050e-01   -1,377520617e-02   -2,142973691e-01   -2,094271779e-01    0,000000000e+00    0,000000000e+00    0,000000000e+00    0,000000000e+00
      912000000   -2,347593158e-01    2,802480757e-01   -3,243568838e-01    7,295314223e-02    0,000000000e+00    0,000000000e+00    0,000000000e+00    0,000000000e+00
      926000000    5,610931292e-02    2,638212442e-01   -2,093312889e-01    2,624208331e-01    0,000000000e+00    0,000000000e+00    0,000000000e+00    0,000000000e+00
      940000000    2,082098871e-01    8,564876765e-02   -3,264283761e-02    3,247571290e-01    0,000000000e+00    0,000000000e+00    0,000000000e+00    0,000000000e+00
      954000000    2,226000577e-01   -1,211857498e-01    1,315128505e-01    3,001615405e-01    0,000000000e+00    0,000000000e+00    0,000000000e+00    0,000000000e+00
      968000000    1,189892590e-01   -2,922216058e-01    2,693313658e-01    2,145548910e-01    0,000000000e+00    0,000000000e+00    0,000000000e+00    0,000000000e+00
      982000000   -7,800231874e-02   -3,812764883e-01    3,605302572e-01    6,404745579e-02    0,000000000e+00    0,000000000e+00    0,000000000e+00    0,000000000e+00
      996000000   -3,119727075e-01   -3,323716521e-01    3,631956279e-01   -1,435875893e-01    0,000000000e+00    0,000000000e+00    0,000000000e+00    0,000000000e+00
     1010000000   -4,589172900e-01   -1,130953953e-01    2,195537686e-01   -3,348524570e-01    0,000000000e+00    0,000000000e+00    0,000000000e+00    0,000000000e+00
     1024000000   -4,155170321e-01    1,403817832e-01   -3,106955625e-02   -3,855660260e-01    0,000000000e+00    0,000000000e+00    0,000000000e+00    0,000000000e+00
     1038000000   -2,240720689e-01    2,908713222e-01   -2,431766838e-01   -2,571973205e-01    0,000000000e+00    0,000000000e+00    0,000000000e+00    0,000000000e+00
     1052000000   -1,700794324e-02    2,794276178e-01   -3,099475503e-01   -4,608496651e-02    0,000000000e+00    0,000000000e+00    0,000000000e+00    0,000000000e+00
     1066000000    1,324584186e-01    1,662757844e-01   -2,500669062e-01    1,372048259e-01    0,000000000e+00    0,000000000e+00    0,000000000e+00    0,000000000e+00
     1080000000    1,910235286e-01    7,865242660e-03   -1,164741740e-01    2,546899617e-01    0,000000000e+00    0,000000000e+00    0,000000000e+00    0,000000000e+00
     1094000000    1,594425887e-01   -1,666457802e-01    6,202544644e-02    2,921228707e-01    0,000000000e+00    0,000000000e+00    0,000000000e+00    0,000000000e+00
     1108000000    2,242064849e-02   -2,980655432e-01    2,598476708e-01    2,355388850e-01    0,000000000e+00    0,000000000e+00    0,000000000e+00    0,000000000e+00
     1122000000   -2,172426283e-01   -2,833286524e-01    4,387510121e-01    2,560248412e-02    0,000000000e+00    0,000000000e+00    0,000000000e+00    0,000000000e+00
     1136000000   -3,294129670e-01   -3,374155238e-02    3,976278305e-01   -3,445104957e-01    0,000000000e+00    0,000000000e+00    0,000000000e+00    0,000000000e+00
     1150000000   -1,040641293e-01    1,364854872e-01    5,336798355e-02   -5,283274651e-01    0,000000000e+00    0,000000000e+00    0,000000000e+00    0,000000000e+00
     1164000000    8,242015541e-02   -1,871441118e-02   -2,504977882e-01   -4,053047001e-01    0,000000000e+00    0,000000000e+00    0,000000000e+00    0,000000000e+00
     1178000000    2,857420407e-02   -2,497709394e-01   -3,720415831e-01   -1,775798053e-01    0,000000000e+00    0,000000000e+00    0,000000000e+00    0,000000000e+00
     1192000000   -2,250155956e-01   -3,460669816e-01   -3,431528509e-01    3,988274187e-02    0,000000000e+00    0,000000000e+00    0,000000000e+00    0,000000000e+00
     1206000000   -4,827298522e-01   -1,847351491e-01   -1,912212372e-01    1,813842356e-01    0,000000000e+00    0,000000000e+00    0,000000000e+00    0,000000000e+00
     1220000000   -5,013421178e-01    1,339976192e-01   -1,086841989e-02    1,749026477e-01    0,000000000e+00    0,000000000e+00    0,000000000e+00    0,000000000e+00
     1234000000   -3,049633503e-01    3,453658819e-01    7,152070105e-02    7,909103483e-02    0,000000000e+00    0,000000000e+00    0,000000000e+00    0,000000000e+00
     1248000000   -6,368859112e-02    3,546824753e-01    6,614693999e-02   -1,702733105e-03    0,000000000e+00    0,000000000e+00    0,000000000e+00    0,000000000e+00
     1262000000    1,096621677e-01    2,563016117e-01    3,489683196e-02   -3,014452197e-02    0,000000000e+00    0,000000000e+00    0,000000000e+00    0,000000000e+00
     1276000000    2,035874575e-01    1,035690755e-01    7,845253684e-03   -9,585744701e-03    0,000000000e+00    0,000000000e+00    0,000000000e+00    0,000000000e+00
     1290000000    2,222713381e-01   -6,172985211e-02    1,368546765e-02    2,490428463e-02    0,000000000e+00    0,000000000e+00    0,000000000e+00    0,000000000e+00
     1304000000    1,628208309e-01   -2,320102751e-01    6,074819714e-02    6,263229996e-02    0,000000000e+00    0,000000000e+00    0,000000000e+00    0,000000000e+00
     1318000000    2,365860716e-02   -3,654655516e-01    1,691319644e-01    1,853611320e-02    0,000000000e+00    0,000000000e+00    0,000000000e+00    0,000000000e+00
     1332000000   -1,478306800e-01   -3,943785727e-01    1,029810831e-01   -1,830882877e-01    0,000000000e+00    0,000000000e+00    0,000000000e+00    0,000000000e+00
     1346000000   -3,590012193e-01   -3,920412958e-01   -4,453466833e-02   -2,224143781e-02    0,000000000e+00    0,000000000e+00    0,000000000e+00    0,000000000e+00
     1360000000   -5,762380362e-01   -1,965967119e-01    7,180193067e-02    9,304937720e-02    0,000000000e+00    0,000000000e+00    0,000000000e+00    0,000000000e+00
     1374000000   -6,258449554e-01    1,110855490e-01    1,839747429e-01    5,470992625e-02    0,000000000e+00    0,000000000e+00    0,000000000e+00    0,000000000e+00
     1388000000   -4,717503190e-01    3,447082937e-01    2,275962532e-01   -2,858101763e-02    0,000000000e+00    0,000000000e+00    0,000000000e+00    0,000000000e+00
     1402000000   -2,489929944e-01    4,447760284e-01    1,989288330e-01   -8,459398150e-02    0,000000000e+00    0,000000000e+00    0,000000000e+00    0,000000000e+00
     1416000000   -3,806218877e-02    4,114173949e-01    1,918065846e-01   -9,124305099e-02    0,000000000e+00    0,000000000e+00    0,000000000e+00    0,000000000e+00
     1430000000    1,099080145e-01    3,101840019e-01    1,720283478e-01   -1,082993150e-01    0,000000000e+00    0,000000000e+00    0,000000000e+00    0,000000000e+00
     1444000000    2,035289258e-01    1,568275839e-01    1,702577770e-01   -1,006823182e-01    0,000000000e+00    0,000000000e+00    0,000000000e+00    0,000000000e+00
     1458000000    2,284625173e-01   -1,353710704e-02    1,392627656e-01   -8,425189555e-02    0,000000000e+00    0,000000000e+00    0,000000000e+00    0,000000000e+00
     1472000000    1,917981356e-01   -1,965600699e-01    1,425186694e-01   -5,893193185e-02    0,000000000e+00    0,000000000e+00    0,000000000e+00    0,000000000e+00
     1486000000    6,295031309e-02   -3,635133803e-01    1,594590992e-01    3,322317451e-02    0,000000000e+00    0,000000000e+00    0,000000000e+00    0,000000000e+00
     1500000000   -1,604411453e-01   -4,918377101e-01    2,236533910e-01    9,289690107e-02    0,000000000e+00    0,000000000e+00    0,000000000e+00    0,000000000e+00
