! NanoVNA-App
! Date: 2025-09-25 15:44:11
! Start: 100MHz Stop: 1,5GHz Points: 101
! S-Parameter data: F S11 S21 S12 S22
# Hz S RI R 50
!     Frequency           S11_Real           S11_Imag           S21_Real           S21_Imag           S12_Real           S12_Imag           S22_Real           S22_Imag
      100000000   -2,874490060e-02   -4,261814058e-03    3,739656508e-01   -7,215311527e-01    0,000000000e+00    0,000000000e+00    0,000000000e+00    0,000000000e+00
      114000000   -1,651340351e-02    1,147165056e-02   -8,916571736e-02   -8,053019047e-01    0,000000000e+00    0,000000000e+00    0,000000000e+00    0,000000000e+00
      128000000    3,382735886e-03    1,071170252e-02   -5,143200159e-01   -6,202563047e-01    0,000000000e+00    0,000000000e+00    0,000000000e+00    0,000000000e+00
      142000000    1,463264320e-02   -2,650404349e-03   -7,669181228e-01   -2,363707274e-01    0,000000000e+00    0,000000000e+00    0,000000000e+00    0,000000000e+00
      156000000    1,638108119e-02   -1,409597881e-02   -7,719185948e-01    2,245952189e-01    0,000000000e+00    0,000000000e+00    0,000000000e+00    0,000000000e+00
      170000000    1,712587103e-02   -2,245463431e-02   -5,179710984e-01    6,043254733e-01    0,000000000e+00    0,000000000e+00    0,000000000e+00    0,000000000e+00
      184000000    2,130969986e-02   -3,719893470e-02   -1,014158130e-01    7,859191895e-01    0,000000000e+00    0,000000000e+00    0,000000000e+00    0,000000000e+00
      198000000    1,323547121e-02   -6,254418194e-02    3,432518840e-01    7,122151852e-01    0,000000000e+00    0,000000000e+00    0,000000000e+00    0,000000000e+00
      212000000   -1,846508123e-02   -8,128482103e-02    6,778612137e-01    4,099238813e-01    0,000000000e+00    0,000000000e+00    0,000000000e+00    0,000000000e+00
      226000000   -6,137548015e-02   -6,920073926e-02    7,954083681e-01   -3,045392223e-02    0,000000000e+00    0,000000000e+00    0,000000000e+00    0,000000000e+00
      240000000   -8,220943809e-02   -2,581668645e-02    6,457743645e-01   -4,666545987e-01    0,000000000e+00    0,000000000e+00    0,000000000e+00    0,000000000e+00
      254000000   -6,337773800e-02    1,695514098e-02    2,763414085e-01   -7,428413630e-01    0,000000000e+00    0,000000000e+00    0,000000000e+00    0,000000000e+00
      268000000   -2,396888845e-02    2,878311649e-02   -1,777714789e-01   -7,639790773e-01    0,000000000e+00    0,000000000e+00    0,000000000e+00    0,000000000e+00
      282000000    4,053553566e-03    1,205510739e-02   -5,616886616e-01   -5,357931852e-01    0,000000000e+00    0,000000000e+00    0,000000000e+00    0,000000000e+00
      296000000    9,921008721e-03   -7,552778348e-03   -7,592919469e-01   -1,396261603e-01    0,000000000e+00    0,000000000e+00    0,000000000e+00    0,000000000e+00
      310000000    1,157777477e-02   -1,597446762e-02   -7,115507722e-01    2,992548048e-01    0,000000000e+00    0,000000000e+00    0,000000000e+00    0,000000000e+00
      324000000    2,018672600e-02   -2,685241215e-02   -4,275301993e-01    6,367029548e-01    0,000000000e+00    0,000000000e+00    0,000000000e+00    0,000000000e+00
      338000000    2,581518516e-02   -5,223703384e-02   -7,147004828e-03    7,632786036e-01    0,000000000e+00    0,000000000e+00    0,000000000e+00    0,000000000e+00
      352000000    7,765170652e-03   -8,473429829e-02    4,061155617e-01    6,390652657e-01    0,000000000e+00    0,000000000e+00    0,000000000e+00    0,000000000e+00
      366000000   -3,435992450e-02   -9,548711777e-02    6,905089021e-01    3,114159405e-01    0,000000000e+00    0,000000000e+00    0,000000000e+00    0,000000000e+00
      380000000   -7,037904114e-02   -7,112496346e-02    7,470353842e-01   -1,253239065e-01    0,000000000e+00    0,000000000e+00    0,000000000e+00    0,000000000e+00
      394000000   -7,198805362e-02   -3,251840919e-02    5,466488004e-01   -5,218553543e-01    0,000000000e+00    0,000000000e+00    0,000000000e+00    0,000000000e+00
      408000000   -4,620129988e-02   -1,633267663e-02    1,615483612e-01   -7,320540547e-01    0,000000000e+00    0,000000000e+00    0,000000000e+00    0,000000000e+00
      422000000   -2,838247083e-02   -3,170906007e-02   -2,669579983e-01   -6,943228245e-01    0,000000000e+00    0,000000000e+00    0,000000000e+00    0,000000000e+00
      436000000   -4,045219719e-02   -5,174320936e-02   -6,037690043e-01   -4,322361648e-01    0,000000000e+00    0,000000000e+00    0,000000000e+00    0,000000000e+00
      450000000   -6,679596007e-02   -4,383872822e-02   -7,393596768e-01   -2,159740217e-02    0,000000000e+00    0,000000000e+00    0,000000000e+00    0,000000000e+00
      464000000   -7,293146104e-02   -1,171378233e-02   -6,182547808e-01    3,967937827e-01    0,000000000e+00    0,000000000e+00    0,000000000e+00    0,000000000e+00
      478000000   -4,769003764e-02    1,152985357e-02   -2,830871940e-01    6,676756144e-01    0,000000000e+00    0,000000000e+00    0,000000000e+00    0,000000000e+00
      492000000   -1,547733415e-02    5,714968313e-03    1,368939430e-01    7,010996342e-01    0,000000000e+00    0,000000000e+00    0,000000000e+00    0,000000000e+00
      506000000   -2,557963133e-03   -1,573580317e-02    4,982323349e-01    5,024859309e-01    0,000000000e+00    0,000000000e+00    0,000000000e+00    0,000000000e+00
      520000000   -5,001596175e-03   -3,126216680e-02    6,874759197e-01    1,428745836e-01    0,000000000e+00    0,000000000e+00    0,000000000e+00    0,000000000e+00
      534000000   -3,507546848e-03   -3,805778176e-02    6,440215111e-01   -2,621474266e-01    0,000000000e+00    0,000000000e+00    0,000000000e+00    0,000000000e+00
      548000000    6,073713303e-03   -5,406171829e-02    3,810731173e-01   -5,661608577e-01    0,000000000e+00    0,000000000e+00    0,000000000e+00    0,000000000e+00
      562000000    3,379530739e-03   -8,912267536e-02    2,276311861e-03   -6,714232564e-01    0,000000000e+00    0,000000000e+00    0,000000000e+00    0,000000000e+00
      576000000   -3,328137100e-02   -1,241837516e-01   -3,682675660e-01   -5,575818419e-01    0,000000000e+00    0,000000000e+00    0,000000000e+00    0,000000000e+00
      590000000   -9,591393918e-02   -1,225911602e-01   -6,182941794e-01   -2,634298801e-01    0,000000000e+00    0,000000000e+00    0,000000000e+00    0,000000000e+00
      604000000   -1,390199959e-01   -7,251667976e-02   -6,641138792e-01    1,363499612e-01    0,000000000e+00    0,000000000e+00    0,000000000e+00    0,000000000e+00
      618000000   -1,287272274e-01   -1,015209500e-02   -4,642174244e-01    4,926184118e-01    0,000000000e+00    0,000000000e+00    0,000000000e+00    0,000000000e+00
      632000000   -8,474904299e-02    1,562963612e-02   -9,896284342e-02    6,611096263e-01    0,000000000e+00    0,000000000e+00    0,000000000e+00    0,000000000e+00
      646000000   -5,204186589e-02    1,165595371e-03    2,860172391e-01    5,942298770e-01    0,000000000e+00    0,000000000e+00    0,000000000e+00    0,000000000e+00
      660000000   -5,342075601e-02   -2,121094055e-02    5,646064878e-01    3,240338862e-01    0,000000000e+00    0,000000000e+00    0,000000000e+00    0,000000000e+00
      674000000   -7,031248510e-02   -1,667079329e-02    6,410267949e-01   -6,314861029e-02    0,000000000e+00    0,000000000e+00    0,000000000e+00    0,000000000e+00
      688000000   -6,734684855e-02    8,643554524e-03    4,699349999e-01   -4,247339368e-01    0,000000000e+00    0,000000000e+00    0,000000000e+00    0,000000000e+00
      702000000   -3,612609953e-02    2,509209700e-02    1,245740205e-01   -6,038642526e-01    0,000000000e+00    0,000000000e+00    0,000000000e+00    0,000000000e+00
      716000000    3,935427871e-03    1,609629020e-02   -2,590790093e-01   -5,439340472e-01    0,000000000e+00    0,000000000e+00    0,000000000e+00    0,000000000e+00
      730000000    3,724052757e-02   -1,358030923e-02   -5,223561525e-01   -2,713851631e-01    0,000000000e+00    0,000000000e+00    0,000000000e+00    0,000000000e+00
      744000000    6,246736273e-02   -6,436768919e-02   -5,607678294e-01    9,864319116e-02    0,000000000e+00    0,000000000e+00    0,000000000e+00    0,000000000e+00
      758000000    6,124284863e-02   -1,519953012e-01   -3,665650785e-01    4,008627832e-01    0,000000000e+00    0,000000000e+00    0,000000000e+00    0,000000000e+00
      772000000   -1,684068516e-02   -2,558766007e-01   -4,520027712e-02    5,098729134e-01    0,000000000e+00    0,000000000e+00    0,000000000e+00    0,000000000e+00
      786000000   -2,031266987e-01   -2,915999591e-01    2,594535351e-01    3,987634182e-01    0,000000000e+00    0,000000000e+00    0,000000000e+00    0,000000000e+00
      800000000   -4,076873660e-01   -1,267467737e-01    4,077595174e-01    1,184612885e-01    0,000000000e+00    0,000000000e+00    0,000000000e+00    0,000000000e+00
      814000000   -3,777330220e-01    2,017069161e-01    2,975499332e-01   -1,507880688e-01    0,000000000e+00    0,000000000e+00    0,000000000e+00    0,000000000e+00
      828000000   -6,217352673e-02    3,477759063e-01    8,235977590e-02   -1,909919381e-01    0,000000000e+00    0,000000000e+00    0,000000000e+00    0,000000000e+00
      842000000    2,117683887e-01    1,857299060e-01   -3,753718920e-03   -9,392467886e-02    0,000000000e+00    0,000000000e+00    0,000000000e+00    0,000000000e+00
      856000000    2,660578489e-01   -1,055702344e-01    3,504564613e-02   -3,747800365e-02    0,000000000e+00    0,000000000e+00    0,000000000e+00    0,000000000e+00
      870000000    8,258211613e-02   -3,513635695e-01    8,831869811e-02   -9,669862688e-02    0,000000000e+00    0,000000000e+00    0,000000000e+00    0,000000000e+00
      884000000   -2,663186193e-01   -3,566733003e-01    1,210874412e-02   -2,273194045e-01    0,000000000e+00    0,000000000e+00    0,000000000e+00    0,000000000e+00
      898000000   -4,578022957e-01   -1,345335320e-02   -2,144290656e-01   -2,089126557e-01    0,000000000e+00    0,000000000e+00    0,000000000e+00    0,000000000e+00
      912000000   -2,358179837e-01    2,787571549e-01   -3,274097443e-01    7,464960963e-02    0,000000000e+00    0,000000000e+00    0,000000000e+00    0,000000000e+00
      926000000    5,420852080e-02    2,643998265e-01   -2,098205090e-01    2,632045150e-01    0,000000000e+00    0,000000000e+00    0,000000000e+00    0,000000000e+00
      940000000    2,083462775e-01    8,561665565e-02   -3,171597421e-02    3,257807493e-01    0,000000000e+00    0,000000000e+00    0,000000000e+00    0,000000000e+00
      954000000    2,175028026e-01   -1,220285520e-01    1,308639050e-01    3,013718426e-01    0,000000000e+00    0,000000000e+00    0,000000000e+00    0,000000000e+00
      968000000    1,183383167e-01   -2,931553423e-01    2,690671086e-01    2,138216347e-01    0,000000000e+00    0,000000000e+00    0,000000000e+00    0,000000000e+00
      982000000   -8,033289760e-02   -3,847381175e-01    3,612126410e-01    6,370171905e-02    0,000000000e+00    0,000000000e+00    0,000000000e+00    0,000000000e+00
      996000000   -3,077596128e-01   -3,287320435e-01    3,641349077e-01   -1,442442983e-01    0,000000000e+00    0,000000000e+00    0,000000000e+00    0,000000000e+00
     1010000000   -4,616051018e-01   -1,132065728e-01    2,201893330e-01   -3,389916718e-01    0,000000000e+00    0,000000000e+00    0,000000000e+00    0,000000000e+00
     1024000000   -4,197264910e-01    1,464119405e-01   -3,188427910e-02   -3,872481585e-01    0,000000000e+00    0,000000000e+00    0,000000000e+00    0,000000000e+00
     1038000000   -2,275162190e-01    2,878913879e-01   -2,418643534e-01   -2,570101321e-01    0,000000000e+00    0,000000000e+00    0,000000000e+00    0,000000000e+00
     1052000000   -1,277152542e-02    2,834163308e-01   -3,134755194e-01   -4,640069976e-02    0,000000000e+00    0,000000000e+00    0,000000000e+00    0,000000000e+00
     1066000000    1,324316114e-01    1,671498120e-01   -2,486494333e-01    1,383666545e-01    0,000000000e+00    0,000000000e+00    0,000000000e+00    0,000000000e+00
     1080000000    1,914492100e-01    7,270439062e-03   -1,148892343e-01    2,530297041e-01    0,000000000e+00    0,000000000e+00    0,000000000e+00    0,000000000e+00
     1094000000    1,601184458e-01   -1,614278555e-01    5,890546367e-02    2,912451327e-01    0,000000000e+00    0,000000000e+00    0,000000000e+00    0,000000000e+00
     1108000000    2,254064940e-02   -2,982904911e-01    2,596568167e-01    2,347374409e-01    0,000000000e+00    0,000000000e+00    0,000000000e+00    0,000000000e+00
     1122000000   -2,130059898e-01   -2,806155086e-01    4,382367432e-01    2,466346696e-02    0,000000000e+00    0,000000000e+00    0,000000000e+00    0,000000000e+00
     1136000000   -3,299209476e-01   -2,807007544e-02    4,018188417e-01   -3,423642516e-01    0,000000000e+00    0,000000000e+00    0,000000000e+00    0,000000000e+00
     1150000000   -1,066650599e-01    1,336032748e-01    4,783537984e-02   -5,326748490e-01    0,000000000e+00    0,000000000e+00    0,000000000e+00    0,000000000e+00
     1164000000    8,360780030e-02   -1,258440409e-02   -2,525660694e-01   -4,034611881e-01    0,000000000e+00    0,000000000e+00    0,000000000e+00    0,000000000e+00
     1178000000    2,584577166e-02   -2,510420382e-01   -3,704328537e-01   -1,793295890e-01    0,000000000e+00    0,000000000e+00    0,000000000e+00    0,000000000e+00
     1192000000   -2,200633734e-01   -3,497206569e-01   -3,414184153e-01    3,913309425e-02    0,000000000e+00    0,000000000e+00    0,000000000e+00    0,000000000e+00
     1206000000   -4,830274880e-01   -1,859082133e-01   -1,923623681e-01    1,851660907e-01    0,000000000e+00    0,000000000e+00    0,000000000e+00    0,000000000e+00
     1220000000   -5,024797916e-01    1,408232301e-01   -9,315082803e-03    1,765680611e-01    0,000000000e+00    0,000000000e+00    0,000000000e+00    0,000000000e+00
     1234000000   -3,004091978e-01    3,391357362e-01    7,354610413e-02    8,095082641e-02    0,000000000e+00    0,000000000e+00    0,000000000e+00    0,000000000e+00
     1248000000   -6,604138762e-02    3,601559699e-01    6,028078869e-02   -7,594701601e-04    0,000000000e+00    0,000000000e+00    0,000000000e+00    0,000000000e+00
     1262000000    1,074110046e-01    2,566677928e-01    2,831440978e-02   -2,632518299e-02    0,000000000e+00    0,000000000e+00    0,000000000e+00    0,000000000e+00
     1276000000    2,015041411e-01    1,103416085e-01    5,705529824e-03   -6,533996668e-03    0,000000000e+00    0,000000000e+00    0,000000000e+00    0,000000000e+00
     1290000000    2,170391530e-01   -6,092152745e-02    1,166667510e-02    2,825533412e-02    0,000000000e+00    0,000000000e+00    0,000000000e+00    0,000000000e+00
     1304000000    1,675431132e-01   -2,307922840e-01    6,517004222e-02    6,478033215e-02    0,000000000e+00    0,000000000e+00    0,000000000e+00    0,000000000e+00
     1318000000    2,697071061e-02   -3,660175502e-01    1,738925576e-01    1,478575170e-02    0,000000000e+00    0,000000000e+00    0,000000000e+00    0,000000000e+00
     1332000000   -1,447001100e-01   -3,971403837e-01    1,033392549e-01   -1,780258715e-01    0,000000000e+00    0,000000000e+00    0,000000000e+00    0,000000000e+00
     1346000000   -3,585256636e-01   -3,949039578e-01   -6,572267413e-02   -3,267071769e-02    0,000000000e+00    0,000000000e+00    0,000000000e+00    0,000000000e+00
     1360000000   -5,858510733e-01   -2,048345953e-01    6,850526482e-02    8,538914472e-02    0,000000000e+00    0,000000000e+00    0,000000000e+00    0,000000000e+00
     1374000000   -6,248382330e-01    1,065069288e-01    1,860935241e-01    5,483496934e-02    0,000000000e+00    0,000000000e+00    0,000000000e+00    0,000000000e+00
     1388000000   -4,799658656e-01    3,483284414e-01    2,120713145e-01   -2,866284736e-02    0,000000000e+00    0,000000000e+00    0,000000000e+00    0,000000000e+00
     1402000000   -2,460511774e-01    4,510023296e-01    2,006592751e-01   -7,990062237e-02    0,000000000e+00    0,000000000e+00    0,000000000e+00    0,000000000e+00
     1416000000   -3,780818358e-02    4,115657806e-01    2,040119022e-01   -1,021814942e-01    0,000000000e+00    0,000000000e+00    0,000000000e+00    0,000000000e+00
     1430000000    1,106092781e-01    2,990727127e-01    1,760877222e-01   -1,067332998e-01    0,000000000e+00    0,000000000e+00    0,000000000e+00    0,000000000e+00
     1444000000    2,015062571e-01    1,543884128e-01    1,715488136e-01   -1,134202257e-01    0,000000000e+00    0,000000000e+00    0,000000000e+00    0,000000000e+00
     1458000000    2,315151989e-01   -7,189869415e-03    1,493858248e-01   -7,991972566e-02    0,000000000e+00    0,000000000e+00    0,000000000e+00    0,000000000e+00
     1472000000    1,901654005e-01   -1,911459118e-01    1,406182796e-01   -4,141939431e-02    0,000000000e+00    0,000000000e+00    0,000000000e+00    0,000000000e+00
     1486000000    6,937057525e-02   -3,658347428e-01    1,757626534e-01    1,098053996e-02    0,000000000e+00    0,000000000e+00    0,000000000e+00    0,000000000e+00
     1500000000   -1,521526426e-01   -4,839585423e-01    2,313342094e-01    9,147424996e-02    0,000000000e+00    0,000000000e+00    0,000000000e+00    0,000000000e+00
