! NanoVNA-App
! Date: 2025-09-25 15:39:03
! Start: 100MHz Stop: 1,5GHz Points: 101
! S-Parameter data: F S11 S21 S12 S22
# Hz S RI R 50
!     Frequency           S11_Real           S11_Imag           S21_Real           S21_Imag           S12_Real           S12_Imag           S22_Real           S22_Imag
      100000000   -2,865321934e-02   -4,232801497e-03    3,738013506e-01   -7,214867473e-01    0,000000000e+00    0,000000000e+00    0,000000000e+00    0,000000000e+00
      114000000   -1,641779020e-02    1,144081168e-02   -8,924657106e-02   -8,051369786e-01    0,000000000e+00    0,000000000e+00    0,000000000e+00    0,000000000e+00
      128000000    3,487592097e-03    1,071713958e-02   -5,144208670e-01   -6,200603247e-01    0,000000000e+00    0,000000000e+00    0,000000000e+00    0,000000000e+00
      142000000    1,473089308e-02   -2,626193687e-03   -7,668132186e-01   -2,363803536e-01    0,000000000e+00    0,000000000e+00    0,000000000e+00    0,000000000e+00
      156000000    1,660365239e-02   -1,411306392e-02   -7,718488574e-01    2,245434523e-01    0,000000000e+00    0,000000000e+00    0,000000000e+00    0,000000000e+00
      170000000    1,720012352e-02   -2,245908231e-02   -5,178970695e-01    6,043359041e-01    0,000000000e+00    0,000000000e+00    0,000000000e+00    0,000000000e+00
      184000000    2,141848207e-02   -3,720936179e-02   -1,012725458e-01    7,854100466e-01    0,000000000e+00    0,000000000e+00    0,000000000e+00    0,000000000e+00
      198000000    1,323927008e-02   -6,258509308e-02    3,430353701e-01    7,117909789e-01    0,000000000e+00    0,000000000e+00    0,000000000e+00    0,000000000e+00
      212000000   -1,834966056e-02   -8,127318323e-02    6,776979566e-01    4,096694887e-01    0,000000000e+00    0,000000000e+00    0,000000000e+00    0,000000000e+00
      226000000   -6,125665084e-02   -6,923616678e-02    7,952548265e-01   -3,060497157e-02    0,000000000e+00    0,000000000e+00    0,000000000e+00    0,000000000e+00
      240000000   -8,210191876e-02   -2,578912489e-02    6,456426978e-01   -4,668682218e-01    0,000000000e+00    0,000000000e+00    0,000000000e+00    0,000000000e+00
      254000000   -6,326903403e-02    1,685520448e-02    2,757430971e-01   -7,424132824e-01    0,000000000e+00    0,000000000e+00    0,000000000e+00    0,000000000e+00
      268000000   -2,387661114e-02    2,865677141e-02   -1,782177389e-01   -7,643288970e-01    0,000000000e+00    0,000000000e+00    0,000000000e+00    0,000000000e+00
      282000000    4,093557596e-03    1,205595490e-02   -5,617070794e-01   -5,355305672e-01    0,000000000e+00    0,000000000e+00    0,000000000e+00    0,000000000e+00
      296000000    9,994901717e-03   -7,591830101e-03   -7,594116330e-01   -1,395623982e-01    0,000000000e+00    0,000000000e+00    0,000000000e+00    0,000000000e+00
      310000000    1,183291804e-02   -1,594362222e-02   -7,110133767e-01    2,990333438e-01    0,000000000e+00    0,000000000e+00    0,000000000e+00    0,000000000e+00
      324000000    2,020190097e-02   -2,645728737e-02   -4,278395772e-01    6,376441121e-01    0,000000000e+00    0,000000000e+00    0,000000000e+00    0,000000000e+00
      338000000    2,582440153e-02   -5,220243707e-02   -1,051063463e-02    7,631430030e-01    0,000000000e+00    0,000000000e+00    0,000000000e+00    0,000000000e+00
      352000000    7,459763438e-03   -8,492750674e-02    4,053936303e-01    6,393783092e-01    0,000000000e+00    0,000000000e+00    0,000000000e+00    0,000000000e+00
      366000000   -3,445879370e-02   -9,549320489e-02    6,903054118e-01    3,108201325e-01    0,000000000e+00    0,000000000e+00    0,000000000e+00    0,000000000e+00
      380000000   -7,007142156e-02   -7,112576813e-02    7,472974658e-01   -1,257400066e-01    0,000000000e+00    0,000000000e+00    0,000000000e+00    0,000000000e+00
      394000000   -7,237024605e-02   -3,246050328e-02    5,456095338e-01   -5,216899514e-01    0,000000000e+00    0,000000000e+00    0,000000000e+00    0,000000000e+00
      408000000   -4,625032097e-02   -1,660508290e-02    1,613056511e-01   -7,315827012e-01    0,000000000e+00    0,000000000e+00    0,000000000e+00    0,000000000e+00
      422000000   -2,826794796e-02   -3,248376772e-02   -2,673796117e-01   -6,937012076e-01    0,000000000e+00    0,000000000e+00    0,000000000e+00    0,000000000e+00
      436000000   -4,036246613e-02   -5,142452940e-02   -6,034467816e-01   -4,311072230e-01    0,000000000e+00    0,000000000e+00    0,000000000e+00    0,000000000e+00
      450000000   -6,715755165e-02   -4,351008683e-02   -7,395595908e-01   -2,156948298e-02    0,000000000e+00    0,000000000e+00    0,000000000e+00    0,000000000e+00
      464000000   -7,297375053e-02   -1,171194948e-02   -6,178473234e-01    3,969458640e-01    0,000000000e+00    0,000000000e+00    0,000000000e+00    0,000000000e+00
      478000000   -4,774422571e-02    1,110440958e-02   -2,832831144e-01    6,665411592e-01    0,000000000e+00    0,000000000e+00    0,000000000e+00    0,000000000e+00
      492000000   -1,597936451e-02    5,709797144e-03    1,374775767e-01    7,012027502e-01    0,000000000e+00    0,000000000e+00    0,000000000e+00    0,000000000e+00
      506000000   -2,512488980e-03   -1,597461291e-02    4,979375303e-01    5,021880865e-01    0,000000000e+00    0,000000000e+00    0,000000000e+00    0,000000000e+00
      520000000   -5,169237964e-03   -3,132098168e-02    6,868489385e-01    1,412007958e-01    0,000000000e+00    0,000000000e+00    0,000000000e+00    0,000000000e+00
      534000000   -3,473256715e-03   -3,784876689e-02    6,436661482e-01   -2,615924776e-01    0,000000000e+00    0,000000000e+00    0,000000000e+00    0,000000000e+00
      548000000    6,445779465e-03   -5,415243283e-02    3,812232316e-01   -5,664548278e-01    0,000000000e+00    0,000000000e+00    0,000000000e+00    0,000000000e+00
      562000000    3,128940938e-03   -8,944319934e-02    2,537447261e-03   -6,701347828e-01    0,000000000e+00    0,000000000e+00    0,000000000e+00    0,000000000e+00
      576000000   -3,390927985e-02   -1,248227730e-01   -3,682519794e-01   -5,568810701e-01    0,000000000e+00    0,000000000e+00    0,000000000e+00    0,000000000e+00
      590000000   -9,572061896e-02   -1,229236126e-01   -6,199933887e-01   -2,621319592e-01    0,000000000e+00    0,000000000e+00    0,000000000e+00    0,000000000e+00
      604000000   -1,383183450e-01   -7,251673937e-02   -6,636894345e-01    1,367526203e-01    0,000000000e+00    0,000000000e+00    0,000000000e+00    0,000000000e+00
      618000000   -1,290507317e-01   -9,770908393e-03   -4,633845687e-01    4,924982488e-01    0,000000000e+00    0,000000000e+00    0,000000000e+00    0,000000000e+00
      632000000   -8,393815160e-02    1,599913836e-02   -9,971033037e-02    6,619592905e-01    0,000000000e+00    0,000000000e+00    0,000000000e+00    0,000000000e+00
      646000000   -5,217221007e-02    8,058592794e-04    2,844239175e-01    5,941378474e-01    0,000000000e+00    0,000000000e+00    0,000000000e+00    0,000000000e+00
      660000000   -5,331641436e-02   -2,110700496e-02    5,648100376e-01    3,233380318e-01    0,000000000e+00    0,000000000e+00    0,000000000e+00    0,000000000e+00
      674000000   -6,913056970e-02   -1,617723331e-02    6,403663754e-01   -6,335895509e-02    0,000000000e+00    0,000000000e+00    0,000000000e+00    0,000000000e+00
      688000000   -6,628782302e-02    8,928331546e-03    4,703923464e-01   -4,240234792e-01    0,000000000e+00    0,000000000e+00    0,000000000e+00    0,000000000e+00
      702000000   -3,575527668e-02    2,639651112e-02    1,181871518e-01   -6,120857000e-01    0,000000000e+00    0,000000000e+00    0,000000000e+00    0,000000000e+00
      716000000    3,717746120e-03    1,666261442e-02   -2,581578791e-01   -5,440900922e-01    0,000000000e+00    0,000000000e+00    0,000000000e+00    0,000000000e+00
      730000000    3,707049415e-02   -1,416879892e-02   -5,218430161e-01   -2,707024813e-01    0,000000000e+00    0,000000000e+00    0,000000000e+00    0,000000000e+00
      744000000    6,209264323e-02   -6,546822190e-02   -5,597067475e-01    9,876335412e-02    0,000000000e+00    0,000000000e+00    0,000000000e+00    0,000000000e+00
      758000000    6,142454222e-02   -1,515018642e-01   -3,661193848e-01    4,005455673e-01    0,000000000e+00    0,000000000e+00    0,000000000e+00    0,000000000e+00
      772000000   -1,709470153e-02   -2,571505308e-01   -4,499754682e-02    5,087977648e-01    0,000000000e+00    0,000000000e+00    0,000000000e+00    0,000000000e+00
      786000000   -2,034739256e-01   -2,916276455e-01    2,599031627e-01    3,979847729e-01    0,000000000e+00    0,000000000e+00    0,000000000e+00    0,000000000e+00
      800000000   -4,087957144e-01   -1,271808594e-01    4,067426324e-01    1,186763346e-01    0,000000000e+00    0,000000000e+00    0,000000000e+00    0,000000000e+00
      814000000   -3,758496642e-01    2,015495896e-01    2,946879268e-01   -1,509921849e-01    0,000000000e+00    0,000000000e+00    0,000000000e+00    0,000000000e+00
      828000000   -6,077988073e-02    3,468621373e-01    8,238241076e-02   -1,895692348e-01    0,000000000e+00    0,000000000e+00    0,000000000e+00    0,000000000e+00
      842000000    2,116102576e-01    1,845574528e-01   -3,536612261e-03   -9,256005287e-02    0,000000000e+00    0,000000000e+00    0,000000000e+00    0,000000000e+00
      856000000    2,654815614e-01   -1,064426526e-01    3,701004386e-02   -3,706291690e-02    0,000000000e+00    0,000000000e+00    0,000000000e+00    0,000000000e+00
      870000000    8,128135651e-02   -3,521466553e-01    8,902674913e-02   -9,819265455e-02    0,000000000e+00    0,000000000e+00    0,000000000e+00    0,000000000e+00
      884000000   -2,680134475e-01   -3,553754091e-01    1,124443673e-02   -2,281825542e-01    0,000000000e+00    0,000000000e+00    0,000000000e+00    0,000000000e+00
      898000000   -4,574732482e-01   -1,224248949e-02   -2,164555490e-01   -2,091456652e-01    0,000000000e+00    0,000000000e+00    0,000000000e+00    0,000000000e+00
      912000000   -2,349902540e-01    2,779707313e-01   -3,347533047e-01    6,238824874e-02    0,000000000e+00    0,000000000e+00    0,000000000e+00    0,000000000e+00
      926000000    5,433052033e-02    2,623422742e-01   -2,102722377e-01    2,640306652e-01    0,000000000e+00    0,000000000e+00    0,000000000e+00    0,000000000e+00
      940000000    2,086951137e-01    8,317345381e-02   -3,077811934e-02    3,245755136e-01    0,000000000e+00    0,000000000e+00    0,000000000e+00    0,000000000e+00
      954000000    2,228428423e-01   -1,213143766e-01    1,308390498e-01    3,013773859e-01    0,000000000e+00    0,000000000e+00    0,000000000e+00    0,000000000e+00
      968000000    1,164481193e-01   -2,917836607e-01    2,684879303e-01    2,131808847e-01    0,000000000e+00    0,000000000e+00    0,000000000e+00    0,000000000e+00
      982000000   -7,862190157e-02   -3,833378553e-01    3,587045074e-01    6,296467036e-02    0,000000000e+00    0,000000000e+00    0,000000000e+00    0,000000000e+00
      996000000   -3,090851605e-01   -3,293175399e-01    3,609328568e-01   -1,431742013e-01    0,000000000e+00    0,000000000e+00    0,000000000e+00    0,000000000e+00
     1010000000   -4,606267214e-01   -1,132933870e-01    2,187666595e-01   -3,343965113e-01    0,000000000e+00    0,000000000e+00    0,000000000e+00    0,000000000e+00
     1024000000   -4,152899683e-01    1,407365799e-01   -3,068899363e-02   -3,866840601e-01    0,000000000e+00    0,000000000e+00    0,000000000e+00    0,000000000e+00
     1038000000   -2,262312174e-01    2,892199755e-01   -2,413143069e-01   -2,573447227e-01    0,000000000e+00    0,000000000e+00    0,000000000e+00    0,000000000e+00
     1052000000   -1,365080662e-02    2,823889554e-01   -3,127501011e-01   -4,663765430e-02    0,000000000e+00    0,000000000e+00    0,000000000e+00    0,000000000e+00
     1066000000    1,325645149e-01    1,718822271e-01   -2,480851114e-01    1,360318512e-01    0,000000000e+00    0,000000000e+00    0,000000000e+00    0,000000000e+00
     1080000000    1,949775517e-01    6,265274715e-03   -1,159335896e-01    2,551523149e-01    0,000000000e+00    0,000000000e+00    0,000000000e+00    0,000000000e+00
     1094000000    1,575282961e-01   -1,646362394e-01    6,202072650e-02    2,944739461e-01    0,000000000e+00    0,000000000e+00    0,000000000e+00    0,000000000e+00
     1108000000    2,087827586e-02   -2,976815104e-01    2,595298588e-01    2,338269204e-01    0,000000000e+00    0,000000000e+00    0,000000000e+00    0,000000000e+00
     1122000000   -2,163503170e-01   -2,803950310e-01    4,390205741e-01    2,432462573e-02    0,000000000e+00    0,000000000e+00    0,000000000e+00    0,000000000e+00
     1136000000   -3,234542012e-01   -2,623550035e-02    4,015733600e-01   -3,458590806e-01    0,000000000e+00    0,000000000e+00    0,000000000e+00    0,000000000e+00
     1150000000   -1,064247638e-01    1,423605382e-01    4,602234811e-02   -5,296739936e-01    0,000000000e+00    0,000000000e+00    0,000000000e+00    0,000000000e+00
     1164000000    8,821152896e-02   -1,727376878e-02   -2,517075837e-01   -4,020274878e-01    0,000000000e+00    0,000000000e+00    0,000000000e+00    0,000000000e+00
     1178000000    2,661042288e-02   -2,543410361e-01   -3,719102144e-01   -1,780141145e-01    0,000000000e+00    0,000000000e+00    0,000000000e+00    0,000000000e+00
     1192000000   -2,198351473e-01   -3,477303386e-01   -3,382730186e-01    3,889962286e-02    0,000000000e+00    0,000000000e+00    0,000000000e+00    0,000000000e+00
     1206000000   -4,787121713e-01   -1,778667122e-01   -1,904857308e-01    1,835213304e-01    0,000000000e+00    0,000000000e+00    0,000000000e+00    0,000000000e+00
     1220000000   -5,023407340e-01    1,362998188e-01   -1,064253878e-02    1,687704623e-01    0,000000000e+00    0,000000000e+00    0,000000000e+00    0,000000000e+00
     1234000000   -2,979652584e-01    3,485602736e-01    7,152360678e-02    8,047363907e-02    0,000000000e+00    0,000000000e+00    0,000000000e+00    0,000000000e+00
     1248000000   -6,621786207e-02    3,621872365e-01    6,845947355e-02   -3,116251435e-03    0,000000000e+00    0,000000000e+00    0,000000000e+00    0,000000000e+00
     1262000000    1,107014120e-01    2,640192807e-01    2,737739496e-02   -2,197958529e-02    0,000000000e+00    0,000000000e+00    0,000000000e+00    0,000000000e+00
     1276000000    1,998701394e-01    1,099269986e-01   -1,009852625e-03   -7,741970476e-03    0,000000000e+00    0,000000000e+00    0,000000000e+00    0,000000000e+00
     1290000000    2,193139493e-01   -6,444555521e-02    9,083713405e-03    2,679517493e-02    0,000000000e+00    0,000000000e+00    0,000000000e+00    0,000000000e+00
     1304000000    1,650289893e-01   -2,318674028e-01    6,452137232e-02    5,987884849e-02    0,000000000e+00    0,000000000e+00    0,000000000e+00    0,000000000e+00
     1318000000    2,679142915e-02   -3,659138978e-01    1,777686328e-01    1,698655449e-02    0,000000000e+00    0,000000000e+00    0,000000000e+00    0,000000000e+00
     1332000000   -1,505694240e-01   -3,968550861e-01    1,014413163e-01   -1,757525504e-01    0,000000000e+00    0,000000000e+00    0,000000000e+00    0,000000000e+00
     1346000000   -3,593230546e-01   -3,952661455e-01   -5,545742437e-02   -2,998998761e-02    0,000000000e+00    0,000000000e+00    0,000000000e+00    0,000000000e+00
     1360000000   -5,911115408e-01   -1,978101581e-01    6,086348370e-02    9,418223053e-02    0,000000000e+00    0,000000000e+00    0,000000000e+00    0,000000000e+00
     1374000000   -6,277397871e-01    1,065026969e-01    1,799263358e-01    5,694583431e-02    0,000000000e+00    0,000000000e+00    0,000000000e+00    0,000000000e+00
     1388000000   -4,686206281e-01    3,511008918e-01    2,208010256e-01   -2,984950878e-02    0,000000000e+00    0,000000000e+00    0,000000000e+00    0,000000000e+00
     1402000000   -2,418914735e-01    4,421289265e-01    2,197004110e-01   -7,795809209e-02    0,000000000e+00    0,000000000e+00    0,000000000e+00    0,000000000e+00
     1416000000   -4,114897549e-02    4,187250733e-01    1,973359138e-01   -9,735567868e-02    0,000000000e+00    0,000000000e+00    0,000000000e+00    0,000000000e+00
     1430000000    1,204429716e-01    3,014683127e-01    1,937851161e-01   -1,419854164e-01    0,000000000e+00    0,000000000e+00    0,000000000e+00    0,000000000e+00
     1444000000    2,051439136e-01    1,584068686e-01    1,590969414e-01   -1,067919284e-01    0,000000000e+00    0,000000000e+00    0,000000000e+00    0,000000000e+00
     1458000000    2,345332503e-01   -6,863341201e-03    1,528130621e-01   -8,074025065e-02    0,000000000e+00    0,000000000e+00    0,000000000e+00    0,000000000e+00
     1472000000    1,923965514e-01   -1,933050305e-01    1,461704224e-01   -5,484266952e-02    0,000000000e+00    0,000000000e+00    0,000000000e+00    0,000000000e+00
     1486000000    6,555624306e-02   -3,705467880e-01    1,584748626e-01    2,190432139e-02    0,000000000e+00    0,000000000e+00    0,000000000e+00    0,000000000e+00
     1500000000   -1,591868252e-01   -4,844633639e-01    2,362725884e-01    1,006154791e-01    0,000000000e+00    0,000000000e+00    0,000000000e+00    0,000000000e+00
