! NanoVNA-App
! Date: 2025-09-25 15:43:13
! Start: 100MHz Stop: 1,5GHz Points: 101
! S-Parameter data: F S11 S21 S12 S22
# Hz S RI R 50
!     Frequency           S11_Real           S11_Imag           S21_Real           S21_Imag           S12_Real           S12_Imag           S22_Real           S22_Imag
      100000000   -2,879067324e-02   -4,255361855e-03    3,739777207e-01   -7,215948105e-01    0,000000000e+00    0,000000000e+00    0,000000000e+00    0,000000000e+00
      114000000   -1,658635959e-02    1,149792969e-02   -8,908943087e-02   -8,053164482e-01    0,000000000e+00    0,000000000e+00    0,000000000e+00    0,000000000e+00
      128000000    3,426500363e-03    1,068855170e-02   -5,143485069e-01   -6,202408671e-01    0,000000000e+00    0,000000000e+00    0,000000000e+00    0,000000000e+00
      142000000    1,463620737e-02   -2,641771222e-03   -7,668291926e-01   -2,364846319e-01    0,000000000e+00    0,000000000e+00    0,000000000e+00    0,000000000e+00
      156000000    1,542586926e-02   -1,475641318e-02   -7,689658999e-01    2,196070701e-01    0,000000000e+00    0,000000000e+00    0,000000000e+00    0,000000000e+00
      170000000    1,707830280e-02   -2,240065672e-02   -5,180892944e-01    6,043418050e-01    0,000000000e+00    0,000000000e+00    0,000000000e+00    0,000000000e+00
      184000000    2,131659538e-02   -3,718938306e-02   -1,013877168e-01    7,859995365e-01    0,000000000e+00    0,000000000e+00    0,000000000e+00    0,000000000e+00
      198000000    1,319977455e-02   -6,253082305e-02    3,431542516e-01    7,122054100e-01    0,000000000e+00    0,000000000e+00    0,000000000e+00    0,000000000e+00
      212000000   -1,843187772e-02   -8,125630021e-02    6,779863834e-01    4,099104702e-01    0,000000000e+00    0,000000000e+00    0,000000000e+00    0,000000000e+00
      226000000   -6,142786890e-02   -6,922113895e-02    7,954967022e-01   -3,053435683e-02    0,000000000e+00    0,000000000e+00    0,000000000e+00    0,000000000e+00
      240000000   -8,228452504e-02   -2,581848577e-02    6,458705664e-01   -4,667802751e-01    0,000000000e+00    0,000000000e+00    0,000000000e+00    0,000000000e+00
      254000000   -6,338211894e-02    1,697728783e-02    2,761009932e-01   -7,429151535e-01    0,000000000e+00    0,000000000e+00    0,000000000e+00    0,000000000e+00
      268000000   -2,401242964e-02    2,873132005e-02   -1,774955094e-01   -7,638686895e-01    0,000000000e+00    0,000000000e+00    0,000000000e+00    0,000000000e+00
      282000000    4,051243421e-03    1,201797277e-02   -5,615589619e-01   -5,355603695e-01    0,000000000e+00    0,000000000e+00    0,000000000e+00    0,000000000e+00
      296000000    9,874218144e-03   -7,572339382e-03   -7,595747113e-01   -1,395667046e-01    0,000000000e+00    0,000000000e+00    0,000000000e+00    0,000000000e+00
      310000000    1,144018397e-02   -1,603490673e-02   -7,119224668e-01    2,990706861e-01    0,000000000e+00    0,000000000e+00    0,000000000e+00    0,000000000e+00
      324000000    1,998349279e-02   -2,659096755e-02   -4,275580347e-01    6,381736994e-01    0,000000000e+00    0,000000000e+00    0,000000000e+00    0,000000000e+00
      338000000    2,573310770e-02   -5,246636644e-02   -1,069785282e-02    7,627262473e-01    0,000000000e+00    0,000000000e+00    0,000000000e+00    0,000000000e+00
      352000000    7,345447317e-03   -8,491672575e-02    4,056296051e-01    6,393242478e-01    0,000000000e+00    0,000000000e+00    0,000000000e+00    0,000000000e+00
      366000000   -3,456159681e-02   -9,526856989e-02    6,905988455e-01    3,111707866e-01    0,000000000e+00    0,000000000e+00    0,000000000e+00    0,000000000e+00
      380000000   -7,035230845e-02   -7,132533938e-02    7,473551035e-01   -1,261978000e-01    0,000000000e+00    0,000000000e+00    0,000000000e+00    0,000000000e+00
      394000000   -7,242041826e-02   -3,245835751e-02    5,453664660e-01   -5,214398503e-01    0,000000000e+00    0,000000000e+00    0,000000000e+00    0,000000000e+00
      408000000   -4,645365104e-02   -1,631476358e-02    1,607864201e-01   -7,320923209e-01    0,000000000e+00    0,000000000e+00    0,000000000e+00    0,000000000e+00
      422000000   -2,850507200e-02   -3,199747577e-02   -2,677240074e-01   -6,946970820e-01    0,000000000e+00    0,000000000e+00    0,000000000e+00    0,000000000e+00
      436000000   -4,058017582e-02   -5,163491890e-02   -6,037131548e-01   -4,309274554e-01    0,000000000e+00    0,000000000e+00    0,000000000e+00    0,000000000e+00
      450000000   -6,728691608e-02   -4,366867244e-02   -7,401700616e-01   -2,186678723e-02    0,000000000e+00    0,000000000e+00    0,000000000e+00    0,000000000e+00
      464000000   -7,276296616e-02   -1,172501780e-02   -6,176797152e-01    3,967379630e-01    0,000000000e+00    0,000000000e+00    0,000000000e+00    0,000000000e+00
      478000000   -4,721279442e-02    1,140206028e-02   -2,822306454e-01    6,668531299e-01    0,000000000e+00    0,000000000e+00    0,000000000e+00    0,000000000e+00
      492000000   -1,601517573e-02    6,110985763e-03    1,371703148e-01    7,015883923e-01    0,000000000e+00    0,000000000e+00    0,000000000e+00    0,000000000e+00
      506000000   -2,811739221e-03   -1,561162341e-02    4,977006018e-01    5,025042892e-01    0,000000000e+00    0,000000000e+00    0,000000000e+00    0,000000000e+00
      520000000   -5,129613448e-03   -3,123780340e-02    6,865103841e-01    1,420809627e-01    0,000000000e+00    0,000000000e+00    0,000000000e+00    0,000000000e+00
      534000000   -3,649362130e-03   -3,812262043e-02    6,425693631e-01   -2,616616786e-01    0,000000000e+00    0,000000000e+00    0,000000000e+00    0,000000000e+00
      548000000    6,507041398e-03   -5,396212265e-02    3,819551468e-01   -5,664014220e-01    0,000000000e+00    0,000000000e+00    0,000000000e+00    0,000000000e+00
      562000000    3,469478339e-03   -8,943828940e-02    3,050521947e-03   -6,711040139e-01    0,000000000e+00    0,000000000e+00    0,000000000e+00    0,000000000e+00
      576000000   -3,422779962e-02   -1,242900863e-01   -3,687795997e-01   -5,579426885e-01    0,000000000e+00    0,000000000e+00    0,000000000e+00    0,000000000e+00
      590000000   -9,587584436e-02   -1,226138473e-01   -6,189547777e-01   -2,646503747e-01    0,000000000e+00    0,000000000e+00    0,000000000e+00    0,000000000e+00
      604000000   -1,392193139e-01   -7,228046656e-02   -6,643589139e-01    1,365663111e-01    0,000000000e+00    0,000000000e+00    0,000000000e+00    0,000000000e+00
      618000000   -1,290762722e-01   -9,503629059e-03   -4,642394483e-01    4,931324124e-01    0,000000000e+00    0,000000000e+00    0,000000000e+00    0,000000000e+00
      632000000   -8,418817818e-02    1,584082656e-02   -1,007138714e-01    6,625505090e-01    0,000000000e+00    0,000000000e+00    0,000000000e+00    0,000000000e+00
      646000000   -5,247774720e-02    8,418502402e-04    2,860593200e-01    5,946950912e-01    0,000000000e+00    0,000000000e+00    0,000000000e+00    0,000000000e+00
      660000000   -5,427268893e-02   -2,115128189e-02    5,649212599e-01    3,226194978e-01    0,000000000e+00    0,000000000e+00    0,000000000e+00    0,000000000e+00
      674000000   -6,936565042e-02   -1,598297991e-02    6,407147050e-01   -6,305510551e-02    0,000000000e+00    0,000000000e+00    0,000000000e+00    0,000000000e+00
      688000000   -6,689409167e-02    8,644520305e-03    4,712328315e-01   -4,242002964e-01    0,000000000e+00    0,000000000e+00    0,000000000e+00    0,000000000e+00
      702000000   -3,566699103e-02    2,544799633e-02    1,205752715e-01   -6,042150855e-01    0,000000000e+00    0,000000000e+00    0,000000000e+00    0,000000000e+00
      716000000    4,297915380e-03    1,646647416e-02   -2,590737343e-01   -5,458845496e-01    0,000000000e+00    0,000000000e+00    0,000000000e+00    0,000000000e+00
      730000000    3,680078685e-02   -1,311541069e-02   -5,223796368e-01   -2,723562121e-01    0,000000000e+00    0,000000000e+00    0,000000000e+00    0,000000000e+00
      744000000    6,300835311e-02   -6,551490724e-02   -5,603380799e-01    9,856180847e-02    0,000000000e+00    0,000000000e+00    0,000000000e+00    0,000000000e+00
      758000000    6,141948327e-02   -1,512707621e-01   -3,664110303e-01    4,001481235e-01    0,000000000e+00    0,000000000e+00    0,000000000e+00    0,000000000e+00
      772000000   -1,742670313e-02   -2,552955747e-01   -4,546101391e-02    5,096405745e-01    0,000000000e+00    0,000000000e+00    0,000000000e+00    0,000000000e+00
      786000000   -2,028728276e-01   -2,909145355e-01    2,595393658e-01    3,993850648e-01    0,000000000e+00    0,000000000e+00    0,000000000e+00    0,000000000e+00
      800000000   -4,073210955e-01   -1,278231591e-01    4,072054625e-01    1,190574840e-01    0,000000000e+00    0,000000000e+00    0,000000000e+00    0,000000000e+00
      814000000   -3,774105906e-01    2,015157491e-01    2,970097959e-01   -1,508402973e-01    0,000000000e+00    0,000000000e+00    0,000000000e+00    0,000000000e+00
      828000000   -6,246033311e-02    3,477143347e-01    8,253931999e-02   -1,909979582e-01    0,000000000e+00    0,000000000e+00    0,000000000e+00    0,000000000e+00
      842000000    2,118635178e-01    1,866300553e-01   -3,640579525e-03   -9,317280352e-02    0,000000000e+00    0,000000000e+00    0,000000000e+00    0,000000000e+00
      856000000    2,664369941e-01   -1,056645736e-01    3,585872427e-02   -3,697897866e-02    0,000000000e+00    0,000000000e+00    0,000000000e+00    0,000000000e+00
      870000000    8,279727399e-02   -3,513251245e-01    8,869758993e-02   -9,659279883e-02    0,000000000e+00    0,000000000e+00    0,000000000e+00    0,000000000e+00
      884000000   -2,664460242e-01   -3,567044437e-01    1,144033391e-02   -2,277597040e-01    0,000000000e+00    0,000000000e+00    0,000000000e+00    0,000000000e+00
      898000000   -4,572510421e-01   -1,414107718e-02   -2,148576528e-01   -2,099204063e-01    0,000000000e+00    0,000000000e+00    0,000000000e+00    0,000000000e+00
      912000000   -2,346363962e-01    2,783496678e-01   -3,413647711e-01    6,611586362e-02    0,000000000e+00    0,000000000e+00    0,000000000e+00    0,000000000e+00
      926000000    5,482316762e-02    2,635607719e-01   -2,097295821e-01    2,633709311e-01    0,000000000e+00    0,000000000e+00    0,000000000e+00    0,000000000e+00
      940000000    2,073481083e-01    8,481454104e-02   -3,169955313e-02    3,238001764e-01    0,000000000e+00    0,000000000e+00    0,000000000e+00    0,000000000e+00
      954000000    2,220522314e-01   -1,205706522e-01    1,330865324e-01    3,016407490e-01    0,000000000e+00    0,000000000e+00    0,000000000e+00    0,000000000e+00
      968000000    1,167618930e-01   -2,923754454e-01    2,677840590e-01    2,128078490e-01    0,000000000e+00    0,000000000e+00    0,000000000e+00    0,000000000e+00
      982000000   -7,899136841e-02   -3,831501603e-01    3,601712286e-01    6,360699236e-02    0,000000000e+00    0,000000000e+00    0,000000000e+00    0,000000000e+00
      996000000   -3,082419634e-01   -3,300009668e-01    3,637715876e-01   -1,441540271e-01    0,000000000e+00    0,000000000e+00    0,000000000e+00    0,000000000e+00
     1010000000   -4,594148993e-01   -1,140237972e-01    2,208339721e-01   -3,338746727e-01    0,000000000e+00    0,000000000e+00    0,000000000e+00    0,000000000e+00
     1024000000   -4,190203846e-01    1,451955140e-01   -2,941001952e-02   -3,854868412e-01    0,000000000e+00    0,000000000e+00    0,000000000e+00    0,000000000e+00
     1038000000   -2,280750275e-01    2,879302502e-01   -2,413764000e-01   -2,570177019e-01    0,000000000e+00    0,000000000e+00    0,000000000e+00    0,000000000e+00
     1052000000   -1,010551397e-02    2,833267450e-01   -3,100520968e-01   -4,717689753e-02    0,000000000e+00    0,000000000e+00    0,000000000e+00    0,000000000e+00
     1066000000    1,323351562e-01    1,669517756e-01   -2,531178594e-01    1,412882060e-01    0,000000000e+00    0,000000000e+00    0,000000000e+00    0,000000000e+00
     1080000000    1,904338151e-01    6,743533537e-03   -1,160918400e-01    2,540115118e-01    0,000000000e+00    0,000000000e+00    0,000000000e+00    0,000000000e+00
     1094000000    1,613224745e-01   -1,603743136e-01    6,158324704e-02    2,912805974e-01    0,000000000e+00    0,000000000e+00    0,000000000e+00    0,000000000e+00
     1108000000    1,729243249e-02   -2,984392345e-01    2,625055611e-01    2,331559211e-01    0,000000000e+00    0,000000000e+00    0,000000000e+00    0,000000000e+00
     1122000000   -2,115196139e-01   -2,847737968e-01    4,405573606e-01    2,532489412e-02    0,000000000e+00    0,000000000e+00    0,000000000e+00    0,000000000e+00
     1136000000   -3,205645084e-01   -3,101012670e-02    4,025248587e-01   -3,463494182e-01    0,000000000e+00    0,000000000e+00    0,000000000e+00    0,000000000e+00
     1150000000   -1,108879671e-01    1,373500973e-01    4,948300496e-02   -5,299584866e-01    0,000000000e+00    0,000000000e+00    0,000000000e+00    0,000000000e+00
     1164000000    8,406468481e-02   -1,933654957e-02   -2,502737343e-01   -4,059414566e-01    0,000000000e+00    0,000000000e+00    0,000000000e+00    0,000000000e+00
     1178000000    2,771698497e-02   -2,529997826e-01   -3,707958162e-01   -1,790143400e-01    0,000000000e+00    0,000000000e+00    0,000000000e+00    0,000000000e+00
     1192000000   -2,231170386e-01   -3,474790156e-01   -3,403606713e-01    4,309954867e-02    0,000000000e+00    0,000000000e+00    0,000000000e+00    0,000000000e+00
     1206000000   -4,813556075e-01   -1,771363020e-01   -1,892561167e-01    1,832763404e-01    0,000000000e+00    0,000000000e+00    0,000000000e+00    0,000000000e+00
     1220000000   -5,000112057e-01    1,370253116e-01   -5,163104273e-03    1,736656874e-01    0,000000000e+00    0,000000000e+00    0,000000000e+00    0,000000000e+00
     1234000000   -2,986442745e-01    3,404584527e-01    7,496841252e-02    8,043221384e-02    0,000000000e+00    0,000000000e+00    0,000000000e+00    0,000000000e+00
     1248000000   -6,348168850e-02    3,536717296e-01    6,210259348e-02   -2,995986433e-04    0,000000000e+00    0,000000000e+00    0,000000000e+00    0,000000000e+00
     1262000000    1,110277697e-01    2,546159327e-01    3,200100735e-02   -2,784729376e-02    0,000000000e+00    0,000000000e+00    0,000000000e+00    0,000000000e+00
     1276000000    2,036078721e-01    1,060890406e-01    5,408573430e-03   -1,006079372e-02    0,000000000e+00    0,000000000e+00    0,000000000e+00    0,000000000e+00
     1290000000    2,209243625e-01   -6,378009170e-02    8,846841753e-03    2,242841572e-02    0,000000000e+00    0,000000000e+00    0,000000000e+00    0,000000000e+00
     1304000000    1,673815250e-01   -2,330949903e-01    6,590361893e-02    5,104923248e-02    0,000000000e+00    0,000000000e+00    0,000000000e+00    0,000000000e+00
     1318000000    2,960427850e-02   -3,649571836e-01    1,760177016e-01    1,558114775e-02    0,000000000e+00    0,000000000e+00    0,000000000e+00    0,000000000e+00
     1332000000   -1,481266618e-01   -3,993848264e-01    9,699863940e-02   -1,785634756e-01    0,000000000e+00    0,000000000e+00    0,000000000e+00    0,000000000e+00
     1346000000   -3,647206724e-01   -3,943329453e-01   -5,724565685e-02   -3,184325993e-02    0,000000000e+00    0,000000000e+00    0,000000000e+00    0,000000000e+00
     1360000000   -5,854673386e-01   -2,082383037e-01    6,775196642e-02    7,679444551e-02    0,000000000e+00    0,000000000e+00    0,000000000e+00    0,000000000e+00
     1374000000   -6,239291430e-01    1,015880555e-01    1,856826693e-01    5,610651895e-02    0,000000000e+00    0,000000000e+00    0,000000000e+00    0,000000000e+00
     1388000000   -4,767816961e-01    3,452320099e-01    2,138499767e-01   -2,771397680e-02    0,000000000e+00    0,000000000e+00    0,000000000e+00    0,000000000e+00
     1402000000   -2,483610809e-01    4,480471909e-01    2,045932412e-01   -7,152393460e-02    0,000000000e+00    0,000000000e+00    0,000000000e+00    0,000000000e+00
     1416000000   -3,522459045e-02    4,087987244e-01    1,967592984e-01   -1,012649983e-01    0,000000000e+00    0,000000000e+00    0,000000000e+00    0,000000000e+00
     1430000000    1,180262268e-01    3,067632914e-01    1,818939596e-01   -1,361601353e-01    0,000000000e+00    0,000000000e+00    0,000000000e+00    0,000000000e+00
     1444000000    2,027535439e-01    1,576247662e-01    1,682171971e-01   -1,032957956e-01    0,000000000e+00    0,000000000e+00    0,000000000e+00    0,000000000e+00
     1458000000    2,342840731e-01   -1,305610873e-02    1,510489136e-01   -9,590261430e-02    0,000000000e+00    0,000000000e+00    0,000000000e+00    0,000000000e+00
     1472000000    1,909398586e-01   -1,897878349e-01    1,344552785e-01   -4,266338423e-02    0,000000000e+00    0,000000000e+00    0,000000000e+00    0,000000000e+00
     1486000000    6,785737723e-02   -3,612730205e-01    1,690429598e-01    3,185725585e-02    0,000000000e+00    0,000000000e+00    0,000000000e+00    0,000000000e+00
     1500000000   -1,657520682e-01   -4,894298315e-01    2,114938498e-01    8,746989816e-02    0,000000000e+00    0,000000000e+00    0,000000000e+00    0,000000000e+00
