! NanoVNA-App
! Date: 2025-09-25 15:40:08
! Start: 100MHz Stop: 1,5GHz Points: 101
! S-Parameter data: F S11 S21 S12 S22
# Hz S RI R 50
!     Frequency           S11_Real           S11_Imag           S21_Real           S21_Imag           S12_Real           S12_Imag           S22_Real           S22_Imag
      100000000   -2,861619741e-02   -4,228425678e-03    3,737750947e-01   -7,215156555e-01    0,000000000e+00    0,000000000e+00    0,000000000e+00    0,000000000e+00
      114000000   -1,637053117e-02    1,149445772e-02   -8,906351030e-02   -8,050279021e-01    0,000000000e+00    0,000000000e+00    0,000000000e+00    0,000000000e+00
      128000000    3,555493196e-03    1,069998182e-02   -5,144082308e-01   -6,201364994e-01    0,000000000e+00    0,000000000e+00    0,000000000e+00    0,000000000e+00
      142000000    1,478054561e-02   -2,625097055e-03   -7,668448091e-01   -2,363172919e-01    0,000000000e+00    0,000000000e+00    0,000000000e+00    0,000000000e+00
      156000000    1,525803749e-02   -1,460452564e-02   -7,653642893e-01    2,215812802e-01    0,000000000e+00    0,000000000e+00    0,000000000e+00    0,000000000e+00
      170000000    1,727707684e-02   -2,251871675e-02   -5,175147653e-01    6,042949557e-01    0,000000000e+00    0,000000000e+00    0,000000000e+00    0,000000000e+00
      184000000    2,145118639e-02   -3,718877584e-02   -1,012130454e-01    7,858291864e-01    0,000000000e+00    0,000000000e+00    0,000000000e+00    0,000000000e+00
      198000000    1,335442066e-02   -6,252237409e-02    3,430537879e-01    7,119897008e-01    0,000000000e+00    0,000000000e+00    0,000000000e+00    0,000000000e+00
      212000000   -1,829255931e-02   -8,127918094e-02    6,778410673e-01    4,096688926e-01    0,000000000e+00    0,000000000e+00    0,000000000e+00    0,000000000e+00
      226000000   -6,122142076e-02   -6,924740225e-02    7,952470183e-01   -3,058165312e-02    0,000000000e+00    0,000000000e+00    0,000000000e+00    0,000000000e+00
      240000000   -8,208719641e-02   -2,585182898e-02    6,456685066e-01   -4,666323066e-01    0,000000000e+00    0,000000000e+00    0,000000000e+00    0,000000000e+00
      254000000   -6,323957443e-02    1,681839861e-02    2,758371830e-01   -7,427587509e-01    0,000000000e+00    0,000000000e+00    0,000000000e+00    0,000000000e+00
      268000000   -2,378297038e-02    2,864202857e-02   -1,780411452e-01   -7,644512653e-01    0,000000000e+00    0,000000000e+00    0,000000000e+00    0,000000000e+00
      282000000    4,149613436e-03    1,199811697e-02   -5,613206029e-01   -5,355965495e-01    0,000000000e+00    0,000000000e+00    0,000000000e+00    0,000000000e+00
      296000000    9,866786189e-03   -7,524010260e-03   -7,591740489e-01   -1,395675540e-01    0,000000000e+00    0,000000000e+00    0,000000000e+00    0,000000000e+00
      310000000    1,160886697e-02   -1,614082791e-02   -7,122340202e-01    2,988451719e-01    0,000000000e+00    0,000000000e+00    0,000000000e+00    0,000000000e+00
      324000000    1,994019002e-02   -2,686047740e-02   -4,275257289e-01    6,367247105e-01    0,000000000e+00    0,000000000e+00    0,000000000e+00    0,000000000e+00
      338000000    2,598692290e-02   -5,220263451e-02   -8,577178232e-03    7,593922615e-01    0,000000000e+00    0,000000000e+00    0,000000000e+00    0,000000000e+00
      352000000    7,556247525e-03   -8,456339687e-02    4,061460793e-01    6,394326091e-01    0,000000000e+00    0,000000000e+00    0,000000000e+00    0,000000000e+00
      366000000   -3,429399058e-02   -9,554059058e-02    6,900011897e-01    3,106988072e-01    0,000000000e+00    0,000000000e+00    0,000000000e+00    0,000000000e+00
      380000000   -7,042878121e-02   -7,133775949e-02    7,468876839e-01   -1,261257529e-01    0,000000000e+00    0,000000000e+00    0,000000000e+00    0,000000000e+00
      394000000   -7,220203429e-02   -3,268015012e-02    5,454933047e-01   -5,198766589e-01    0,000000000e+00    0,000000000e+00    0,000000000e+00    0,000000000e+00
      408000000   -4,604274780e-02   -1,657028310e-02    1,604363024e-01   -7,320743203e-01    0,000000000e+00    0,000000000e+00    0,000000000e+00    0,000000000e+00
      422000000   -2,838145941e-02   -3,235054389e-02   -2,672187388e-01   -6,944816113e-01    0,000000000e+00    0,000000000e+00    0,000000000e+00    0,000000000e+00
      436000000   -4,048172385e-02   -5,174268410e-02   -6,031570435e-01   -4,311952293e-01    0,000000000e+00    0,000000000e+00    0,000000000e+00    0,000000000e+00
      450000000   -6,713113189e-02   -4,392996430e-02   -7,397772670e-01   -2,151564322e-02    0,000000000e+00    0,000000000e+00    0,000000000e+00    0,000000000e+00
      464000000   -7,307417691e-02   -1,224205829e-02   -6,179596782e-01    3,967822194e-01    0,000000000e+00    0,000000000e+00    0,000000000e+00    0,000000000e+00
      478000000   -4,740042612e-02    1,154336892e-02   -2,823557556e-01    6,670823097e-01    0,000000000e+00    0,000000000e+00    0,000000000e+00    0,000000000e+00
      492000000   -1,580585912e-02    5,566704087e-03    1,368137896e-01    7,005808353e-01    0,000000000e+00    0,000000000e+00    0,000000000e+00    0,000000000e+00
      506000000   -2,824825933e-03   -1,611849107e-02    4,972339272e-01    5,024319887e-01    0,000000000e+00    0,000000000e+00    0,000000000e+00    0,000000000e+00
      520000000   -4,966970999e-03   -3,145299479e-02    6,868966818e-01    1,420133710e-01    0,000000000e+00    0,000000000e+00    0,000000000e+00    0,000000000e+00
      534000000   -3,705226351e-03   -3,805166855e-02    6,426069140e-01   -2,616726160e-01    0,000000000e+00    0,000000000e+00    0,000000000e+00    0,000000000e+00
      548000000    6,413125433e-03   -5,385049433e-02    3,812931776e-01   -5,658052564e-01    0,000000000e+00    0,000000000e+00    0,000000000e+00    0,000000000e+00
      562000000    3,419215791e-03   -8,971955627e-02    2,581915120e-03   -6,717674136e-01    0,000000000e+00    0,000000000e+00    0,000000000e+00    0,000000000e+00
      576000000   -3,358760849e-02   -1,244724318e-01   -3,678063750e-01   -5,565008521e-01    0,000000000e+00    0,000000000e+00    0,000000000e+00    0,000000000e+00
      590000000   -9,544929117e-02   -1,225288585e-01   -6,181971431e-01   -2,628268600e-01    0,000000000e+00    0,000000000e+00    0,000000000e+00    0,000000000e+00
      604000000   -1,386758834e-01   -7,253732532e-02   -6,642354727e-01    1,363126785e-01    0,000000000e+00    0,000000000e+00    0,000000000e+00    0,000000000e+00
      618000000   -1,294665039e-01   -9,952279739e-03   -4,647663236e-01    4,933194816e-01    0,000000000e+00    0,000000000e+00    0,000000000e+00    0,000000000e+00
      632000000   -8,383987099e-02    1,605921984e-02   -9,930266440e-02    6,624888778e-01    0,000000000e+00    0,000000000e+00    0,000000000e+00    0,000000000e+00
      646000000   -5,193872377e-02   -3,951345570e-04    2,847807109e-01    5,936770439e-01    0,000000000e+00    0,000000000e+00    0,000000000e+00    0,000000000e+00
      660000000   -5,319057778e-02   -2,101834491e-02    5,644713640e-01    3,240122497e-01    0,000000000e+00    0,000000000e+00    0,000000000e+00    0,000000000e+00
      674000000   -6,891781092e-02   -1,662697457e-02    6,403235793e-01   -6,345867366e-02    0,000000000e+00    0,000000000e+00    0,000000000e+00    0,000000000e+00
      688000000   -6,655627489e-02    9,588568471e-03    4,709347785e-01   -4,240771234e-01    0,000000000e+00    0,000000000e+00    0,000000000e+00    0,000000000e+00
      702000000   -3,642200679e-02    2,650996298e-02    1,202418730e-01   -6,095842719e-01    0,000000000e+00    0,000000000e+00    0,000000000e+00    0,000000000e+00
      716000000    4,036158323e-03    1,630266942e-02   -2,593542635e-01   -5,446540117e-01    0,000000000e+00    0,000000000e+00    0,000000000e+00    0,000000000e+00
      730000000    3,670591116e-02   -1,344206743e-02   -5,218117237e-01   -2,706824839e-01    0,000000000e+00    0,000000000e+00    0,000000000e+00    0,000000000e+00
      744000000    6,314601004e-02   -6,580225378e-02   -5,598535538e-01    9,909294546e-02    0,000000000e+00    0,000000000e+00    0,000000000e+00    0,000000000e+00
      758000000    6,128824130e-02   -1,517596394e-01   -3,665989339e-01    4,003348947e-01    0,000000000e+00    0,000000000e+00    0,000000000e+00    0,000000000e+00
      772000000   -1,706761122e-02   -2,559256256e-01   -4,575222358e-02    5,090669990e-01    0,000000000e+00    0,000000000e+00    0,000000000e+00    0,000000000e+00
      786000000   -2,031543106e-01   -2,914214730e-01    2,597758770e-01    3,987145126e-01    0,000000000e+00    0,000000000e+00    0,000000000e+00    0,000000000e+00
      800000000   -4,076963663e-01   -1,263438761e-01    4,069757164e-01    1,176952869e-01    0,000000000e+00    0,000000000e+00    0,000000000e+00    0,000000000e+00
      814000000   -3,763089776e-01    2,017502040e-01    2,955827415e-01   -1,510273516e-01    0,000000000e+00    0,000000000e+00    0,000000000e+00    0,000000000e+00
      828000000   -6,317052990e-02    3,470287025e-01    8,238127828e-02   -1,903526485e-01    0,000000000e+00    0,000000000e+00    0,000000000e+00    0,000000000e+00
      842000000    2,120461166e-01    1,854460537e-01   -3,105387790e-03   -9,249775112e-02    0,000000000e+00    0,000000000e+00    0,000000000e+00    0,000000000e+00
      856000000    2,655652165e-01   -1,063021496e-01    3,660220653e-02   -3,675604612e-02    0,000000000e+00    0,000000000e+00    0,000000000e+00    0,000000000e+00
      870000000    8,151655644e-02   -3,518451154e-01    8,925337344e-02   -9,738811851e-02    0,000000000e+00    0,000000000e+00    0,000000000e+00    0,000000000e+00
      884000000   -2,671973109e-01   -3,558557928e-01    1,200704463e-02   -2,289392650e-01    0,000000000e+00    0,000000000e+00    0,000000000e+00    0,000000000e+00
      898000000   -4,566321075e-01   -1,259980816e-02   -2,157724500e-01   -2,090435177e-01    0,000000000e+00    0,000000000e+00    0,000000000e+00    0,000000000e+00
      912000000   -2,348663062e-01    2,772534490e-01   -3,276803195e-01    7,746946812e-02    0,000000000e+00    0,000000000e+00    0,000000000e+00    0,000000000e+00
      926000000    5,503314734e-02    2,630169988e-01   -2,117659003e-01    2,641446590e-01    0,000000000e+00    0,000000000e+00    0,000000000e+00    0,000000000e+00
      940000000    2,070375383e-01    8,426154405e-02   -3,216549009e-02    3,261389434e-01    0,000000000e+00    0,000000000e+00    0,000000000e+00    0,000000000e+00
      954000000    2,236001641e-01   -1,202853099e-01    1,331788599e-01    3,004467487e-01    0,000000000e+00    0,000000000e+00    0,000000000e+00    0,000000000e+00
      968000000    1,168058217e-01   -2,923293114e-01    2,681258321e-01    2,152314037e-01    0,000000000e+00    0,000000000e+00    0,000000000e+00    0,000000000e+00
      982000000   -7,556370646e-02   -3,866196573e-01    3,610026836e-01    6,297749281e-02    0,000000000e+00    0,000000000e+00    0,000000000e+00    0,000000000e+00
      996000000   -3,081616163e-01   -3,333639801e-01    3,621214628e-01   -1,438273042e-01    0,000000000e+00    0,000000000e+00    0,000000000e+00    0,000000000e+00
     1010000000   -4,633191824e-01   -1,188586503e-01    2,203373015e-01   -3,345773220e-01    0,000000000e+00    0,000000000e+00    0,000000000e+00    0,000000000e+00
     1024000000   -4,152187705e-01    1,397873312e-01   -3,353969753e-02   -3,857130706e-01    0,000000000e+00    0,000000000e+00    0,000000000e+00    0,000000000e+00
     1038000000   -2,200796157e-01    2,884052098e-01   -2,413110584e-01   -2,581437528e-01    0,000000000e+00    0,000000000e+00    0,000000000e+00    0,000000000e+00
     1052000000   -1,283923257e-02    2,826007307e-01   -3,110651076e-01   -4,694513977e-02    0,000000000e+00    0,000000000e+00    0,000000000e+00    0,000000000e+00
     1066000000    1,320093870e-01    1,704723239e-01   -2,514223754e-01    1,382208914e-01    0,000000000e+00    0,000000000e+00    0,000000000e+00    0,000000000e+00
     1080000000    1,949034184e-01    8,102001622e-03   -1,145724058e-01    2,552326024e-01    0,000000000e+00    0,000000000e+00    0,000000000e+00    0,000000000e+00
     1094000000    1,608238965e-01   -1,606407762e-01    6,022861600e-02    2,898449898e-01    0,000000000e+00    0,000000000e+00    0,000000000e+00    0,000000000e+00
     1108000000    1,831728965e-02   -2,939670086e-01    2,607497573e-01    2,339600325e-01    0,000000000e+00    0,000000000e+00    0,000000000e+00    0,000000000e+00
     1122000000   -2,103772312e-01   -2,847864330e-01    4,387258291e-01    2,625447884e-02    0,000000000e+00    0,000000000e+00    0,000000000e+00    0,000000000e+00
     1136000000   -3,280758560e-01   -3,157946095e-02    4,015192688e-01   -3,472888470e-01    0,000000000e+00    0,000000000e+00    0,000000000e+00    0,000000000e+00
     1150000000   -1,073981896e-01    1,431904882e-01    4,777852446e-02   -5,295469165e-01    0,000000000e+00    0,000000000e+00    0,000000000e+00    0,000000000e+00
     1164000000    8,761642128e-02   -1,952051744e-02   -2,506033182e-01   -4,047862887e-01    0,000000000e+00    0,000000000e+00    0,000000000e+00    0,000000000e+00
     1178000000    2,949592099e-02   -2,510402203e-01   -3,665466011e-01   -1,780550778e-01    0,000000000e+00    0,000000000e+00    0,000000000e+00    0,000000000e+00
     1192000000   -2,214700431e-01   -3,465166986e-01   -3,397090137e-01    4,055850953e-02    0,000000000e+00    0,000000000e+00    0,000000000e+00    0,000000000e+00
     1206000000   -4,815445244e-01   -1,788658500e-01   -1,863212585e-01    1,859633625e-01    0,000000000e+00    0,000000000e+00    0,000000000e+00    0,000000000e+00
     1220000000   -4,994891286e-01    1,419398189e-01   -6,156790536e-03    1,790648401e-01    0,000000000e+00    0,000000000e+00    0,000000000e+00    0,000000000e+00
     1234000000   -2,995284796e-01    3,367250562e-01    7,265061885e-02    7,966683805e-02    0,000000000e+00    0,000000000e+00    0,000000000e+00    0,000000000e+00
     1248000000   -5,774028227e-02    3,559972644e-01    7,095742971e-02    3,160081571e-03    0,000000000e+00    0,000000000e+00    0,000000000e+00    0,000000000e+00
     1262000000    1,118311957e-01    2,619227469e-01    3,216298297e-02   -2,194265090e-02    0,000000000e+00    0,000000000e+00    0,000000000e+00    0,000000000e+00
     1276000000    2,011894435e-01    1,040775031e-01    5,028943066e-03   -9,608080611e-03    0,000000000e+00    0,000000000e+00    0,000000000e+00    0,000000000e+00
     1290000000    2,237668484e-01   -6,363667548e-02    1,322023943e-02    3,023786657e-02    0,000000000e+00    0,000000000e+00    0,000000000e+00    0,000000000e+00
     1304000000    1,676449329e-01   -2,373547405e-01    6,011639535e-02    5,543214828e-02    0,000000000e+00    0,000000000e+00    0,000000000e+00    0,000000000e+00
     1318000000    2,296311408e-02   -3,612963557e-01    1,640985906e-01    2,355140448e-02    0,000000000e+00    0,000000000e+00    0,000000000e+00    0,000000000e+00
     1332000000   -1,506138146e-01   -3,969602883e-01    9,498729557e-02   -1,835324764e-01    0,000000000e+00    0,000000000e+00    0,000000000e+00    0,000000000e+00
     1346000000   -3,623849154e-01   -3,894756436e-01   -4,870483652e-02   -2,295630053e-02    0,000000000e+00    0,000000000e+00    0,000000000e+00    0,000000000e+00
     1360000000   -5,898399353e-01   -2,039877474e-01    5,791874975e-02    9,867797792e-02    0,000000000e+00    0,000000000e+00    0,000000000e+00    0,000000000e+00
     1374000000   -6,262350678e-01    1,052405238e-01    1,836672723e-01    5,355554819e-02    0,000000000e+00    0,000000000e+00    0,000000000e+00    0,000000000e+00
     1388000000   -4,772518575e-01    3,464935422e-01    2,172004730e-01   -3,198310360e-02    0,000000000e+00    0,000000000e+00    0,000000000e+00    0,000000000e+00
     1402000000   -2,440125942e-01    4,519161880e-01    2,042211741e-01   -7,306382060e-02    0,000000000e+00    0,000000000e+00    0,000000000e+00    0,000000000e+00
     1416000000   -3,350131959e-02    4,129465520e-01    2,001524568e-01   -9,694395959e-02    0,000000000e+00    0,000000000e+00    0,000000000e+00    0,000000000e+00
     1430000000    1,120351925e-01    3,122201860e-01    1,981732100e-01   -1,141502932e-01    0,000000000e+00    0,000000000e+00    0,000000000e+00    0,000000000e+00
     1444000000    2,005890757e-01    1,574870646e-01    1,614287347e-01   -1,055975556e-01    0,000000000e+00    0,000000000e+00    0,000000000e+00    0,000000000e+00
     1458000000    2,273933440e-01   -1,028948370e-02    1,467777789e-01   -8,416616917e-02    0,000000000e+00    0,000000000e+00    0,000000000e+00    0,000000000e+00
     1472000000    1,875696182e-01   -1,931893975e-01    1,335103810e-01   -4,597848654e-02    0,000000000e+00    0,000000000e+00    0,000000000e+00    0,000000000e+00
     1486000000    6,753124297e-02   -3,696347475e-01    1,725688875e-01    5,129251163e-03    0,000000000e+00    0,000000000e+00    0,000000000e+00    0,000000000e+00
     1500000000   -1,648250669e-01   -4,906757474e-01    2,458666563e-01    9,377513081e-02    0,000000000e+00    0,000000000e+00    0,000000000e+00    0,000000000e+00
