! NanoVNA-App
! Date: 2025-09-25 15:45:42
! Start: 100MHz Stop: 1,5GHz Points: 101
! S-Parameter data: F S11 S21 S12 S22
# Hz S RI R 50
!     Frequency           S11_Real           S11_Imag           S21_Real           S21_Imag           S12_Real           S12_Imag           S22_Real           S22_Imag
      100000000   -2,879495546e-02   -4,253639374e-03    3,739964664e-01   -7,215448022e-01    0,000000000e+00    0,000000000e+00    0,000000000e+00    0,000000000e+00
      114000000   -1,655763201e-02    1,149203256e-02   -8,915404230e-02   -8,053206205e-01    0,000000000e+00    0,000000000e+00    0,000000000e+00    0,000000000e+00
      128000000    3,354560584e-03    1,070651971e-02   -5,142601132e-01   -6,202629805e-01    0,000000000e+00    0,000000000e+00    0,000000000e+00    0,000000000e+00
      142000000    1,465543918e-02   -2,656691941e-03   -7,667391896e-01   -2,363180369e-01    0,000000000e+00    0,000000000e+00    0,000000000e+00    0,000000000e+00
      156000000    1,536339149e-02   -1,487917639e-02   -7,689176202e-01    2,196450531e-01    0,000000000e+00    0,000000000e+00    0,000000000e+00    0,000000000e+00
      170000000    1,707442105e-02   -2,245847695e-02   -5,181187391e-01    6,043297052e-01    0,000000000e+00    0,000000000e+00    0,000000000e+00    0,000000000e+00
      184000000    2,132024802e-02   -3,710034862e-02   -1,014655903e-01    7,859669924e-01    0,000000000e+00    0,000000000e+00    0,000000000e+00    0,000000000e+00
      198000000    1,324379351e-02   -6,248828024e-02    3,432124555e-01    7,123438716e-01    0,000000000e+00    0,000000000e+00    0,000000000e+00    0,000000000e+00
      212000000   -1,843475550e-02   -8,132301271e-02    6,777761579e-01    4,098279774e-01    0,000000000e+00    0,000000000e+00    0,000000000e+00    0,000000000e+00
      226000000   -6,137360260e-02   -6,923115253e-02    7,954419255e-01   -3,046463244e-02    0,000000000e+00    0,000000000e+00    0,000000000e+00    0,000000000e+00
      240000000   -8,227090538e-02   -2,576910146e-02    6,457858086e-01   -4,669126272e-01    0,000000000e+00    0,000000000e+00    0,000000000e+00    0,000000000e+00
      254000000   -6,342029572e-02    1,701979339e-02    2,758747935e-01   -7,432996035e-01    0,000000000e+00    0,000000000e+00    0,000000000e+00    0,000000000e+00
      268000000   -2,392199077e-02    2,890643105e-02   -1,778085232e-01   -7,642825246e-01    0,000000000e+00    0,000000000e+00    0,000000000e+00    0,000000000e+00
      282000000    4,055860452e-03    1,210460067e-02   -5,617117882e-01   -5,357840657e-01    0,000000000e+00    0,000000000e+00    0,000000000e+00    0,000000000e+00
      296000000    9,804112837e-03   -7,500492502e-03   -7,593982816e-01   -1,396340132e-01    0,000000000e+00    0,000000000e+00    0,000000000e+00    0,000000000e+00
      310000000    1,151588745e-02   -1,609304175e-02   -7,122886181e-01    2,989411056e-01    0,000000000e+00    0,000000000e+00    0,000000000e+00    0,000000000e+00
      324000000    1,993030682e-02   -2,673718147e-02   -4,276215434e-01    6,387211680e-01    0,000000000e+00    0,000000000e+00    0,000000000e+00    0,000000000e+00
      338000000    2,588852495e-02   -5,203944072e-02   -8,949141018e-03    7,594724298e-01    0,000000000e+00    0,000000000e+00    0,000000000e+00    0,000000000e+00
      352000000    7,683657575e-03   -8,480184525e-02    4,066580236e-01    6,393691301e-01    0,000000000e+00    0,000000000e+00    0,000000000e+00    0,000000000e+00
      366000000   -3,441639245e-02   -9,545502067e-02    6,907322407e-01    3,116459846e-01    0,000000000e+00    0,000000000e+00    0,000000000e+00    0,000000000e+00
      380000000   -7,045029849e-02   -7,135514915e-02    7,470956445e-01   -1,258051693e-01    0,000000000e+00    0,000000000e+00    0,000000000e+00    0,000000000e+00
      394000000   -7,252280414e-02   -3,246155754e-02    5,459743142e-01   -5,209196210e-01    0,000000000e+00    0,000000000e+00    0,000000000e+00    0,000000000e+00
      408000000   -4,633444548e-02   -1,620968804e-02    1,605943590e-01   -7,318367362e-01    0,000000000e+00    0,000000000e+00    0,000000000e+00    0,000000000e+00
      422000000   -2,846866846e-02   -3,194019198e-02   -2,669691741e-01   -6,948279738e-01    0,000000000e+00    0,000000000e+00    0,000000000e+00    0,000000000e+00
      436000000   -4,033945873e-02   -5,170490220e-02   -6,032022834e-01   -4,314854741e-01    0,000000000e+00    0,000000000e+00    0,000000000e+00    0,000000000e+00
      450000000   -6,730707735e-02   -4,389467090e-02   -7,401711941e-01   -2,184936963e-02    0,000000000e+00    0,000000000e+00    0,000000000e+00    0,000000000e+00
      464000000   -7,312728465e-02   -1,164742932e-02   -6,178436875e-01    3,970216215e-01    0,000000000e+00    0,000000000e+00    0,000000000e+00    0,000000000e+00
      478000000   -4,775234684e-02    1,153608598e-02   -2,829256654e-01    6,671828032e-01    0,000000000e+00    0,000000000e+00    0,000000000e+00    0,000000000e+00
      492000000   -1,588455215e-02    5,652253516e-03    1,369610131e-01    7,011624575e-01    0,000000000e+00    0,000000000e+00    0,000000000e+00    0,000000000e+00
      506000000   -2,520857845e-03   -1,559611503e-02    4,981978834e-01    5,025060177e-01    0,000000000e+00    0,000000000e+00    0,000000000e+00    0,000000000e+00
      520000000   -4,600190092e-03   -3,138483316e-02    6,885243654e-01    1,429928094e-01    0,000000000e+00    0,000000000e+00    0,000000000e+00    0,000000000e+00
      534000000   -3,650377970e-03   -3,832817823e-02    6,431161165e-01   -2,620112002e-01    0,000000000e+00    0,000000000e+00    0,000000000e+00    0,000000000e+00
      548000000    6,406467408e-03   -5,403380841e-02    3,816908300e-01   -5,670213103e-01    0,000000000e+00    0,000000000e+00    0,000000000e+00    0,000000000e+00
      562000000    3,782449989e-03   -8,937448263e-02    3,277600277e-03   -6,712582707e-01    0,000000000e+00    0,000000000e+00    0,000000000e+00    0,000000000e+00
      576000000   -3,382081911e-02   -1,243999228e-01   -3,675873280e-01   -5,582334995e-01    0,000000000e+00    0,000000000e+00    0,000000000e+00    0,000000000e+00
      590000000   -9,550676495e-02   -1,226623952e-01   -6,185382605e-01   -2,646472454e-01    0,000000000e+00    0,000000000e+00    0,000000000e+00    0,000000000e+00
      604000000   -1,386697441e-01   -7,246582955e-02   -6,638416052e-01    1,366134286e-01    0,000000000e+00    0,000000000e+00    0,000000000e+00    0,000000000e+00
      618000000   -1,289411783e-01   -9,686756879e-03   -4,638127983e-01    4,933051169e-01    0,000000000e+00    0,000000000e+00    0,000000000e+00    0,000000000e+00
      632000000   -8,478352427e-02    1,564972475e-02   -9,847912937e-02    6,622291207e-01    0,000000000e+00    0,000000000e+00    0,000000000e+00    0,000000000e+00
      646000000   -5,145403743e-02    5,190080847e-04    2,853954434e-01    5,942834020e-01    0,000000000e+00    0,000000000e+00    0,000000000e+00    0,000000000e+00
      660000000   -5,403368920e-02   -2,103697695e-02    5,651789904e-01    3,236605823e-01    0,000000000e+00    0,000000000e+00    0,000000000e+00    0,000000000e+00
      674000000   -6,990621239e-02   -1,613480411e-02    6,408327222e-01   -6,316871196e-02    0,000000000e+00    0,000000000e+00    0,000000000e+00    0,000000000e+00
      688000000   -6,633321941e-02    9,012557566e-03    4,711439312e-01   -4,244808257e-01    0,000000000e+00    0,000000000e+00    0,000000000e+00    0,000000000e+00
      702000000   -3,616040573e-02    2,578501590e-02    1,224973053e-01   -6,034278870e-01    0,000000000e+00    0,000000000e+00    0,000000000e+00    0,000000000e+00
      716000000    3,068510443e-03    1,566324010e-02   -2,591504157e-01   -5,442487001e-01    0,000000000e+00    0,000000000e+00    0,000000000e+00    0,000000000e+00
      730000000    3,640243784e-02   -1,310193446e-02   -5,218495727e-01   -2,715706527e-01    0,000000000e+00    0,000000000e+00    0,000000000e+00    0,000000000e+00
      744000000    6,282936037e-02   -6,530477852e-02   -5,603826046e-01    9,867373109e-02    0,000000000e+00    0,000000000e+00    0,000000000e+00    0,000000000e+00
      758000000    6,129999086e-02   -1,514332741e-01   -3,667326272e-01    4,001168013e-01    0,000000000e+00    0,000000000e+00    0,000000000e+00    0,000000000e+00
      772000000   -1,740514301e-02   -2,560447454e-01   -4,551371560e-02    5,100927353e-01    0,000000000e+00    0,000000000e+00    0,000000000e+00    0,000000000e+00
      786000000   -2,016772479e-01   -2,915483117e-01    2,597608268e-01    3,991573155e-01    0,000000000e+00    0,000000000e+00    0,000000000e+00    0,000000000e+00
      800000000   -4,065623879e-01   -1,272625923e-01    4,075901806e-01    1,187545434e-01    0,000000000e+00    0,000000000e+00    0,000000000e+00    0,000000000e+00
      814000000   -3,771596551e-01    2,020367682e-01    2,967692316e-01   -1,518581510e-01    0,000000000e+00    0,000000000e+00    0,000000000e+00    0,000000000e+00
      828000000   -6,343112141e-02    3,488613665e-01    8,243055642e-02   -1,911247969e-01    0,000000000e+00    0,000000000e+00    0,000000000e+00    0,000000000e+00
      842000000    2,115275711e-01    1,859357953e-01   -3,815864446e-03   -9,428769350e-02    0,000000000e+00    0,000000000e+00    0,000000000e+00    0,000000000e+00
      856000000    2,661334872e-01   -1,050832793e-01    3,519709408e-02   -3,698578104e-02    0,000000000e+00    0,000000000e+00    0,000000000e+00    0,000000000e+00
      870000000    8,295346051e-02   -3,504409194e-01    8,822453022e-02   -9,634920210e-02    0,000000000e+00    0,000000000e+00    0,000000000e+00    0,000000000e+00
      884000000   -2,677655518e-01   -3,567869663e-01    1,152988896e-02   -2,274708301e-01    0,000000000e+00    0,000000000e+00    0,000000000e+00    0,000000000e+00
      898000000   -4,581801295e-01   -1,516401209e-02   -2,147184461e-01   -2,104748338e-01    0,000000000e+00    0,000000000e+00    0,000000000e+00    0,000000000e+00
      912000000   -2,350493073e-01    2,788323462e-01   -3,393108547e-01    8,017667383e-02    0,000000000e+00    0,000000000e+00    0,000000000e+00    0,000000000e+00
      926000000    5,634748936e-02    2,632148862e-01   -2,067717463e-01    2,612857521e-01    0,000000000e+00    0,000000000e+00    0,000000000e+00    0,000000000e+00
      940000000    2,083589733e-01    8,315990120e-02   -3,235767409e-02    3,256945312e-01    0,000000000e+00    0,000000000e+00    0,000000000e+00    0,000000000e+00
      954000000    2,200189084e-01   -1,195142195e-01    1,315131485e-01    3,004482687e-01    0,000000000e+00    0,000000000e+00    0,000000000e+00    0,000000000e+00
      968000000    1,192252114e-01   -2,934350967e-01    2,687469423e-01    2,133446634e-01    0,000000000e+00    0,000000000e+00    0,000000000e+00    0,000000000e+00
      982000000   -7,589484006e-02   -3,830275238e-01    3,614797592e-01    6,258220226e-02    0,000000000e+00    0,000000000e+00    0,000000000e+00    0,000000000e+00
      996000000   -3,112242520e-01   -3,326797783e-01    3,632519245e-01   -1,414618045e-01    0,000000000e+00    0,000000000e+00    0,000000000e+00    0,000000000e+00
     1010000000   -4,643197060e-01   -1,146115735e-01    2,185396701e-01   -3,354429603e-01    0,000000000e+00    0,000000000e+00    0,000000000e+00    0,000000000e+00
     1024000000   -4,209276140e-01    1,423502415e-01   -2,976962365e-02   -3,846738636e-01    0,000000000e+00    0,000000000e+00    0,000000000e+00    0,000000000e+00
     1038000000   -2,230917662e-01    2,929156721e-01   -2,426683903e-01   -2,596018016e-01    0,000000000e+00    0,000000000e+00    0,000000000e+00    0,000000000e+00
     1052000000   -1,795305125e-02    2,817178667e-01   -3,104953766e-01   -4,611638561e-02    0,000000000e+00    0,000000000e+00    0,000000000e+00    0,000000000e+00
     1066000000    1,372157335e-01    1,699184775e-01   -2,546801269e-01    1,409493983e-01    0,000000000e+00    0,000000000e+00    0,000000000e+00    0,000000000e+00
     1080000000    1,923443377e-01    9,369246662e-03   -1,152268499e-01    2,536205649e-01    0,000000000e+00    0,000000000e+00    0,000000000e+00    0,000000000e+00
     1094000000    1,566017866e-01   -1,630260348e-01    5,940889195e-02    2,904098928e-01    0,000000000e+00    0,000000000e+00    0,000000000e+00    0,000000000e+00
     1108000000    1,891780458e-02   -2,992561460e-01    2,605663240e-01    2,326212376e-01    0,000000000e+00    0,000000000e+00    0,000000000e+00    0,000000000e+00
     1122000000   -2,123365700e-01   -2,865881026e-01    4,388189912e-01    2,525372617e-02    0,000000000e+00    0,000000000e+00    0,000000000e+00    0,000000000e+00
     1136000000   -3,233773708e-01   -3,360140696e-02    4,010978043e-01   -3,451851606e-01    0,000000000e+00    0,000000000e+00    0,000000000e+00    0,000000000e+00
     1150000000   -1,048333049e-01    1,381282359e-01    5,086990073e-02   -5,304853916e-01    0,000000000e+00    0,000000000e+00    0,000000000e+00    0,000000000e+00
     1164000000    8,378747106e-02   -1,285493933e-02   -2,523508668e-01   -4,028198421e-01    0,000000000e+00    0,000000000e+00    0,000000000e+00    0,000000000e+00
     1178000000    2,612325549e-02   -2,497978657e-01   -3,704646230e-01   -1,793983728e-01    0,000000000e+00    0,000000000e+00    0,000000000e+00    0,000000000e+00
     1192000000   -2,209045589e-01   -3,436573148e-01   -3,412940800e-01    4,421722889e-02    0,000000000e+00    0,000000000e+00    0,000000000e+00    0,000000000e+00
     1206000000   -4,784367383e-01   -1,825077534e-01   -1,884694546e-01    1,790742874e-01    0,000000000e+00    0,000000000e+00    0,000000000e+00    0,000000000e+00
     1220000000   -4,993809462e-01    1,357165426e-01   -8,500016294e-03    1,774076670e-01    0,000000000e+00    0,000000000e+00    0,000000000e+00    0,000000000e+00
     1234000000   -2,981219888e-01    3,466448486e-01    7,150041312e-02    8,358226717e-02    0,000000000e+00    0,000000000e+00    0,000000000e+00    0,000000000e+00
     1248000000   -6,207647175e-02    3,626908064e-01    7,139766961e-02    2,016336657e-03    0,000000000e+00    0,000000000e+00    0,000000000e+00    0,000000000e+00
     1262000000    1,053648889e-01    2,608416975e-01    2,863312885e-02   -2,483213693e-02    0,000000000e+00    0,000000000e+00    0,000000000e+00    0,000000000e+00
     1276000000    2,036867440e-01    1,102454960e-01    4,926995374e-03   -8,127503097e-03    0,000000000e+00    0,000000000e+00    0,000000000e+00    0,000000000e+00
     1290000000    2,196669281e-01   -6,700041145e-02    1,311745588e-02    2,278301306e-02    0,000000000e+00    0,000000000e+00    0,000000000e+00    0,000000000e+00
     1304000000    1,654127836e-01   -2,300682813e-01    5,644537508e-02    5,922288448e-02    0,000000000e+00    0,000000000e+00    0,000000000e+00    0,000000000e+00
     1318000000    2,976334840e-02   -3,632371426e-01    1,688135117e-01    2,073762380e-02    0,000000000e+00    0,000000000e+00    0,000000000e+00    0,000000000e+00
     1332000000   -1,475023329e-01   -3,980470300e-01    1,028095856e-01   -1,842989028e-01    0,000000000e+00    0,000000000e+00    0,000000000e+00    0,000000000e+00
     1346000000   -3,651710451e-01   -3,932473660e-01   -6,017277762e-02   -2,134825848e-02    0,000000000e+00    0,000000000e+00    0,000000000e+00    0,000000000e+00
     1360000000   -5,907577276e-01   -2,099007666e-01    4,781228304e-02    8,817717433e-02    0,000000000e+00    0,000000000e+00    0,000000000e+00    0,000000000e+00
     1374000000   -6,270411015e-01    1,107509956e-01    1,716090441e-01    5,909354240e-02    0,000000000e+00    0,000000000e+00    0,000000000e+00    0,000000000e+00
     1388000000   -4,674369991e-01    3,470120132e-01    2,300495058e-01   -2,717353962e-02    0,000000000e+00    0,000000000e+00    0,000000000e+00    0,000000000e+00
     1402000000   -2,470214963e-01    4,478553832e-01    2,146487087e-01   -7,148844004e-02    0,000000000e+00    0,000000000e+00    0,000000000e+00    0,000000000e+00
     1416000000   -3,850615025e-02    4,169467092e-01    1,907266378e-01   -1,012962312e-01    0,000000000e+00    0,000000000e+00    0,000000000e+00    0,000000000e+00
     1430000000    1,060399264e-01    3,077178299e-01    1,923276335e-01   -9,778136015e-02    0,000000000e+00    0,000000000e+00    0,000000000e+00    0,000000000e+00
     1444000000    2,011913955e-01    1,604809314e-01    1,718605310e-01   -1,012786627e-01    0,000000000e+00    0,000000000e+00    0,000000000e+00    0,000000000e+00
     1458000000    2,309252322e-01   -1,195520721e-02    1,455688924e-01   -9,139832109e-02    0,000000000e+00    0,000000000e+00    0,000000000e+00    0,000000000e+00
     1472000000    1,890826672e-01   -1,924009472e-01    1,389920264e-01   -4,147993773e-02    0,000000000e+00    0,000000000e+00    0,000000000e+00    0,000000000e+00
     1486000000    7,029531151e-02   -3,667015433e-01    1,667609215e-01    1,094811596e-02    0,000000000e+00    0,000000000e+00    0,000000000e+00    0,000000000e+00
     1500000000   -1,666518152e-01   -4,884482324e-01    2,231606394e-01    8,490549773e-02    0,000000000e+00    0,000000000e+00    0,000000000e+00    0,000000000e+00
