! NanoVNA-App
! Date: 2025-09-25 15:46:01
! Start: 100MHz Stop: 1,5GHz Points: 101
! S-Parameter data: F S11 S21 S12 S22
# Hz S RI R 50
!     Frequency           S11_Real           S11_Imag           S21_Real           S21_Imag           S12_Real           S12_Imag           S22_Real           S22_Imag
      100000000   -2,880265191e-02   -4,243672360e-03    3,740383983e-01   -7,215735912e-01    0,000000000e+00    0,000000000e+00    0,000000000e+00    0,000000000e+00
      114000000   -1,658912562e-02    1,149667706e-02   -8,911322802e-02   -8,052203059e-01    0,000000000e+00    0,000000000e+00    0,000000000e+00    0,000000000e+00
      128000000    3,343923716e-03    1,073257718e-02   -5,144919157e-01   -6,204852462e-01    0,000000000e+00    0,000000000e+00    0,000000000e+00    0,000000000e+00
      142000000    1,462607551e-02   -2,684823005e-03   -7,671377063e-01   -2,365415692e-01    0,000000000e+00    0,000000000e+00    0,000000000e+00    0,000000000e+00
      156000000    1,468415186e-02   -1,462506223e-02   -7,640603185e-01    2,200833708e-01    0,000000000e+00    0,000000000e+00    0,000000000e+00    0,000000000e+00
      170000000    1,699746773e-02   -2,250888385e-02   -5,179678798e-01    6,044895649e-01    0,000000000e+00    0,000000000e+00    0,000000000e+00    0,000000000e+00
      184000000    2,130531520e-02   -3,713154420e-02   -1,014235616e-01    7,859982848e-01    0,000000000e+00    0,000000000e+00    0,000000000e+00    0,000000000e+00
      198000000    1,317568496e-02   -6,252803653e-02    3,433610499e-01    7,126171589e-01    0,000000000e+00    0,000000000e+00    0,000000000e+00    0,000000000e+00
      212000000   -1,841975003e-02   -8,132798225e-02    6,776664257e-01    4,097399116e-01    0,000000000e+00    0,000000000e+00    0,000000000e+00    0,000000000e+00
      226000000   -6,136739999e-02   -6,926042587e-02    7,953651547e-01   -3,040900454e-02    0,000000000e+00    0,000000000e+00    0,000000000e+00    0,000000000e+00
      240000000   -8,233325183e-02   -2,578799985e-02    6,459127069e-01   -4,666768909e-01    0,000000000e+00    0,000000000e+00    0,000000000e+00    0,000000000e+00
      254000000   -6,346783042e-02    1,700126007e-02    2,761542797e-01   -7,424755096e-01    0,000000000e+00    0,000000000e+00    0,000000000e+00    0,000000000e+00
      268000000   -2,390879765e-02    2,885393240e-02   -1,779396832e-01   -7,638325691e-01    0,000000000e+00    0,000000000e+00    0,000000000e+00    0,000000000e+00
      282000000    4,137057811e-03    1,205407642e-02   -5,617573261e-01   -5,356974602e-01    0,000000000e+00    0,000000000e+00    0,000000000e+00    0,000000000e+00
      296000000    9,750875644e-03   -7,590966299e-03   -7,593906522e-01   -1,397229582e-01    0,000000000e+00    0,000000000e+00    0,000000000e+00    0,000000000e+00
      310000000    1,149863563e-02   -1,595168933e-02   -7,118805647e-01    2,970171869e-01    0,000000000e+00    0,000000000e+00    0,000000000e+00    0,000000000e+00
      324000000    2,002051100e-02   -2,657463215e-02   -4,274888933e-01    6,376316547e-01    0,000000000e+00    0,000000000e+00    0,000000000e+00    0,000000000e+00
      338000000    2,579873241e-02   -5,204151943e-02   -8,955234662e-03    7,620373964e-01    0,000000000e+00    0,000000000e+00    0,000000000e+00    0,000000000e+00
      352000000    7,355572190e-03   -8,470621705e-02    4,051640630e-01    6,393229961e-01    0,000000000e+00    0,000000000e+00    0,000000000e+00    0,000000000e+00
      366000000   -3,460565954e-02   -9,522393346e-02    6,902447343e-01    3,115912378e-01    0,000000000e+00    0,000000000e+00    0,000000000e+00    0,000000000e+00
      380000000   -7,045156509e-02   -7,116626948e-02    7,469623089e-01   -1,261105835e-01    0,000000000e+00    0,000000000e+00    0,000000000e+00    0,000000000e+00
      394000000   -7,230539620e-02   -3,261790052e-02    5,469011068e-01   -5,209743381e-01    0,000000000e+00    0,000000000e+00    0,000000000e+00    0,000000000e+00
      408000000   -4,655671120e-02   -1,607489027e-02    1,607501954e-01   -7,317635417e-01    0,000000000e+00    0,000000000e+00    0,000000000e+00    0,000000000e+00
      422000000   -2,837516367e-02   -3,195716068e-02   -2,671123445e-01   -6,947497725e-01    0,000000000e+00    0,000000000e+00    0,000000000e+00    0,000000000e+00
      436000000   -4,026136920e-02   -5,187524110e-02   -6,032188535e-01   -4,315029681e-01    0,000000000e+00    0,000000000e+00    0,000000000e+00    0,000000000e+00
      450000000   -6,718554348e-02   -4,410981759e-02   -7,397496700e-01   -2,185152471e-02    0,000000000e+00    0,000000000e+00    0,000000000e+00    0,000000000e+00
      464000000   -7,302400470e-02   -1,188935433e-02   -6,183964610e-01    3,966127634e-01    0,000000000e+00    0,000000000e+00    0,000000000e+00    0,000000000e+00
      478000000   -4,735926911e-02    1,147534512e-02   -2,830973864e-01    6,672653556e-01    0,000000000e+00    0,000000000e+00    0,000000000e+00    0,000000000e+00
      492000000   -1,541811880e-02    5,799815524e-03    1,367298961e-01    7,014102936e-01    0,000000000e+00    0,000000000e+00    0,000000000e+00    0,000000000e+00
      506000000   -2,675049473e-03   -1,554216351e-02    4,984300435e-01    5,031570792e-01    0,000000000e+00    0,000000000e+00    0,000000000e+00    0,000000000e+00
      520000000   -4,632182885e-03   -3,133551776e-02    6,870349646e-01    1,414179802e-01    0,000000000e+00    0,000000000e+00    0,000000000e+00    0,000000000e+00
      534000000   -3,842066741e-03   -3,794725612e-02    6,426810622e-01   -2,615987360e-01    0,000000000e+00    0,000000000e+00    0,000000000e+00    0,000000000e+00
      548000000    6,058969069e-03   -5,406012014e-02    3,810216784e-01   -5,665441751e-01    0,000000000e+00    0,000000000e+00    0,000000000e+00    0,000000000e+00
      562000000    3,656110726e-03   -8,945403993e-02    2,854885766e-03   -6,715660691e-01    0,000000000e+00    0,000000000e+00    0,000000000e+00    0,000000000e+00
      576000000   -3,367691487e-02   -1,240973473e-01   -3,677974343e-01   -5,572997332e-01    0,000000000e+00    0,000000000e+00    0,000000000e+00    0,000000000e+00
      590000000   -9,585945308e-02   -1,229337826e-01   -6,216731668e-01   -2,642571330e-01    0,000000000e+00    0,000000000e+00    0,000000000e+00    0,000000000e+00
      604000000   -1,390274763e-01   -7,242865860e-02   -6,643736362e-01    1,363682598e-01    0,000000000e+00    0,000000000e+00    0,000000000e+00    0,000000000e+00
      618000000   -1,292569190e-01   -9,411245584e-03   -4,641840756e-01    4,930696487e-01    0,000000000e+00    0,000000000e+00    0,000000000e+00    0,000000000e+00
      632000000   -8,453434706e-02    1,559896208e-02   -1,000236496e-01    6,627216339e-01    0,000000000e+00    0,000000000e+00    0,000000000e+00    0,000000000e+00
      646000000   -5,229232833e-02    4,873800208e-04    2,857909501e-01    5,948204398e-01    0,000000000e+00    0,000000000e+00    0,000000000e+00    0,000000000e+00
      660000000   -5,400426686e-02   -2,131628059e-02    5,648171902e-01    3,231995702e-01    0,000000000e+00    0,000000000e+00    0,000000000e+00    0,000000000e+00
      674000000   -6,948561966e-02   -1,709833555e-02    6,413098574e-01   -6,290605664e-02    0,000000000e+00    0,000000000e+00    0,000000000e+00    0,000000000e+00
      688000000   -6,778830290e-02    9,034265764e-03    4,716181159e-01   -4,239870608e-01    0,000000000e+00    0,000000000e+00    0,000000000e+00    0,000000000e+00
      702000000   -3,608997911e-02    2,648600191e-02    1,284499466e-01   -6,078562140e-01    0,000000000e+00    0,000000000e+00    0,000000000e+00    0,000000000e+00
      716000000    3,327023704e-03    1,688834280e-02   -2,592840195e-01   -5,456702709e-01    0,000000000e+00    0,000000000e+00    0,000000000e+00    0,000000000e+00
      730000000    3,587359190e-02   -1,380253024e-02   -5,220252872e-01   -2,718736827e-01    0,000000000e+00    0,000000000e+00    0,000000000e+00    0,000000000e+00
      744000000    6,210476905e-02   -6,458327919e-02   -5,606397986e-01    9,794718027e-02    0,000000000e+00    0,000000000e+00    0,000000000e+00    0,000000000e+00
      758000000    6,146846712e-02   -1,520853639e-01   -3,669266105e-01    3,999991715e-01    0,000000000e+00    0,000000000e+00    0,000000000e+00    0,000000000e+00
      772000000   -1,692865975e-02   -2,560804784e-01   -4,579868168e-02    5,096824169e-01    0,000000000e+00    0,000000000e+00    0,000000000e+00    0,000000000e+00
      786000000   -2,020477355e-01   -2,913573384e-01    2,596444786e-01    3,992401063e-01    0,000000000e+00    0,000000000e+00    0,000000000e+00    0,000000000e+00
      800000000   -4,081631303e-01   -1,279343069e-01    4,076203108e-01    1,193770543e-01    0,000000000e+00    0,000000000e+00    0,000000000e+00    0,000000000e+00
      814000000   -3,767620325e-01    2,018899322e-01    2,972974181e-01   -1,513777524e-01    0,000000000e+00    0,000000000e+00    0,000000000e+00    0,000000000e+00
      828000000   -6,397676468e-02    3,479666412e-01    8,290601522e-02   -1,912699938e-01    0,000000000e+00    0,000000000e+00    0,000000000e+00    0,000000000e+00
      842000000    2,110382617e-01    1,862394810e-01   -4,270160105e-03   -9,393910319e-02    0,000000000e+00    0,000000000e+00    0,000000000e+00    0,000000000e+00
      856000000    2,665806711e-01   -1,050462052e-01    3,539494425e-02   -3,710031509e-02    0,000000000e+00    0,000000000e+00    0,000000000e+00    0,000000000e+00
      870000000    8,278397471e-02   -3,508688509e-01    8,769337088e-02   -9,715428203e-02    0,000000000e+00    0,000000000e+00    0,000000000e+00    0,000000000e+00
      884000000   -2,670451701e-01   -3,566863835e-01    1,206423342e-02   -2,272438556e-01    0,000000000e+00    0,000000000e+00    0,000000000e+00    0,000000000e+00
      898000000   -4,573328793e-01   -1,503268909e-02   -2,143879235e-01   -2,104366124e-01    0,000000000e+00    0,000000000e+00    0,000000000e+00    0,000000000e+00
      912000000   -2,358607203e-01    2,782927454e-01   -3,256653249e-01    7,275074720e-02    0,000000000e+00    0,000000000e+00    0,000000000e+00    0,000000000e+00
      926000000    5,452796444e-02    2,617553771e-01   -2,111606896e-01    2,607490420e-01    0,000000000e+00    0,000000000e+00    0,000000000e+00    0,000000000e+00
      940000000    2,083780915e-01    8,519320935e-02   -3,192031384e-02    3,267853260e-01    0,000000000e+00    0,000000000e+00    0,000000000e+00    0,000000000e+00
      954000000    2,183708400e-01   -1,218678877e-01    1,301638931e-01    3,017373979e-01    0,000000000e+00    0,000000000e+00    0,000000000e+00    0,000000000e+00
      968000000    1,181690693e-01   -2,972678840e-01    2,680525780e-01    2,133610249e-01    0,000000000e+00    0,000000000e+00    0,000000000e+00    0,000000000e+00
      982000000   -7,986256480e-02   -3,845834434e-01    3,615085483e-01    6,158258393e-02    0,000000000e+00    0,000000000e+00    0,000000000e+00    0,000000000e+00
      996000000   -3,121658862e-01   -3,337402344e-01    3,607564270e-01   -1,454700679e-01    0,000000000e+00    0,000000000e+00    0,000000000e+00    0,000000000e+00
     1010000000   -4,590414166e-01   -1,206505150e-01    2,188731283e-01   -3,346233070e-01    0,000000000e+00    0,000000000e+00    0,000000000e+00    0,000000000e+00
     1024000000   -4,135189056e-01    1,420153975e-01   -3,188664094e-02   -3,858926892e-01    0,000000000e+00    0,000000000e+00    0,000000000e+00    0,000000000e+00
     1038000000   -2,252838463e-01    2,868980169e-01   -2,412815541e-01   -2,573117316e-01    0,000000000e+00    0,000000000e+00    0,000000000e+00    0,000000000e+00
     1052000000   -1,328229625e-02    2,840752006e-01   -3,114158213e-01   -4,704772681e-02    0,000000000e+00    0,000000000e+00    0,000000000e+00    0,000000000e+00
     1066000000    1,349551976e-01    1,690085381e-01   -2,541018724e-01    1,400414705e-01    0,000000000e+00    0,000000000e+00    0,000000000e+00    0,000000000e+00
     1080000000    1,924509555e-01    5,905016325e-03   -1,145236418e-01    2,535839379e-01    0,000000000e+00    0,000000000e+00    0,000000000e+00    0,000000000e+00
     1094000000    1,598680317e-01   -1,606183350e-01    6,010164320e-02    2,927214205e-01    0,000000000e+00    0,000000000e+00    0,000000000e+00    0,000000000e+00
     1108000000    1,611792110e-02   -2,964123785e-01    2,621563971e-01    2,348385006e-01    0,000000000e+00    0,000000000e+00    0,000000000e+00    0,000000000e+00
     1122000000   -2,115507722e-01   -2,806698978e-01    4,384075105e-01    2,596456744e-02    0,000000000e+00    0,000000000e+00    0,000000000e+00    0,000000000e+00
     1136000000   -3,234952390e-01   -3,591934219e-02    4,039004445e-01   -3,453575969e-01    0,000000000e+00    0,000000000e+00    0,000000000e+00    0,000000000e+00
     1150000000   -1,119134501e-01    1,412036270e-01    5,045708641e-02   -5,323158503e-01    0,000000000e+00    0,000000000e+00    0,000000000e+00    0,000000000e+00
     1164000000    8,684943616e-02   -1,587560587e-02   -2,486640066e-01   -4,038116038e-01    0,000000000e+00    0,000000000e+00    0,000000000e+00    0,000000000e+00
     1178000000    2,990892343e-02   -2,503536940e-01   -3,686128855e-01   -1,779511720e-01    0,000000000e+00    0,000000000e+00    0,000000000e+00    0,000000000e+00
     1192000000   -2,191493809e-01   -3,487080634e-01   -3,415437639e-01    3,922238201e-02    0,000000000e+00    0,000000000e+00    0,000000000e+00    0,000000000e+00
     1206000000   -4,743624628e-01   -1,813860238e-01   -1,913429946e-01    1,860788018e-01    0,000000000e+00    0,000000000e+00    0,000000000e+00    0,000000000e+00
     1220000000   -5,033263564e-01    1,315403581e-01   -1,107549388e-02    1,726484299e-01    0,000000000e+00    0,000000000e+00    0,000000000e+00    0,000000000e+00
     1234000000   -2,979714274e-01    3,397124112e-01    7,285258919e-02    7,697211206e-02    0,000000000e+00    0,000000000e+00    0,000000000e+00    0,000000000e+00
     1248000000   -5,800362676e-02    3,609814942e-01    7,327961177e-02    1,570367604e-03    0,000000000e+00    0,000000000e+00    0,000000000e+00    0,000000000e+00
     1262000000    1,145823821e-01    2,611120343e-01    3,454732522e-02   -2,542176656e-02    0,000000000e+00    0,000000000e+00    0,000000000e+00    0,000000000e+00
     1276000000    2,019959837e-01    1,044032723e-01    2,158361953e-03   -1,442731358e-02    0,000000000e+00    0,000000000e+00    0,000000000e+00    0,000000000e+00
     1290000000    2,192959934e-01   -6,302049011e-02    1,063411403e-02    2,620118298e-02    0,000000000e+00    0,000000000e+00    0,000000000e+00    0,000000000e+00
     1304000000    1,622531414e-01   -2,313888073e-01    6,118160114e-02    5,210153759e-02    0,000000000e+00    0,000000000e+00    0,000000000e+00    0,000000000e+00
     1318000000    2,702513710e-02   -3,645312190e-01    1,714202464e-01    2,466581389e-02    0,000000000e+00    0,000000000e+00    0,000000000e+00    0,000000000e+00
     1332000000   -1,526341140e-01   -3,947710097e-01    1,090121046e-01   -1,822007000e-01    0,000000000e+00    0,000000000e+00    0,000000000e+00    0,000000000e+00
     1346000000   -3,589037359e-01   -3,882702887e-01   -5,485866591e-02   -1,734278351e-02    0,000000000e+00    0,000000000e+00    0,000000000e+00    0,000000000e+00
     1360000000   -5,854848027e-01   -2,003663480e-01    5,565954745e-02    9,159871191e-02    0,000000000e+00    0,000000000e+00    0,000000000e+00    0,000000000e+00
     1374000000   -6,219794154e-01    1,022384465e-01    1,847096533e-01    4,726438224e-02    0,000000000e+00    0,000000000e+00    0,000000000e+00    0,000000000e+00
     1388000000   -4,828400016e-01    3,518289626e-01    2,149768323e-01   -1,630520076e-02    0,000000000e+00    0,000000000e+00    0,000000000e+00    0,000000000e+00
     1402000000   -2,435539812e-01    4,444044530e-01    2,036791742e-01   -8,106504381e-02    0,000000000e+00    0,000000000e+00    0,000000000e+00    0,000000000e+00
     1416000000   -4,251478612e-02    4,142982662e-01    1,867179722e-01   -1,008242145e-01    0,000000000e+00    0,000000000e+00    0,000000000e+00    0,000000000e+00
     1430000000    1,179100350e-01    3,025655746e-01    1,808543652e-01   -1,371716857e-01    0,000000000e+00    0,000000000e+00    0,000000000e+00    0,000000000e+00
     1444000000    2,021450996e-01    1,528055519e-01    1,732293069e-01   -1,202541888e-01    0,000000000e+00    0,000000000e+00    0,000000000e+00    0,000000000e+00
     1458000000    2,290504575e-01   -1,008485444e-02    1,356224567e-01   -9,348168224e-02    0,000000000e+00    0,000000000e+00    0,000000000e+00    0,000000000e+00
     1472000000    1,908237338e-01   -1,915928721e-01    1,424759924e-01   -5,008719862e-02    0,000000000e+00    0,000000000e+00    0,000000000e+00    0,000000000e+00
     1486000000    6,943425536e-02   -3,679231703e-01    1,670547575e-01    4,435900133e-03    0,000000000e+00    0,000000000e+00    0,000000000e+00    0,000000000e+00
     1500000000   -1,609153450e-01   -4,860338271e-01    2,268961221e-01    8,293560892e-02    0,000000000e+00    0,000000000e+00    0,000000000e+00    0,000000000e+00
