! NanoVNA-App
! Date: 2025-09-25 15:41:55
! Start: 100MHz Stop: 1,5GHz Points: 101
! S-Parameter data: F S11 S21 S12 S22
# Hz S RI R 50
!     Frequency           S11_Real           S11_Imag           S21_Real           S21_Imag           S12_Real           S12_Imag           S22_Real           S22_Imag
      100000000   -2,872902527e-02   -4,252363462e-03    3,739139438e-01   -7,215197682e-01    0,000000000e+00    0,000000000e+00    0,000000000e+00    0,000000000e+00
      114000000   -1,648689620e-02    1,144542079e-02   -8,917858452e-02   -8,050896525e-01    0,000000000e+00    0,000000000e+00    0,000000000e+00    0,000000000e+00
      128000000    3,412522376e-03    1,072849240e-02   -5,144426227e-01   -6,204099059e-01    0,000000000e+00    0,000000000e+00    0,000000000e+00    0,000000000e+00
      142000000    1,467613503e-02   -2,649246715e-03   -7,669013739e-01   -2,365329564e-01    0,000000000e+00    0,000000000e+00    0,000000000e+00    0,000000000e+00
      156000000    1,517007593e-02   -1,454869099e-02   -7,657294869e-01    2,215892971e-01    0,000000000e+00    0,000000000e+00    0,000000000e+00    0,000000000e+00
      170000000    1,708071306e-02   -2,247363888e-02   -5,179893374e-01    6,044852734e-01    0,000000000e+00    0,000000000e+00    0,000000000e+00    0,000000000e+00
      184000000    2,135060355e-02   -3,717475384e-02   -1,013054401e-01    7,856943011e-01    0,000000000e+00    0,000000000e+00    0,000000000e+00    0,000000000e+00
      198000000    1,328473818e-02   -6,254360825e-02    3,432301879e-01    7,120438814e-01    0,000000000e+00    0,000000000e+00    0,000000000e+00    0,000000000e+00
      212000000   -1,842100918e-02   -8,131472766e-02    6,778467298e-01    4,098761082e-01    0,000000000e+00    0,000000000e+00    0,000000000e+00    0,000000000e+00
      226000000   -6,137957051e-02   -6,921660900e-02    7,953711152e-01   -3,049059398e-02    0,000000000e+00    0,000000000e+00    0,000000000e+00    0,000000000e+00
      240000000   -8,214085549e-02   -2,583511174e-02    6,455783844e-01   -4,666777849e-01    0,000000000e+00    0,000000000e+00    0,000000000e+00    0,000000000e+00
      254000000   -6,336034089e-02    1,696000993e-02    2,761926055e-01   -7,430484295e-01    0,000000000e+00    0,000000000e+00    0,000000000e+00    0,000000000e+00
      268000000   -2,391359396e-02    2,876674198e-02   -1,775566489e-01   -7,637552619e-01    0,000000000e+00    0,000000000e+00    0,000000000e+00    0,000000000e+00
      282000000    4,057051148e-03    1,199847460e-02   -5,613443851e-01   -5,355104208e-01    0,000000000e+00    0,000000000e+00    0,000000000e+00    0,000000000e+00
      296000000    9,860391729e-03   -7,664987817e-03   -7,593067884e-01   -1,394767612e-01    0,000000000e+00    0,000000000e+00    0,000000000e+00    0,000000000e+00
      310000000    1,155794319e-02   -1,606715098e-02   -7,128094435e-01    2,974348962e-01    0,000000000e+00    0,000000000e+00    0,000000000e+00    0,000000000e+00
      324000000    2,017972618e-02   -2,676492557e-02   -4,267790914e-01    6,375916600e-01    0,000000000e+00    0,000000000e+00    0,000000000e+00    0,000000000e+00
      338000000    2,570008114e-02   -5,230996758e-02   -8,648542687e-03    7,591918707e-01    0,000000000e+00    0,000000000e+00    0,000000000e+00    0,000000000e+00
      352000000    7,394546643e-03   -8,509024233e-02    4,060206711e-01    6,400122046e-01    0,000000000e+00    0,000000000e+00    0,000000000e+00    0,000000000e+00
      366000000   -3,451205418e-02   -9,537385404e-02    6,896446347e-01    3,108200133e-01    0,000000000e+00    0,000000000e+00    0,000000000e+00    0,000000000e+00
      380000000   -7,021293044e-02   -7,106452435e-02    7,468213439e-01   -1,253204197e-01    0,000000000e+00    0,000000000e+00    0,000000000e+00    0,000000000e+00
      394000000   -7,236614078e-02   -3,272012994e-02    5,462739468e-01   -5,209897757e-01    0,000000000e+00    0,000000000e+00    0,000000000e+00    0,000000000e+00
      408000000   -4,611052200e-02   -1,646326482e-02    1,621814817e-01   -7,312917113e-01    0,000000000e+00    0,000000000e+00    0,000000000e+00    0,000000000e+00
      422000000   -2,838655375e-02   -3,196693212e-02   -2,671915591e-01   -6,944538951e-01    0,000000000e+00    0,000000000e+00    0,000000000e+00    0,000000000e+00
      436000000   -4,029870778e-02   -5,160682648e-02   -6,031343937e-01   -4,309552014e-01    0,000000000e+00    0,000000000e+00    0,000000000e+00    0,000000000e+00
      450000000   -6,712593138e-02   -4,357971624e-02   -7,395961285e-01   -2,163934894e-02    0,000000000e+00    0,000000000e+00    0,000000000e+00    0,000000000e+00
      464000000   -7,280129194e-02   -1,139664929e-02   -6,183611155e-01    3,967149258e-01    0,000000000e+00    0,000000000e+00    0,000000000e+00    0,000000000e+00
      478000000   -4,753402621e-02    1,122915838e-02   -2,824751735e-01    6,662580967e-01    0,000000000e+00    0,000000000e+00    0,000000000e+00    0,000000000e+00
      492000000   -1,609102264e-02    5,676576402e-03    1,373457015e-01    7,014981508e-01    0,000000000e+00    0,000000000e+00    0,000000000e+00    0,000000000e+00
      506000000   -3,053041408e-03   -1,570322551e-02    4,971873164e-01    5,029345751e-01    0,000000000e+00    0,000000000e+00    0,000000000e+00    0,000000000e+00
      520000000   -4,819371738e-03   -3,135077283e-02    6,866111755e-01    1,421677768e-01    0,000000000e+00    0,000000000e+00    0,000000000e+00    0,000000000e+00
      534000000   -3,581084311e-03   -3,790279105e-02    6,431006789e-01   -2,615701854e-01    0,000000000e+00    0,000000000e+00    0,000000000e+00    0,000000000e+00
      548000000    6,158864126e-03   -5,408755690e-02    3,811228275e-01   -5,664605498e-01    0,000000000e+00    0,000000000e+00    0,000000000e+00    0,000000000e+00
      562000000    3,275153460e-03   -8,942234516e-02    2,888041316e-03   -6,715465784e-01    0,000000000e+00    0,000000000e+00    0,000000000e+00    0,000000000e+00
      576000000   -3,427756950e-02   -1,241508424e-01   -3,677826226e-01   -5,572426319e-01    0,000000000e+00    0,000000000e+00    0,000000000e+00    0,000000000e+00
      590000000   -9,592241794e-02   -1,224752590e-01   -6,212184429e-01   -2,643514574e-01    0,000000000e+00    0,000000000e+00    0,000000000e+00    0,000000000e+00
      604000000   -1,386496574e-01   -7,197686285e-02   -6,637516618e-01    1,367703527e-01    0,000000000e+00    0,000000000e+00    0,000000000e+00    0,000000000e+00
      618000000   -1,291687787e-01   -1,047413703e-02   -4,633325934e-01    4,925106466e-01    0,000000000e+00    0,000000000e+00    0,000000000e+00    0,000000000e+00
      632000000   -8,450435847e-02    1,576622762e-02   -9,972772747e-02    6,628994346e-01    0,000000000e+00    0,000000000e+00    0,000000000e+00    0,000000000e+00
      646000000   -5,149235949e-02    2,810786827e-05    2,855036259e-01    5,945781469e-01    0,000000000e+00    0,000000000e+00    0,000000000e+00    0,000000000e+00
      660000000   -5,433074385e-02   -2,109047771e-02    5,648854375e-01    3,228973150e-01    0,000000000e+00    0,000000000e+00    0,000000000e+00    0,000000000e+00
      674000000   -6,997099519e-02   -1,716084965e-02    6,410441399e-01   -6,277494878e-02    0,000000000e+00    0,000000000e+00    0,000000000e+00    0,000000000e+00
      688000000   -6,731697172e-02    8,683823980e-03    4,702272415e-01   -4,235638976e-01    0,000000000e+00    0,000000000e+00    0,000000000e+00    0,000000000e+00
      702000000   -3,616927192e-02    2,545238659e-02    1,213724837e-01   -6,100475788e-01    0,000000000e+00    0,000000000e+00    0,000000000e+00    0,000000000e+00
      716000000    3,963908646e-03    1,563270949e-02   -2,591397166e-01   -5,439254642e-01    0,000000000e+00    0,000000000e+00    0,000000000e+00    0,000000000e+00
      730000000    3,634540737e-02   -1,428616699e-02   -5,210239887e-01   -2,704846561e-01    0,000000000e+00    0,000000000e+00    0,000000000e+00    0,000000000e+00
      744000000    6,268789619e-02   -6,565485895e-02   -5,597550273e-01    9,856055677e-02    0,000000000e+00    0,000000000e+00    0,000000000e+00    0,000000000e+00
      758000000    6,053560972e-02   -1,515375674e-01   -3,663585782e-01    4,003501534e-01    0,000000000e+00    0,000000000e+00    0,000000000e+00    0,000000000e+00
      772000000   -1,740799472e-02   -2,562189102e-01   -4,546257108e-02    5,095358491e-01    0,000000000e+00    0,000000000e+00    0,000000000e+00    0,000000000e+00
      786000000   -2,026458979e-01   -2,918407023e-01    2,594353259e-01    3,991312981e-01    0,000000000e+00    0,000000000e+00    0,000000000e+00    0,000000000e+00
      800000000   -4,079696536e-01   -1,276812553e-01    4,071910679e-01    1,188525409e-01    0,000000000e+00    0,000000000e+00    0,000000000e+00    0,000000000e+00
      814000000   -3,771381378e-01    2,024967670e-01    2,962241173e-01   -1,515266746e-01    0,000000000e+00    0,000000000e+00    0,000000000e+00    0,000000000e+00
      828000000   -6,312609464e-02    3,479024172e-01    8,256312460e-02   -1,902931184e-01    0,000000000e+00    0,000000000e+00    0,000000000e+00    0,000000000e+00
      842000000    2,118230313e-01    1,859657317e-01   -3,129881574e-03   -9,262264520e-02    0,000000000e+00    0,000000000e+00    0,000000000e+00    0,000000000e+00
      856000000    2,659480274e-01   -1,056055203e-01    3,643375635e-02   -3,682691976e-02    0,000000000e+00    0,000000000e+00    0,000000000e+00    0,000000000e+00
      870000000    8,229666203e-02   -3,511870205e-01    8,859533072e-02   -9,769038856e-02    0,000000000e+00    0,000000000e+00    0,000000000e+00    0,000000000e+00
      884000000   -2,678825557e-01   -3,551171720e-01    1,109887380e-02   -2,270999253e-01    0,000000000e+00    0,000000000e+00    0,000000000e+00    0,000000000e+00
      898000000   -4,583086073e-01   -1,373705082e-02   -2,163667977e-01   -2,096455991e-01    0,000000000e+00    0,000000000e+00    0,000000000e+00    0,000000000e+00
      912000000   -2,353894264e-01    2,791481018e-01   -3,357275128e-01    6,208010763e-02    0,000000000e+00    0,000000000e+00    0,000000000e+00    0,000000000e+00
      926000000    5,486593768e-02    2,632565498e-01   -2,108626664e-01    2,620634735e-01    0,000000000e+00    0,000000000e+00    0,000000000e+00    0,000000000e+00
      940000000    2,065499723e-01    8,491673321e-02   -3,130864352e-02    3,263311982e-01    0,000000000e+00    0,000000000e+00    0,000000000e+00    0,000000000e+00
      954000000    2,200766057e-01   -1,235510111e-01    1,306584030e-01    3,017084897e-01    0,000000000e+00    0,000000000e+00    0,000000000e+00    0,000000000e+00
      968000000    1,177686378e-01   -2,957447171e-01    2,686263919e-01    2,135649323e-01    0,000000000e+00    0,000000000e+00    0,000000000e+00    0,000000000e+00
      982000000   -7,569934428e-02   -3,839085698e-01    3,607224822e-01    6,423189491e-02    0,000000000e+00    0,000000000e+00    0,000000000e+00    0,000000000e+00
      996000000   -3,097775578e-01   -3,289487958e-01    3,630544841e-01   -1,435433924e-01    0,000000000e+00    0,000000000e+00    0,000000000e+00    0,000000000e+00
     1010000000   -4,593206048e-01   -1,131868660e-01    2,193359286e-01   -3,365814090e-01    0,000000000e+00    0,000000000e+00    0,000000000e+00    0,000000000e+00
     1024000000   -4,148739874e-01    1,405283511e-01   -3,075439110e-02   -3,836349249e-01    0,000000000e+00    0,000000000e+00    0,000000000e+00    0,000000000e+00
     1038000000   -2,198968977e-01    2,900494039e-01   -2,426996827e-01   -2,579405606e-01    0,000000000e+00    0,000000000e+00    0,000000000e+00    0,000000000e+00
     1052000000   -1,597343571e-02    2,779586911e-01   -3,093207181e-01   -4,618795589e-02    0,000000000e+00    0,000000000e+00    0,000000000e+00    0,000000000e+00
     1066000000    1,318982542e-01    1,714093834e-01   -2,507507801e-01    1,376453042e-01    0,000000000e+00    0,000000000e+00    0,000000000e+00    0,000000000e+00
     1080000000    1,956204325e-01    6,066909060e-03   -1,158315316e-01    2,542482615e-01    0,000000000e+00    0,000000000e+00    0,000000000e+00    0,000000000e+00
     1094000000    1,621065438e-01   -1,611174792e-01    6,022213772e-02    2,899675369e-01    0,000000000e+00    0,000000000e+00    0,000000000e+00    0,000000000e+00
     1108000000    1,699185185e-02   -2,993368208e-01    2,606813610e-01    2,355406880e-01    0,000000000e+00    0,000000000e+00    0,000000000e+00    0,000000000e+00
     1122000000   -2,163338959e-01   -2,784120440e-01    4,388008118e-01    2,484777384e-02    0,000000000e+00    0,000000000e+00    0,000000000e+00    0,000000000e+00
     1136000000   -3,228641450e-01   -3,395321593e-02    4,009118378e-01   -3,418646455e-01    0,000000000e+00    0,000000000e+00    0,000000000e+00    0,000000000e+00
     1150000000   -1,101009995e-01    1,378964782e-01    4,833826050e-02   -5,273930430e-01    0,000000000e+00    0,000000000e+00    0,000000000e+00    0,000000000e+00
     1164000000    8,768593520e-02   -1,648787037e-02   -2,516899109e-01   -4,036266208e-01    0,000000000e+00    0,000000000e+00    0,000000000e+00    0,000000000e+00
     1178000000    2,942785434e-02   -2,541206777e-01   -3,696790636e-01   -1,788298935e-01    0,000000000e+00    0,000000000e+00    0,000000000e+00    0,000000000e+00
     1192000000   -2,225931287e-01   -3,479527235e-01   -3,420129120e-01    4,260010272e-02    0,000000000e+00    0,000000000e+00    0,000000000e+00    0,000000000e+00
     1206000000   -4,845246375e-01   -1,826444268e-01   -1,939662397e-01    1,824163795e-01    0,000000000e+00    0,000000000e+00    0,000000000e+00    0,000000000e+00
     1220000000   -5,048123002e-01    1,352559030e-01   -8,095485158e-03    1,701069027e-01    0,000000000e+00    0,000000000e+00    0,000000000e+00    0,000000000e+00
     1234000000   -3,019562066e-01    3,376820385e-01    6,975583732e-02    7,793509215e-02    0,000000000e+00    0,000000000e+00    0,000000000e+00    0,000000000e+00
     1248000000   -6,285107136e-02    3,631023467e-01    6,493180245e-02    4,390703049e-03    0,000000000e+00    0,000000000e+00    0,000000000e+00    0,000000000e+00
     1262000000    1,073164865e-01    2,603311539e-01    2,715464123e-02   -2,385948040e-02    0,000000000e+00    0,000000000e+00    0,000000000e+00    0,000000000e+00
     1276000000    1,995535642e-01    1,044166237e-01    4,058746155e-03   -1,044645067e-02    0,000000000e+00    0,000000000e+00    0,000000000e+00    0,000000000e+00
     1290000000    2,232629061e-01   -6,594532728e-02    1,243967749e-02    2,128732577e-02    0,000000000e+00    0,000000000e+00    0,000000000e+00    0,000000000e+00
     1304000000    1,636556387e-01   -2,302931547e-01    6,026285887e-02    6,199517101e-02    0,000000000e+00    0,000000000e+00    0,000000000e+00    0,000000000e+00
     1318000000    2,198546752e-02   -3,614187837e-01    1,678695679e-01    1,590172946e-02    0,000000000e+00    0,000000000e+00    0,000000000e+00    0,000000000e+00
     1332000000   -1,525121331e-01   -3,971027732e-01    1,013422012e-01   -1,754268110e-01    0,000000000e+00    0,000000000e+00    0,000000000e+00    0,000000000e+00
     1346000000   -3,614199460e-01   -3,938791752e-01   -6,420470774e-02   -2,320989035e-02    0,000000000e+00    0,000000000e+00    0,000000000e+00    0,000000000e+00
     1360000000   -5,842427015e-01   -1,960549802e-01    6,585936993e-02    9,475485235e-02    0,000000000e+00    0,000000000e+00    0,000000000e+00    0,000000000e+00
     1374000000   -6,273903847e-01    9,922995418e-02    1,841173172e-01    4,193532839e-02    0,000000000e+00    0,000000000e+00    0,000000000e+00    0,000000000e+00
     1388000000   -4,755233526e-01    3,517603278e-01    2,256249189e-01   -2,940081619e-02    0,000000000e+00    0,000000000e+00    0,000000000e+00    0,000000000e+00
     1402000000   -2,397176623e-01    4,425101280e-01    2,275362909e-01   -7,017223537e-02    0,000000000e+00    0,000000000e+00    0,000000000e+00    0,000000000e+00
     1416000000   -3,977867588e-02    4,117653966e-01    1,854042858e-01   -1,141829267e-01    0,000000000e+00    0,000000000e+00    0,000000000e+00    0,000000000e+00
     1430000000    1,100042015e-01    3,091209829e-01    1,922063529e-01   -1,194312274e-01    0,000000000e+00    0,000000000e+00    0,000000000e+00    0,000000000e+00
     1444000000    2,043132931e-01    1,566902846e-01    1,630967110e-01   -1,064175442e-01    0,000000000e+00    0,000000000e+00    0,000000000e+00    0,000000000e+00
     1458000000    2,295574993e-01   -9,733598679e-03    1,358043700e-01   -8,084671199e-02    0,000000000e+00    0,000000000e+00    0,000000000e+00    0,000000000e+00
     1472000000    1,965425611e-01   -1,922176033e-01    1,536554098e-01   -4,027479514e-02    0,000000000e+00    0,000000000e+00    0,000000000e+00    0,000000000e+00
     1486000000    6,929977238e-02   -3,584135771e-01    1,693563461e-01    2,749536745e-02    0,000000000e+00    0,000000000e+00    0,000000000e+00    0,000000000e+00
     1500000000   -1,601133943e-01   -4,879093766e-01    2,234969884e-01    9,491756558e-02    0,000000000e+00    0,000000000e+00    0,000000000e+00    0,000000000e+00
