! NanoVNA-App
! Date: 2025-09-25 15:41:49
! Start: 100MHz Stop: 1,5GHz Points: 101
! S-Parameter data: F S11 S21 S12 S22
# Hz S RI R 50
!     Frequency           S11_Real           S11_Imag           S21_Real           S21_Imag           S12_Real           S12_Imag           S22_Real           S22_Imag
      100000000   -2,874109335e-02   -4,249991383e-03    3,738981485e-01   -7,215210199e-01    0,000000000e+00    0,000000000e+00    0,000000000e+00    0,000000000e+00
      114000000   -1,650891453e-02    1,149616204e-02   -8,888718486e-02   -8,052324057e-01    0,000000000e+00    0,000000000e+00    0,000000000e+00    0,000000000e+00
      128000000    3,415857675e-03    1,067616604e-02   -5,145879984e-01   -6,202353835e-01    0,000000000e+00    0,000000000e+00    0,000000000e+00    0,000000000e+00
      142000000    1,465622056e-02   -2,651783871e-03   -7,668301463e-01   -2,365263104e-01    0,000000000e+00    0,000000000e+00    0,000000000e+00    0,000000000e+00
      156000000    1,503957249e-02   -1,470968965e-02   -7,663761377e-01    2,182992995e-01    0,000000000e+00    0,000000000e+00    0,000000000e+00    0,000000000e+00
      170000000    1,713361777e-02   -2,246674709e-02   -5,178046823e-01    6,044312119e-01    0,000000000e+00    0,000000000e+00    0,000000000e+00    0,000000000e+00
      184000000    2,130422927e-02   -3,717314824e-02   -1,014434323e-01    7,858774662e-01    0,000000000e+00    0,000000000e+00    0,000000000e+00    0,000000000e+00
      198000000    1,326893456e-02   -6,257589161e-02    3,430565596e-01    7,121264338e-01    0,000000000e+00    0,000000000e+00    0,000000000e+00    0,000000000e+00
      212000000   -1,845259219e-02   -8,124075830e-02    6,777895093e-01    4,099417925e-01    0,000000000e+00    0,000000000e+00    0,000000000e+00    0,000000000e+00
      226000000   -6,134280562e-02   -6,925079972e-02    7,953453064e-01   -3,045182861e-02    0,000000000e+00    0,000000000e+00    0,000000000e+00    0,000000000e+00
      240000000   -8,218728751e-02   -2,581936121e-02    6,457644701e-01   -4,666716158e-01    0,000000000e+00    0,000000000e+00    0,000000000e+00    0,000000000e+00
      254000000   -6,339257210e-02    1,696618460e-02    2,759218216e-01   -7,433408499e-01    0,000000000e+00    0,000000000e+00    0,000000000e+00    0,000000000e+00
      268000000   -2,389067039e-02    2,886273712e-02   -1,779694110e-01   -7,637749910e-01    0,000000000e+00    0,000000000e+00    0,000000000e+00    0,000000000e+00
      282000000    4,069162533e-03    1,210312732e-02   -5,618637800e-01   -5,354936719e-01    0,000000000e+00    0,000000000e+00    0,000000000e+00    0,000000000e+00
      296000000    9,816044942e-03   -7,522253785e-03   -7,593806982e-01   -1,396362334e-01    0,000000000e+00    0,000000000e+00    0,000000000e+00    0,000000000e+00
      310000000    1,150301751e-02   -1,612351649e-02   -7,112389207e-01    2,979665101e-01    0,000000000e+00    0,000000000e+00    0,000000000e+00    0,000000000e+00
      324000000    1,990900561e-02   -2,658007480e-02   -4,268916249e-01    6,375613213e-01    0,000000000e+00    0,000000000e+00    0,000000000e+00    0,000000000e+00
      338000000    2,563212439e-02   -5,204691738e-02   -7,325434592e-03    7,606516480e-01    0,000000000e+00    0,000000000e+00    0,000000000e+00    0,000000000e+00
      352000000    7,212307770e-03   -8,476520330e-02    4,054333866e-01    6,396401525e-01    0,000000000e+00    0,000000000e+00    0,000000000e+00    0,000000000e+00
      366000000   -3,453836963e-02   -9,522514045e-02    6,905207634e-01    3,113225996e-01    0,000000000e+00    0,000000000e+00    0,000000000e+00    0,000000000e+00
      380000000   -7,040229440e-02   -7,092398405e-02    7,472748756e-01   -1,256094873e-01    0,000000000e+00    0,000000000e+00    0,000000000e+00    0,000000000e+00
      394000000   -7,231112570e-02   -3,247540444e-02    5,453333259e-01   -5,206979513e-01    0,000000000e+00    0,000000000e+00    0,000000000e+00    0,000000000e+00
      408000000   -4,612916708e-02   -1,663657092e-02    1,614581794e-01   -7,316426039e-01    0,000000000e+00    0,000000000e+00    0,000000000e+00    0,000000000e+00
      422000000   -2,843957208e-02   -3,209958971e-02   -2,676331401e-01   -6,946452856e-01    0,000000000e+00    0,000000000e+00    0,000000000e+00    0,000000000e+00
      436000000   -4,066779837e-02   -5,196181685e-02   -6,031238437e-01   -4,324384928e-01    0,000000000e+00    0,000000000e+00    0,000000000e+00    0,000000000e+00
      450000000   -6,714250892e-02   -4,364041984e-02   -7,402401567e-01   -2,183928341e-02    0,000000000e+00    0,000000000e+00    0,000000000e+00    0,000000000e+00
      464000000   -7,321879268e-02   -1,174498349e-02   -6,180483103e-01    3,969919384e-01    0,000000000e+00    0,000000000e+00    0,000000000e+00    0,000000000e+00
      478000000   -4,757094383e-02    1,112653688e-02   -2,835039198e-01    6,668297052e-01    0,000000000e+00    0,000000000e+00    0,000000000e+00    0,000000000e+00
      492000000   -1,557407063e-02    5,574234296e-03    1,367169917e-01    7,002353668e-01    0,000000000e+00    0,000000000e+00    0,000000000e+00    0,000000000e+00
      506000000   -3,079589689e-03   -1,583741233e-02    4,975273609e-01    5,021384358e-01    0,000000000e+00    0,000000000e+00    0,000000000e+00    0,000000000e+00
      520000000   -4,953507334e-03   -3,135885298e-02    6,871250868e-01    1,430453509e-01    0,000000000e+00    0,000000000e+00    0,000000000e+00    0,000000000e+00
      534000000   -3,716475796e-03   -3,809268773e-02    6,428529620e-01   -2,616487741e-01    0,000000000e+00    0,000000000e+00    0,000000000e+00    0,000000000e+00
      548000000    6,202708930e-03   -5,399180204e-02    3,806037903e-01   -5,658569336e-01    0,000000000e+00    0,000000000e+00    0,000000000e+00    0,000000000e+00
      562000000    3,316127928e-03   -8,968126774e-02    1,987301745e-03   -6,709798574e-01    0,000000000e+00    0,000000000e+00    0,000000000e+00    0,000000000e+00
      576000000   -3,407973051e-02   -1,242006421e-01   -3,676335514e-01   -5,572832227e-01    0,000000000e+00    0,000000000e+00    0,000000000e+00    0,000000000e+00
      590000000   -9,556585550e-02   -1,225738227e-01   -6,181097627e-01   -2,630009949e-01    0,000000000e+00    0,000000000e+00    0,000000000e+00    0,000000000e+00
      604000000   -1,388545483e-01   -7,268404961e-02   -6,638913155e-01    1,360391080e-01    0,000000000e+00    0,000000000e+00    0,000000000e+00    0,000000000e+00
      618000000   -1,296249330e-01   -9,752528742e-03   -4,646631181e-01    4,937295020e-01    0,000000000e+00    0,000000000e+00    0,000000000e+00    0,000000000e+00
      632000000   -8,402460068e-02    1,599227823e-02   -1,013600826e-01    6,616719961e-01    0,000000000e+00    0,000000000e+00    0,000000000e+00    0,000000000e+00
      646000000   -5,171683803e-02    1,218688791e-03    2,863368094e-01    5,941688418e-01    0,000000000e+00    0,000000000e+00    0,000000000e+00    0,000000000e+00
      660000000   -5,395631865e-02   -2,035354264e-02    5,644649267e-01    3,234737217e-01    0,000000000e+00    0,000000000e+00    0,000000000e+00    0,000000000e+00
      674000000   -7,017055154e-02   -1,642542332e-02    6,406339407e-01   -6,280770153e-02    0,000000000e+00    0,000000000e+00    0,000000000e+00    0,000000000e+00
      688000000   -6,694879383e-02    8,631378412e-03    4,713719189e-01   -4,239152670e-01    0,000000000e+00    0,000000000e+00    0,000000000e+00    0,000000000e+00
      702000000   -3,654016927e-02    2,641814761e-02    1,273151338e-01   -6,024993062e-01    0,000000000e+00    0,000000000e+00    0,000000000e+00    0,000000000e+00
      716000000    4,356816411e-03    1,580380835e-02   -2,598180175e-01   -5,446053743e-01    0,000000000e+00    0,000000000e+00    0,000000000e+00    0,000000000e+00
      730000000    3,642185405e-02   -1,378357876e-02   -5,214976668e-01   -2,713846266e-01    0,000000000e+00    0,000000000e+00    0,000000000e+00    0,000000000e+00
      744000000    6,247548759e-02   -6,546696275e-02   -5,604444742e-01    9,875394404e-02    0,000000000e+00    0,000000000e+00    0,000000000e+00    0,000000000e+00
      758000000    6,137300283e-02   -1,522812694e-01   -3,657777607e-01    4,000923038e-01    0,000000000e+00    0,000000000e+00    0,000000000e+00    0,000000000e+00
      772000000   -1,727341861e-02   -2,554400563e-01   -4,466476664e-02    5,092284083e-01    0,000000000e+00    0,000000000e+00    0,000000000e+00    0,000000000e+00
      786000000   -2,021105289e-01   -2,917104065e-01    2,595610023e-01    3,987892568e-01    0,000000000e+00    0,000000000e+00    0,000000000e+00    0,000000000e+00
      800000000   -4,085866511e-01   -1,270029247e-01    4,069256783e-01    1,183580756e-01    0,000000000e+00    0,000000000e+00    0,000000000e+00    0,000000000e+00
      814000000   -3,759845793e-01    2,018035948e-01    2,965940535e-01   -1,503310949e-01    0,000000000e+00    0,000000000e+00    0,000000000e+00    0,000000000e+00
      828000000   -6,182322279e-02    3,472496867e-01    8,260060847e-02   -1,899674237e-01    0,000000000e+00    0,000000000e+00    0,000000000e+00    0,000000000e+00
      842000000    2,120073587e-01    1,859184206e-01   -3,197157290e-03   -9,269157797e-02    0,000000000e+00    0,000000000e+00    0,000000000e+00    0,000000000e+00
      856000000    2,658812702e-01   -1,058468595e-01    3,595929220e-02   -3,701568767e-02    0,000000000e+00    0,000000000e+00    0,000000000e+00    0,000000000e+00
      870000000    8,261208981e-02   -3,516254723e-01    8,871616423e-02   -9,776342660e-02    0,000000000e+00    0,000000000e+00    0,000000000e+00    0,000000000e+00
      884000000   -2,671414018e-01   -3,557674885e-01    1,284445263e-02   -2,277528197e-01    0,000000000e+00    0,000000000e+00    0,000000000e+00    0,000000000e+00
      898000000   -4,581329525e-01   -1,406583749e-02   -2,154645622e-01   -2,098508030e-01    0,000000000e+00    0,000000000e+00    0,000000000e+00    0,000000000e+00
      912000000   -2,349900454e-01    2,786702812e-01   -3,427825868e-01    7,520908117e-02    0,000000000e+00    0,000000000e+00    0,000000000e+00    0,000000000e+00
      926000000    5,465120822e-02    2,613891661e-01   -2,101193815e-01    2,596493363e-01    0,000000000e+00    0,000000000e+00    0,000000000e+00    0,000000000e+00
      940000000    2,105662525e-01    8,615174890e-02   -3,106343932e-02    3,250290453e-01    0,000000000e+00    0,000000000e+00    0,000000000e+00    0,000000000e+00
      954000000    2,217999846e-01   -1,229600683e-01    1,305609345e-01    3,014401197e-01    0,000000000e+00    0,000000000e+00    0,000000000e+00    0,000000000e+00
      968000000    1,159540787e-01   -2,945649326e-01    2,682609856e-01    2,127016187e-01    0,000000000e+00    0,000000000e+00    0,000000000e+00    0,000000000e+00
      982000000   -7,608982176e-02   -3,830245435e-01    3,623370826e-01    6,265628338e-02    0,000000000e+00    0,000000000e+00    0,000000000e+00    0,000000000e+00
      996000000   -3,107328713e-01   -3,280349970e-01    3,618450463e-01   -1,445748955e-01    0,000000000e+00    0,000000000e+00    0,000000000e+00    0,000000000e+00
     1010000000   -4,639168382e-01   -1,140114963e-01    2,191729099e-01   -3,361486197e-01    0,000000000e+00    0,000000000e+00    0,000000000e+00    0,000000000e+00
     1024000000   -4,119205475e-01    1,413378119e-01   -3,094931133e-02   -3,858540058e-01    0,000000000e+00    0,000000000e+00    0,000000000e+00    0,000000000e+00
     1038000000   -2,199143022e-01    2,903301418e-01   -2,405561358e-01   -2,558038235e-01    0,000000000e+00    0,000000000e+00    0,000000000e+00    0,000000000e+00
     1052000000   -1,299988944e-02    2,838544548e-01   -3,108661175e-01   -4,825327173e-02    0,000000000e+00    0,000000000e+00    0,000000000e+00    0,000000000e+00
     1066000000    1,346328557e-01    1,661459655e-01   -2,515250444e-01    1,394265294e-01    0,000000000e+00    0,000000000e+00    0,000000000e+00    0,000000000e+00
     1080000000    1,958837211e-01    9,638748132e-03   -1,156065911e-01    2,546481490e-01    0,000000000e+00    0,000000000e+00    0,000000000e+00    0,000000000e+00
     1094000000    1,583621651e-01   -1,651225537e-01    5,946048722e-02    2,903352976e-01    0,000000000e+00    0,000000000e+00    0,000000000e+00    0,000000000e+00
     1108000000    1,738531515e-02   -2,927567661e-01    2,607723475e-01    2,341083884e-01    0,000000000e+00    0,000000000e+00    0,000000000e+00    0,000000000e+00
     1122000000   -2,105144262e-01   -2,843415439e-01    4,408842623e-01    2,496976964e-02    0,000000000e+00    0,000000000e+00    0,000000000e+00    0,000000000e+00
     1136000000   -3,303520083e-01   -3,001493774e-02    3,991017342e-01   -3,428658545e-01    0,000000000e+00    0,000000000e+00    0,000000000e+00    0,000000000e+00
     1150000000   -1,045824960e-01    1,420045644e-01    4,810522869e-02   -5,300392509e-01    0,000000000e+00    0,000000000e+00    0,000000000e+00    0,000000000e+00
     1164000000    8,776327223e-02   -1,834026352e-02   -2,493402809e-01   -4,020789862e-01    0,000000000e+00    0,000000000e+00    0,000000000e+00    0,000000000e+00
     1178000000    2,858816460e-02   -2,511634827e-01   -3,678140938e-01   -1,789826155e-01    0,000000000e+00    0,000000000e+00    0,000000000e+00    0,000000000e+00
     1192000000   -2,229644358e-01   -3,464079797e-01   -3,425597548e-01    4,453166574e-02    0,000000000e+00    0,000000000e+00    0,000000000e+00    0,000000000e+00
     1206000000   -4,814828336e-01   -1,806594580e-01   -1,902708709e-01    1,842824370e-01    0,000000000e+00    0,000000000e+00    0,000000000e+00    0,000000000e+00
     1220000000   -5,036843419e-01    1,355229467e-01   -1,078619249e-02    1,763237119e-01    0,000000000e+00    0,000000000e+00    0,000000000e+00    0,000000000e+00
     1234000000   -3,042211235e-01    3,478538692e-01    7,320474833e-02    8,011984825e-02    0,000000000e+00    0,000000000e+00    0,000000000e+00    0,000000000e+00
     1248000000   -5,619844049e-02    3,612626195e-01    6,676319242e-02    5,773101468e-03    0,000000000e+00    0,000000000e+00    0,000000000e+00    0,000000000e+00
     1262000000    1,079285070e-01    2,558286190e-01    2,537378855e-02   -2,749795839e-02    0,000000000e+00    0,000000000e+00    0,000000000e+00    0,000000000e+00
     1276000000    2,031254768e-01    1,037562117e-01    5,813212600e-03   -9,383976460e-03    0,000000000e+00    0,000000000e+00    0,000000000e+00    0,000000000e+00
     1290000000    2,196343392e-01   -6,490153074e-02    7,793860044e-03    2,303239703e-02    0,000000000e+00    0,000000000e+00    0,000000000e+00    0,000000000e+00
     1304000000    1,663706154e-01   -2,292314917e-01    6,598047167e-02    6,035814434e-02    0,000000000e+00    0,000000000e+00    0,000000000e+00    0,000000000e+00
     1318000000    2,788666263e-02   -3,644314110e-01    1,734340489e-01    1,151959598e-02    0,000000000e+00    0,000000000e+00    0,000000000e+00    0,000000000e+00
     1332000000   -1,529577523e-01   -3,978037238e-01    1,057718620e-01   -1,748195887e-01    0,000000000e+00    0,000000000e+00    0,000000000e+00    0,000000000e+00
     1346000000   -3,570558131e-01   -3,889417350e-01   -5,429835990e-02   -1,861160435e-02    0,000000000e+00    0,000000000e+00    0,000000000e+00    0,000000000e+00
     1360000000   -5,832752585e-01   -2,079829127e-01    7,063143700e-02    8,219239861e-02    0,000000000e+00    0,000000000e+00    0,000000000e+00    0,000000000e+00
     1374000000   -6,290030479e-01    1,014101505e-01    1,829809994e-01    4,412966967e-02    0,000000000e+00    0,000000000e+00    0,000000000e+00    0,000000000e+00
     1388000000   -4,789548814e-01    3,568536937e-01    2,059923857e-01   -2,527024969e-02    0,000000000e+00    0,000000000e+00    0,000000000e+00    0,000000000e+00
     1402000000   -2,378315777e-01    4,462195635e-01    2,160112262e-01   -7,663868368e-02    0,000000000e+00    0,000000000e+00    0,000000000e+00    0,000000000e+00
     1416000000   -3,644831851e-02    4,159209430e-01    2,045422941e-01   -9,955333918e-02    0,000000000e+00    0,000000000e+00    0,000000000e+00    0,000000000e+00
     1430000000    1,110411957e-01    2,986446619e-01    1,521679163e-01   -1,173876077e-01    0,000000000e+00    0,000000000e+00    0,000000000e+00    0,000000000e+00
     1444000000    2,012274265e-01    1,605111361e-01    1,741055846e-01   -1,069491729e-01    0,000000000e+00    0,000000000e+00    0,000000000e+00    0,000000000e+00
     1458000000    2,337663770e-01   -1,554888394e-02    1,519091725e-01   -9,099758416e-02    0,000000000e+00    0,000000000e+00    0,000000000e+00    0,000000000e+00
     1472000000    1,893542558e-01   -1,950989962e-01    1,520928741e-01   -4,319921508e-02    0,000000000e+00    0,000000000e+00    0,000000000e+00    0,000000000e+00
     1486000000    6,736285985e-02   -3,621165156e-01    1,715703607e-01    1,824606769e-02    0,000000000e+00    0,000000000e+00    0,000000000e+00    0,000000000e+00
     1500000000   -1,552182883e-01   -4,811220467e-01    2,310126424e-01    9,698332101e-02    0,000000000e+00    0,000000000e+00    0,000000000e+00    0,000000000e+00
