! NanoVNA-App
! Date: 2025-09-25 15:39:32
! Start: 100MHz Stop: 1,5GHz Points: 101
! S-Parameter data: F S11 S21 S12 S22
# Hz S RI R 50
!     Frequency           S11_Real           S11_Imag           S21_Real           S21_Imag           S12_Real           S12_Imag           S22_Real           S22_Imag
      100000000   -2,867263742e-02   -4,235884175e-03    3,738476336e-01   -7,215230465e-01    0,000000000e+00    0,000000000e+00    0,000000000e+00    0,000000000e+00
      114000000   -1,641814969e-02    1,147313789e-02   -8,903878182e-02   -8,051851392e-01    0,000000000e+00    0,000000000e+00    0,000000000e+00    0,000000000e+00
      128000000    3,483868670e-03    1,071206387e-02   -5,143909454e-01   -6,200928092e-01    0,000000000e+00    0,000000000e+00    0,000000000e+00    0,000000000e+00
      142000000    1,470956765e-02   -2,626036294e-03   -7,668423653e-01   -2,363594770e-01    0,000000000e+00    0,000000000e+00    0,000000000e+00    0,000000000e+00
      156000000    1,493796427e-02   -1,459850091e-02   -7,643539310e-01    2,180926949e-01    0,000000000e+00    0,000000000e+00    0,000000000e+00    0,000000000e+00
      170000000    1,725294068e-02   -2,249934338e-02   -5,178359151e-01    6,047687531e-01    0,000000000e+00    0,000000000e+00    0,000000000e+00    0,000000000e+00
      184000000    2,137073502e-02   -3,717889264e-02   -1,013889387e-01    7,855652571e-01    0,000000000e+00    0,000000000e+00    0,000000000e+00    0,000000000e+00
      198000000    1,325048693e-02   -6,255999207e-02    3,432646096e-01    7,118772268e-01    0,000000000e+00    0,000000000e+00    0,000000000e+00    0,000000000e+00
      212000000   -1,837326959e-02   -8,130028099e-02    6,779857874e-01    4,098913372e-01    0,000000000e+00    0,000000000e+00    0,000000000e+00    0,000000000e+00
      226000000   -6,120506302e-02   -6,922222674e-02    7,951898575e-01   -3,056943417e-02    0,000000000e+00    0,000000000e+00    0,000000000e+00    0,000000000e+00
      240000000   -8,204355091e-02   -2,582597919e-02    6,455973387e-01   -4,669037759e-01    0,000000000e+00    0,000000000e+00    0,000000000e+00    0,000000000e+00
      254000000   -6,328985840e-02    1,687818021e-02    2,754961848e-01   -7,428285480e-01    0,000000000e+00    0,000000000e+00    0,000000000e+00    0,000000000e+00
      268000000   -2,391150035e-02    2,874124981e-02   -1,780416965e-01   -7,639037371e-01    0,000000000e+00    0,000000000e+00    0,000000000e+00    0,000000000e+00
      282000000    4,048205446e-03    1,204566471e-02   -5,614255071e-01   -5,352694988e-01    0,000000000e+00    0,000000000e+00    0,000000000e+00    0,000000000e+00
      296000000    9,942776524e-03   -7,566245273e-03   -7,593578696e-01   -1,393776834e-01    0,000000000e+00    0,000000000e+00    0,000000000e+00    0,000000000e+00
      310000000    1,169524714e-02   -1,592030935e-02   -7,129848599e-01    2,980844975e-01    0,000000000e+00    0,000000000e+00    0,000000000e+00    0,000000000e+00
      324000000    2,009020932e-02   -2,669435181e-02   -4,278206229e-01    6,367748976e-01    0,000000000e+00    0,000000000e+00    0,000000000e+00    0,000000000e+00
      338000000    2,579541132e-02   -5,240666866e-02   -7,511281408e-03    7,607353926e-01    0,000000000e+00    0,000000000e+00    0,000000000e+00    0,000000000e+00
      352000000    7,338432595e-03   -8,466285467e-02    4,061708450e-01    6,394479871e-01    0,000000000e+00    0,000000000e+00    0,000000000e+00    0,000000000e+00
      366000000   -3,421211243e-02   -9,574745595e-02    6,909788251e-01    3,108977377e-01    0,000000000e+00    0,000000000e+00    0,000000000e+00    0,000000000e+00
      380000000   -7,057926804e-02   -7,100872695e-02    7,467514873e-01   -1,257620156e-01    0,000000000e+00    0,000000000e+00    0,000000000e+00    0,000000000e+00
      394000000   -7,209472358e-02   -3,249447420e-02    5,463423729e-01   -5,211565495e-01    0,000000000e+00    0,000000000e+00    0,000000000e+00    0,000000000e+00
      408000000   -4,629008844e-02   -1,634796523e-02    1,615679711e-01   -7,320848107e-01    0,000000000e+00    0,000000000e+00    0,000000000e+00    0,000000000e+00
      422000000   -2,811580710e-02   -3,211667761e-02   -2,664297521e-01   -6,944910884e-01    0,000000000e+00    0,000000000e+00    0,000000000e+00    0,000000000e+00
      436000000   -4,038782418e-02   -5,176696926e-02   -6,026112437e-01   -4,322029054e-01    0,000000000e+00    0,000000000e+00    0,000000000e+00    0,000000000e+00
      450000000   -6,705059856e-02   -4,396548122e-02   -7,396931052e-01   -2,177527919e-02    0,000000000e+00    0,000000000e+00    0,000000000e+00    0,000000000e+00
      464000000   -7,291671634e-02   -1,214964502e-02   -6,178130507e-01    3,968756497e-01    0,000000000e+00    0,000000000e+00    0,000000000e+00    0,000000000e+00
      478000000   -4,728318378e-02    1,122264378e-02   -2,823269069e-01    6,666238904e-01    0,000000000e+00    0,000000000e+00    0,000000000e+00    0,000000000e+00
      492000000   -1,544343308e-02    5,716144107e-03    1,371313334e-01    7,002744079e-01    0,000000000e+00    0,000000000e+00    0,000000000e+00    0,000000000e+00
      506000000   -2,641313709e-03   -1,581807621e-02    4,974374473e-01    5,029355288e-01    0,000000000e+00    0,000000000e+00    0,000000000e+00    0,000000000e+00
      520000000   -5,210775882e-03   -3,128015995e-02    6,881815791e-01    1,415375769e-01    0,000000000e+00    0,000000000e+00    0,000000000e+00    0,000000000e+00
      534000000   -3,389783436e-03   -3,795615584e-02    6,428217292e-01   -2,613897026e-01    0,000000000e+00    0,000000000e+00    0,000000000e+00    0,000000000e+00
      548000000    6,290426943e-03   -5,414156988e-02    3,806722462e-01   -5,662971139e-01    0,000000000e+00    0,000000000e+00    0,000000000e+00    0,000000000e+00
      562000000    3,198471153e-03   -8,938097209e-02    3,262012731e-03   -6,707493663e-01    0,000000000e+00    0,000000000e+00    0,000000000e+00    0,000000000e+00
      576000000   -3,358240053e-02   -1,240146682e-01   -3,682416975e-01   -5,569719672e-01    0,000000000e+00    0,000000000e+00    0,000000000e+00    0,000000000e+00
      590000000   -9,586908668e-02   -1,228668615e-01   -6,198151112e-01   -2,659680545e-01    0,000000000e+00    0,000000000e+00    0,000000000e+00    0,000000000e+00
      604000000   -1,387048662e-01   -7,247823477e-02   -6,637293100e-01    1,365074068e-01    0,000000000e+00    0,000000000e+00    0,000000000e+00    0,000000000e+00
      618000000   -1,286359727e-01   -9,647610597e-03   -4,638409615e-01    4,929245710e-01    0,000000000e+00    0,000000000e+00    0,000000000e+00    0,000000000e+00
      632000000   -8,460880071e-02    1,640124060e-02   -9,959373623e-02    6,635715961e-01    0,000000000e+00    0,000000000e+00    0,000000000e+00    0,000000000e+00
      646000000   -5,257053673e-02    6,477951538e-04    2,858279347e-01    5,928907394e-01    0,000000000e+00    0,000000000e+00    0,000000000e+00    0,000000000e+00
      660000000   -5,419240892e-02   -2,139831893e-02    5,642157197e-01    3,226669729e-01    0,000000000e+00    0,000000000e+00    0,000000000e+00    0,000000000e+00
      674000000   -6,954193860e-02   -1,600374281e-02    6,404341459e-01   -6,304984540e-02    0,000000000e+00    0,000000000e+00    0,000000000e+00    0,000000000e+00
      688000000   -6,757564098e-02    9,605986066e-03    4,707373977e-01   -4,238900244e-01    0,000000000e+00    0,000000000e+00    0,000000000e+00    0,000000000e+00
      702000000   -3,638888150e-02    2,478651330e-02    1,202611625e-01   -6,040624976e-01    0,000000000e+00    0,000000000e+00    0,000000000e+00    0,000000000e+00
      716000000    3,853088012e-03    1,551548857e-02   -2,589743137e-01   -5,446839333e-01    0,000000000e+00    0,000000000e+00    0,000000000e+00    0,000000000e+00
      730000000    3,627050295e-02   -1,370130666e-02   -5,215662718e-01   -2,707434893e-01    0,000000000e+00    0,000000000e+00    0,000000000e+00    0,000000000e+00
      744000000    6,316585839e-02   -6,472066790e-02   -5,602048635e-01    9,830439836e-02    0,000000000e+00    0,000000000e+00    0,000000000e+00    0,000000000e+00
      758000000    6,069068611e-02   -1,512954682e-01   -3,657946289e-01    4,001682401e-01    0,000000000e+00    0,000000000e+00    0,000000000e+00    0,000000000e+00
      772000000   -1,689847186e-02   -2,561198473e-01   -4,518477619e-02    5,085093975e-01    0,000000000e+00    0,000000000e+00    0,000000000e+00    0,000000000e+00
      786000000   -2,024591416e-01   -2,905620635e-01    2,593701184e-01    3,988073170e-01    0,000000000e+00    0,000000000e+00    0,000000000e+00    0,000000000e+00
      800000000   -4,079920650e-01   -1,275846362e-01    4,067330658e-01    1,182514131e-01    0,000000000e+00    0,000000000e+00    0,000000000e+00    0,000000000e+00
      814000000   -3,750925064e-01    2,025450766e-01    2,953971326e-01   -1,506449878e-01    0,000000000e+00    0,000000000e+00    0,000000000e+00    0,000000000e+00
      828000000   -6,134516001e-02    3,482012451e-01    8,203299344e-02   -1,898518652e-01    0,000000000e+00    0,000000000e+00    0,000000000e+00    0,000000000e+00
      842000000    2,121786177e-01    1,849020571e-01   -2,645877888e-03   -9,245828539e-02    0,000000000e+00    0,000000000e+00    0,000000000e+00    0,000000000e+00
      856000000    2,655997276e-01   -1,063520610e-01    3,674827516e-02   -3,689396754e-02    0,000000000e+00    0,000000000e+00    0,000000000e+00    0,000000000e+00
      870000000    8,164660633e-02   -3,514375091e-01    8,892206848e-02   -9,799470752e-02    0,000000000e+00    0,000000000e+00    0,000000000e+00    0,000000000e+00
      884000000   -2,685230076e-01   -3,551872969e-01    1,110582426e-02   -2,282163501e-01    0,000000000e+00    0,000000000e+00    0,000000000e+00    0,000000000e+00
      898000000   -4,579503536e-01   -1,365015376e-02   -2,160937190e-01   -2,098931819e-01    0,000000000e+00    0,000000000e+00    0,000000000e+00    0,000000000e+00
      912000000   -2,338122576e-01    2,778344750e-01   -3,443995118e-01    6,818012893e-02    0,000000000e+00    0,000000000e+00    0,000000000e+00    0,000000000e+00
      926000000    5,615742877e-02    2,595727742e-01   -2,079465240e-01    2,599105537e-01    0,000000000e+00    0,000000000e+00    0,000000000e+00    0,000000000e+00
      940000000    2,080212682e-01    8,516489714e-02   -3,053577989e-02    3,270006478e-01    0,000000000e+00    0,000000000e+00    0,000000000e+00    0,000000000e+00
      954000000    2,179741263e-01   -1,220754832e-01    1,309512109e-01    3,014443219e-01    0,000000000e+00    0,000000000e+00    0,000000000e+00    0,000000000e+00
      968000000    1,174478009e-01   -2,931083441e-01    2,685195208e-01    2,130720913e-01    0,000000000e+00    0,000000000e+00    0,000000000e+00    0,000000000e+00
      982000000   -7,527790964e-02   -3,861174285e-01    3,627151251e-01    6,109349430e-02    0,000000000e+00    0,000000000e+00    0,000000000e+00    0,000000000e+00
      996000000   -3,078514934e-01   -3,292206526e-01    3,618224859e-01   -1,443059295e-01    0,000000000e+00    0,000000000e+00    0,000000000e+00    0,000000000e+00
     1010000000   -4,601692557e-01   -1,131467521e-01    2,197802961e-01   -3,344338834e-01    0,000000000e+00    0,000000000e+00    0,000000000e+00    0,000000000e+00
     1024000000   -4,184028804e-01    1,462615877e-01   -3,146479651e-02   -3,857609928e-01    0,000000000e+00    0,000000000e+00    0,000000000e+00    0,000000000e+00
     1038000000   -2,203996629e-01    2,896484733e-01   -2,424309701e-01   -2,567735016e-01    0,000000000e+00    0,000000000e+00    0,000000000e+00    0,000000000e+00
     1052000000   -1,380497217e-02    2,770474553e-01   -3,102479279e-01   -4,862179607e-02    0,000000000e+00    0,000000000e+00    0,000000000e+00    0,000000000e+00
     1066000000    1,321651340e-01    1,661061645e-01   -2,491402924e-01    1,344381571e-01    0,000000000e+00    0,000000000e+00    0,000000000e+00    0,000000000e+00
     1080000000    1,896740943e-01    7,918893360e-03   -1,171181649e-01    2,568501830e-01    0,000000000e+00    0,000000000e+00    0,000000000e+00    0,000000000e+00
     1094000000    1,586516201e-01   -1,660567075e-01    6,326682866e-02    2,930438519e-01    0,000000000e+00    0,000000000e+00    0,000000000e+00    0,000000000e+00
     1108000000    1,733599231e-02   -2,927797735e-01    2,609956861e-01    2,333106399e-01    0,000000000e+00    0,000000000e+00    0,000000000e+00    0,000000000e+00
     1122000000   -2,104860395e-01   -2,807647884e-01    4,396708906e-01    2,495829202e-02    0,000000000e+00    0,000000000e+00    0,000000000e+00    0,000000000e+00
     1136000000   -3,299570680e-01   -3,043801337e-02    3,971918225e-01   -3,454918265e-01    0,000000000e+00    0,000000000e+00    0,000000000e+00    0,000000000e+00
     1150000000   -1,065840647e-01    1,341827512e-01    4,703961685e-02   -5,300792456e-01    0,000000000e+00    0,000000000e+00    0,000000000e+00    0,000000000e+00
     1164000000    8,643019199e-02   -1,931479760e-02   -2,520552576e-01   -4,063954055e-01    0,000000000e+00    0,000000000e+00    0,000000000e+00    0,000000000e+00
     1178000000    2,394568920e-02   -2,533088624e-01   -3,730641603e-01   -1,791563481e-01    0,000000000e+00    0,000000000e+00    0,000000000e+00    0,000000000e+00
     1192000000   -2,226213664e-01   -3,487179875e-01   -3,415140212e-01    3,933638707e-02    0,000000000e+00    0,000000000e+00    0,000000000e+00    0,000000000e+00
     1206000000   -4,793972671e-01   -1,850828379e-01   -1,912442595e-01    1,814151406e-01    0,000000000e+00    0,000000000e+00    0,000000000e+00    0,000000000e+00
     1220000000   -5,081831217e-01    1,383547783e-01   -9,852652438e-03    1,770968884e-01    0,000000000e+00    0,000000000e+00    0,000000000e+00    0,000000000e+00
     1234000000   -2,999939919e-01    3,416453898e-01    7,200252265e-02    7,497908175e-02    0,000000000e+00    0,000000000e+00    0,000000000e+00    0,000000000e+00
     1248000000   -6,264724582e-02    3,627114296e-01    7,054284960e-02    2,801051363e-03    0,000000000e+00    0,000000000e+00    0,000000000e+00    0,000000000e+00
     1262000000    1,118009686e-01    2,582117915e-01    2,885100059e-02   -2,575155534e-02    0,000000000e+00    0,000000000e+00    0,000000000e+00    0,000000000e+00
     1276000000    2,027683407e-01    1,077857018e-01    8,811134845e-03   -6,566300988e-03    0,000000000e+00    0,000000000e+00    0,000000000e+00    0,000000000e+00
     1290000000    2,212024480e-01   -6,929291785e-02    1,239180099e-02    2,062594704e-02    0,000000000e+00    0,000000000e+00    0,000000000e+00    0,000000000e+00
     1304000000    1,645049602e-01   -2,335421294e-01    5,775149167e-02    5,984769762e-02    0,000000000e+00    0,000000000e+00    0,000000000e+00    0,000000000e+00
     1318000000    2,461267076e-02   -3,652940094e-01    1,714364886e-01    1,610044017e-02    0,000000000e+00    0,000000000e+00    0,000000000e+00    0,000000000e+00
     1332000000   -1,489648074e-01   -4,018538892e-01    9,905984253e-02   -1,932971776e-01    0,000000000e+00    0,000000000e+00    0,000000000e+00    0,000000000e+00
     1346000000   -3,671214879e-01   -3,870119154e-01   -5,986009166e-02   -1,928375475e-02    0,000000000e+00    0,000000000e+00    0,000000000e+00    0,000000000e+00
     1360000000   -5,887731314e-01   -2,001703233e-01    6,304371357e-02    1,000340581e-01    0,000000000e+00    0,000000000e+00    0,000000000e+00    0,000000000e+00
     1374000000   -6,331406832e-01    1,040716469e-01    1,655884832e-01    4,823448136e-02    0,000000000e+00    0,000000000e+00    0,000000000e+00    0,000000000e+00
     1388000000   -4,677701890e-01    3,582253158e-01    2,202220857e-01   -2,083762735e-02    0,000000000e+00    0,000000000e+00    0,000000000e+00    0,000000000e+00
     1402000000   -2,372494936e-01    4,422113597e-01    2,133873254e-01   -8,204127103e-02    0,000000000e+00    0,000000000e+00    0,000000000e+00    0,000000000e+00
     1416000000   -4,258266091e-02    4,152559936e-01    1,887782216e-01   -1,060442328e-01    0,000000000e+00    0,000000000e+00    0,000000000e+00    0,000000000e+00
     1430000000    1,078607365e-01    3,033833206e-01    1,685288846e-01   -1,083022207e-01    0,000000000e+00    0,000000000e+00    0,000000000e+00    0,000000000e+00
     1444000000    1,952074915e-01    1,572283655e-01    1,585600376e-01   -1,140996367e-01    0,000000000e+00    0,000000000e+00    0,000000000e+00    0,000000000e+00
     1458000000    2,306870073e-01   -1,531034708e-02    1,417485625e-01   -9,539125115e-02    0,000000000e+00    0,000000000e+00    0,000000000e+00    0,000000000e+00
     1472000000    1,937317550e-01   -1,928583682e-01    1,494118869e-01   -4,530827701e-02    0,000000000e+00    0,000000000e+00    0,000000000e+00    0,000000000e+00
     1486000000    6,132902578e-02   -3,673263490e-01    1,486947834e-01    7,729015313e-03    0,000000000e+00    0,000000000e+00    0,000000000e+00    0,000000000e+00
     1500000000   -1,529828161e-01   -4,901363254e-01    2,405924648e-01    6,751674414e-02    0,000000000e+00    0,000000000e+00    0,000000000e+00    0,000000000e+00
