! NanoVNA-App
! Date: 2025-09-25 15:42:08
! Start: 100MHz Stop: 1,5GHz Points: 101
! S-Parameter data: F S11 S21 S12 S22
# Hz S RI R 50
!     Frequency           S11_Real           S11_Imag           S21_Real           S21_Imag           S12_Real           S12_Imag           S22_Real           S22_Imag
      100000000   -2,874614112e-02   -4,236690700e-03    3,740166724e-01   -7,215719819e-01    0,000000000e+00    0,000000000e+00    0,000000000e+00    0,000000000e+00
      114000000   -1,653463207e-02    1,148605254e-02   -8,910269290e-02   -8,051273823e-01    0,000000000e+00    0,000000000e+00    0,000000000e+00    0,000000000e+00
      128000000    3,359887516e-03    1,067166217e-02   -5,142642260e-01   -6,201343536e-01    0,000000000e+00    0,000000000e+00    0,000000000e+00    0,000000000e+00
      142000000    1,466122735e-02   -2,645625966e-03   -7,666229606e-01   -2,363660187e-01    0,000000000e+00    0,000000000e+00    0,000000000e+00    0,000000000e+00
      156000000    1,514656749e-02   -1,471503545e-02   -7,666015029e-01    2,183662951e-01    0,000000000e+00    0,000000000e+00    0,000000000e+00    0,000000000e+00
      170000000    1,714622788e-02   -2,246988192e-02   -5,178435445e-01    6,045312881e-01    0,000000000e+00    0,000000000e+00    0,000000000e+00    0,000000000e+00
      184000000    2,135538682e-02   -3,716697544e-02   -1,015446484e-01    7,857431769e-01    0,000000000e+00    0,000000000e+00    0,000000000e+00    0,000000000e+00
      198000000    1,325311791e-02   -6,250657886e-02    3,430483043e-01    7,119361162e-01    0,000000000e+00    0,000000000e+00    0,000000000e+00    0,000000000e+00
      212000000   -1,840659231e-02   -8,126702160e-02    6,777176261e-01    4,097318649e-01    0,000000000e+00    0,000000000e+00    0,000000000e+00    0,000000000e+00
      226000000   -6,132616103e-02   -6,921940297e-02    7,953750491e-01   -3,050840646e-02    0,000000000e+00    0,000000000e+00    0,000000000e+00    0,000000000e+00
      240000000   -8,221362531e-02   -2,580027841e-02    6,457951069e-01   -4,665934145e-01    0,000000000e+00    0,000000000e+00    0,000000000e+00    0,000000000e+00
      254000000   -6,339596212e-02    1,697816886e-02    2,760040164e-01   -7,432445288e-01    0,000000000e+00    0,000000000e+00    0,000000000e+00    0,000000000e+00
      268000000   -2,393088304e-02    2,869411185e-02   -1,780161113e-01   -7,638652921e-01    0,000000000e+00    0,000000000e+00    0,000000000e+00    0,000000000e+00
      282000000    4,061931279e-03    1,200122666e-02   -5,618011951e-01   -5,360276699e-01    0,000000000e+00    0,000000000e+00    0,000000000e+00    0,000000000e+00
      296000000    9,934024885e-03   -7,601856720e-03   -7,595748901e-01   -1,394504309e-01    0,000000000e+00    0,000000000e+00    0,000000000e+00    0,000000000e+00
      310000000    1,162600238e-02   -1,605295390e-02   -7,114673853e-01    2,986827195e-01    0,000000000e+00    0,000000000e+00    0,000000000e+00    0,000000000e+00
      324000000    2,019770630e-02   -2,649215609e-02   -4,265586436e-01    6,376407146e-01    0,000000000e+00    0,000000000e+00    0,000000000e+00    0,000000000e+00
      338000000    2,564128116e-02   -5,198165029e-02   -8,637782186e-03    7,589452863e-01    0,000000000e+00    0,000000000e+00    0,000000000e+00    0,000000000e+00
      352000000    7,414349820e-03   -8,454666287e-02    4,055596292e-01    6,389733553e-01    0,000000000e+00    0,000000000e+00    0,000000000e+00    0,000000000e+00
      366000000   -3,411692008e-02   -9,536623955e-02    6,898016334e-01    3,109782636e-01    0,000000000e+00    0,000000000e+00    0,000000000e+00    0,000000000e+00
      380000000   -7,040943950e-02   -7,130768150e-02    7,469080091e-01   -1,256443560e-01    0,000000000e+00    0,000000000e+00    0,000000000e+00    0,000000000e+00
      394000000   -7,230724394e-02   -3,258571774e-02    5,450469255e-01   -5,213084817e-01    0,000000000e+00    0,000000000e+00    0,000000000e+00    0,000000000e+00
      408000000   -4,629520327e-02   -1,665627211e-02    1,605499685e-01   -7,320722938e-01    0,000000000e+00    0,000000000e+00    0,000000000e+00    0,000000000e+00
      422000000   -2,821345814e-02   -3,226559982e-02   -2,666410208e-01   -6,957272887e-01    0,000000000e+00    0,000000000e+00    0,000000000e+00    0,000000000e+00
      436000000   -4,056640714e-02   -5,176904798e-02   -6,038997769e-01   -4,315678179e-01    0,000000000e+00    0,000000000e+00    0,000000000e+00    0,000000000e+00
      450000000   -6,684409827e-02   -4,379240423e-02   -7,394491434e-01   -2,196555026e-02    0,000000000e+00    0,000000000e+00    0,000000000e+00    0,000000000e+00
      464000000   -7,303747535e-02   -1,214943640e-02   -6,187589765e-01    3,958246112e-01    0,000000000e+00    0,000000000e+00    0,000000000e+00    0,000000000e+00
      478000000   -4,765256122e-02    1,132437214e-02   -2,829191685e-01    6,674589515e-01    0,000000000e+00    0,000000000e+00    0,000000000e+00    0,000000000e+00
      492000000   -1,595060714e-02    5,879411474e-03    1,375449300e-01    7,005473971e-01    0,000000000e+00    0,000000000e+00    0,000000000e+00    0,000000000e+00
      506000000   -2,477630042e-03   -1,567259431e-02    4,972356558e-01    5,022330284e-01    0,000000000e+00    0,000000000e+00    0,000000000e+00    0,000000000e+00
      520000000   -5,036562681e-03   -3,111136705e-02    6,864031553e-01    1,422913224e-01    0,000000000e+00    0,000000000e+00    0,000000000e+00    0,000000000e+00
      534000000   -3,465478076e-03   -3,828094527e-02    6,432305574e-01   -2,615256011e-01    0,000000000e+00    0,000000000e+00    0,000000000e+00    0,000000000e+00
      548000000    6,731074769e-03   -5,409181863e-02    3,813807964e-01   -5,665036440e-01    0,000000000e+00    0,000000000e+00    0,000000000e+00    0,000000000e+00
      562000000    3,016365692e-03   -8,969871700e-02    3,584943479e-03   -6,714743376e-01    0,000000000e+00    0,000000000e+00    0,000000000e+00    0,000000000e+00
      576000000   -3,425703943e-02   -1,239333078e-01   -3,680150509e-01   -5,573498011e-01    0,000000000e+00    0,000000000e+00    0,000000000e+00    0,000000000e+00
      590000000   -9,597987682e-02   -1,226848513e-01   -6,200048327e-01   -2,656948268e-01    0,000000000e+00    0,000000000e+00    0,000000000e+00    0,000000000e+00
      604000000   -1,388720274e-01   -7,200852036e-02   -6,642227769e-01    1,371639073e-01    0,000000000e+00    0,000000000e+00    0,000000000e+00    0,000000000e+00
      618000000   -1,289895177e-01   -1,038391609e-02   -4,647696018e-01    4,930665195e-01    0,000000000e+00    0,000000000e+00    0,000000000e+00    0,000000000e+00
      632000000   -8,493065834e-02    1,639765501e-02   -1,003752500e-01    6,619774699e-01    0,000000000e+00    0,000000000e+00    0,000000000e+00    0,000000000e+00
      646000000   -5,252874270e-02    2,075866942e-04    2,848215997e-01    5,943511128e-01    0,000000000e+00    0,000000000e+00    0,000000000e+00    0,000000000e+00
      660000000   -5,313246697e-02   -2,053127624e-02    5,645977855e-01    3,235941231e-01    0,000000000e+00    0,000000000e+00    0,000000000e+00    0,000000000e+00
      674000000   -6,939724833e-02   -1,609445550e-02    6,406236291e-01   -6,295351684e-02    0,000000000e+00    0,000000000e+00    0,000000000e+00    0,000000000e+00
      688000000   -6,696834415e-02    8,715876378e-03    4,708951116e-01   -4,238804281e-01    0,000000000e+00    0,000000000e+00    0,000000000e+00    0,000000000e+00
      702000000   -3,516347334e-02    2,570204623e-02    1,165244207e-01   -6,046105623e-01    0,000000000e+00    0,000000000e+00    0,000000000e+00    0,000000000e+00
      716000000    4,236388020e-03    1,587608829e-02   -2,600806952e-01   -5,446797013e-01    0,000000000e+00    0,000000000e+00    0,000000000e+00    0,000000000e+00
      730000000    3,739909828e-02   -1,336966362e-02   -5,220092535e-01   -2,716708481e-01    0,000000000e+00    0,000000000e+00    0,000000000e+00    0,000000000e+00
      744000000    6,245045364e-02   -6,463313848e-02   -5,602017045e-01    9,888094664e-02    0,000000000e+00    0,000000000e+00    0,000000000e+00    0,000000000e+00
      758000000    6,104597822e-02   -1,513454318e-01   -3,662915528e-01    3,999944031e-01    0,000000000e+00    0,000000000e+00    0,000000000e+00    0,000000000e+00
      772000000   -1,678116992e-02   -2,562907040e-01   -4,623747990e-02    5,093176961e-01    0,000000000e+00    0,000000000e+00    0,000000000e+00    0,000000000e+00
      786000000   -2,027973384e-01   -2,907486856e-01    2,593154907e-01    3,995588720e-01    0,000000000e+00    0,000000000e+00    0,000000000e+00    0,000000000e+00
      800000000   -4,071702659e-01   -1,275654733e-01    4,068287015e-01    1,189244688e-01    0,000000000e+00    0,000000000e+00    0,000000000e+00    0,000000000e+00
      814000000   -3,771688938e-01    2,019510269e-01    2,964721322e-01   -1,504637003e-01    0,000000000e+00    0,000000000e+00    0,000000000e+00    0,000000000e+00
      828000000   -6,161256880e-02    3,483465016e-01    8,243907988e-02   -1,902458370e-01    0,000000000e+00    0,000000000e+00    0,000000000e+00    0,000000000e+00
      842000000    2,118155211e-01    1,853609532e-01   -3,536689328e-03   -9,336069971e-02    0,000000000e+00    0,000000000e+00    0,000000000e+00    0,000000000e+00
      856000000    2,663353682e-01   -1,059944406e-01    3,635589033e-02   -3,716278076e-02    0,000000000e+00    0,000000000e+00    0,000000000e+00    0,000000000e+00
      870000000    8,181288838e-02   -3,516586721e-01    8,949381113e-02   -9,778236598e-02    0,000000000e+00    0,000000000e+00    0,000000000e+00    0,000000000e+00
      884000000   -2,679419518e-01   -3,556133211e-01    1,163666137e-02   -2,279277742e-01    0,000000000e+00    0,000000000e+00    0,000000000e+00    0,000000000e+00
      898000000   -4,569274485e-01   -1,383483596e-02   -2,150328308e-01   -2,104939818e-01    0,000000000e+00    0,000000000e+00    0,000000000e+00    0,000000000e+00
      912000000   -2,351275980e-01    2,776958346e-01   -3,438187540e-01    7,544999570e-02    0,000000000e+00    0,000000000e+00    0,000000000e+00    0,000000000e+00
      926000000    5,646506697e-02    2,623931468e-01   -2,068056613e-01    2,624762356e-01    0,000000000e+00    0,000000000e+00    0,000000000e+00    0,000000000e+00
      940000000    2,090292722e-01    8,259258419e-02   -3,269874305e-02    3,246216476e-01    0,000000000e+00    0,000000000e+00    0,000000000e+00    0,000000000e+00
      954000000    2,203401923e-01   -1,195548326e-01    1,313192397e-01    3,027001917e-01    0,000000000e+00    0,000000000e+00    0,000000000e+00    0,000000000e+00
      968000000    1,182797253e-01   -2,971273959e-01    2,683517635e-01    2,148180902e-01    0,000000000e+00    0,000000000e+00    0,000000000e+00    0,000000000e+00
      982000000   -7,972060144e-02   -3,855359256e-01    3,613022864e-01    6,402039528e-02    0,000000000e+00    0,000000000e+00    0,000000000e+00    0,000000000e+00
      996000000   -3,111822605e-01   -3,335790932e-01    3,651403487e-01   -1,425330043e-01    0,000000000e+00    0,000000000e+00    0,000000000e+00    0,000000000e+00
     1010000000   -4,621476829e-01   -1,141712591e-01    2,208244056e-01   -3,366684318e-01    0,000000000e+00    0,000000000e+00    0,000000000e+00    0,000000000e+00
     1024000000   -4,194641113e-01    1,439178288e-01   -3,237416968e-02   -3,888807595e-01    0,000000000e+00    0,000000000e+00    0,000000000e+00    0,000000000e+00
     1038000000   -2,205706984e-01    2,920168638e-01   -2,412332743e-01   -2,559070289e-01    0,000000000e+00    0,000000000e+00    0,000000000e+00    0,000000000e+00
     1052000000   -1,533545740e-02    2,780975997e-01   -3,108725846e-01   -4,718549177e-02    0,000000000e+00    0,000000000e+00    0,000000000e+00    0,000000000e+00
     1066000000    1,331628412e-01    1,664432287e-01   -2,520301640e-01    1,384925693e-01    0,000000000e+00    0,000000000e+00    0,000000000e+00    0,000000000e+00
     1080000000    1,954921037e-01    9,731031954e-03   -1,158631593e-01    2,537384033e-01    0,000000000e+00    0,000000000e+00    0,000000000e+00    0,000000000e+00
     1094000000    1,624578983e-01   -1,614319086e-01    6,186197698e-02    2,919281423e-01    0,000000000e+00    0,000000000e+00    0,000000000e+00    0,000000000e+00
     1108000000    1,972975582e-02   -2,999746203e-01    2,604973912e-01    2,336840332e-01    0,000000000e+00    0,000000000e+00    0,000000000e+00    0,000000000e+00
     1122000000   -2,176632434e-01   -2,820307612e-01    4,385241270e-01    2,055283450e-02    0,000000000e+00    0,000000000e+00    0,000000000e+00    0,000000000e+00
     1136000000   -3,310174644e-01   -3,054413572e-02    4,006008804e-01   -3,446834683e-01    0,000000000e+00    0,000000000e+00    0,000000000e+00    0,000000000e+00
     1150000000   -1,079269126e-01    1,417063624e-01    4,744148627e-02   -5,292077065e-01    0,000000000e+00    0,000000000e+00    0,000000000e+00    0,000000000e+00
     1164000000    8,211198449e-02   -1,379102562e-02   -2,540360689e-01   -4,033148587e-01    0,000000000e+00    0,000000000e+00    0,000000000e+00    0,000000000e+00
     1178000000    2,687505446e-02   -2,516455948e-01   -3,698642254e-01   -1,800011098e-01    0,000000000e+00    0,000000000e+00    0,000000000e+00    0,000000000e+00
     1192000000   -2,226136476e-01   -3,485591412e-01   -3,414640725e-01    3,812945634e-02    0,000000000e+00    0,000000000e+00    0,000000000e+00    0,000000000e+00
     1206000000   -4,820660353e-01   -1,787444204e-01   -1,914091110e-01    1,844235361e-01    0,000000000e+00    0,000000000e+00    0,000000000e+00    0,000000000e+00
     1220000000   -5,003282428e-01    1,381046325e-01   -8,996969089e-03    1,768150330e-01    0,000000000e+00    0,000000000e+00    0,000000000e+00    0,000000000e+00
     1234000000   -2,998012304e-01    3,369909525e-01    7,572159916e-02    7,638407499e-02    0,000000000e+00    0,000000000e+00    0,000000000e+00    0,000000000e+00
     1248000000   -6,194205955e-02    3,626556695e-01    6,410373002e-02    2,770283027e-03    0,000000000e+00    0,000000000e+00    0,000000000e+00    0,000000000e+00
     1262000000    1,059165373e-01    2,632514834e-01    2,667332627e-02   -2,501002885e-02    0,000000000e+00    0,000000000e+00    0,000000000e+00    0,000000000e+00
     1276000000    1,990285367e-01    1,078025773e-01    5,739099812e-03   -7,901728153e-03    0,000000000e+00    0,000000000e+00    0,000000000e+00    0,000000000e+00
     1290000000    2,164433300e-01   -6,136937812e-02    8,525322191e-03    2,522986755e-02    0,000000000e+00    0,000000000e+00    0,000000000e+00    0,000000000e+00
     1304000000    1,665676534e-01   -2,323368490e-01    6,484024227e-02    5,762872845e-02    0,000000000e+00    0,000000000e+00    0,000000000e+00    0,000000000e+00
     1318000000    2,475227974e-02   -3,625701964e-01    1,711386293e-01    1,155762654e-02    0,000000000e+00    0,000000000e+00    0,000000000e+00    0,000000000e+00
     1332000000   -1,480067074e-01   -3,964819908e-01    1,015514582e-01   -1,849020720e-01    0,000000000e+00    0,000000000e+00    0,000000000e+00    0,000000000e+00
     1346000000   -3,622086644e-01   -3,879226446e-01   -5,250110850e-02   -1,824308187e-02    0,000000000e+00    0,000000000e+00    0,000000000e+00    0,000000000e+00
     1360000000   -5,814053416e-01   -1,999813616e-01    6,200138852e-02    8,994934708e-02    0,000000000e+00    0,000000000e+00    0,000000000e+00    0,000000000e+00
     1374000000   -6,352220178e-01    1,118616015e-01    1,759098768e-01    6,059097499e-02    0,000000000e+00    0,000000000e+00    0,000000000e+00    0,000000000e+00
     1388000000   -4,798699617e-01    3,512713313e-01    2,088767290e-01   -3,100976534e-02    0,000000000e+00    0,000000000e+00    0,000000000e+00    0,000000000e+00
     1402000000   -2,449946105e-01    4,407043159e-01    2,164853960e-01   -8,066597581e-02    0,000000000e+00    0,000000000e+00    0,000000000e+00    0,000000000e+00
     1416000000   -4,551570490e-02    4,105636775e-01    1,927144676e-01   -1,080223545e-01    0,000000000e+00    0,000000000e+00    0,000000000e+00    0,000000000e+00
     1430000000    1,055842564e-01    3,062356412e-01    1,670369357e-01   -1,021531150e-01    0,000000000e+00    0,000000000e+00    0,000000000e+00    0,000000000e+00
     1444000000    2,021678835e-01    1,602410227e-01    1,698279679e-01   -1,029584929e-01    0,000000000e+00    0,000000000e+00    0,000000000e+00    0,000000000e+00
     1458000000    2,278507650e-01   -9,111288935e-03    1,505295485e-01   -8,356086165e-02    0,000000000e+00    0,000000000e+00    0,000000000e+00    0,000000000e+00
     1472000000    1,953415573e-01   -1,917207986e-01    1,480378658e-01   -4,707930610e-02    0,000000000e+00    0,000000000e+00    0,000000000e+00    0,000000000e+00
     1486000000    6,090850011e-02   -3,646941483e-01    1,574350148e-01    8,367554285e-03    0,000000000e+00    0,000000000e+00    0,000000000e+00    0,000000000e+00
     1500000000   -1,555408239e-01   -4,874227047e-01    2,383133471e-01    8,464358002e-02    0,000000000e+00    0,000000000e+00    0,000000000e+00    0,000000000e+00
