! NanoVNA-App
! Date: 2025-09-25 15:44:17
! Start: 100MHz Stop: 1,5GHz Points: 101
! S-Parameter data: F S11 S21 S12 S22
# Hz S RI R 50
!     Frequency           S11_Real           S11_Imag           S21_Real           S21_Imag           S12_Real           S12_Imag           S22_Real           S22_Imag
      100000000   -2,875145897e-02   -4,258926958e-03    3,739843071e-01   -7,215681076e-01    0,000000000e+00    0,000000000e+00    0,000000000e+00    0,000000000e+00
      114000000   -1,652223803e-02    1,148971822e-02   -8,905975521e-02   -8,051451445e-01    0,000000000e+00    0,000000000e+00    0,000000000e+00    0,000000000e+00
      128000000    3,384931711e-03    1,071703434e-02   -5,145735741e-01   -6,203494072e-01    0,000000000e+00    0,000000000e+00    0,000000000e+00    0,000000000e+00
      142000000    1,464299485e-02   -2,652744763e-03   -7,669242620e-01   -2,365226895e-01    0,000000000e+00    0,000000000e+00    0,000000000e+00    0,000000000e+00
      156000000    1,609954983e-02   -1,439012308e-02   -7,718428373e-01    2,233338803e-01    0,000000000e+00    0,000000000e+00    0,000000000e+00    0,000000000e+00
      170000000    1,712057926e-02   -2,248238213e-02   -5,179287791e-01    6,045324206e-01    0,000000000e+00    0,000000000e+00    0,000000000e+00    0,000000000e+00
      184000000    2,134754881e-02   -3,714122623e-02   -1,014502048e-01    7,858455181e-01    0,000000000e+00    0,000000000e+00    0,000000000e+00    0,000000000e+00
      198000000    1,320819184e-02   -6,254396588e-02    3,429977894e-01    7,120608091e-01    0,000000000e+00    0,000000000e+00    0,000000000e+00    0,000000000e+00
      212000000   -1,845269278e-02   -8,126374334e-02    6,778088212e-01    4,098010361e-01    0,000000000e+00    0,000000000e+00    0,000000000e+00    0,000000000e+00
      226000000   -6,137876585e-02   -6,928618252e-02    7,953841090e-01   -3,043067083e-02    0,000000000e+00    0,000000000e+00    0,000000000e+00    0,000000000e+00
      240000000   -8,229462057e-02   -2,579195052e-02    6,459666491e-01   -4,669807255e-01    0,000000000e+00    0,000000000e+00    0,000000000e+00    0,000000000e+00
      254000000   -6,343655288e-02    1,697364636e-02    2,761245370e-01   -7,428050041e-01    0,000000000e+00    0,000000000e+00    0,000000000e+00    0,000000000e+00
      268000000   -2,390472591e-02    2,877477370e-02   -1,780645102e-01   -7,640355825e-01    0,000000000e+00    0,000000000e+00    0,000000000e+00    0,000000000e+00
      282000000    4,048881587e-03    1,205690578e-02   -5,614515543e-01   -5,353782773e-01    0,000000000e+00    0,000000000e+00    0,000000000e+00    0,000000000e+00
      296000000    9,790630080e-03   -7,562881801e-03   -7,595838904e-01   -1,394845098e-01    0,000000000e+00    0,000000000e+00    0,000000000e+00    0,000000000e+00
      310000000    1,135547552e-02   -1,599259488e-02   -7,130917907e-01    2,984963357e-01    0,000000000e+00    0,000000000e+00    0,000000000e+00    0,000000000e+00
      324000000    1,998619363e-02   -2,679641917e-02   -4,277856052e-01    6,373952031e-01    0,000000000e+00    0,000000000e+00    0,000000000e+00    0,000000000e+00
      338000000    2,549838088e-02   -5,220050737e-02   -1,042826660e-02    7,624785304e-01    0,000000000e+00    0,000000000e+00    0,000000000e+00    0,000000000e+00
      352000000    7,508538663e-03   -8,446753025e-02    4,065517783e-01    6,396018267e-01    0,000000000e+00    0,000000000e+00    0,000000000e+00    0,000000000e+00
      366000000   -3,443451598e-02   -9,543541819e-02    6,901539564e-01    3,112736940e-01    0,000000000e+00    0,000000000e+00    0,000000000e+00    0,000000000e+00
      380000000   -7,049746811e-02   -7,120878249e-02    7,473964095e-01   -1,255607605e-01    0,000000000e+00    0,000000000e+00    0,000000000e+00    0,000000000e+00
      394000000   -7,225041837e-02   -3,266813233e-02    5,465996861e-01   -5,209441781e-01    0,000000000e+00    0,000000000e+00    0,000000000e+00    0,000000000e+00
      408000000   -4,635759443e-02   -1,652448997e-02    1,607605368e-01   -7,331801057e-01    0,000000000e+00    0,000000000e+00    0,000000000e+00    0,000000000e+00
      422000000   -2,854250371e-02   -3,187570348e-02   -2,679839432e-01   -6,938980222e-01    0,000000000e+00    0,000000000e+00    0,000000000e+00    0,000000000e+00
      436000000   -4,049414024e-02   -5,187278241e-02   -6,034071445e-01   -4,313980043e-01    0,000000000e+00    0,000000000e+00    0,000000000e+00    0,000000000e+00
      450000000   -6,721835583e-02   -4,406164587e-02   -7,394776344e-01   -2,146395110e-02    0,000000000e+00    0,000000000e+00    0,000000000e+00    0,000000000e+00
      464000000   -7,329187542e-02   -1,174234226e-02   -6,185234785e-01    3,969348669e-01    0,000000000e+00    0,000000000e+00    0,000000000e+00    0,000000000e+00
      478000000   -4,729973152e-02    1,122153923e-02   -2,829362154e-01    6,677570343e-01    0,000000000e+00    0,000000000e+00    0,000000000e+00    0,000000000e+00
      492000000   -1,593521982e-02    5,926824175e-03    1,371156275e-01    7,022296190e-01    0,000000000e+00    0,000000000e+00    0,000000000e+00    0,000000000e+00
      506000000   -2,314966870e-03   -1,599918492e-02    4,972772598e-01    5,023485422e-01    0,000000000e+00    0,000000000e+00    0,000000000e+00    0,000000000e+00
      520000000   -4,885935690e-03   -3,145998716e-02    6,870336533e-01    1,418426037e-01    0,000000000e+00    0,000000000e+00    0,000000000e+00    0,000000000e+00
      534000000   -3,410411533e-03   -3,776084632e-02    6,429895163e-01   -2,614257634e-01    0,000000000e+00    0,000000000e+00    0,000000000e+00    0,000000000e+00
      548000000    6,344255991e-03   -5,421643332e-02    3,821576536e-01   -5,663697720e-01    0,000000000e+00    0,000000000e+00    0,000000000e+00    0,000000000e+00
      562000000    3,070001490e-03   -8,954548836e-02    2,872853074e-03   -6,716057062e-01    0,000000000e+00    0,000000000e+00    0,000000000e+00    0,000000000e+00
      576000000   -3,397960216e-02   -1,241025925e-01   -3,678107858e-01   -5,566167831e-01    0,000000000e+00    0,000000000e+00    0,000000000e+00    0,000000000e+00
      590000000   -9,574647248e-02   -1,227022782e-01   -6,216155291e-01   -2,642120421e-01    0,000000000e+00    0,000000000e+00    0,000000000e+00    0,000000000e+00
      604000000   -1,390140206e-01   -7,249753922e-02   -6,639376283e-01    1,362825185e-01    0,000000000e+00    0,000000000e+00    0,000000000e+00    0,000000000e+00
      618000000   -1,294488609e-01   -9,506277740e-03   -4,643477499e-01    4,933815300e-01    0,000000000e+00    0,000000000e+00    0,000000000e+00    0,000000000e+00
      632000000   -8,409544826e-02    1,578670740e-02   -9,990400076e-02    6,627331972e-01    0,000000000e+00    0,000000000e+00    0,000000000e+00    0,000000000e+00
      646000000   -5,149142817e-02    7,849663380e-04    2,852080464e-01    5,941469073e-01    0,000000000e+00    0,000000000e+00    0,000000000e+00    0,000000000e+00
      660000000   -5,315270275e-02   -1,998177916e-02    5,647993088e-01    3,239760995e-01    0,000000000e+00    0,000000000e+00    0,000000000e+00    0,000000000e+00
      674000000   -6,937839836e-02   -1,627595164e-02    6,405134797e-01   -6,348403543e-02    0,000000000e+00    0,000000000e+00    0,000000000e+00    0,000000000e+00
      688000000   -6,699719280e-02    9,863764048e-03    4,713021219e-01   -4,235849977e-01    0,000000000e+00    0,000000000e+00    0,000000000e+00    0,000000000e+00
      702000000   -3,678940609e-02    2,667220123e-02    1,247646064e-01   -6,112621427e-01    0,000000000e+00    0,000000000e+00    0,000000000e+00    0,000000000e+00
      716000000    2,884674119e-03    1,569991186e-02   -2,599495053e-01   -5,456626415e-01    0,000000000e+00    0,000000000e+00    0,000000000e+00    0,000000000e+00
      730000000    3,687604517e-02   -1,469404437e-02   -5,225156546e-01   -2,716803551e-01    0,000000000e+00    0,000000000e+00    0,000000000e+00    0,000000000e+00
      744000000    6,203223020e-02   -6,461417675e-02   -5,603274703e-01    9,882897884e-02    0,000000000e+00    0,000000000e+00    0,000000000e+00    0,000000000e+00
      758000000    6,162097678e-02   -1,515218168e-01   -3,674430847e-01    3,998431563e-01    0,000000000e+00    0,000000000e+00    0,000000000e+00    0,000000000e+00
      772000000   -1,689981297e-02   -2,553099096e-01   -4,597180709e-02    5,088612437e-01    0,000000000e+00    0,000000000e+00    0,000000000e+00    0,000000000e+00
      786000000   -2,023086548e-01   -2,907271087e-01    2,594269216e-01    3,985155821e-01    0,000000000e+00    0,000000000e+00    0,000000000e+00    0,000000000e+00
      800000000   -4,067840874e-01   -1,270543635e-01    4,077463150e-01    1,188850626e-01    0,000000000e+00    0,000000000e+00    0,000000000e+00    0,000000000e+00
      814000000   -3,768023252e-01    2,020754218e-01    2,970162034e-01   -1,515698135e-01    0,000000000e+00    0,000000000e+00    0,000000000e+00    0,000000000e+00
      828000000   -6,325408816e-02    3,482423425e-01    8,266381919e-02   -1,906855702e-01    0,000000000e+00    0,000000000e+00    0,000000000e+00    0,000000000e+00
      842000000    2,110489309e-01    1,857047379e-01   -4,085966386e-03   -9,339240193e-02    0,000000000e+00    0,000000000e+00    0,000000000e+00    0,000000000e+00
      856000000    2,659781277e-01   -1,052626371e-01    3,527621925e-02   -3,699487820e-02    0,000000000e+00    0,000000000e+00    0,000000000e+00    0,000000000e+00
      870000000    8,286799490e-02   -3,505867422e-01    8,867458999e-02   -9,731939435e-02    0,000000000e+00    0,000000000e+00    0,000000000e+00    0,000000000e+00
      884000000   -2,673930228e-01   -3,556281924e-01    1,133737341e-02   -2,268065065e-01    0,000000000e+00    0,000000000e+00    0,000000000e+00    0,000000000e+00
      898000000   -4,577374160e-01   -1,483562309e-02   -2,145634741e-01   -2,106174678e-01    0,000000000e+00    0,000000000e+00    0,000000000e+00    0,000000000e+00
      912000000   -2,354249954e-01    2,785632908e-01   -3,392217755e-01    7,828904688e-02    0,000000000e+00    0,000000000e+00    0,000000000e+00    0,000000000e+00
      926000000    5,343143269e-02    2,604222894e-01   -2,107729167e-01    2,610449791e-01    0,000000000e+00    0,000000000e+00    0,000000000e+00    0,000000000e+00
      940000000    2,100611925e-01    8,317638189e-02   -3,076375462e-02    3,253021240e-01    0,000000000e+00    0,000000000e+00    0,000000000e+00    0,000000000e+00
      954000000    2,222146392e-01   -1,211176887e-01    1,321135610e-01    2,999025583e-01    0,000000000e+00    0,000000000e+00    0,000000000e+00    0,000000000e+00
      968000000    1,188150793e-01   -2,924827337e-01    2,679658234e-01    2,142237574e-01    0,000000000e+00    0,000000000e+00    0,000000000e+00    0,000000000e+00
      982000000   -7,570686191e-02   -3,859170079e-01    3,607633412e-01    6,301217526e-02    0,000000000e+00    0,000000000e+00    0,000000000e+00    0,000000000e+00
      996000000   -3,075699210e-01   -3,290151060e-01    3,624264896e-01   -1,424595863e-01    0,000000000e+00    0,000000000e+00    0,000000000e+00    0,000000000e+00
     1010000000   -4,632634819e-01   -1,150748730e-01    2,186102718e-01   -3,364619017e-01    0,000000000e+00    0,000000000e+00    0,000000000e+00    0,000000000e+00
     1024000000   -4,191751480e-01    1,420519352e-01   -3,075868264e-02   -3,834926784e-01    0,000000000e+00    0,000000000e+00    0,000000000e+00    0,000000000e+00
     1038000000   -2,215018272e-01    2,920806408e-01   -2,435905635e-01   -2,559305727e-01    0,000000000e+00    0,000000000e+00    0,000000000e+00    0,000000000e+00
     1052000000   -1,491774339e-02    2,831385136e-01   -3,109773397e-01   -4,683235660e-02    0,000000000e+00    0,000000000e+00    0,000000000e+00    0,000000000e+00
     1066000000    1,338802576e-01    1,701212674e-01   -2,519003153e-01    1,387360692e-01    0,000000000e+00    0,000000000e+00    0,000000000e+00    0,000000000e+00
     1080000000    1,944127828e-01    4,662937950e-03   -1,187515408e-01    2,552154362e-01    0,000000000e+00    0,000000000e+00    0,000000000e+00    0,000000000e+00
     1094000000    1,573612839e-01   -1,625442356e-01    6,047223508e-02    2,925068438e-01    0,000000000e+00    0,000000000e+00    0,000000000e+00    0,000000000e+00
     1108000000    1,524168719e-02   -2,961737216e-01    2,613299489e-01    2,342557460e-01    0,000000000e+00    0,000000000e+00    0,000000000e+00    0,000000000e+00
     1122000000   -2,125639021e-01   -2,875800431e-01    4,406768382e-01    2,387580462e-02    0,000000000e+00    0,000000000e+00    0,000000000e+00    0,000000000e+00
     1136000000   -3,228290081e-01   -3,108766861e-02    3,984762430e-01   -3,451812863e-01    0,000000000e+00    0,000000000e+00    0,000000000e+00    0,000000000e+00
     1150000000   -1,015510634e-01    1,396759450e-01    4,829302430e-02   -5,280167460e-01    0,000000000e+00    0,000000000e+00    0,000000000e+00    0,000000000e+00
     1164000000    8,417928219e-02   -1,371136587e-02   -2,539299726e-01   -4,048974216e-01    0,000000000e+00    0,000000000e+00    0,000000000e+00    0,000000000e+00
     1178000000    3,159596771e-02   -2,535877526e-01   -3,729692400e-01   -1,805036217e-01    0,000000000e+00    0,000000000e+00    0,000000000e+00    0,000000000e+00
     1192000000   -2,228221148e-01   -3,484887481e-01   -3,448344767e-01    3,687887639e-02    0,000000000e+00    0,000000000e+00    0,000000000e+00    0,000000000e+00
     1206000000   -4,789912999e-01   -1,869458258e-01   -1,865438521e-01    1,805875897e-01    0,000000000e+00    0,000000000e+00    0,000000000e+00    0,000000000e+00
     1220000000   -4,986833930e-01    1,369931102e-01   -1,066425536e-02    1,724818498e-01    0,000000000e+00    0,000000000e+00    0,000000000e+00    0,000000000e+00
     1234000000   -3,061424196e-01    3,410580456e-01    7,141330093e-02    8,013333380e-02    0,000000000e+00    0,000000000e+00    0,000000000e+00    0,000000000e+00
     1248000000   -6,065218523e-02    3,644636869e-01    6,534647942e-02    5,006347783e-03    0,000000000e+00    0,000000000e+00    0,000000000e+00    0,000000000e+00
     1262000000    1,143105403e-01    2,579653561e-01    3,130140156e-02   -2,384985797e-02    0,000000000e+00    0,000000000e+00    0,000000000e+00    0,000000000e+00
     1276000000    1,990083158e-01    1,069873348e-01    7,990572602e-03   -1,331710536e-02    0,000000000e+00    0,000000000e+00    0,000000000e+00    0,000000000e+00
     1290000000    2,215094864e-01   -6,064019725e-02    9,817702696e-03    2,696429938e-02    0,000000000e+00    0,000000000e+00    0,000000000e+00    0,000000000e+00
     1304000000    1,649934053e-01   -2,337651700e-01    6,270070374e-02    5,581815541e-02    0,000000000e+00    0,000000000e+00    0,000000000e+00    0,000000000e+00
     1318000000    2,731383033e-02   -3,610133529e-01    1,736523062e-01    2,074698731e-02    0,000000000e+00    0,000000000e+00    0,000000000e+00    0,000000000e+00
     1332000000   -1,549542993e-01   -3,957413137e-01    9,656789899e-02   -1,761362255e-01    0,000000000e+00    0,000000000e+00    0,000000000e+00    0,000000000e+00
     1346000000   -3,632225692e-01   -3,957853019e-01   -6,418888271e-02   -2,302342467e-02    0,000000000e+00    0,000000000e+00    0,000000000e+00    0,000000000e+00
     1360000000   -5,877591968e-01   -2,094100565e-01    5,961962417e-02    8,648636192e-02    0,000000000e+00    0,000000000e+00    0,000000000e+00    0,000000000e+00
     1374000000   -6,223282814e-01    1,015533358e-01    1,823909581e-01    4,979968444e-02    0,000000000e+00    0,000000000e+00    0,000000000e+00    0,000000000e+00
     1388000000   -4,804976285e-01    3,479518294e-01    2,072597742e-01   -2,609645762e-02    0,000000000e+00    0,000000000e+00    0,000000000e+00    0,000000000e+00
     1402000000   -2,457105666e-01    4,426662624e-01    2,063784450e-01   -8,468434215e-02    0,000000000e+00    0,000000000e+00    0,000000000e+00    0,000000000e+00
     1416000000   -4,007572681e-02    4,159942865e-01    1,833253354e-01   -1,015307009e-01    0,000000000e+00    0,000000000e+00    0,000000000e+00    0,000000000e+00
     1430000000    1,149073392e-01    2,977647483e-01    1,706032306e-01   -1,364435405e-01    0,000000000e+00    0,000000000e+00    0,000000000e+00    0,000000000e+00
     1444000000    1,981870234e-01    1,554051489e-01    1,681693047e-01   -1,107942462e-01    0,000000000e+00    0,000000000e+00    0,000000000e+00    0,000000000e+00
     1458000000    2,307906598e-01   -1,116198953e-02    1,478817463e-01   -8,203013986e-02    0,000000000e+00    0,000000000e+00    0,000000000e+00    0,000000000e+00
     1472000000    1,912134290e-01   -1,936402619e-01    1,519962549e-01   -4,504400864e-02    0,000000000e+00    0,000000000e+00    0,000000000e+00    0,000000000e+00
     1486000000    6,407013535e-02   -3,601202965e-01    1,582663655e-01    2,445740253e-02    0,000000000e+00    0,000000000e+00    0,000000000e+00    0,000000000e+00
     1500000000   -1,580690742e-01   -4,848541021e-01    2,253217548e-01    9,652831405e-02    0,000000000e+00    0,000000000e+00    0,000000000e+00    0,000000000e+00
