! NanoVNA-App
! Date: 2025-09-25 15:43:01
! Start: 100MHz Stop: 1,5GHz Points: 101
! S-Parameter data: F S11 S21 S12 S22
# Hz S RI R 50
!     Frequency           S11_Real           S11_Imag           S21_Real           S21_Imag           S12_Real           S12_Imag           S22_Real           S22_Imag
      100000000   -2,877616137e-02   -4,250148777e-03    3,739807606e-01   -7,216463685e-01    0,000000000e+00    0,000000000e+00    0,000000000e+00    0,000000000e+00
      114000000   -1,656504348e-02    1,149315853e-02   -8,912247419e-02   -8,052548766e-01    0,000000000e+00    0,000000000e+00    0,000000000e+00    0,000000000e+00
      128000000    3,424882423e-03    1,070519350e-02   -5,143158436e-01   -6,201958060e-01    0,000000000e+00    0,000000000e+00    0,000000000e+00    0,000000000e+00
      142000000    1,462638658e-02   -2,654170617e-03   -7,669039369e-01   -2,365543693e-01    0,000000000e+00    0,000000000e+00    0,000000000e+00    0,000000000e+00
      156000000    1,471766457e-02   -1,464211382e-02   -7,643703222e-01    2,180374265e-01    0,000000000e+00    0,000000000e+00    0,000000000e+00    0,000000000e+00
      170000000    1,711836830e-02   -2,246481553e-02   -5,178817511e-01    6,045662761e-01    0,000000000e+00    0,000000000e+00    0,000000000e+00    0,000000000e+00
      184000000    2,128304727e-02   -3,718235716e-02   -1,014997885e-01    7,856031656e-01    0,000000000e+00    0,000000000e+00    0,000000000e+00    0,000000000e+00
      198000000    1,322591119e-02   -6,251095980e-02    3,430432677e-01    7,121837735e-01    0,000000000e+00    0,000000000e+00    0,000000000e+00    0,000000000e+00
      212000000   -1,843515784e-02   -8,128716052e-02    6,778057814e-01    4,099659026e-01    0,000000000e+00    0,000000000e+00    0,000000000e+00    0,000000000e+00
      226000000   -6,141559407e-02   -6,919460744e-02    7,954732776e-01   -3,049678169e-02    0,000000000e+00    0,000000000e+00    0,000000000e+00    0,000000000e+00
      240000000   -8,231253177e-02   -2,580958419e-02    6,458554864e-01   -4,667993188e-01    0,000000000e+00    0,000000000e+00    0,000000000e+00    0,000000000e+00
      254000000   -6,344144046e-02    1,694773324e-02    2,762162089e-01   -7,426552176e-01    0,000000000e+00    0,000000000e+00    0,000000000e+00    0,000000000e+00
      268000000   -2,395764925e-02    2,876447327e-02   -1,777147651e-01   -7,633906603e-01    0,000000000e+00    0,000000000e+00    0,000000000e+00    0,000000000e+00
      282000000    3,996124491e-03    1,209980156e-02   -5,617085695e-01   -5,353943706e-01    0,000000000e+00    0,000000000e+00    0,000000000e+00    0,000000000e+00
      296000000    9,945916012e-03   -7,492343429e-03   -7,593886256e-01   -1,396289021e-01    0,000000000e+00    0,000000000e+00    0,000000000e+00    0,000000000e+00
      310000000    1,148194354e-02   -1,613513753e-02   -7,117748260e-01    2,992178500e-01    0,000000000e+00    0,000000000e+00    0,000000000e+00    0,000000000e+00
      324000000    1,997205429e-02   -2,647734620e-02   -4,275061190e-01    6,377807856e-01    0,000000000e+00    0,000000000e+00    0,000000000e+00    0,000000000e+00
      338000000    2,583552897e-02   -5,217359215e-02   -9,368495084e-03    7,581315041e-01    0,000000000e+00    0,000000000e+00    0,000000000e+00    0,000000000e+00
      352000000    7,543207146e-03   -8,506651968e-02    4,068565667e-01    6,389134526e-01    0,000000000e+00    0,000000000e+00    0,000000000e+00    0,000000000e+00
      366000000   -3,422531113e-02   -9,564134479e-02    6,903280020e-01    3,110331595e-01    0,000000000e+00    0,000000000e+00    0,000000000e+00    0,000000000e+00
      380000000   -7,063731551e-02   -7,132177055e-02    7,470386624e-01   -1,260674298e-01    0,000000000e+00    0,000000000e+00    0,000000000e+00    0,000000000e+00
      394000000   -7,221879065e-02   -3,219932690e-02    5,468192101e-01   -5,213945508e-01    0,000000000e+00    0,000000000e+00    0,000000000e+00    0,000000000e+00
      408000000   -4,606280476e-02   -1,653465070e-02    1,607440114e-01   -7,327056527e-01    0,000000000e+00    0,000000000e+00    0,000000000e+00    0,000000000e+00
      422000000   -2,863564156e-02   -3,224742413e-02   -2,673734426e-01   -6,954131722e-01    0,000000000e+00    0,000000000e+00    0,000000000e+00    0,000000000e+00
      436000000   -4,057884216e-02   -5,165750533e-02   -6,036840081e-01   -4,312837124e-01    0,000000000e+00    0,000000000e+00    0,000000000e+00    0,000000000e+00
      450000000   -6,713902950e-02   -4,409331828e-02   -7,399428487e-01   -2,192549407e-02    0,000000000e+00    0,000000000e+00    0,000000000e+00    0,000000000e+00
      464000000   -7,316315919e-02   -1,193519216e-02   -6,182042360e-01    3,969061971e-01    0,000000000e+00    0,000000000e+00    0,000000000e+00    0,000000000e+00
      478000000   -4,769046977e-02    1,123499032e-02   -2,825719714e-01    6,672250628e-01    0,000000000e+00    0,000000000e+00    0,000000000e+00    0,000000000e+00
      492000000   -1,556764171e-02    5,907011218e-03    1,369906217e-01    7,016592026e-01    0,000000000e+00    0,000000000e+00    0,000000000e+00    0,000000000e+00
      506000000   -2,577483421e-03   -1,541059930e-02    4,973325729e-01    5,023013949e-01    0,000000000e+00    0,000000000e+00    0,000000000e+00    0,000000000e+00
      520000000   -5,097402725e-03   -3,105269186e-02    6,874895692e-01    1,398807019e-01    0,000000000e+00    0,000000000e+00    0,000000000e+00    0,000000000e+00
      534000000   -3,641419113e-03   -3,809642047e-02    6,434870958e-01   -2,622662187e-01    0,000000000e+00    0,000000000e+00    0,000000000e+00    0,000000000e+00
      548000000    6,830307655e-03   -5,406276882e-02    3,810919821e-01   -5,667898655e-01    0,000000000e+00    0,000000000e+00    0,000000000e+00    0,000000000e+00
      562000000    3,473208286e-03   -8,911470324e-02    3,397268243e-03   -6,717618108e-01    0,000000000e+00    0,000000000e+00    0,000000000e+00    0,000000000e+00
      576000000   -3,388478607e-02   -1,247044429e-01   -3,678509891e-01   -5,567734241e-01    0,000000000e+00    0,000000000e+00    0,000000000e+00    0,000000000e+00
      590000000   -9,567032009e-02   -1,227049977e-01   -6,188997626e-01   -2,644765377e-01    0,000000000e+00    0,000000000e+00    0,000000000e+00    0,000000000e+00
      604000000   -1,394242048e-01   -7,240077108e-02   -6,641490459e-01    1,364061832e-01    0,000000000e+00    0,000000000e+00    0,000000000e+00    0,000000000e+00
      618000000   -1,293026507e-01   -1,052734163e-02   -4,644529521e-01    4,934185445e-01    0,000000000e+00    0,000000000e+00    0,000000000e+00    0,000000000e+00
      632000000   -8,491658419e-02    1,621082425e-02   -9,980434179e-02    6,623830199e-01    0,000000000e+00    0,000000000e+00    0,000000000e+00    0,000000000e+00
      646000000   -5,237102136e-02    3,844448947e-04    2,856824994e-01    5,942510366e-01    0,000000000e+00    0,000000000e+00    0,000000000e+00    0,000000000e+00
      660000000   -5,337172002e-02   -1,997375675e-02    5,650627017e-01    3,241170943e-01    0,000000000e+00    0,000000000e+00    0,000000000e+00    0,000000000e+00
      674000000   -6,939065456e-02   -1,717922091e-02    6,409004927e-01   -6,298030168e-02    0,000000000e+00    0,000000000e+00    0,000000000e+00    0,000000000e+00
      688000000   -6,621202826e-02    9,375661612e-03    4,711443186e-01   -4,243329167e-01    0,000000000e+00    0,000000000e+00    0,000000000e+00    0,000000000e+00
      702000000   -3,655539081e-02    2,558089234e-02    1,200553477e-01   -6,049954295e-01    0,000000000e+00    0,000000000e+00    0,000000000e+00    0,000000000e+00
      716000000    3,213744611e-03    1,556691062e-02   -2,599964142e-01   -5,461885929e-01    0,000000000e+00    0,000000000e+00    0,000000000e+00    0,000000000e+00
      730000000    3,644106165e-02   -1,324402355e-02   -5,218597054e-01   -2,717928290e-01    0,000000000e+00    0,000000000e+00    0,000000000e+00    0,000000000e+00
      744000000    6,315088272e-02   -6,500969082e-02   -5,603203177e-01    9,847690910e-02    0,000000000e+00    0,000000000e+00    0,000000000e+00    0,000000000e+00
      758000000    6,128896773e-02   -1,520304233e-01   -3,666374683e-01    3,999292254e-01    0,000000000e+00    0,000000000e+00    0,000000000e+00    0,000000000e+00
      772000000   -1,680329256e-02   -2,559505999e-01   -4,569126666e-02    5,090279579e-01    0,000000000e+00    0,000000000e+00    0,000000000e+00    0,000000000e+00
      786000000   -2,028691769e-01   -2,911256254e-01    2,592940032e-01    3,987542987e-01    0,000000000e+00    0,000000000e+00    0,000000000e+00    0,000000000e+00
      800000000   -4,073602855e-01   -1,264905334e-01    4,071718454e-01    1,185930297e-01    0,000000000e+00    0,000000000e+00    0,000000000e+00    0,000000000e+00
      814000000   -3,765806556e-01    2,027305663e-01    2,967111766e-01   -1,511719674e-01    0,000000000e+00    0,000000000e+00    0,000000000e+00    0,000000000e+00
      828000000   -6,287352741e-02    3,473158479e-01    8,225705475e-02   -1,907508522e-01    0,000000000e+00    0,000000000e+00    0,000000000e+00    0,000000000e+00
      842000000    2,121003717e-01    1,858579069e-01   -3,197377315e-03   -9,309578687e-02    0,000000000e+00    0,000000000e+00    0,000000000e+00    0,000000000e+00
      856000000    2,662636638e-01   -1,057732925e-01    3,622435406e-02   -3,749869391e-02    0,000000000e+00    0,000000000e+00    0,000000000e+00    0,000000000e+00
      870000000    8,314009756e-02   -3,515596688e-01    8,872940391e-02   -9,717597067e-02    0,000000000e+00    0,000000000e+00    0,000000000e+00    0,000000000e+00
      884000000   -2,678498030e-01   -3,559094071e-01    1,131163724e-02   -2,282098681e-01    0,000000000e+00    0,000000000e+00    0,000000000e+00    0,000000000e+00
      898000000   -4,577187598e-01   -1,288131997e-02   -2,150912434e-01   -2,087723613e-01    0,000000000e+00    0,000000000e+00    0,000000000e+00    0,000000000e+00
      912000000   -2,355234772e-01    2,778851390e-01   -3,300738931e-01    7,935925573e-02    0,000000000e+00    0,000000000e+00    0,000000000e+00    0,000000000e+00
      926000000    5,454668030e-02    2,626912594e-01   -2,111725509e-01    2,625702024e-01    0,000000000e+00    0,000000000e+00    0,000000000e+00    0,000000000e+00
      940000000    2,112737894e-01    8,359497786e-02   -3,192031011e-02    3,252505362e-01    0,000000000e+00    0,000000000e+00    0,000000000e+00    0,000000000e+00
      954000000    2,187128216e-01   -1,215115711e-01    1,315132827e-01    3,008018136e-01    0,000000000e+00    0,000000000e+00    0,000000000e+00    0,000000000e+00
      968000000    1,161872745e-01   -2,961858511e-01    2,686442733e-01    2,137707025e-01    0,000000000e+00    0,000000000e+00    0,000000000e+00    0,000000000e+00
      982000000   -7,591094077e-02   -3,866951764e-01    3,608666062e-01    6,348812580e-02    0,000000000e+00    0,000000000e+00    0,000000000e+00    0,000000000e+00
      996000000   -3,135160208e-01   -3,314988613e-01    3,632324338e-01   -1,440809369e-01    0,000000000e+00    0,000000000e+00    0,000000000e+00    0,000000000e+00
     1010000000   -4,585769475e-01   -1,129070297e-01    2,202087492e-01   -3,347534835e-01    0,000000000e+00    0,000000000e+00    0,000000000e+00    0,000000000e+00
     1024000000   -4,167244136e-01    1,466835141e-01   -3,171522543e-02   -3,855955601e-01    0,000000000e+00    0,000000000e+00    0,000000000e+00    0,000000000e+00
     1038000000   -2,200445980e-01    2,875587046e-01   -2,407681644e-01   -2,576905787e-01    0,000000000e+00    0,000000000e+00    0,000000000e+00    0,000000000e+00
     1052000000   -1,609189808e-02    2,785328627e-01   -3,098376393e-01   -4,786320403e-02    0,000000000e+00    0,000000000e+00    0,000000000e+00    0,000000000e+00
     1066000000    1,329606622e-01    1,714669168e-01   -2,524097264e-01    1,374439746e-01    0,000000000e+00    0,000000000e+00    0,000000000e+00    0,000000000e+00
     1080000000    1,941994131e-01    6,013090257e-03   -1,163648367e-01    2,544088066e-01    0,000000000e+00    0,000000000e+00    0,000000000e+00    0,000000000e+00
     1094000000    1,625261605e-01   -1,611952335e-01    6,182611734e-02    2,930710912e-01    0,000000000e+00    0,000000000e+00    0,000000000e+00    0,000000000e+00
     1108000000    1,760553196e-02   -2,932974696e-01    2,611290514e-01    2,347092032e-01    0,000000000e+00    0,000000000e+00    0,000000000e+00    0,000000000e+00
     1122000000   -2,109124213e-01   -2,878841758e-01    4,383296072e-01    2,817075141e-02    0,000000000e+00    0,000000000e+00    0,000000000e+00    0,000000000e+00
     1136000000   -3,309994340e-01   -2,945896238e-02    3,991156518e-01   -3,448669612e-01    0,000000000e+00    0,000000000e+00    0,000000000e+00    0,000000000e+00
     1150000000   -1,031266898e-01    1,419108212e-01    4,802921042e-02   -5,317976475e-01    0,000000000e+00    0,000000000e+00    0,000000000e+00    0,000000000e+00
     1164000000    8,418869972e-02   -1,822185703e-02   -2,516163886e-01   -4,041057527e-01    0,000000000e+00    0,000000000e+00    0,000000000e+00    0,000000000e+00
     1178000000    2,500024997e-02   -2,519348264e-01   -3,713186383e-01   -1,793683022e-01    0,000000000e+00    0,000000000e+00    0,000000000e+00    0,000000000e+00
     1192000000   -2,245069444e-01   -3,476806581e-01   -3,411896825e-01    4,109922424e-02    0,000000000e+00    0,000000000e+00    0,000000000e+00    0,000000000e+00
     1206000000   -4,779512584e-01   -1,802613139e-01   -1,890524030e-01    1,847603619e-01    0,000000000e+00    0,000000000e+00    0,000000000e+00    0,000000000e+00
     1220000000   -5,010444522e-01    1,337958723e-01   -1,049395744e-02    1,758307666e-01    0,000000000e+00    0,000000000e+00    0,000000000e+00    0,000000000e+00
     1234000000   -2,986839712e-01    3,395269513e-01    7,860307395e-02    7,842554897e-02    0,000000000e+00    0,000000000e+00    0,000000000e+00    0,000000000e+00
     1248000000   -6,124487519e-02    3,580844104e-01    7,250715792e-02   -3,353914944e-03    0,000000000e+00    0,000000000e+00    0,000000000e+00    0,000000000e+00
     1262000000    1,063711643e-01    2,580316365e-01    2,837784961e-02   -2,346826158e-02    0,000000000e+00    0,000000000e+00    0,000000000e+00    0,000000000e+00
     1276000000    2,023923248e-01    1,094038635e-01    6,932044867e-03   -5,173007492e-03    0,000000000e+00    0,000000000e+00    0,000000000e+00    0,000000000e+00
     1290000000    2,220450491e-01   -6,535433233e-02    9,650710970e-03    2,349282429e-02    0,000000000e+00    0,000000000e+00    0,000000000e+00    0,000000000e+00
     1304000000    1,636593491e-01   -2,343756557e-01    6,465964764e-02    5,778324604e-02    0,000000000e+00    0,000000000e+00    0,000000000e+00    0,000000000e+00
     1318000000    2,901930176e-02   -3,637312055e-01    1,736784726e-01    2,041114867e-02    0,000000000e+00    0,000000000e+00    0,000000000e+00    0,000000000e+00
     1332000000   -1,507854015e-01   -3,935150206e-01    9,989382327e-02   -1,794496030e-01    0,000000000e+00    0,000000000e+00    0,000000000e+00    0,000000000e+00
     1346000000   -3,579892516e-01   -3,965421915e-01   -5,646691471e-02   -2,429546043e-02    0,000000000e+00    0,000000000e+00    0,000000000e+00    0,000000000e+00
     1360000000   -5,887501240e-01   -2,105626613e-01    6,038937345e-02    8,895177394e-02    0,000000000e+00    0,000000000e+00    0,000000000e+00    0,000000000e+00
     1374000000   -6,296467185e-01    1,043686420e-01    1,774207652e-01    4,687517136e-02    0,000000000e+00    0,000000000e+00    0,000000000e+00    0,000000000e+00
     1388000000   -4,706647396e-01    3,497340679e-01    2,294835299e-01   -2,781709470e-02    0,000000000e+00    0,000000000e+00    0,000000000e+00    0,000000000e+00
     1402000000   -2,457271516e-01    4,525050819e-01    2,110358924e-01   -6,656811386e-02    0,000000000e+00    0,000000000e+00    0,000000000e+00    0,000000000e+00
     1416000000   -3,858587891e-02    4,154274762e-01    1,869606078e-01   -1,009672657e-01    0,000000000e+00    0,000000000e+00    0,000000000e+00    0,000000000e+00
     1430000000    1,097741202e-01    2,949318290e-01    1,487557143e-01   -1,197097972e-01    0,000000000e+00    0,000000000e+00    0,000000000e+00    0,000000000e+00
     1444000000    2,028413266e-01    1,561941952e-01    1,685798019e-01   -1,093803048e-01    0,000000000e+00    0,000000000e+00    0,000000000e+00    0,000000000e+00
     1458000000    2,314565182e-01   -1,506449841e-02    1,441745609e-01   -9,460699558e-02    0,000000000e+00    0,000000000e+00    0,000000000e+00    0,000000000e+00
     1472000000    1,959915906e-01   -1,925906539e-01    1,492630988e-01   -4,299698025e-02    0,000000000e+00    0,000000000e+00    0,000000000e+00    0,000000000e+00
     1486000000    7,083260268e-02   -3,629747331e-01    1,711806953e-01    1,787006482e-02    0,000000000e+00    0,000000000e+00    0,000000000e+00    0,000000000e+00
     1500000000   -1,596437246e-01   -4,902053177e-01    2,278147787e-01    9,461663663e-02    0,000000000e+00    0,000000000e+00    0,000000000e+00    0,000000000e+00
