! NanoVNA-App
! Date: 2025-09-25 15:44:03
! Start: 100MHz Stop: 1,5GHz Points: 101
! S-Parameter data: F S11 S21 S12 S22
# Hz S RI R 50
!     Frequency           S11_Real           S11_Imag           S21_Real           S21_Imag           S12_Real           S12_Imag           S22_Real           S22_Imag
      100000000   -2,875279821e-02   -4,248891957e-03    3,739567399e-01   -7,216039300e-01    0,000000000e+00    0,000000000e+00    0,000000000e+00    0,000000000e+00
      114000000   -1,654517278e-02    1,147584710e-02   -8,892983943e-02   -8,050402403e-01    0,000000000e+00    0,000000000e+00    0,000000000e+00    0,000000000e+00
      128000000    3,423902672e-03    1,068889536e-02   -5,144807696e-01   -6,205199361e-01    0,000000000e+00    0,000000000e+00    0,000000000e+00    0,000000000e+00
      142000000    1,466670725e-02   -2,653189702e-03   -7,669897079e-01   -2,364346236e-01    0,000000000e+00    0,000000000e+00    0,000000000e+00    0,000000000e+00
      156000000    1,470861118e-02   -1,464146934e-02   -7,642912865e-01    2,181691974e-01    0,000000000e+00    0,000000000e+00    0,000000000e+00    0,000000000e+00
      170000000    1,705078222e-02   -2,247391827e-02   -5,178158879e-01    6,047148705e-01    0,000000000e+00    0,000000000e+00    0,000000000e+00    0,000000000e+00
      184000000    2,132189460e-02   -3,716639802e-02   -1,012947634e-01    7,852963209e-01    0,000000000e+00    0,000000000e+00    0,000000000e+00    0,000000000e+00
      198000000    1,320923213e-02   -6,256822497e-02    3,430709541e-01    7,120352387e-01    0,000000000e+00    0,000000000e+00    0,000000000e+00    0,000000000e+00
      212000000   -1,844063029e-02   -8,127806336e-02    6,778908968e-01    4,098876119e-01    0,000000000e+00    0,000000000e+00    0,000000000e+00    0,000000000e+00
      226000000   -6,135261059e-02   -6,918387115e-02    7,954132557e-01   -3,048928455e-02    0,000000000e+00    0,000000000e+00    0,000000000e+00    0,000000000e+00
      240000000   -8,223894984e-02   -2,581457980e-02    6,457935572e-01   -4,666490555e-01    0,000000000e+00    0,000000000e+00    0,000000000e+00    0,000000000e+00
      254000000   -6,340803206e-02    1,694484614e-02    2,758086324e-01   -7,426470518e-01    0,000000000e+00    0,000000000e+00    0,000000000e+00    0,000000000e+00
      268000000   -2,391995862e-02    2,873187326e-02   -1,777816862e-01   -7,635731697e-01    0,000000000e+00    0,000000000e+00    0,000000000e+00    0,000000000e+00
      282000000    4,109403584e-03    1,206683833e-02   -5,619585514e-01   -5,354766846e-01    0,000000000e+00    0,000000000e+00    0,000000000e+00    0,000000000e+00
      296000000    9,923030622e-03   -7,570335642e-03   -7,594101429e-01   -1,395561248e-01    0,000000000e+00    0,000000000e+00    0,000000000e+00    0,000000000e+00
      310000000    1,165744383e-02   -1,599543169e-02   -7,110651731e-01    2,974287868e-01    0,000000000e+00    0,000000000e+00    0,000000000e+00    0,000000000e+00
      324000000    2,016114816e-02   -2,656782791e-02   -4,278943837e-01    6,373979449e-01    0,000000000e+00    0,000000000e+00    0,000000000e+00    0,000000000e+00
      338000000    2,565041184e-02   -5,235743523e-02   -6,905119400e-03    7,634161115e-01    0,000000000e+00    0,000000000e+00    0,000000000e+00    0,000000000e+00
      352000000    7,357287686e-03   -8,493137360e-02    4,060201645e-01    6,397811174e-01    0,000000000e+00    0,000000000e+00    0,000000000e+00    0,000000000e+00
      366000000   -3,429973125e-02   -9,545120597e-02    6,907676458e-01    3,113682568e-01    0,000000000e+00    0,000000000e+00    0,000000000e+00    0,000000000e+00
      380000000   -7,042283565e-02   -7,110626996e-02    7,470769286e-01   -1,258603483e-01    0,000000000e+00    0,000000000e+00    0,000000000e+00    0,000000000e+00
      394000000   -7,210156322e-02   -3,255840018e-02    5,467936993e-01   -5,204663873e-01    0,000000000e+00    0,000000000e+00    0,000000000e+00    0,000000000e+00
      408000000   -4,628965631e-02   -1,668924838e-02    1,616742462e-01   -7,316492200e-01    0,000000000e+00    0,000000000e+00    0,000000000e+00    0,000000000e+00
      422000000   -2,844895050e-02   -3,218199685e-02   -2,673586011e-01   -6,951970458e-01    0,000000000e+00    0,000000000e+00    0,000000000e+00    0,000000000e+00
      436000000   -4,037295654e-02   -5,193912983e-02   -6,030468941e-01   -4,322805703e-01    0,000000000e+00    0,000000000e+00    0,000000000e+00    0,000000000e+00
      450000000   -6,711006165e-02   -4,393044487e-02   -7,401947379e-01   -2,171603777e-02    0,000000000e+00    0,000000000e+00    0,000000000e+00    0,000000000e+00
      464000000   -7,317639887e-02   -1,163940411e-02   -6,181043386e-01    3,972968757e-01    0,000000000e+00    0,000000000e+00    0,000000000e+00    0,000000000e+00
      478000000   -4,779359326e-02    1,151134167e-02   -2,832490802e-01    6,672656536e-01    0,000000000e+00    0,000000000e+00    0,000000000e+00    0,000000000e+00
      492000000   -1,587524451e-02    5,595196970e-03    1,366802156e-01    7,006102800e-01    0,000000000e+00    0,000000000e+00    0,000000000e+00    0,000000000e+00
      506000000   -2,817984903e-03   -1,595874131e-02    4,979965389e-01    5,025844574e-01    0,000000000e+00    0,000000000e+00    0,000000000e+00    0,000000000e+00
      520000000   -4,790859763e-03   -3,149254248e-02    6,883032918e-01    1,429396570e-01    0,000000000e+00    0,000000000e+00    0,000000000e+00    0,000000000e+00
      534000000   -3,801008454e-03   -3,796231002e-02    6,430280805e-01   -2,617466450e-01    0,000000000e+00    0,000000000e+00    0,000000000e+00    0,000000000e+00
      548000000    6,255310494e-03   -5,376543105e-02    3,806635141e-01   -5,664185286e-01    0,000000000e+00    0,000000000e+00    0,000000000e+00    0,000000000e+00
      562000000    3,192946780e-03   -8,974368125e-02    2,631273121e-03   -6,716234684e-01    0,000000000e+00    0,000000000e+00    0,000000000e+00    0,000000000e+00
      576000000   -3,386557475e-02   -1,246073171e-01   -3,671641052e-01   -5,574752092e-01    0,000000000e+00    0,000000000e+00    0,000000000e+00    0,000000000e+00
      590000000   -9,553745389e-02   -1,228681132e-01   -6,188488007e-01   -2,645550668e-01    0,000000000e+00    0,000000000e+00    0,000000000e+00    0,000000000e+00
      604000000   -1,389107406e-01   -7,241701335e-02   -6,640149951e-01    1,363858879e-01    0,000000000e+00    0,000000000e+00    0,000000000e+00    0,000000000e+00
      618000000   -1,293826997e-01   -1,059239544e-02   -4,652294815e-01    4,922831357e-01    0,000000000e+00    0,000000000e+00    0,000000000e+00    0,000000000e+00
      632000000   -8,501455933e-02    1,595493779e-02   -9,963309765e-02    6,624277234e-01    0,000000000e+00    0,000000000e+00    0,000000000e+00    0,000000000e+00
      646000000   -5,143738165e-02    6,095315912e-04    2,856351435e-01    5,944167376e-01    0,000000000e+00    0,000000000e+00    0,000000000e+00    0,000000000e+00
      660000000   -5,359166861e-02   -2,129898965e-02    5,643360615e-01    3,225742877e-01    0,000000000e+00    0,000000000e+00    0,000000000e+00    0,000000000e+00
      674000000   -7,034671307e-02   -1,654211618e-02    6,408625841e-01   -6,315692514e-02    0,000000000e+00    0,000000000e+00    0,000000000e+00    0,000000000e+00
      688000000   -6,694408506e-02    9,924031794e-03    4,708347023e-01   -4,239923060e-01    0,000000000e+00    0,000000000e+00    0,000000000e+00    0,000000000e+00
      702000000   -3,554791585e-02    2,605237067e-02    1,219153479e-01   -6,031689048e-01    0,000000000e+00    0,000000000e+00    0,000000000e+00    0,000000000e+00
      716000000    2,933547366e-03    1,584476791e-02   -2,596944869e-01   -5,448996425e-01    0,000000000e+00    0,000000000e+00    0,000000000e+00    0,000000000e+00
      730000000    3,722481430e-02   -1,401223987e-02   -5,222014785e-01   -2,716311812e-01    0,000000000e+00    0,000000000e+00    0,000000000e+00    0,000000000e+00
      744000000    6,180550903e-02   -6,565748900e-02   -5,604927540e-01    9,871230274e-02    0,000000000e+00    0,000000000e+00    0,000000000e+00    0,000000000e+00
      758000000    6,066513434e-02   -1,512443870e-01   -3,665756881e-01    4,003668725e-01    0,000000000e+00    0,000000000e+00    0,000000000e+00    0,000000000e+00
      772000000   -1,671815664e-02   -2,553286254e-01   -4,594574124e-02    5,094900131e-01    0,000000000e+00    0,000000000e+00    0,000000000e+00    0,000000000e+00
      786000000   -2,020720989e-01   -2,904378474e-01    2,592508793e-01    3,992939889e-01    0,000000000e+00    0,000000000e+00    0,000000000e+00    0,000000000e+00
      800000000   -4,078774750e-01   -1,267495006e-01    4,070427120e-01    1,181732044e-01    0,000000000e+00    0,000000000e+00    0,000000000e+00    0,000000000e+00
      814000000   -3,774492741e-01    2,021713704e-01    2,968401015e-01   -1,510904729e-01    0,000000000e+00    0,000000000e+00    0,000000000e+00    0,000000000e+00
      828000000   -6,241241843e-02    3,479124010e-01    8,261355013e-02   -1,908898652e-01    0,000000000e+00    0,000000000e+00    0,000000000e+00    0,000000000e+00
      842000000    2,111340016e-01    1,862265468e-01   -3,750069765e-03   -9,335082024e-02    0,000000000e+00    0,000000000e+00    0,000000000e+00    0,000000000e+00
      856000000    2,665898204e-01   -1,052924320e-01    3,578987718e-02   -3,708730638e-02    0,000000000e+00    0,000000000e+00    0,000000000e+00    0,000000000e+00
      870000000    8,225134015e-02   -3,509168327e-01    8,765702695e-02   -9,762717783e-02    0,000000000e+00    0,000000000e+00    0,000000000e+00    0,000000000e+00
      884000000   -2,680192292e-01   -3,566341698e-01    1,130215172e-02   -2,275893539e-01    0,000000000e+00    0,000000000e+00    0,000000000e+00    0,000000000e+00
      898000000   -4,571498632e-01   -1,352731045e-02   -2,145306319e-01   -2,094968706e-01    0,000000000e+00    0,000000000e+00    0,000000000e+00    0,000000000e+00
      912000000   -2,357810885e-01    2,789753675e-01   -3,274625242e-01    7,900610566e-02    0,000000000e+00    0,000000000e+00    0,000000000e+00    0,000000000e+00
      926000000    5,436517671e-02    2,629943788e-01   -2,104196548e-01    2,639406621e-01    0,000000000e+00    0,000000000e+00    0,000000000e+00    0,000000000e+00
      940000000    2,106371075e-01    8,499754220e-02   -2,982442640e-02    3,257836103e-01    0,000000000e+00    0,000000000e+00    0,000000000e+00    0,000000000e+00
      954000000    2,190132141e-01   -1,222709343e-01    1,317714006e-01    2,995219827e-01    0,000000000e+00    0,000000000e+00    0,000000000e+00    0,000000000e+00
      968000000    1,178387627e-01   -2,956613898e-01    2,673992813e-01    2,132590264e-01    0,000000000e+00    0,000000000e+00    0,000000000e+00    0,000000000e+00
      982000000   -7,486081123e-02   -3,855879605e-01    3,608455658e-01    6,202186644e-02    0,000000000e+00    0,000000000e+00    0,000000000e+00    0,000000000e+00
      996000000   -3,094579279e-01   -3,289132118e-01    3,629455566e-01   -1,456945539e-01    0,000000000e+00    0,000000000e+00    0,000000000e+00    0,000000000e+00
     1010000000   -4,606289566e-01   -1,130560637e-01    2,185302824e-01   -3,348903060e-01    0,000000000e+00    0,000000000e+00    0,000000000e+00    0,000000000e+00
     1024000000   -4,181124568e-01    1,462010443e-01   -3,203499690e-02   -3,871602714e-01    0,000000000e+00    0,000000000e+00    0,000000000e+00    0,000000000e+00
     1038000000   -2,256792486e-01    2,896056473e-01   -2,413530946e-01   -2,578167319e-01    0,000000000e+00    0,000000000e+00    0,000000000e+00    0,000000000e+00
     1052000000   -1,201169193e-02    2,827925682e-01   -3,105302155e-01   -4,565222561e-02    0,000000000e+00    0,000000000e+00    0,000000000e+00    0,000000000e+00
     1066000000    1,333937496e-01    1,707288027e-01   -2,496368438e-01    1,379363090e-01    0,000000000e+00    0,000000000e+00    0,000000000e+00    0,000000000e+00
     1080000000    1,948088259e-01    5,205676891e-03   -1,165283769e-01    2,556013763e-01    0,000000000e+00    0,000000000e+00    0,000000000e+00    0,000000000e+00
     1094000000    1,577138752e-01   -1,613878757e-01    6,071751937e-02    2,923727334e-01    0,000000000e+00    0,000000000e+00    0,000000000e+00    0,000000000e+00
     1108000000    1,568964310e-02   -2,964826822e-01    2,598880529e-01    2,370520383e-01    0,000000000e+00    0,000000000e+00    0,000000000e+00    0,000000000e+00
     1122000000   -2,158387452e-01   -2,855723202e-01    4,386289120e-01    2,647821419e-02    0,000000000e+00    0,000000000e+00    0,000000000e+00    0,000000000e+00
     1136000000   -3,253020346e-01   -2,761382423e-02    4,007652104e-01   -3,453789353e-01    0,000000000e+00    0,000000000e+00    0,000000000e+00    0,000000000e+00
     1150000000   -1,036469117e-01    1,369619668e-01    4,702218994e-02   -5,310347080e-01    0,000000000e+00    0,000000000e+00    0,000000000e+00    0,000000000e+00
     1164000000    8,152179420e-02   -1,888914034e-02   -2,534562945e-01   -4,020590186e-01    0,000000000e+00    0,000000000e+00    0,000000000e+00    0,000000000e+00
     1178000000    2,817934565e-02   -2,495668530e-01   -3,740166128e-01   -1,747300029e-01    0,000000000e+00    0,000000000e+00    0,000000000e+00    0,000000000e+00
     1192000000   -2,180466801e-01   -3,485803604e-01   -3,398528993e-01    4,128005356e-02    0,000000000e+00    0,000000000e+00    0,000000000e+00    0,000000000e+00
     1206000000   -4,804909229e-01   -1,836615354e-01   -1,915815622e-01    1,819473058e-01    0,000000000e+00    0,000000000e+00    0,000000000e+00    0,000000000e+00
     1220000000   -5,021277666e-01    1,320709884e-01   -6,717390381e-03    1,740127206e-01    0,000000000e+00    0,000000000e+00    0,000000000e+00    0,000000000e+00
     1234000000   -2,959209681e-01    3,401120603e-01    7,443397492e-02    8,064340800e-02    0,000000000e+00    0,000000000e+00    0,000000000e+00    0,000000000e+00
     1248000000   -6,265832484e-02    3,597605228e-01    6,981626898e-02   -2,145589096e-03    0,000000000e+00    0,000000000e+00    0,000000000e+00    0,000000000e+00
     1262000000    1,092825383e-01    2,555446029e-01    2,930225618e-02   -2,815609984e-02    0,000000000e+00    0,000000000e+00    0,000000000e+00    0,000000000e+00
     1276000000    2,007624954e-01    1,097596511e-01    3,608247731e-03   -5,319611169e-03    0,000000000e+00    0,000000000e+00    0,000000000e+00    0,000000000e+00
     1290000000    2,226284891e-01   -6,355910003e-02    1,283488795e-02    2,651925758e-02    0,000000000e+00    0,000000000e+00    0,000000000e+00    0,000000000e+00
     1304000000    1,648956984e-01   -2,340073436e-01    6,590629369e-02    5,435462669e-02    0,000000000e+00    0,000000000e+00    0,000000000e+00    0,000000000e+00
     1318000000    2,663890459e-02   -3,646158576e-01    1,735017151e-01    1,667840593e-02    0,000000000e+00    0,000000000e+00    0,000000000e+00    0,000000000e+00
     1332000000   -1,490747780e-01   -3,938090801e-01    1,005996242e-01   -1,719971299e-01    0,000000000e+00    0,000000000e+00    0,000000000e+00    0,000000000e+00
     1346000000   -3,625282645e-01   -3,917404115e-01   -6,145431474e-02   -1,985904202e-02    0,000000000e+00    0,000000000e+00    0,000000000e+00    0,000000000e+00
     1360000000   -5,908533335e-01   -2,070731074e-01    5,817800015e-02    8,198226988e-02    0,000000000e+00    0,000000000e+00    0,000000000e+00    0,000000000e+00
     1374000000   -6,265618801e-01    9,499009699e-02    1,779065132e-01    4,691362381e-02    0,000000000e+00    0,000000000e+00    0,000000000e+00    0,000000000e+00
     1388000000   -4,789230824e-01    3,480353951e-01    2,092301548e-01   -3,371595591e-02    0,000000000e+00    0,000000000e+00    0,000000000e+00    0,000000000e+00
     1402000000   -2,390294373e-01    4,438500106e-01    2,167953104e-01   -7,900323719e-02    0,000000000e+00    0,000000000e+00    0,000000000e+00    0,000000000e+00
     1416000000   -4,201982543e-02    4,102768302e-01    1,827958524e-01   -1,022917479e-01    0,000000000e+00    0,000000000e+00    0,000000000e+00    0,000000000e+00
     1430000000    1,159946024e-01    3,113324344e-01    1,948156804e-01   -1,314987838e-01    0,000000000e+00    0,000000000e+00    0,000000000e+00    0,000000000e+00
     1444000000    1,970871687e-01    1,585803330e-01    1,524874568e-01   -1,088314056e-01    0,000000000e+00    0,000000000e+00    0,000000000e+00    0,000000000e+00
     1458000000    2,325678170e-01   -1,331719849e-02    1,522276551e-01   -8,980356157e-02    0,000000000e+00    0,000000000e+00    0,000000000e+00    0,000000000e+00
     1472000000    1,858207434e-01   -1,920865923e-01    1,328643560e-01   -3,865682706e-02    0,000000000e+00    0,000000000e+00    0,000000000e+00    0,000000000e+00
     1486000000    5,966694281e-02   -3,629446924e-01    1,596849710e-01    1,304795593e-02    0,000000000e+00    0,000000000e+00    0,000000000e+00    0,000000000e+00
     1500000000   -1,634321809e-01   -4,768427014e-01    2,281646878e-01    9,457477182e-02    0,000000000e+00    0,000000000e+00    0,000000000e+00    0,000000000e+00
