! NanoVNA-App
! Date: 2025-09-25 15:42:18
! Start: 100MHz Stop: 1,5GHz Points: 101
! S-Parameter data: F S11 S21 S12 S22
# Hz S RI R 50
!     Frequency           S11_Real           S11_Imag           S21_Real           S21_Imag           S12_Real           S12_Imag           S22_Real           S22_Imag
      100000000   -2,874948084e-02   -4,245272372e-03    3,739345670e-01   -7,215465903e-01    0,000000000e+00    0,000000000e+00    0,000000000e+00    0,000000000e+00
      114000000   -1,651498117e-02    1,147748437e-02   -8,916492760e-02   -8,051981330e-01    0,000000000e+00    0,000000000e+00    0,000000000e+00    0,000000000e+00
      128000000    3,369971644e-03    1,065336261e-02   -5,145477057e-01   -6,202563643e-01    0,000000000e+00    0,000000000e+00    0,000000000e+00    0,000000000e+00
      142000000    1,465554629e-02   -2,646333305e-03   -7,668838501e-01   -2,363359034e-01    0,000000000e+00    0,000000000e+00    0,000000000e+00    0,000000000e+00
      156000000    1,629762538e-02   -1,408267673e-02   -7,694491744e-01    2,241224498e-01    0,000000000e+00    0,000000000e+00    0,000000000e+00    0,000000000e+00
      170000000    1,711679623e-02   -2,240865864e-02   -5,179223418e-01    6,044999361e-01    0,000000000e+00    0,000000000e+00    0,000000000e+00    0,000000000e+00
      184000000    2,134808525e-02   -3,707796335e-02   -1,013542265e-01    7,858151197e-01    0,000000000e+00    0,000000000e+00    0,000000000e+00    0,000000000e+00
      198000000    1,320873573e-02   -6,254068017e-02    3,429405987e-01    7,122377753e-01    0,000000000e+00    0,000000000e+00    0,000000000e+00    0,000000000e+00
      212000000   -1,842169836e-02   -8,133596927e-02    6,779437661e-01    4,099336863e-01    0,000000000e+00    0,000000000e+00    0,000000000e+00    0,000000000e+00
      226000000   -6,131610274e-02   -6,926205009e-02    7,953211069e-01   -3,046339564e-02    0,000000000e+00    0,000000000e+00    0,000000000e+00    0,000000000e+00
      240000000   -8,224744350e-02   -2,579915710e-02    6,460185647e-01   -4,668817818e-01    0,000000000e+00    0,000000000e+00    0,000000000e+00    0,000000000e+00
      254000000   -6,336555630e-02    1,695064642e-02    2,761251330e-01   -7,428900003e-01    0,000000000e+00    0,000000000e+00    0,000000000e+00    0,000000000e+00
      268000000   -2,394613437e-02    2,869253978e-02   -1,777606457e-01   -7,636980414e-01    0,000000000e+00    0,000000000e+00    0,000000000e+00    0,000000000e+00
      282000000    4,041900858e-03    1,211478096e-02   -5,611715913e-01   -5,354726315e-01    0,000000000e+00    0,000000000e+00    0,000000000e+00    0,000000000e+00
      296000000    9,717286564e-03   -7,581301499e-03   -7,594069242e-01   -1,395619512e-01    0,000000000e+00    0,000000000e+00    0,000000000e+00    0,000000000e+00
      310000000    1,152950712e-02   -1,617453434e-02   -7,114143968e-01    2,991510928e-01    0,000000000e+00    0,000000000e+00    0,000000000e+00    0,000000000e+00
      324000000    2,015235648e-02   -2,666283213e-02   -4,267047346e-01    6,368669868e-01    0,000000000e+00    0,000000000e+00    0,000000000e+00    0,000000000e+00
      338000000    2,554929815e-02   -5,207461491e-02   -7,809279952e-03    7,607715726e-01    0,000000000e+00    0,000000000e+00    0,000000000e+00    0,000000000e+00
      352000000    7,541372441e-03   -8,475079387e-02    4,057603180e-01    6,388744712e-01    0,000000000e+00    0,000000000e+00    0,000000000e+00    0,000000000e+00
      366000000   -3,446097672e-02   -9,527846426e-02    6,897996068e-01    3,113420606e-01    0,000000000e+00    0,000000000e+00    0,000000000e+00    0,000000000e+00
      380000000   -7,063014805e-02   -7,110566646e-02    7,467884421e-01   -1,258814782e-01    0,000000000e+00    0,000000000e+00    0,000000000e+00    0,000000000e+00
      394000000   -7,208529115e-02   -3,239602968e-02    5,458379984e-01   -5,205175281e-01    0,000000000e+00    0,000000000e+00    0,000000000e+00    0,000000000e+00
      408000000   -4,609559476e-02   -1,658648252e-02    1,610454917e-01   -7,318953872e-01    0,000000000e+00    0,000000000e+00    0,000000000e+00    0,000000000e+00
      422000000   -2,841210179e-02   -3,220540658e-02   -2,678841949e-01   -6,946879625e-01    0,000000000e+00    0,000000000e+00    0,000000000e+00    0,000000000e+00
      436000000   -4,069076106e-02   -5,186509341e-02   -6,037507653e-01   -4,317639768e-01    0,000000000e+00    0,000000000e+00    0,000000000e+00    0,000000000e+00
      450000000   -6,700450927e-02   -4,401422292e-02   -7,400450706e-01   -2,201936580e-02    0,000000000e+00    0,000000000e+00    0,000000000e+00    0,000000000e+00
      464000000   -7,322296500e-02   -1,191215683e-02   -6,183421016e-01    3,969968557e-01    0,000000000e+00    0,000000000e+00    0,000000000e+00    0,000000000e+00
      478000000   -4,756202921e-02    1,122856140e-02   -2,821328342e-01    6,672134399e-01    0,000000000e+00    0,000000000e+00    0,000000000e+00    0,000000000e+00
      492000000   -1,543706562e-02    5,634331610e-03    1,376690567e-01    7,016285658e-01    0,000000000e+00    0,000000000e+00    0,000000000e+00    0,000000000e+00
      506000000   -2,818627516e-03   -1,605283841e-02    4,974552989e-01    5,026844144e-01    0,000000000e+00    0,000000000e+00    0,000000000e+00    0,000000000e+00
      520000000   -5,112371407e-03   -3,135804832e-02    6,875888705e-01    1,419229954e-01    0,000000000e+00    0,000000000e+00    0,000000000e+00    0,000000000e+00
      534000000   -4,040924367e-03   -3,814692423e-02    6,431588531e-01   -2,617522776e-01    0,000000000e+00    0,000000000e+00    0,000000000e+00    0,000000000e+00
      548000000    6,422472186e-03   -5,387237296e-02    3,814453185e-01   -5,660107732e-01    0,000000000e+00    0,000000000e+00    0,000000000e+00    0,000000000e+00
      562000000    3,071018495e-03   -8,910308778e-02    2,810128499e-03   -6,712132692e-01    0,000000000e+00    0,000000000e+00    0,000000000e+00    0,000000000e+00
      576000000   -3,415480256e-02   -1,244421080e-01   -3,672985137e-01   -5,576777458e-01    0,000000000e+00    0,000000000e+00    0,000000000e+00    0,000000000e+00
      590000000   -9,579347819e-02   -1,226617545e-01   -6,182689667e-01   -2,635053098e-01    0,000000000e+00    0,000000000e+00    0,000000000e+00    0,000000000e+00
      604000000   -1,388246268e-01   -7,206996530e-02   -6,640540361e-01    1,369636655e-01    0,000000000e+00    0,000000000e+00    0,000000000e+00    0,000000000e+00
      618000000   -1,294908524e-01   -1,016025152e-02   -4,638477266e-01    4,927294552e-01    0,000000000e+00    0,000000000e+00    0,000000000e+00    0,000000000e+00
      632000000   -8,413132280e-02    1,563306525e-02   -9,996204078e-02    6,626007557e-01    0,000000000e+00    0,000000000e+00    0,000000000e+00    0,000000000e+00
      646000000   -5,158710480e-02    3,012008383e-04    2,849939466e-01    5,939670205e-01    0,000000000e+00    0,000000000e+00    0,000000000e+00    0,000000000e+00
      660000000   -5,309602618e-02   -2,046783827e-02    5,646714568e-01    3,233399391e-01    0,000000000e+00    0,000000000e+00    0,000000000e+00    0,000000000e+00
      674000000   -6,954146922e-02   -1,597178914e-02    6,404993534e-01   -6,292045116e-02    0,000000000e+00    0,000000000e+00    0,000000000e+00    0,000000000e+00
      688000000   -6,714154035e-02    9,851048701e-03    4,707979560e-01   -4,237604737e-01    0,000000000e+00    0,000000000e+00    0,000000000e+00    0,000000000e+00
      702000000   -3,562371060e-02    2,683667466e-02    1,204350591e-01   -6,071445942e-01    0,000000000e+00    0,000000000e+00    0,000000000e+00    0,000000000e+00
      716000000    3,016432980e-03    1,640393957e-02   -2,594442070e-01   -5,444464684e-01    0,000000000e+00    0,000000000e+00    0,000000000e+00    0,000000000e+00
      730000000    3,634292632e-02   -1,424030494e-02   -5,217099190e-01   -2,711158395e-01    0,000000000e+00    0,000000000e+00    0,000000000e+00    0,000000000e+00
      744000000    6,195196882e-02   -6,428708136e-02   -5,601096153e-01    9,830464423e-02    0,000000000e+00    0,000000000e+00    0,000000000e+00    0,000000000e+00
      758000000    6,076669693e-02   -1,518573910e-01   -3,657816947e-01    3,998556435e-01    0,000000000e+00    0,000000000e+00    0,000000000e+00    0,000000000e+00
      772000000   -1,764605753e-02   -2,563008666e-01   -4,558665678e-02    5,095629692e-01    0,000000000e+00    0,000000000e+00    0,000000000e+00    0,000000000e+00
      786000000   -2,021307498e-01   -2,907382250e-01    2,593022287e-01    3,987966478e-01    0,000000000e+00    0,000000000e+00    0,000000000e+00    0,000000000e+00
      800000000   -4,073392749e-01   -1,276887059e-01    4,070637822e-01    1,182747930e-01    0,000000000e+00    0,000000000e+00    0,000000000e+00    0,000000000e+00
      814000000   -3,773772717e-01    2,023989707e-01    2,966234386e-01   -1,505285352e-01    0,000000000e+00    0,000000000e+00    0,000000000e+00    0,000000000e+00
      828000000   -6,125152484e-02    3,471974134e-01    8,251021057e-02   -1,903770417e-01    0,000000000e+00    0,000000000e+00    0,000000000e+00    0,000000000e+00
      842000000    2,118900269e-01    1,860046983e-01   -3,624552628e-03   -9,272031486e-02    0,000000000e+00    0,000000000e+00    0,000000000e+00    0,000000000e+00
      856000000    2,661805153e-01   -1,058838442e-01    3,607797995e-02   -3,714461252e-02    0,000000000e+00    0,000000000e+00    0,000000000e+00    0,000000000e+00
      870000000    8,293850720e-02   -3,518075049e-01    8,876234293e-02   -9,763194621e-02    0,000000000e+00    0,000000000e+00    0,000000000e+00    0,000000000e+00
      884000000   -2,673429847e-01   -3,555623293e-01    1,136376522e-02   -2,277199775e-01    0,000000000e+00    0,000000000e+00    0,000000000e+00    0,000000000e+00
      898000000   -4,573089778e-01   -1,333097182e-02   -2,148526758e-01   -2,095951736e-01    0,000000000e+00    0,000000000e+00    0,000000000e+00    0,000000000e+00
      912000000   -2,358851731e-01    2,783863842e-01   -3,428829610e-01    7,617225498e-02    0,000000000e+00    0,000000000e+00    0,000000000e+00    0,000000000e+00
      926000000    5,411401391e-02    2,605029941e-01   -2,106602341e-01    2,625749707e-01    0,000000000e+00    0,000000000e+00    0,000000000e+00    0,000000000e+00
      940000000    2,113188058e-01    8,473174274e-02   -3,077290580e-02    3,249160647e-01    0,000000000e+00    0,000000000e+00    0,000000000e+00    0,000000000e+00
      954000000    2,201705426e-01   -1,240952611e-01    1,309445649e-01    3,012636006e-01    0,000000000e+00    0,000000000e+00    0,000000000e+00    0,000000000e+00
      968000000    1,142980829e-01   -2,941297889e-01    2,697836757e-01    2,130831331e-01    0,000000000e+00    0,000000000e+00    0,000000000e+00    0,000000000e+00
      982000000   -7,817271352e-02   -3,870631754e-01    3,603400290e-01    6,130206585e-02    0,000000000e+00    0,000000000e+00    0,000000000e+00    0,000000000e+00
      996000000   -3,124147654e-01   -3,280211985e-01    3,626490533e-01   -1,436600238e-01    0,000000000e+00    0,000000000e+00    0,000000000e+00    0,000000000e+00
     1010000000   -4,647199512e-01   -1,157259941e-01    2,181385905e-01   -3,343716860e-01    0,000000000e+00    0,000000000e+00    0,000000000e+00    0,000000000e+00
     1024000000   -4,118006527e-01    1,451205760e-01   -3,180762753e-02   -3,876081705e-01    0,000000000e+00    0,000000000e+00    0,000000000e+00    0,000000000e+00
     1038000000   -2,232208699e-01    2,852725387e-01   -2,430993170e-01   -2,583768368e-01    0,000000000e+00    0,000000000e+00    0,000000000e+00    0,000000000e+00
     1052000000   -1,653168164e-02    2,821682692e-01   -3,095317781e-01   -4,723850638e-02    0,000000000e+00    0,000000000e+00    0,000000000e+00    0,000000000e+00
     1066000000    1,293682307e-01    1,697072983e-01   -2,499951571e-01    1,375884563e-01    0,000000000e+00    0,000000000e+00    0,000000000e+00    0,000000000e+00
     1080000000    1,930579394e-01    4,852218088e-03   -1,157265902e-01    2,535936236e-01    0,000000000e+00    0,000000000e+00    0,000000000e+00    0,000000000e+00
     1094000000    1,585289240e-01   -1,630292982e-01    6,081995741e-02    2,899717391e-01    0,000000000e+00    0,000000000e+00    0,000000000e+00    0,000000000e+00
     1108000000    2,221493423e-02   -2,973933518e-01    2,612504065e-01    2,359073758e-01    0,000000000e+00    0,000000000e+00    0,000000000e+00    0,000000000e+00
     1122000000   -2,101970166e-01   -2,807353735e-01    4,392022789e-01    2,432911284e-02    0,000000000e+00    0,000000000e+00    0,000000000e+00    0,000000000e+00
     1136000000   -3,286171257e-01   -3,268217668e-02    4,019253850e-01   -3,485246599e-01    0,000000000e+00    0,000000000e+00    0,000000000e+00    0,000000000e+00
     1150000000   -1,060602590e-01    1,428459287e-01    4,834247380e-02   -5,299087763e-01    0,000000000e+00    0,000000000e+00    0,000000000e+00    0,000000000e+00
     1164000000    8,191137761e-02   -1,622398756e-02   -2,534193695e-01   -4,058017731e-01    0,000000000e+00    0,000000000e+00    0,000000000e+00    0,000000000e+00
     1178000000    2,926841751e-02   -2,523089349e-01   -3,672913909e-01   -1,778290123e-01    0,000000000e+00    0,000000000e+00    0,000000000e+00    0,000000000e+00
     1192000000   -2,207153589e-01   -3,490526378e-01   -3,414612114e-01    4,021050781e-02    0,000000000e+00    0,000000000e+00    0,000000000e+00    0,000000000e+00
     1206000000   -4,790386856e-01   -1,823533773e-01   -1,875522435e-01    1,833087951e-01    0,000000000e+00    0,000000000e+00    0,000000000e+00    0,000000000e+00
     1220000000   -5,069138408e-01    1,387407035e-01   -9,199275635e-03    1,734020263e-01    0,000000000e+00    0,000000000e+00    0,000000000e+00    0,000000000e+00
     1234000000   -3,018863797e-01    3,367673457e-01    7,456266135e-02    7,665935159e-02    0,000000000e+00    0,000000000e+00    0,000000000e+00    0,000000000e+00
     1248000000   -6,738058478e-02    3,642944992e-01    7,091045380e-02    1,328523969e-03    0,000000000e+00    0,000000000e+00    0,000000000e+00    0,000000000e+00
     1262000000    1,144528240e-01    2,614730895e-01    3,172858432e-02   -2,276489325e-02    0,000000000e+00    0,000000000e+00    0,000000000e+00    0,000000000e+00
     1276000000    2,040738463e-01    1,061692759e-01    9,535289370e-03   -1,262787730e-02    0,000000000e+00    0,000000000e+00    0,000000000e+00    0,000000000e+00
     1290000000    2,238723338e-01   -6,502897292e-02    1,759110577e-02    2,503623627e-02    0,000000000e+00    0,000000000e+00    0,000000000e+00    0,000000000e+00
     1304000000    1,697220206e-01   -2,315388620e-01    6,286683679e-02    6,004334986e-02    0,000000000e+00    0,000000000e+00    0,000000000e+00    0,000000000e+00
     1318000000    2,074914984e-02   -3,624711037e-01    1,604847014e-01    1,818722114e-02    0,000000000e+00    0,000000000e+00    0,000000000e+00    0,000000000e+00
     1332000000   -1,475582421e-01   -3,971719742e-01    1,065305620e-01   -1,787422299e-01    0,000000000e+00    0,000000000e+00    0,000000000e+00    0,000000000e+00
     1346000000   -3,641369939e-01   -3,929136693e-01   -6,455449760e-02   -2,549637482e-02    0,000000000e+00    0,000000000e+00    0,000000000e+00    0,000000000e+00
     1360000000   -5,786201358e-01   -1,966005415e-01    6,852455437e-02    8,930728585e-02    0,000000000e+00    0,000000000e+00    0,000000000e+00    0,000000000e+00
     1374000000   -6,345534921e-01    1,129061431e-01    1,770834029e-01    5,407232791e-02    0,000000000e+00    0,000000000e+00    0,000000000e+00    0,000000000e+00
     1388000000   -4,711185992e-01    3,509387374e-01    2,261321247e-01   -2,788796462e-02    0,000000000e+00    0,000000000e+00    0,000000000e+00    0,000000000e+00
     1402000000   -2,440240085e-01    4,441979229e-01    2,104205042e-01   -7,788319886e-02    0,000000000e+00    0,000000000e+00    0,000000000e+00    0,000000000e+00
     1416000000   -3,687678650e-02    4,153866470e-01    1,913832724e-01   -9,918233007e-02    0,000000000e+00    0,000000000e+00    0,000000000e+00    0,000000000e+00
     1430000000    1,228731424e-01    2,983289063e-01    1,691182405e-01   -1,095156595e-01    0,000000000e+00    0,000000000e+00    0,000000000e+00    0,000000000e+00
     1444000000    2,003983855e-01    1,572784036e-01    1,642352194e-01   -1,034246832e-01    0,000000000e+00    0,000000000e+00    0,000000000e+00    0,000000000e+00
     1458000000    2,297886610e-01   -1,284104399e-02    1,517748684e-01   -9,118425846e-02    0,000000000e+00    0,000000000e+00    0,000000000e+00    0,000000000e+00
     1472000000    1,918688416e-01   -1,936940700e-01    1,491061151e-01   -3,867215291e-02    0,000000000e+00    0,000000000e+00    0,000000000e+00    0,000000000e+00
     1486000000    6,319421530e-02   -3,670169115e-01    1,776031256e-01    7,830354385e-03    0,000000000e+00    0,000000000e+00    0,000000000e+00    0,000000000e+00
     1500000000   -1,671779752e-01   -4,895402789e-01    2,227301002e-01    8,321379870e-02    0,000000000e+00    0,000000000e+00    0,000000000e+00    0,000000000e+00
