! NanoVNA-App
! Date: 2025-09-25 15:46:19
! Start: 100MHz Stop: 1,5GHz Points: 101
! S-Parameter data: F S11 S21 S12 S22
# Hz S RI R 50
!     Frequency           S11_Real           S11_Imag           S21_Real           S21_Imag           S12_Real           S12_Imag           S22_Real           S22_Imag
      100000000   -2,832390368e-02   -3,956871573e-03    3,734319806e-01   -7,214376926e-01    0,000000000e+00    0,000000000e+00    0,000000000e+00    0,000000000e+00
      114000000   -1,603290252e-02    1,173131447e-02   -8,937823027e-02   -8,045772910e-01    0,000000000e+00    0,000000000e+00    0,000000000e+00    0,000000000e+00
      128000000    3,927155863e-03    1,085995510e-02   -5,142065287e-01   -6,196034551e-01    0,000000000e+00    0,000000000e+00    0,000000000e+00    0,000000000e+00
      142000000    1,518091559e-02   -2,584577072e-03   -7,663818002e-01   -2,359619439e-01    0,000000000e+00    0,000000000e+00    0,000000000e+00    0,000000000e+00
      156000000    1,564235054e-02   -1,463707164e-02   -7,659333348e-01    2,185203880e-01    0,000000000e+00    0,000000000e+00    0,000000000e+00    0,000000000e+00
      170000000    1,751642488e-02   -2,243886515e-02   -5,173770785e-01    6,040834785e-01    0,000000000e+00    0,000000000e+00    0,000000000e+00    0,000000000e+00
      184000000    2,183747664e-02   -3,707333654e-02   -1,011712328e-01    7,853970528e-01    0,000000000e+00    0,000000000e+00    0,000000000e+00    0,000000000e+00
      198000000    1,378057059e-02   -6,245538220e-02    3,432172537e-01    7,113811374e-01    0,000000000e+00    0,000000000e+00    0,000000000e+00    0,000000000e+00
      212000000   -1,788790338e-02   -8,123207092e-02    6,775425673e-01    4,093192816e-01    0,000000000e+00    0,000000000e+00    0,000000000e+00    0,000000000e+00
      226000000   -6,078033522e-02   -6,926303357e-02    7,948290706e-01   -3,066099249e-02    0,000000000e+00    0,000000000e+00    0,000000000e+00    0,000000000e+00
      240000000   -8,154808730e-02   -2,592867613e-02    6,451332569e-01   -4,664399922e-01    0,000000000e+00    0,000000000e+00    0,000000000e+00    0,000000000e+00
      254000000   -6,280083954e-02    1,687645726e-02    2,756423950e-01   -7,424492240e-01    0,000000000e+00    0,000000000e+00    0,000000000e+00    0,000000000e+00
      268000000   -2,317625284e-02    2,870023251e-02   -1,779470444e-01   -7,629197836e-01    0,000000000e+00    0,000000000e+00    0,000000000e+00    0,000000000e+00
      282000000    4,723531660e-03    1,181471907e-02   -5,615263581e-01   -5,354939103e-01    0,000000000e+00    0,000000000e+00    0,000000000e+00    0,000000000e+00
      296000000    1,041445788e-02   -7,880597375e-03   -7,587696314e-01   -1,392880231e-01    0,000000000e+00    0,000000000e+00    0,000000000e+00    0,000000000e+00
      310000000    1,209060661e-02   -1,636979543e-02   -7,113659382e-01    2,987948358e-01    0,000000000e+00    0,000000000e+00    0,000000000e+00    0,000000000e+00
      324000000    2,050289698e-02   -2,675361000e-02   -4,265955091e-01    6,362432241e-01    0,000000000e+00    0,000000000e+00    0,000000000e+00    0,000000000e+00
      338000000    2,626878023e-02   -5,283662304e-02   -9,649976157e-03    7,615348101e-01    0,000000000e+00    0,000000000e+00    0,000000000e+00    0,000000000e+00
      352000000    7,871909998e-03   -8,488885313e-02    4,059409499e-01    6,388843656e-01    0,000000000e+00    0,000000000e+00    0,000000000e+00    0,000000000e+00
      366000000   -3,390126303e-02   -9,558679909e-02    6,893708110e-01    3,104807436e-01    0,000000000e+00    0,000000000e+00    0,000000000e+00    0,000000000e+00
      380000000   -6,986830384e-02   -7,134719938e-02    7,471331358e-01   -1,256736219e-01    0,000000000e+00    0,000000000e+00    0,000000000e+00    0,000000000e+00
      394000000   -7,176429778e-02   -3,299504146e-02    5,461611152e-01   -5,215148926e-01    0,000000000e+00    0,000000000e+00    0,000000000e+00    0,000000000e+00
      408000000   -4,591068998e-02   -1,669471525e-02    1,609515250e-01   -7,313566208e-01    0,000000000e+00    0,000000000e+00    0,000000000e+00    0,000000000e+00
      422000000   -2,785232663e-02   -3,238072991e-02   -2,668238580e-01   -6,939554811e-01    0,000000000e+00    0,000000000e+00    0,000000000e+00    0,000000000e+00
      436000000   -4,020710662e-02   -5,202618614e-02   -6,025368571e-01   -4,313722849e-01    0,000000000e+00    0,000000000e+00    0,000000000e+00    0,000000000e+00
      450000000   -6,687345356e-02   -4,423527047e-02   -7,393987179e-01   -2,163255401e-02    0,000000000e+00    0,000000000e+00    0,000000000e+00    0,000000000e+00
      464000000   -7,225918025e-02   -1,229604427e-02   -6,170617938e-01    3,959362805e-01    0,000000000e+00    0,000000000e+00    0,000000000e+00    0,000000000e+00
      478000000   -4,707320035e-02    1,102882717e-02   -2,824512422e-01    6,665757895e-01    0,000000000e+00    0,000000000e+00    0,000000000e+00    0,000000000e+00
      492000000   -1,520533301e-02    5,393794272e-03    1,366984695e-01    7,014905214e-01    0,000000000e+00    0,000000000e+00    0,000000000e+00    0,000000000e+00
      506000000   -2,151132794e-03   -1,645290293e-02    4,978352487e-01    5,017135143e-01    0,000000000e+00    0,000000000e+00    0,000000000e+00    0,000000000e+00
      520000000   -4,508940969e-03   -3,196581826e-02    6,881691217e-01    1,431607753e-01    0,000000000e+00    0,000000000e+00    0,000000000e+00    0,000000000e+00
      534000000   -3,357938258e-03   -3,889344260e-02    6,421376467e-01   -2,617761493e-01    0,000000000e+00    0,000000000e+00    0,000000000e+00    0,000000000e+00
      548000000    6,392605137e-03   -5,400440469e-02    3,812078834e-01   -5,653964877e-01    0,000000000e+00    0,000000000e+00    0,000000000e+00    0,000000000e+00
      562000000    3,214738332e-03   -8,989166468e-02    2,828316065e-03   -6,697607040e-01    0,000000000e+00    0,000000000e+00    0,000000000e+00    0,000000000e+00
      576000000   -3,392891213e-02   -1,248179972e-01   -3,680898249e-01   -5,578891635e-01    0,000000000e+00    0,000000000e+00    0,000000000e+00    0,000000000e+00
      590000000   -9,545259923e-02   -1,231750175e-01   -6,210424304e-01   -2,642184794e-01    0,000000000e+00    0,000000000e+00    0,000000000e+00    0,000000000e+00
      604000000   -1,386006325e-01   -7,253066450e-02   -6,634559035e-01    1,369258016e-01    0,000000000e+00    0,000000000e+00    0,000000000e+00    0,000000000e+00
      618000000   -1,292708516e-01   -1,034839172e-02   -4,642115831e-01    4,921978116e-01    0,000000000e+00    0,000000000e+00    0,000000000e+00    0,000000000e+00
      632000000   -8,453493565e-02    1,559364237e-02   -1,001074463e-01    6,616432667e-01    0,000000000e+00    0,000000000e+00    0,000000000e+00    0,000000000e+00
      646000000   -5,178635940e-02   -5,133601953e-04    2,850537896e-01    5,936148167e-01    0,000000000e+00    0,000000000e+00    0,000000000e+00    0,000000000e+00
      660000000   -5,362436175e-02   -2,077297680e-02    5,648494959e-01    3,228113949e-01    0,000000000e+00    0,000000000e+00    0,000000000e+00    0,000000000e+00
      674000000   -6,896848977e-02   -1,770075038e-02    6,402440667e-01   -6,312175095e-02    0,000000000e+00    0,000000000e+00    0,000000000e+00    0,000000000e+00
      688000000   -6,746076792e-02    8,173193783e-03    4,707315564e-01   -4,233693480e-01    0,000000000e+00    0,000000000e+00    0,000000000e+00    0,000000000e+00
      702000000   -3,627925739e-02    2,502227575e-02    1,214873642e-01   -6,102659702e-01    0,000000000e+00    0,000000000e+00    0,000000000e+00    0,000000000e+00
      716000000    4,264346324e-03    1,521164086e-02   -2,597959042e-01   -5,443289876e-01    0,000000000e+00    0,000000000e+00    0,000000000e+00    0,000000000e+00
      730000000    3,599030524e-02   -1,471353881e-02   -5,211186409e-01   -2,710887194e-01    0,000000000e+00    0,000000000e+00    0,000000000e+00    0,000000000e+00
      744000000    6,238088384e-02   -6,518407911e-02   -5,607877970e-01    9,804708511e-02    0,000000000e+00    0,000000000e+00    0,000000000e+00    0,000000000e+00
      758000000    6,125100702e-02   -1,526383311e-01   -3,664488792e-01    4,001408815e-01    0,000000000e+00    0,000000000e+00    0,000000000e+00    0,000000000e+00
      772000000   -1,675370522e-02   -2,563200593e-01   -4,670837894e-02    5,091944933e-01    0,000000000e+00    0,000000000e+00    0,000000000e+00    0,000000000e+00
      786000000   -2,008371353e-01   -2,912415564e-01    2,600332797e-01    3,992495239e-01    0,000000000e+00    0,000000000e+00    0,000000000e+00    0,000000000e+00
      800000000   -4,059774280e-01   -1,274977326e-01    4,070171416e-01    1,187302098e-01    0,000000000e+00    0,000000000e+00    0,000000000e+00    0,000000000e+00
      814000000   -3,753901422e-01    2,008260489e-01    2,969772816e-01   -1,515967250e-01    0,000000000e+00    0,000000000e+00    0,000000000e+00    0,000000000e+00
      828000000   -6,327692419e-02    3,458081782e-01    8,244899660e-02   -1,910926849e-01    0,000000000e+00    0,000000000e+00    0,000000000e+00    0,000000000e+00
      842000000    2,106197476e-01    1,855102181e-01   -4,053384066e-03   -9,415920079e-02    0,000000000e+00    0,000000000e+00    0,000000000e+00    0,000000000e+00
      856000000    2,656808496e-01   -1,052515358e-01    3,574284911e-02   -3,690401837e-02    0,000000000e+00    0,000000000e+00    0,000000000e+00    0,000000000e+00
      870000000    8,336924016e-02   -3,516808748e-01    8,788379282e-02   -9,693399817e-02    0,000000000e+00    0,000000000e+00    0,000000000e+00    0,000000000e+00
      884000000   -2,661132812e-01   -3,573005199e-01    1,206753682e-02   -2,264692932e-01    0,000000000e+00    0,000000000e+00    0,000000000e+00    0,000000000e+00
      898000000   -4,569401145e-01   -1,403947547e-02   -2,147049606e-01   -2,080978155e-01    0,000000000e+00    0,000000000e+00    0,000000000e+00    0,000000000e+00
      912000000   -2,356573343e-01    2,766845524e-01   -3,280580342e-01    7,856675237e-02    0,000000000e+00    0,000000000e+00    0,000000000e+00    0,000000000e+00
      926000000    5,637115240e-02    2,599108517e-01   -2,098004669e-01    2,593660951e-01    0,000000000e+00    0,000000000e+00    0,000000000e+00    0,000000000e+00
      940000000    2,096874565e-01    8,258331567e-02   -2,974096686e-02    3,247002065e-01    0,000000000e+00    0,000000000e+00    0,000000000e+00    0,000000000e+00
      954000000    2,179968506e-01   -1,229651719e-01    1,299339980e-01    3,017311394e-01    0,000000000e+00    0,000000000e+00    0,000000000e+00    0,000000000e+00
      968000000    1,169277504e-01   -2,960289717e-01    2,674979568e-01    2,123584300e-01    0,000000000e+00    0,000000000e+00    0,000000000e+00    0,000000000e+00
      982000000   -7,674968988e-02   -3,861326575e-01    3,615323007e-01    5,968663096e-02    0,000000000e+00    0,000000000e+00    0,000000000e+00    0,000000000e+00
      996000000   -3,127680719e-01   -3,303185701e-01    3,640891314e-01   -1,432706267e-01    0,000000000e+00    0,000000000e+00    0,000000000e+00    0,000000000e+00
     1010000000   -4,580489695e-01   -1,158066764e-01    2,183214724e-01   -3,331591189e-01    0,000000000e+00    0,000000000e+00    0,000000000e+00    0,000000000e+00
     1024000000   -4,168224931e-01    1,461385638e-01   -3,158694878e-02   -3,862900138e-01    0,000000000e+00    0,000000000e+00    0,000000000e+00    0,000000000e+00
     1038000000   -2,203862667e-01    2,872173786e-01   -2,428871244e-01   -2,556731701e-01    0,000000000e+00    0,000000000e+00    0,000000000e+00    0,000000000e+00
     1052000000   -1,542614773e-02    2,772431672e-01   -3,094663620e-01   -4,667332396e-02    0,000000000e+00    0,000000000e+00    0,000000000e+00    0,000000000e+00
     1066000000    1,324924678e-01    1,704001278e-01   -2,499254197e-01    1,350378692e-01    0,000000000e+00    0,000000000e+00    0,000000000e+00    0,000000000e+00
     1080000000    1,928044856e-01    5,383868236e-03   -1,140730605e-01    2,543824911e-01    0,000000000e+00    0,000000000e+00    0,000000000e+00    0,000000000e+00
     1094000000    1,620938629e-01   -1,646605134e-01    5,703395605e-02    2,903895378e-01    0,000000000e+00    0,000000000e+00    0,000000000e+00    0,000000000e+00
     1108000000    1,652476005e-02   -2,944838107e-01    2,617321312e-01    2,349258065e-01    0,000000000e+00    0,000000000e+00    0,000000000e+00    0,000000000e+00
     1122000000   -2,162339836e-01   -2,841957510e-01    4,404621720e-01    2,412473410e-02    0,000000000e+00    0,000000000e+00    0,000000000e+00    0,000000000e+00
     1136000000   -3,305169046e-01   -3,385059908e-02    3,989074528e-01   -3,437795937e-01    0,000000000e+00    0,000000000e+00    0,000000000e+00    0,000000000e+00
     1150000000   -1,048865691e-01    1,422916949e-01    5,044177920e-02   -5,289675593e-01    0,000000000e+00    0,000000000e+00    0,000000000e+00    0,000000000e+00
     1164000000    8,157856017e-02   -1,411518827e-02   -2,538587153e-01   -4,044410586e-01    0,000000000e+00    0,000000000e+00    0,000000000e+00    0,000000000e+00
     1178000000    3,150658682e-02   -2,500313520e-01   -3,685330451e-01   -1,788352132e-01    0,000000000e+00    0,000000000e+00    0,000000000e+00    0,000000000e+00
     1192000000   -2,190122604e-01   -3,441794515e-01   -3,447008729e-01    4,365968332e-02    0,000000000e+00    0,000000000e+00    0,000000000e+00    0,000000000e+00
     1206000000   -4,790340364e-01   -1,832295954e-01   -1,922149062e-01    1,814177632e-01    0,000000000e+00    0,000000000e+00    0,000000000e+00    0,000000000e+00
     1220000000   -5,004242063e-01    1,347665638e-01   -7,268457673e-03    1,749914587e-01    0,000000000e+00    0,000000000e+00    0,000000000e+00    0,000000000e+00
     1234000000   -2,946091294e-01    3,386705220e-01    7,531709224e-02    7,694455981e-02    0,000000000e+00    0,000000000e+00    0,000000000e+00    0,000000000e+00
     1248000000   -6,906500459e-02    3,580689132e-01    6,493241340e-02    1,723573776e-03    0,000000000e+00    0,000000000e+00    0,000000000e+00    0,000000000e+00
     1262000000    1,120532677e-01    2,541929185e-01    3,092596866e-02   -2,797123045e-02    0,000000000e+00    0,000000000e+00    0,000000000e+00    0,000000000e+00
     1276000000    2,032440901e-01    1,066802442e-01    8,714345284e-03   -8,317015134e-03    0,000000000e+00    0,000000000e+00    0,000000000e+00    0,000000000e+00
     1290000000    2,175113112e-01   -6,292834133e-02    1,238195971e-02    1,876527444e-02    0,000000000e+00    0,000000000e+00    0,000000000e+00    0,000000000e+00
     1304000000    1,670214683e-01   -2,347053885e-01    6,146224588e-02    5,359769613e-02    0,000000000e+00    0,000000000e+00    0,000000000e+00    0,000000000e+00
     1318000000    2,793796174e-02   -3,643110693e-01    1,699503809e-01    2,125824988e-02    0,000000000e+00    0,000000000e+00    0,000000000e+00    0,000000000e+00
     1332000000   -1,513389498e-01   -3,924525082e-01    1,074038520e-01   -1,743655205e-01    0,000000000e+00    0,000000000e+00    0,000000000e+00    0,000000000e+00
     1346000000   -3,619954586e-01   -3,940689266e-01   -6,781318039e-02   -3,452231362e-02    0,000000000e+00    0,000000000e+00    0,000000000e+00    0,000000000e+00
     1360000000   -5,857207775e-01   -2,087858468e-01    5,964929983e-02    8,340799809e-02    0,000000000e+00    0,000000000e+00    0,000000000e+00    0,000000000e+00
     1374000000   -6,336733699e-01    1,013979912e-01    1,777106524e-01    5,390852317e-02    0,000000000e+00    0,000000000e+00    0,000000000e+00    0,000000000e+00
     1388000000   -4,725408852e-01    3,553785384e-01    2,194173187e-01   -1,162272785e-02    0,000000000e+00    0,000000000e+00    0,000000000e+00    0,000000000e+00
     1402000000   -2,502444088e-01    4,441747963e-01    2,106967866e-01   -6,821149588e-02    0,000000000e+00    0,000000000e+00    0,000000000e+00    0,000000000e+00
     1416000000   -3,438868001e-02    4,168274403e-01    2,021121383e-01   -9,836888313e-02    0,000000000e+00    0,000000000e+00    0,000000000e+00    0,000000000e+00
     1430000000    1,088097095e-01    2,999854386e-01    2,017670274e-01   -1,067805737e-01    0,000000000e+00    0,000000000e+00    0,000000000e+00    0,000000000e+00
     1444000000    2,009034008e-01    1,545096785e-01    1,756201684e-01   -1,167069674e-01    0,000000000e+00    0,000000000e+00    0,000000000e+00    0,000000000e+00
     1458000000    2,339558899e-01   -6,426278036e-03    1,518828422e-01   -8,233906329e-02    0,000000000e+00    0,000000000e+00    0,000000000e+00    0,000000000e+00
     1472000000    1,911460906e-01   -1,973682642e-01    1,486997455e-01   -4,612910375e-02    0,000000000e+00    0,000000000e+00    0,000000000e+00    0,000000000e+00
     1486000000    6,281039864e-02   -3,604652286e-01    1,460324973e-01    2,123296075e-02    0,000000000e+00    0,000000000e+00    0,000000000e+00    0,000000000e+00
     1500000000   -1,605122983e-01   -4,910003245e-01    2,370406389e-01    7,626327127e-02    0,000000000e+00    0,000000000e+00    0,000000000e+00    0,000000000e+00
