! NanoVNA-App
! Date: 2025-09-25 15:43:19
! Start: 100MHz Stop: 1,5GHz Points: 101
! S-Parameter data: F S11 S21 S12 S22
# Hz S RI R 50
!     Frequency           S11_Real           S11_Imag           S21_Real           S21_Imag           S12_Real           S12_Imag           S22_Real           S22_Imag
      100000000   -2,872038633e-02   -4,254539032e-03    3,738881648e-01   -7,215040922e-01    0,000000000e+00    0,000000000e+00    0,000000000e+00    0,000000000e+00
      114000000   -1,650973968e-02    1,144810487e-02   -8,916005492e-02   -8,051818609e-01    0,000000000e+00    0,000000000e+00    0,000000000e+00    0,000000000e+00
      128000000    3,471220378e-03    1,070006099e-02   -5,144774914e-01   -6,203116179e-01    0,000000000e+00    0,000000000e+00    0,000000000e+00    0,000000000e+00
      142000000    1,465406362e-02   -2,653565258e-03   -7,670121789e-01   -2,364930511e-01    0,000000000e+00    0,000000000e+00    0,000000000e+00    0,000000000e+00
      156000000    1,596463844e-02   -1,429156773e-02   -7,686351538e-01    2,237606645e-01    0,000000000e+00    0,000000000e+00    0,000000000e+00    0,000000000e+00
      170000000    1,714869589e-02   -2,246962301e-02   -5,178482533e-01    6,043421030e-01    0,000000000e+00    0,000000000e+00    0,000000000e+00    0,000000000e+00
      184000000    2,138320543e-02   -3,713249415e-02   -1,014372855e-01    7,859181762e-01    0,000000000e+00    0,000000000e+00    0,000000000e+00    0,000000000e+00
      198000000    1,325083245e-02   -6,253370643e-02    3,428480327e-01    7,120069265e-01    0,000000000e+00    0,000000000e+00    0,000000000e+00    0,000000000e+00
      212000000   -1,838721335e-02   -8,128164709e-02    6,777972579e-01    4,100051224e-01    0,000000000e+00    0,000000000e+00    0,000000000e+00    0,000000000e+00
      226000000   -6,135820970e-02   -6,921052933e-02    7,953935862e-01   -3,052492067e-02    0,000000000e+00    0,000000000e+00    0,000000000e+00    0,000000000e+00
      240000000   -8,220137656e-02   -2,582704648e-02    6,458833218e-01   -4,667366147e-01    0,000000000e+00    0,000000000e+00    0,000000000e+00    0,000000000e+00
      254000000   -6,339425594e-02    1,690270565e-02    2,761760354e-01   -7,430143952e-01    0,000000000e+00    0,000000000e+00    0,000000000e+00    0,000000000e+00
      268000000   -2,394636162e-02    2,873029374e-02   -1,777670532e-01   -7,638959885e-01    0,000000000e+00    0,000000000e+00    0,000000000e+00    0,000000000e+00
      282000000    4,071119241e-03    1,200282387e-02   -5,616731048e-01   -5,357824564e-01    0,000000000e+00    0,000000000e+00    0,000000000e+00    0,000000000e+00
      296000000    9,833490476e-03   -7,569226902e-03   -7,594373822e-01   -1,395635754e-01    0,000000000e+00    0,000000000e+00    0,000000000e+00    0,000000000e+00
      310000000    1,153890323e-02   -1,622030511e-02   -7,117759585e-01    2,979883552e-01    0,000000000e+00    0,000000000e+00    0,000000000e+00    0,000000000e+00
      324000000    2,006825618e-02   -2,672179975e-02   -4,272736907e-01    6,369498968e-01    0,000000000e+00    0,000000000e+00    0,000000000e+00    0,000000000e+00
      338000000    2,536814101e-02   -5,236190557e-02   -7,980380207e-03    7,591117620e-01    0,000000000e+00    0,000000000e+00    0,000000000e+00    0,000000000e+00
      352000000    7,463141810e-03   -8,479078859e-02    4,060728550e-01    6,394977570e-01    0,000000000e+00    0,000000000e+00    0,000000000e+00    0,000000000e+00
      366000000   -3,443334997e-02   -9,547251463e-02    6,903504729e-01    3,115248382e-01    0,000000000e+00    0,000000000e+00    0,000000000e+00    0,000000000e+00
      380000000   -7,048884034e-02   -7,092315704e-02    7,470845580e-01   -1,252973676e-01    0,000000000e+00    0,000000000e+00    0,000000000e+00    0,000000000e+00
      394000000   -7,200787216e-02   -3,257041797e-02    5,465137362e-01   -5,217434168e-01    0,000000000e+00    0,000000000e+00    0,000000000e+00    0,000000000e+00
      408000000   -4,622140899e-02   -1,633387990e-02    1,610577554e-01   -7,319178581e-01    0,000000000e+00    0,000000000e+00    0,000000000e+00    0,000000000e+00
      422000000   -2,813157625e-02   -3,211588040e-02   -2,679118812e-01   -6,949104071e-01    0,000000000e+00    0,000000000e+00    0,000000000e+00    0,000000000e+00
      436000000   -4,060164839e-02   -5,195887759e-02   -6,038613319e-01   -4,324118793e-01    0,000000000e+00    0,000000000e+00    0,000000000e+00    0,000000000e+00
      450000000   -6,717931479e-02   -4,374547303e-02   -7,400566339e-01   -2,175288461e-02    0,000000000e+00    0,000000000e+00    0,000000000e+00    0,000000000e+00
      464000000   -7,316467166e-02   -1,164715178e-02   -6,178767681e-01    3,967706859e-01    0,000000000e+00    0,000000000e+00    0,000000000e+00    0,000000000e+00
      478000000   -4,767825827e-02    1,145812497e-02   -2,826443017e-01    6,668642163e-01    0,000000000e+00    0,000000000e+00    0,000000000e+00    0,000000000e+00
      492000000   -1,588343829e-02    5,747958086e-03    1,368184686e-01    7,004587054e-01    0,000000000e+00    0,000000000e+00    0,000000000e+00    0,000000000e+00
      506000000   -3,008683678e-03   -1,607757621e-02    4,977247119e-01    5,026416183e-01    0,000000000e+00    0,000000000e+00    0,000000000e+00    0,000000000e+00
      520000000   -4,926608410e-03   -3,157103062e-02    6,882069707e-01    1,423666477e-01    0,000000000e+00    0,000000000e+00    0,000000000e+00    0,000000000e+00
      534000000   -3,791251453e-03   -3,791432083e-02    6,430551410e-01   -2,618360817e-01    0,000000000e+00    0,000000000e+00    0,000000000e+00    0,000000000e+00
      548000000    6,298728753e-03   -5,376446620e-02    3,809686601e-01   -5,667040944e-01    0,000000000e+00    0,000000000e+00    0,000000000e+00    0,000000000e+00
      562000000    3,880637232e-03   -8,957563341e-02    2,486415673e-03   -6,716195941e-01    0,000000000e+00    0,000000000e+00    0,000000000e+00    0,000000000e+00
      576000000   -3,371538967e-02   -1,243431196e-01   -3,678711057e-01   -5,574826002e-01    0,000000000e+00    0,000000000e+00    0,000000000e+00    0,000000000e+00
      590000000   -9,584040940e-02   -1,228208169e-01   -6,204297543e-01   -2,650497854e-01    0,000000000e+00    0,000000000e+00    0,000000000e+00    0,000000000e+00
      604000000   -1,387298405e-01   -7,262050360e-02   -6,642417312e-01    1,366404444e-01    0,000000000e+00    0,000000000e+00    0,000000000e+00    0,000000000e+00
      618000000   -1,289110035e-01   -1,032540854e-02   -4,642315805e-01    4,928362668e-01    0,000000000e+00    0,000000000e+00    0,000000000e+00    0,000000000e+00
      632000000   -8,487493545e-02    1,566724479e-02   -1,002737731e-01    6,621242166e-01    0,000000000e+00    0,000000000e+00    0,000000000e+00    0,000000000e+00
      646000000   -5,166325718e-02    1,086088130e-03    2,855199277e-01    5,942376852e-01    0,000000000e+00    0,000000000e+00    0,000000000e+00    0,000000000e+00
      660000000   -5,354822800e-02   -2,125243284e-02    5,643273592e-01    3,237601519e-01    0,000000000e+00    0,000000000e+00    0,000000000e+00    0,000000000e+00
      674000000   -7,014163584e-02   -1,623715833e-02    6,407133937e-01   -6,320866197e-02    0,000000000e+00    0,000000000e+00    0,000000000e+00    0,000000000e+00
      688000000   -6,644681841e-02    9,147809818e-03    4,710562229e-01   -4,234694839e-01    0,000000000e+00    0,000000000e+00    0,000000000e+00    0,000000000e+00
      702000000   -3,604755551e-02    2,670667320e-02    1,224667728e-01   -6,107102036e-01    0,000000000e+00    0,000000000e+00    0,000000000e+00    0,000000000e+00
      716000000    3,387624864e-03    1,693625934e-02   -2,594115436e-01   -5,451143384e-01    0,000000000e+00    0,000000000e+00    0,000000000e+00    0,000000000e+00
      730000000    3,724421561e-02   -1,344113424e-02   -5,219302177e-01   -2,718303800e-01    0,000000000e+00    0,000000000e+00    0,000000000e+00    0,000000000e+00
      744000000    6,249001250e-02   -6,453202665e-02   -5,605317950e-01    9,847053885e-02    0,000000000e+00    0,000000000e+00    0,000000000e+00    0,000000000e+00
      758000000    6,096706167e-02   -1,512529850e-01   -3,661920130e-01    4,001410604e-01    0,000000000e+00    0,000000000e+00    0,000000000e+00    0,000000000e+00
      772000000   -1,683988236e-02   -2,558779120e-01   -4,634063318e-02    5,101718307e-01    0,000000000e+00    0,000000000e+00    0,000000000e+00    0,000000000e+00
      786000000   -2,020965219e-01   -2,912884951e-01    2,594873309e-01    3,990465999e-01    0,000000000e+00    0,000000000e+00    0,000000000e+00    0,000000000e+00
      800000000   -4,078565836e-01   -1,280101091e-01    4,074791968e-01    1,187034175e-01    0,000000000e+00    0,000000000e+00    0,000000000e+00    0,000000000e+00
      814000000   -3,765170276e-01    2,006570697e-01    2,965365946e-01   -1,513917148e-01    0,000000000e+00    0,000000000e+00    0,000000000e+00    0,000000000e+00
      828000000   -6,177335605e-02    3,472054303e-01    8,306989819e-02   -1,909611821e-01    0,000000000e+00    0,000000000e+00    0,000000000e+00    0,000000000e+00
      842000000    2,114479095e-01    1,853908151e-01   -3,425607691e-03   -9,321194887e-02    0,000000000e+00    0,000000000e+00    0,000000000e+00    0,000000000e+00
      856000000    2,659576237e-01   -1,055262387e-01    3,576901555e-02   -3,696121648e-02    0,000000000e+00    0,000000000e+00    0,000000000e+00    0,000000000e+00
      870000000    8,229792118e-02   -3,508877456e-01    8,887774497e-02   -9,710844606e-02    0,000000000e+00    0,000000000e+00    0,000000000e+00    0,000000000e+00
      884000000   -2,670665681e-01   -3,557700217e-01    1,106699184e-02   -2,278282344e-01    0,000000000e+00    0,000000000e+00    0,000000000e+00    0,000000000e+00
      898000000   -4,583856165e-01   -1,331743039e-02   -2,152028978e-01   -2,092442364e-01    0,000000000e+00    0,000000000e+00    0,000000000e+00    0,000000000e+00
      912000000   -2,353721559e-01    2,792922556e-01   -3,385011256e-01    6,421423703e-02    0,000000000e+00    0,000000000e+00    0,000000000e+00    0,000000000e+00
      926000000    5,489121005e-02    2,631027997e-01   -2,098480165e-01    2,636659443e-01    0,000000000e+00    0,000000000e+00    0,000000000e+00    0,000000000e+00
      940000000    2,105143070e-01    8,313591033e-02   -3,094289079e-02    3,236761093e-01    0,000000000e+00    0,000000000e+00    0,000000000e+00    0,000000000e+00
      954000000    2,185826898e-01   -1,227144673e-01    1,325014681e-01    3,018471599e-01    0,000000000e+00    0,000000000e+00    0,000000000e+00    0,000000000e+00
      968000000    1,175514311e-01   -2,932644188e-01    2,704979181e-01    2,135238349e-01    0,000000000e+00    0,000000000e+00    0,000000000e+00    0,000000000e+00
      982000000   -8,020947129e-02   -3,838033378e-01    3,596292436e-01    6,229906902e-02    0,000000000e+00    0,000000000e+00    0,000000000e+00    0,000000000e+00
      996000000   -3,134422302e-01   -3,321221769e-01    3,620876074e-01   -1,444213390e-01    0,000000000e+00    0,000000000e+00    0,000000000e+00    0,000000000e+00
     1010000000   -4,571533203e-01   -1,148411334e-01    2,189518511e-01   -3,365595937e-01    0,000000000e+00    0,000000000e+00    0,000000000e+00    0,000000000e+00
     1024000000   -4,171325862e-01    1,479985267e-01   -3,240248188e-02   -3,861442804e-01    0,000000000e+00    0,000000000e+00    0,000000000e+00    0,000000000e+00
     1038000000   -2,199630290e-01    2,871377468e-01   -2,427686304e-01   -2,557843328e-01    0,000000000e+00    0,000000000e+00    0,000000000e+00    0,000000000e+00
     1052000000   -1,100452151e-02    2,812044322e-01   -3,111546636e-01   -4,682574049e-02    0,000000000e+00    0,000000000e+00    0,000000000e+00    0,000000000e+00
     1066000000    1,337054521e-01    1,712208241e-01   -2,469683141e-01    1,377445459e-01    0,000000000e+00    0,000000000e+00    0,000000000e+00    0,000000000e+00
     1080000000    1,935639083e-01    1,138187572e-02   -1,181939393e-01    2,531291544e-01    0,000000000e+00    0,000000000e+00    0,000000000e+00    0,000000000e+00
     1094000000    1,584455073e-01   -1,617664397e-01    6,091844290e-02    2,931197584e-01    0,000000000e+00    0,000000000e+00    0,000000000e+00    0,000000000e+00
     1108000000    1,974217780e-02   -2,932510078e-01    2,607123852e-01    2,351271361e-01    0,000000000e+00    0,000000000e+00    0,000000000e+00    0,000000000e+00
     1122000000   -2,117031813e-01   -2,857354581e-01    4,421869218e-01    2,123508044e-02    0,000000000e+00    0,000000000e+00    0,000000000e+00    0,000000000e+00
     1136000000   -3,316461444e-01   -3,156454861e-02    4,018513560e-01   -3,438208401e-01    0,000000000e+00    0,000000000e+00    0,000000000e+00    0,000000000e+00
     1150000000   -1,037487462e-01    1,413681358e-01    4,983512312e-02   -5,280470252e-01    0,000000000e+00    0,000000000e+00    0,000000000e+00    0,000000000e+00
     1164000000    8,467187732e-02   -2,075104788e-02   -2,505139410e-01   -4,032906592e-01    0,000000000e+00    0,000000000e+00    0,000000000e+00    0,000000000e+00
     1178000000    2,753020637e-02   -2,494245768e-01   -3,687459826e-01   -1,757843643e-01    0,000000000e+00    0,000000000e+00    0,000000000e+00    0,000000000e+00
     1192000000   -2,184470147e-01   -3,460984230e-01   -3,386347890e-01    4,039893299e-02    0,000000000e+00    0,000000000e+00    0,000000000e+00    0,000000000e+00
     1206000000   -4,793304801e-01   -1,788095236e-01   -1,915246695e-01    1,856585443e-01    0,000000000e+00    0,000000000e+00    0,000000000e+00    0,000000000e+00
     1220000000   -5,094297528e-01    1,372892559e-01   -1,252378803e-02    1,731858402e-01    0,000000000e+00    0,000000000e+00    0,000000000e+00    0,000000000e+00
     1234000000   -3,044632971e-01    3,411247432e-01    7,517666370e-02    7,839427143e-02    0,000000000e+00    0,000000000e+00    0,000000000e+00    0,000000000e+00
     1248000000   -6,295018643e-02    3,631639779e-01    7,217104733e-02    4,364145920e-03    0,000000000e+00    0,000000000e+00    0,000000000e+00    0,000000000e+00
     1262000000    1,080308408e-01    2,619816065e-01    2,631326392e-02   -2,442555502e-02    0,000000000e+00    0,000000000e+00    0,000000000e+00    0,000000000e+00
     1276000000    2,040299773e-01    1,099523157e-01    6,871152204e-03   -7,387032267e-03    0,000000000e+00    0,000000000e+00    0,000000000e+00    0,000000000e+00
     1290000000    2,178312838e-01   -6,229384243e-02    8,367831819e-03    2,648981661e-02    0,000000000e+00    0,000000000e+00    0,000000000e+00    0,000000000e+00
     1304000000    1,647809595e-01   -2,283060402e-01    6,213315576e-02    5,870855227e-02    0,000000000e+00    0,000000000e+00    0,000000000e+00    0,000000000e+00
     1318000000    2,424008772e-02   -3,638769090e-01    1,707044989e-01    1,943760365e-02    0,000000000e+00    0,000000000e+00    0,000000000e+00    0,000000000e+00
     1332000000   -1,537348926e-01   -4,020383954e-01    1,020270661e-01   -1,793655604e-01    0,000000000e+00    0,000000000e+00    0,000000000e+00    0,000000000e+00
     1346000000   -3,613974452e-01   -3,937207460e-01   -5,673601478e-02   -3,436760604e-02    0,000000000e+00    0,000000000e+00    0,000000000e+00    0,000000000e+00
     1360000000   -5,779375434e-01   -1,935527623e-01    6,469117105e-02    9,670019150e-02    0,000000000e+00    0,000000000e+00    0,000000000e+00    0,000000000e+00
     1374000000   -6,339643002e-01    1,007294655e-01    1,779749990e-01    5,825540423e-02    0,000000000e+00    0,000000000e+00    0,000000000e+00    0,000000000e+00
     1388000000   -4,658221602e-01    3,565405011e-01    2,240086943e-01   -2,061831951e-02    0,000000000e+00    0,000000000e+00    0,000000000e+00    0,000000000e+00
     1402000000   -2,485682964e-01    4,464492798e-01    2,142471820e-01   -6,987357140e-02    0,000000000e+00    0,000000000e+00    0,000000000e+00    0,000000000e+00
     1416000000   -4,148600250e-02    4,154718518e-01    1,870089173e-01   -1,048594415e-01    0,000000000e+00    0,000000000e+00    0,000000000e+00    0,000000000e+00
     1430000000    1,180230826e-01    3,068842292e-01    1,583766937e-01   -1,156570390e-01    0,000000000e+00    0,000000000e+00    0,000000000e+00    0,000000000e+00
     1444000000    1,967811882e-01    1,543739289e-01    1,642163247e-01   -1,177331284e-01    0,000000000e+00    0,000000000e+00    0,000000000e+00    0,000000000e+00
     1458000000    2,260267586e-01   -1,133779529e-02    1,441604048e-01   -9,472341835e-02    0,000000000e+00    0,000000000e+00    0,000000000e+00    0,000000000e+00
     1472000000    1,895340383e-01   -1,938326806e-01    1,448727101e-01   -3,607769310e-02    0,000000000e+00    0,000000000e+00    0,000000000e+00    0,000000000e+00
     1486000000    6,654213369e-02   -3,657169044e-01    1,643915921e-01    7,209201343e-03    0,000000000e+00    0,000000000e+00    0,000000000e+00    0,000000000e+00
     1500000000   -1,533324122e-01   -4,922676384e-01    2,389881164e-01    8,625178039e-02    0,000000000e+00    0,000000000e+00    0,000000000e+00    0,000000000e+00
