! NanoVNA-App
! Date: 2025-09-25 15:45:12
! Start: 100MHz Stop: 1,5GHz Points: 101
! S-Parameter data: F S11 S21 S12 S22
# Hz S RI R 50
!     Frequency           S11_Real           S11_Imag           S21_Real           S21_Imag           S12_Real           S12_Imag           S22_Real           S22_Imag
      100000000   -2,878291160e-02   -4,251679406e-03    3,740045428e-01   -7,216089964e-01    0,000000000e+00    0,000000000e+00    0,000000000e+00    0,000000000e+00
      114000000   -1,658125594e-02    1,148814522e-02   -8,909492940e-02   -8,052304387e-01    0,000000000e+00    0,000000000e+00    0,000000000e+00    0,000000000e+00
      128000000    3,359218361e-03    1,067637373e-02   -5,143265128e-01   -6,201915741e-01    0,000000000e+00    0,000000000e+00    0,000000000e+00    0,000000000e+00
      142000000    1,464367751e-02   -2,659722231e-03   -7,668061852e-01   -2,365068048e-01    0,000000000e+00    0,000000000e+00    0,000000000e+00    0,000000000e+00
      156000000    1,629013754e-02   -1,409430895e-02   -7,698783875e-01    2,242778838e-01    0,000000000e+00    0,000000000e+00    0,000000000e+00    0,000000000e+00
      170000000    1,707784459e-02   -2,245067060e-02   -5,180872083e-01    6,044889688e-01    0,000000000e+00    0,000000000e+00    0,000000000e+00    0,000000000e+00
      184000000    2,125408687e-02   -3,713326901e-02   -1,015000716e-01    7,856120467e-01    0,000000000e+00    0,000000000e+00    0,000000000e+00    0,000000000e+00
      198000000    1,325257029e-02   -6,251414120e-02    3,430260420e-01    7,122925520e-01    0,000000000e+00    0,000000000e+00    0,000000000e+00    0,000000000e+00
      212000000   -1,845544390e-02   -8,126857877e-02    6,777439713e-01    4,097829163e-01    0,000000000e+00    0,000000000e+00    0,000000000e+00    0,000000000e+00
      226000000   -6,136425585e-02   -6,922841072e-02    7,954339385e-01   -3,048610501e-02    0,000000000e+00    0,000000000e+00    0,000000000e+00    0,000000000e+00
      240000000   -8,230377734e-02   -2,577071451e-02    6,458902359e-01   -4,669157267e-01    0,000000000e+00    0,000000000e+00    0,000000000e+00    0,000000000e+00
      254000000   -6,345269084e-02    1,697272435e-02    2,760911286e-01   -7,429519296e-01    0,000000000e+00    0,000000000e+00    0,000000000e+00    0,000000000e+00
      268000000   -2,393282577e-02    2,873937041e-02   -1,780576110e-01   -7,642772794e-01    0,000000000e+00    0,000000000e+00    0,000000000e+00    0,000000000e+00
      282000000    4,152646754e-03    1,207144372e-02   -5,614476204e-01   -5,354706049e-01    0,000000000e+00    0,000000000e+00    0,000000000e+00    0,000000000e+00
      296000000    9,842101485e-03   -7,658257615e-03   -7,594839931e-01   -1,396017224e-01    0,000000000e+00    0,000000000e+00    0,000000000e+00    0,000000000e+00
      310000000    1,147871464e-02   -1,602124609e-02   -7,127619386e-01    2,983942330e-01    0,000000000e+00    0,000000000e+00    0,000000000e+00    0,000000000e+00
      324000000    2,012334019e-02   -2,669117227e-02   -4,272984862e-01    6,378227472e-01    0,000000000e+00    0,000000000e+00    0,000000000e+00    0,000000000e+00
      338000000    2,575375699e-02   -5,201825500e-02   -7,128486410e-03    7,642908096e-01    0,000000000e+00    0,000000000e+00    0,000000000e+00    0,000000000e+00
      352000000    7,648430765e-03   -8,470360935e-02    4,063748717e-01    6,397330761e-01    0,000000000e+00    0,000000000e+00    0,000000000e+00    0,000000000e+00
      366000000   -3,446183354e-02   -9,550419450e-02    6,899590492e-01    3,105883002e-01    0,000000000e+00    0,000000000e+00    0,000000000e+00    0,000000000e+00
      380000000   -7,035808265e-02   -7,117691636e-02    7,473549843e-01   -1,258521527e-01    0,000000000e+00    0,000000000e+00    0,000000000e+00    0,000000000e+00
      394000000   -7,260446995e-02   -3,263507038e-02    5,453711152e-01   -5,218273401e-01    0,000000000e+00    0,000000000e+00    0,000000000e+00    0,000000000e+00
      408000000   -4,604383931e-02   -1,639758795e-02    1,609125733e-01   -7,308608890e-01    0,000000000e+00    0,000000000e+00    0,000000000e+00    0,000000000e+00
      422000000   -2,832941338e-02   -3,204168752e-02   -2,675014734e-01   -6,935620904e-01    0,000000000e+00    0,000000000e+00    0,000000000e+00    0,000000000e+00
      436000000   -4,048251733e-02   -5,194200948e-02   -6,033607721e-01   -4,329051673e-01    0,000000000e+00    0,000000000e+00    0,000000000e+00    0,000000000e+00
      450000000   -6,713404506e-02   -4,408794269e-02   -7,399030328e-01   -2,221081406e-02    0,000000000e+00    0,000000000e+00    0,000000000e+00    0,000000000e+00
      464000000   -7,319846004e-02   -1,162239164e-02   -6,188507676e-01    3,963738382e-01    0,000000000e+00    0,000000000e+00    0,000000000e+00    0,000000000e+00
      478000000   -4,730212688e-02    1,152949966e-02   -2,834118009e-01    6,665949821e-01    0,000000000e+00    0,000000000e+00    0,000000000e+00    0,000000000e+00
      492000000   -1,589464955e-02    5,799048115e-03    1,364953369e-01    7,005435228e-01    0,000000000e+00    0,000000000e+00    0,000000000e+00    0,000000000e+00
      506000000   -2,824078780e-03   -1,547245495e-02    4,969327450e-01    5,024856329e-01    0,000000000e+00    0,000000000e+00    0,000000000e+00    0,000000000e+00
      520000000   -4,661401734e-03   -3,140515462e-02    6,872978210e-01    1,434715390e-01    0,000000000e+00    0,000000000e+00    0,000000000e+00    0,000000000e+00
      534000000   -3,875881666e-03   -3,783163056e-02    6,430507898e-01   -2,616448402e-01    0,000000000e+00    0,000000000e+00    0,000000000e+00    0,000000000e+00
      548000000    6,209552754e-03   -5,401998758e-02    3,808845282e-01   -5,660167933e-01    0,000000000e+00    0,000000000e+00    0,000000000e+00    0,000000000e+00
      562000000    3,698447486e-03   -8,908052742e-02    3,296756651e-03   -6,714466810e-01    0,000000000e+00    0,000000000e+00    0,000000000e+00    0,000000000e+00
      576000000   -3,354647011e-02   -1,243485510e-01   -3,672536612e-01   -5,574935079e-01    0,000000000e+00    0,000000000e+00    0,000000000e+00    0,000000000e+00
      590000000   -9,566446394e-02   -1,227250546e-01   -6,201255918e-01   -2,662903070e-01    0,000000000e+00    0,000000000e+00    0,000000000e+00    0,000000000e+00
      604000000   -1,387931406e-01   -7,241840661e-02   -6,640596390e-01    1,364887953e-01    0,000000000e+00    0,000000000e+00    0,000000000e+00    0,000000000e+00
      618000000   -1,288201660e-01   -9,944480844e-03   -4,640637040e-01    4,927703738e-01    0,000000000e+00    0,000000000e+00    0,000000000e+00    0,000000000e+00
      632000000   -8,422850817e-02    1,651730016e-02   -9,972934425e-02    6,616182327e-01    0,000000000e+00    0,000000000e+00    0,000000000e+00    0,000000000e+00
      646000000   -5,162282661e-02    2,713655122e-04    2,855308354e-01    5,947979689e-01    0,000000000e+00    0,000000000e+00    0,000000000e+00    0,000000000e+00
      660000000   -5,397215113e-02   -2,042048983e-02    5,642947555e-01    3,235986531e-01    0,000000000e+00    0,000000000e+00    0,000000000e+00    0,000000000e+00
      674000000   -6,887624413e-02   -1,656770892e-02    6,409521103e-01   -6,314248592e-02    0,000000000e+00    0,000000000e+00    0,000000000e+00    0,000000000e+00
      688000000   -6,697723269e-02    9,760474786e-03    4,707826674e-01   -4,234286249e-01    0,000000000e+00    0,000000000e+00    0,000000000e+00    0,000000000e+00
      702000000   -3,613124788e-02    2,586946450e-02    1,196445748e-01   -6,112834215e-01    0,000000000e+00    0,000000000e+00    0,000000000e+00    0,000000000e+00
      716000000    4,001701251e-03    1,602140442e-02   -2,585454583e-01   -5,444353223e-01    0,000000000e+00    0,000000000e+00    0,000000000e+00    0,000000000e+00
      730000000    3,713180125e-02   -1,350623462e-02   -5,219226480e-01   -2,712545097e-01    0,000000000e+00    0,000000000e+00    0,000000000e+00    0,000000000e+00
      744000000    6,221199408e-02   -6,568016112e-02   -5,605606437e-01    9,826782346e-02    0,000000000e+00    0,000000000e+00    0,000000000e+00    0,000000000e+00
      758000000    6,066351011e-02   -1,513600647e-01   -3,663945496e-01    3,997963667e-01    0,000000000e+00    0,000000000e+00    0,000000000e+00    0,000000000e+00
      772000000   -1,763536595e-02   -2,556218505e-01   -4,476092383e-02    5,091946721e-01    0,000000000e+00    0,000000000e+00    0,000000000e+00    0,000000000e+00
      786000000   -2,016546279e-01   -2,917858660e-01    2,595434785e-01    3,991788328e-01    0,000000000e+00    0,000000000e+00    0,000000000e+00    0,000000000e+00
      800000000   -4,080309272e-01   -1,274063736e-01    4,077070653e-01    1,189945117e-01    0,000000000e+00    0,000000000e+00    0,000000000e+00    0,000000000e+00
      814000000   -3,775448799e-01    2,006637901e-01    2,972798347e-01   -1,516223848e-01    0,000000000e+00    0,000000000e+00    0,000000000e+00    0,000000000e+00
      828000000   -6,256505847e-02    3,466213942e-01    8,264754713e-02   -1,911600977e-01    0,000000000e+00    0,000000000e+00    0,000000000e+00    0,000000000e+00
      842000000    2,109429091e-01    1,861288100e-01   -3,498054808e-03   -9,349843115e-02    0,000000000e+00    0,000000000e+00    0,000000000e+00    0,000000000e+00
      856000000    2,664465606e-01   -1,052735671e-01    3,532858565e-02   -3,757721931e-02    0,000000000e+00    0,000000000e+00    0,000000000e+00    0,000000000e+00
      870000000    8,341082931e-02   -3,511217833e-01    8,767655492e-02   -9,693745524e-02    0,000000000e+00    0,000000000e+00    0,000000000e+00    0,000000000e+00
      884000000   -2,661922872e-01   -3,552697301e-01    1,212102454e-02   -2,268758267e-01    0,000000000e+00    0,000000000e+00    0,000000000e+00    0,000000000e+00
      898000000   -4,582331181e-01   -1,480771415e-02   -2,153715342e-01   -2,106461823e-01    0,000000000e+00    0,000000000e+00    0,000000000e+00    0,000000000e+00
      912000000   -2,360996157e-01    2,785747349e-01   -3,270802498e-01    7,234790176e-02    0,000000000e+00    0,000000000e+00    0,000000000e+00    0,000000000e+00
      926000000    5,583706498e-02    2,633600533e-01   -2,069166005e-01    2,644012570e-01    0,000000000e+00    0,000000000e+00    0,000000000e+00    0,000000000e+00
      940000000    2,094750106e-01    8,256679773e-02   -3,091613203e-02    3,241835833e-01    0,000000000e+00    0,000000000e+00    0,000000000e+00    0,000000000e+00
      954000000    2,235888839e-01   -1,233313158e-01    1,317878515e-01    2,998280227e-01    0,000000000e+00    0,000000000e+00    0,000000000e+00    0,000000000e+00
      968000000    1,154991984e-01   -2,970447838e-01    2,673613727e-01    2,129598111e-01    0,000000000e+00    0,000000000e+00    0,000000000e+00    0,000000000e+00
      982000000   -7,614512742e-02   -3,875421286e-01    3,611864448e-01    6,286713481e-02    0,000000000e+00    0,000000000e+00    0,000000000e+00    0,000000000e+00
      996000000   -3,133679926e-01   -3,292228878e-01    3,626789749e-01   -1,444944888e-01    0,000000000e+00    0,000000000e+00    0,000000000e+00    0,000000000e+00
     1010000000   -4,576568305e-01   -1,141264290e-01    2,192000300e-01   -3,351388574e-01    0,000000000e+00    0,000000000e+00    0,000000000e+00    0,000000000e+00
     1024000000   -4,153102934e-01    1,458869576e-01   -3,193816543e-02   -3,875923753e-01    0,000000000e+00    0,000000000e+00    0,000000000e+00    0,000000000e+00
     1038000000   -2,238320410e-01    2,916516066e-01   -2,406924963e-01   -2,581751645e-01    0,000000000e+00    0,000000000e+00    0,000000000e+00    0,000000000e+00
     1052000000   -1,300802827e-02    2,777458429e-01   -3,119889200e-01   -4,609093815e-02    0,000000000e+00    0,000000000e+00    0,000000000e+00    0,000000000e+00
     1066000000    1,302512139e-01    1,716296375e-01   -2,554367185e-01    1,405600756e-01    0,000000000e+00    0,000000000e+00    0,000000000e+00    0,000000000e+00
     1080000000    1,951009482e-01    7,271361537e-03   -1,158691347e-01    2,512072623e-01    0,000000000e+00    0,000000000e+00    0,000000000e+00    0,000000000e+00
     1094000000    1,630885750e-01   -1,614415944e-01    5,995914713e-02    2,904514372e-01    0,000000000e+00    0,000000000e+00    0,000000000e+00    0,000000000e+00
     1108000000    1,762196422e-02   -2,986025810e-01    2,585898638e-01    2,359996289e-01    0,000000000e+00    0,000000000e+00    0,000000000e+00    0,000000000e+00
     1122000000   -2,141837925e-01   -2,860698998e-01    4,372312725e-01    2,516406402e-02    0,000000000e+00    0,000000000e+00    0,000000000e+00    0,000000000e+00
     1136000000   -3,231140375e-01   -3,548204526e-02    4,003027081e-01   -3,481895328e-01    0,000000000e+00    0,000000000e+00    0,000000000e+00    0,000000000e+00
     1150000000   -1,039875001e-01    1,365704387e-01    5,003541708e-02   -5,292627215e-01    0,000000000e+00    0,000000000e+00    0,000000000e+00    0,000000000e+00
     1164000000    8,718324453e-02   -1,583615318e-02   -2,520594001e-01   -4,027077556e-01    0,000000000e+00    0,000000000e+00    0,000000000e+00    0,000000000e+00
     1178000000    2,928244695e-02   -2,501035035e-01   -3,720805049e-01   -1,754342467e-01    0,000000000e+00    0,000000000e+00    0,000000000e+00    0,000000000e+00
     1192000000   -2,229494900e-01   -3,461026251e-01   -3,455424309e-01    4,336281493e-02    0,000000000e+00    0,000000000e+00    0,000000000e+00    0,000000000e+00
     1206000000   -4,828775525e-01   -1,837594509e-01   -1,927848309e-01    1,815892160e-01    0,000000000e+00    0,000000000e+00    0,000000000e+00    0,000000000e+00
     1220000000   -5,046433210e-01    1,342778355e-01   -1,196122542e-02    1,755819023e-01    0,000000000e+00    0,000000000e+00    0,000000000e+00    0,000000000e+00
     1234000000   -3,029023111e-01    3,483940959e-01    7,493653148e-02    8,282133192e-02    0,000000000e+00    0,000000000e+00    0,000000000e+00    0,000000000e+00
     1248000000   -5,885882303e-02    3,541893065e-01    6,484889239e-02    2,105276799e-03    0,000000000e+00    0,000000000e+00    0,000000000e+00    0,000000000e+00
     1262000000    1,062566936e-01    2,585009933e-01    2,709112130e-02   -2,590205520e-02    0,000000000e+00    0,000000000e+00    0,000000000e+00    0,000000000e+00
     1276000000    2,014784664e-01    1,057154611e-01    3,865497885e-03   -1,099113841e-02    0,000000000e+00    0,000000000e+00    0,000000000e+00    0,000000000e+00
     1290000000    2,214588076e-01   -6,552260369e-02    1,240675058e-02    2,023663744e-02    0,000000000e+00    0,000000000e+00    0,000000000e+00    0,000000000e+00
     1304000000    1,635336876e-01   -2,340463400e-01    6,017662957e-02    5,642003566e-02    0,000000000e+00    0,000000000e+00    0,000000000e+00    0,000000000e+00
     1318000000    2,896769717e-02   -3,605724573e-01    1,726740897e-01    2,386349626e-02    0,000000000e+00    0,000000000e+00    0,000000000e+00    0,000000000e+00
     1332000000   -1,546281874e-01   -3,943522274e-01    1,019983813e-01   -1,756217927e-01    0,000000000e+00    0,000000000e+00    0,000000000e+00    0,000000000e+00
     1346000000   -3,599222004e-01   -3,915559947e-01   -5,040359497e-02   -3,209811449e-02    0,000000000e+00    0,000000000e+00    0,000000000e+00    0,000000000e+00
     1360000000   -5,897211432e-01   -2,051660120e-01    6,630208343e-02    8,487433195e-02    0,000000000e+00    0,000000000e+00    0,000000000e+00    0,000000000e+00
     1374000000   -6,181103587e-01    1,080052257e-01    1,851475984e-01    5,421971902e-02    0,000000000e+00    0,000000000e+00    0,000000000e+00    0,000000000e+00
     1388000000   -4,739353359e-01    3,499894738e-01    2,266455591e-01   -2,311634086e-02    0,000000000e+00    0,000000000e+00    0,000000000e+00    0,000000000e+00
     1402000000   -2,475157529e-01    4,486485720e-01    2,038445622e-01   -6,647089869e-02    0,000000000e+00    0,000000000e+00    0,000000000e+00    0,000000000e+00
     1416000000   -4,265103489e-02    4,142033756e-01    1,869784743e-01   -1,047521085e-01    0,000000000e+00    0,000000000e+00    0,000000000e+00    0,000000000e+00
     1430000000    1,181005239e-01    3,066723049e-01    1,699382365e-01   -1,094174907e-01    0,000000000e+00    0,000000000e+00    0,000000000e+00    0,000000000e+00
     1444000000    2,020930052e-01    1,595118940e-01    1,588462889e-01   -9,825170040e-02    0,000000000e+00    0,000000000e+00    0,000000000e+00    0,000000000e+00
     1458000000    2,284999192e-01   -1,190219726e-02    1,531603485e-01   -8,419619501e-02    0,000000000e+00    0,000000000e+00    0,000000000e+00    0,000000000e+00
     1472000000    1,948843151e-01   -1,931276321e-01    1,496002674e-01   -3,607171401e-02    0,000000000e+00    0,000000000e+00    0,000000000e+00    0,000000000e+00
     1486000000    7,159946859e-02   -3,694600463e-01    1,727867872e-01    1,889162138e-02    0,000000000e+00    0,000000000e+00    0,000000000e+00    0,000000000e+00
     1500000000   -1,595699191e-01   -4,885343313e-01    2,176355273e-01    8,060977608e-02    0,000000000e+00    0,000000000e+00    0,000000000e+00    0,000000000e+00
