! NanoVNA-App
! Date: 2025-09-25 15:40:48
! Start: 100MHz Stop: 1,5GHz Points: 101
! S-Parameter data: F S11 S21 S12 S22
# Hz S RI R 50
!     Frequency           S11_Real           S11_Imag           S21_Real           S21_Imag           S12_Real           S12_Imag           S22_Real           S22_Imag
      100000000   -2,870083787e-02   -4,240845796e-03    3,739141524e-01   -7,215114832e-01    0,000000000e+00    0,000000000e+00    0,000000000e+00    0,000000000e+00
      114000000   -1,646069437e-02    1,147035509e-02   -8,916325122e-02   -8,052845001e-01    0,000000000e+00    0,000000000e+00    0,000000000e+00    0,000000000e+00
      128000000    3,465489019e-03    1,070558559e-02   -5,145873427e-01   -6,203111410e-01    0,000000000e+00    0,000000000e+00    0,000000000e+00    0,000000000e+00
      142000000    1,469473448e-02   -2,623960841e-03   -7,666959763e-01   -2,363817245e-01    0,000000000e+00    0,000000000e+00    0,000000000e+00    0,000000000e+00
      156000000    1,479138248e-02   -1,455115806e-02   -7,634841800e-01    2,188927084e-01    0,000000000e+00    0,000000000e+00    0,000000000e+00    0,000000000e+00
      170000000    1,721745357e-02   -2,247103117e-02   -5,179354548e-01    6,044978499e-01    0,000000000e+00    0,000000000e+00    0,000000000e+00    0,000000000e+00
      184000000    2,133749425e-02   -3,719998524e-02   -1,014799178e-01    7,857000232e-01    0,000000000e+00    0,000000000e+00    0,000000000e+00    0,000000000e+00
      198000000    1,330910251e-02   -6,253354996e-02    3,431663811e-01    7,120628357e-01    0,000000000e+00    0,000000000e+00    0,000000000e+00    0,000000000e+00
      212000000   -1,842050999e-02   -8,127116412e-02    6,777372956e-01    4,099036753e-01    0,000000000e+00    0,000000000e+00    0,000000000e+00    0,000000000e+00
      226000000   -6,135063991e-02   -6,922774017e-02    7,953657508e-01   -3,055272251e-02    0,000000000e+00    0,000000000e+00    0,000000000e+00    0,000000000e+00
      240000000   -8,219233155e-02   -2,580115199e-02    6,457170844e-01   -4,668596685e-01    0,000000000e+00    0,000000000e+00    0,000000000e+00    0,000000000e+00
      254000000   -6,331914663e-02    1,687156223e-02    2,760239244e-01   -7,428532839e-01    0,000000000e+00    0,000000000e+00    0,000000000e+00    0,000000000e+00
      268000000   -2,397091873e-02    2,866846509e-02   -1,781558692e-01   -7,637107372e-01    0,000000000e+00    0,000000000e+00    0,000000000e+00    0,000000000e+00
      282000000    4,115520976e-03    1,205431297e-02   -5,616975427e-01   -5,353595018e-01    0,000000000e+00    0,000000000e+00    0,000000000e+00    0,000000000e+00
      296000000    9,801681153e-03   -7,498243824e-03   -7,594427466e-01   -1,396053135e-01    0,000000000e+00    0,000000000e+00    0,000000000e+00    0,000000000e+00
      310000000    1,160268672e-02   -1,604229584e-02   -7,129659653e-01    2,979072630e-01    0,000000000e+00    0,000000000e+00    0,000000000e+00    0,000000000e+00
      324000000    2,006723359e-02   -2,666592225e-02   -4,272568524e-01    6,378496289e-01    0,000000000e+00    0,000000000e+00    0,000000000e+00    0,000000000e+00
      338000000    2,574519441e-02   -5,229042843e-02   -7,150846999e-03    7,646244764e-01    0,000000000e+00    0,000000000e+00    0,000000000e+00    0,000000000e+00
      352000000    7,147073280e-03   -8,493344486e-02    4,057803750e-01    6,389420033e-01    0,000000000e+00    0,000000000e+00    0,000000000e+00    0,000000000e+00
      366000000   -3,427591920e-02   -9,532832354e-02    6,897423267e-01    3,107515872e-01    0,000000000e+00    0,000000000e+00    0,000000000e+00    0,000000000e+00
      380000000   -7,050794363e-02   -7,100661844e-02    7,469663024e-01   -1,257498413e-01    0,000000000e+00    0,000000000e+00    0,000000000e+00    0,000000000e+00
      394000000   -7,199386507e-02   -3,266679123e-02    5,467289686e-01   -5,219664574e-01    0,000000000e+00    0,000000000e+00    0,000000000e+00    0,000000000e+00
      408000000   -4,617118463e-02   -1,653493568e-02    1,614406258e-01   -7,334361672e-01    0,000000000e+00    0,000000000e+00    0,000000000e+00    0,000000000e+00
      422000000   -2,812612243e-02   -3,218698502e-02   -2,664953172e-01   -6,948738098e-01    0,000000000e+00    0,000000000e+00    0,000000000e+00    0,000000000e+00
      436000000   -4,041611403e-02   -5,152342841e-02   -6,032006145e-01   -4,318579137e-01    0,000000000e+00    0,000000000e+00    0,000000000e+00    0,000000000e+00
      450000000   -6,729232520e-02   -4,401001707e-02   -7,399386764e-01   -2,233254537e-02    0,000000000e+00    0,000000000e+00    0,000000000e+00    0,000000000e+00
      464000000   -7,311756164e-02   -1,168564241e-02   -6,180620790e-01    3,970826566e-01    0,000000000e+00    0,000000000e+00    0,000000000e+00    0,000000000e+00
      478000000   -4,733953252e-02    1,110944990e-02   -2,827364206e-01    6,669192910e-01    0,000000000e+00    0,000000000e+00    0,000000000e+00    0,000000000e+00
      492000000   -1,603864692e-02    5,995374639e-03    1,366164237e-01    7,011385560e-01    0,000000000e+00    0,000000000e+00    0,000000000e+00    0,000000000e+00
      506000000   -2,391650109e-03   -1,594069041e-02    4,980616868e-01    5,025120974e-01    0,000000000e+00    0,000000000e+00    0,000000000e+00    0,000000000e+00
      520000000   -5,025650375e-03   -3,158962354e-02    6,875084043e-01    1,414915025e-01    0,000000000e+00    0,000000000e+00    0,000000000e+00    0,000000000e+00
      534000000   -3,542417428e-03   -3,795092925e-02    6,429929733e-01   -2,613679469e-01    0,000000000e+00    0,000000000e+00    0,000000000e+00    0,000000000e+00
      548000000    6,563319825e-03   -5,381772295e-02    3,814609945e-01   -5,665609241e-01    0,000000000e+00    0,000000000e+00    0,000000000e+00    0,000000000e+00
      562000000    3,050445113e-03   -8,963858336e-02    2,992629074e-03   -6,711379290e-01    0,000000000e+00    0,000000000e+00    0,000000000e+00    0,000000000e+00
      576000000   -3,414123505e-02   -1,246032417e-01   -3,679727018e-01   -5,573560596e-01    0,000000000e+00    0,000000000e+00    0,000000000e+00    0,000000000e+00
      590000000   -9,579101205e-02   -1,224397868e-01   -6,183059216e-01   -2,648070455e-01    0,000000000e+00    0,000000000e+00    0,000000000e+00    0,000000000e+00
      604000000   -1,388651133e-01   -7,212595642e-02   -6,633868814e-01    1,366409212e-01    0,000000000e+00    0,000000000e+00    0,000000000e+00    0,000000000e+00
      618000000   -1,293594539e-01   -1,045909524e-02   -4,646599293e-01    4,926102161e-01    0,000000000e+00    0,000000000e+00    0,000000000e+00    0,000000000e+00
      632000000   -8,394286782e-02    1,548562292e-02   -1,006567553e-01    6,619437337e-01    0,000000000e+00    0,000000000e+00    0,000000000e+00    0,000000000e+00
      646000000   -5,142335221e-02    6,399285630e-04    2,857698500e-01    5,949022770e-01    0,000000000e+00    0,000000000e+00    0,000000000e+00    0,000000000e+00
      660000000   -5,409456789e-02   -2,096252888e-02    5,652853847e-01    3,240020275e-01    0,000000000e+00    0,000000000e+00    0,000000000e+00    0,000000000e+00
      674000000   -6,931238621e-02   -1,594127528e-02    6,405978799e-01   -6,329988688e-02    0,000000000e+00    0,000000000e+00    0,000000000e+00    0,000000000e+00
      688000000   -6,744147092e-02    8,893017657e-03    4,715640247e-01   -4,232737720e-01    0,000000000e+00    0,000000000e+00    0,000000000e+00    0,000000000e+00
      702000000   -3,614932671e-02    2,529828623e-02    1,262193173e-01   -6,124014258e-01    0,000000000e+00    0,000000000e+00    0,000000000e+00    0,000000000e+00
      716000000    3,852294292e-03    1,539881155e-02   -2,591537535e-01   -5,449824333e-01    0,000000000e+00    0,000000000e+00    0,000000000e+00    0,000000000e+00
      730000000    3,719024360e-02   -1,422548667e-02   -5,219873786e-01   -2,714268267e-01    0,000000000e+00    0,000000000e+00    0,000000000e+00    0,000000000e+00
      744000000    6,315547973e-02   -6,483676285e-02   -5,601339936e-01    9,878568351e-02    0,000000000e+00    0,000000000e+00    0,000000000e+00    0,000000000e+00
      758000000    6,093908474e-02   -1,524737328e-01   -3,660621941e-01    4,002961814e-01    0,000000000e+00    0,000000000e+00    0,000000000e+00    0,000000000e+00
      772000000   -1,705953293e-02   -2,562464178e-01   -4,535708949e-02    5,086875558e-01    0,000000000e+00    0,000000000e+00    0,000000000e+00    0,000000000e+00
      786000000   -2,024509013e-01   -2,907538116e-01    2,597574294e-01    3,980067074e-01    0,000000000e+00    0,000000000e+00    0,000000000e+00    0,000000000e+00
      800000000   -4,077440500e-01   -1,261254400e-01    4,068270326e-01    1,177221388e-01    0,000000000e+00    0,000000000e+00    0,000000000e+00    0,000000000e+00
      814000000   -3,774436712e-01    2,026277781e-01    2,959092855e-01   -1,507385671e-01    0,000000000e+00    0,000000000e+00    0,000000000e+00    0,000000000e+00
      828000000   -6,121232733e-02    3,470987082e-01    8,251712471e-02   -1,899689436e-01    0,000000000e+00    0,000000000e+00    0,000000000e+00    0,000000000e+00
      842000000    2,118601799e-01    1,852996498e-01   -3,260127036e-03   -9,270747751e-02    0,000000000e+00    0,000000000e+00    0,000000000e+00    0,000000000e+00
      856000000    2,660491467e-01   -1,061984524e-01    3,628446162e-02   -3,670150787e-02    0,000000000e+00    0,000000000e+00    0,000000000e+00    0,000000000e+00
      870000000    8,241204917e-02   -3,513119817e-01    8,939869702e-02   -9,787215292e-02    0,000000000e+00    0,000000000e+00    0,000000000e+00    0,000000000e+00
      884000000   -2,677587569e-01   -3,552246094e-01    1,170377061e-02   -2,276911288e-01    0,000000000e+00    0,000000000e+00    0,000000000e+00    0,000000000e+00
      898000000   -4,577107728e-01   -1,280490682e-02   -2,155061215e-01   -2,091735005e-01    0,000000000e+00    0,000000000e+00    0,000000000e+00    0,000000000e+00
      912000000   -2,346575111e-01    2,785183489e-01   -3,251774013e-01    6,989035755e-02    0,000000000e+00    0,000000000e+00    0,000000000e+00    0,000000000e+00
      926000000    5,621204153e-02    2,639797926e-01   -2,092861980e-01    2,639929950e-01    0,000000000e+00    0,000000000e+00    0,000000000e+00    0,000000000e+00
      940000000    2,105870694e-01    8,404932171e-02   -3,038761765e-02    3,239393234e-01    0,000000000e+00    0,000000000e+00    0,000000000e+00    0,000000000e+00
      954000000    2,187422514e-01   -1,241679192e-01    1,297644526e-01    3,007457554e-01    0,000000000e+00    0,000000000e+00    0,000000000e+00    0,000000000e+00
      968000000    1,194719598e-01   -2,961286008e-01    2,693786025e-01    2,126687765e-01    0,000000000e+00    0,000000000e+00    0,000000000e+00    0,000000000e+00
      982000000   -7,877973467e-02   -3,842862844e-01    3,609078228e-01    6,274932623e-02    0,000000000e+00    0,000000000e+00    0,000000000e+00    0,000000000e+00
      996000000   -3,085833192e-01   -3,295154870e-01    3,614069521e-01   -1,429310888e-01    0,000000000e+00    0,000000000e+00    0,000000000e+00    0,000000000e+00
     1010000000   -4,632886946e-01   -1,146266758e-01    2,194126546e-01   -3,357665241e-01    0,000000000e+00    0,000000000e+00    0,000000000e+00    0,000000000e+00
     1024000000   -4,198873937e-01    1,428856999e-01   -3,081317246e-02   -3,858516812e-01    0,000000000e+00    0,000000000e+00    0,000000000e+00    0,000000000e+00
     1038000000   -2,265501618e-01    2,865217030e-01   -2,412307709e-01   -2,566190660e-01    0,000000000e+00    0,000000000e+00    0,000000000e+00    0,000000000e+00
     1052000000   -1,560401078e-02    2,765290439e-01   -3,099236786e-01   -4,645537585e-02    0,000000000e+00    0,000000000e+00    0,000000000e+00    0,000000000e+00
     1066000000    1,334507763e-01    1,676306278e-01   -2,509275377e-01    1,398518384e-01    0,000000000e+00    0,000000000e+00    0,000000000e+00    0,000000000e+00
     1080000000    1,905756891e-01    7,945894264e-03   -1,154094785e-01    2,540404797e-01    0,000000000e+00    0,000000000e+00    0,000000000e+00    0,000000000e+00
     1094000000    1,584033966e-01   -1,661917269e-01    6,076440588e-02    2,942208350e-01    0,000000000e+00    0,000000000e+00    0,000000000e+00    0,000000000e+00
     1108000000    2,051883005e-02   -2,972853184e-01    2,607815862e-01    2,356548160e-01    0,000000000e+00    0,000000000e+00    0,000000000e+00    0,000000000e+00
     1122000000   -2,178782672e-01   -2,827035487e-01    4,402642548e-01    2,038033120e-02    0,000000000e+00    0,000000000e+00    0,000000000e+00    0,000000000e+00
     1136000000   -3,260309100e-01   -2,557844669e-02    4,020052552e-01   -3,460122943e-01    0,000000000e+00    0,000000000e+00    0,000000000e+00    0,000000000e+00
     1150000000   -1,037544310e-01    1,359690130e-01    4,979707301e-02   -5,313542485e-01    0,000000000e+00    0,000000000e+00    0,000000000e+00    0,000000000e+00
     1164000000    8,585188538e-02   -1,842439175e-02   -2,506777048e-01   -4,024916589e-01    0,000000000e+00    0,000000000e+00    0,000000000e+00    0,000000000e+00
     1178000000    2,819910459e-02   -2,501637042e-01   -3,681930602e-01   -1,798061728e-01    0,000000000e+00    0,000000000e+00    0,000000000e+00    0,000000000e+00
     1192000000   -2,214506119e-01   -3,510986865e-01   -3,429328501e-01    3,789202124e-02    0,000000000e+00    0,000000000e+00    0,000000000e+00    0,000000000e+00
     1206000000   -4,777072966e-01   -1,822858155e-01   -1,925781220e-01    1,794279665e-01    0,000000000e+00    0,000000000e+00    0,000000000e+00    0,000000000e+00
     1220000000   -4,994097352e-01    1,424025893e-01   -1,223792415e-02    1,802560091e-01    0,000000000e+00    0,000000000e+00    0,000000000e+00    0,000000000e+00
     1234000000   -2,975410223e-01    3,463675678e-01    7,534252107e-02    8,215364814e-02    0,000000000e+00    0,000000000e+00    0,000000000e+00    0,000000000e+00
     1248000000   -6,007748097e-02    3,537665308e-01    6,811569631e-02   -4,057258368e-03    0,000000000e+00    0,000000000e+00    0,000000000e+00    0,000000000e+00
     1262000000    1,133553907e-01    2,597228587e-01    3,257794306e-02   -2,695836127e-02    0,000000000e+00    0,000000000e+00    0,000000000e+00    0,000000000e+00
     1276000000    2,031459808e-01    1,106625944e-01    7,673148531e-03   -5,502529908e-03    0,000000000e+00    0,000000000e+00    0,000000000e+00    0,000000000e+00
     1290000000    2,208457291e-01   -6,459634006e-02    1,118834876e-02    2,357905917e-02    0,000000000e+00    0,000000000e+00    0,000000000e+00    0,000000000e+00
     1304000000    1,647883654e-01   -2,330156714e-01    5,721941590e-02    5,149511620e-02    0,000000000e+00    0,000000000e+00    0,000000000e+00    0,000000000e+00
     1318000000    2,578564733e-02   -3,602409661e-01    1,699185669e-01    1,795588806e-02    0,000000000e+00    0,000000000e+00    0,000000000e+00    0,000000000e+00
     1332000000   -1,531374305e-01   -3,975090384e-01    9,810513258e-02   -1,755408347e-01    0,000000000e+00    0,000000000e+00    0,000000000e+00    0,000000000e+00
     1346000000   -3,652006388e-01   -3,924440742e-01   -6,168980524e-02   -2,146282606e-02    0,000000000e+00    0,000000000e+00    0,000000000e+00    0,000000000e+00
     1360000000   -5,850117207e-01   -2,071212083e-01    6,210745871e-02    8,410338312e-02    0,000000000e+00    0,000000000e+00    0,000000000e+00    0,000000000e+00
     1374000000   -6,333377957e-01    1,061439142e-01    1,692919582e-01    5,476710200e-02    0,000000000e+00    0,000000000e+00    0,000000000e+00    0,000000000e+00
     1388000000   -4,700399935e-01    3,588300049e-01    2,281673104e-01   -1,932662353e-02    0,000000000e+00    0,000000000e+00    0,000000000e+00    0,000000000e+00
     1402000000   -2,527894974e-01    4,492276311e-01    2,015824467e-01   -7,778472453e-02    0,000000000e+00    0,000000000e+00    0,000000000e+00    0,000000000e+00
     1416000000   -3,619827330e-02    4,064717591e-01    1,940737516e-01   -1,015198305e-01    0,000000000e+00    0,000000000e+00    0,000000000e+00    0,000000000e+00
     1430000000    1,176556349e-01    3,018478453e-01    1,652796715e-01   -1,069023162e-01    0,000000000e+00    0,000000000e+00    0,000000000e+00    0,000000000e+00
     1444000000    2,037880421e-01    1,510155946e-01    1,650732607e-01   -1,094883382e-01    0,000000000e+00    0,000000000e+00    0,000000000e+00    0,000000000e+00
     1458000000    2,351416349e-01   -1,471524220e-02    1,517321616e-01   -9,395803511e-02    0,000000000e+00    0,000000000e+00    0,000000000e+00    0,000000000e+00
     1472000000    1,884626448e-01   -1,949445605e-01    1,351191700e-01   -5,018587783e-02    0,000000000e+00    0,000000000e+00    0,000000000e+00    0,000000000e+00
     1486000000    6,383023411e-02   -3,600784242e-01    1,539277136e-01    2,812612988e-02    0,000000000e+00    0,000000000e+00    0,000000000e+00    0,000000000e+00
     1500000000   -1,562620848e-01   -4,830043316e-01    2,364564091e-01    8,963730931e-02    0,000000000e+00    0,000000000e+00    0,000000000e+00    0,000000000e+00
