! NanoVNA-App
! Date: 2025-09-25 15:42:17
! Start: 100MHz Stop: 1,5GHz Points: 101
! S-Parameter data: F S11 S21 S12 S22
# Hz S RI R 50
!     Frequency           S11_Real           S11_Imag           S21_Real           S21_Imag           S12_Real           S12_Imag           S22_Real           S22_Imag
      100000000   -2,874475904e-02   -4,248987418e-03    3,739469647e-01   -7,215050459e-01    0,000000000e+00    0,000000000e+00    0,000000000e+00    0,000000000e+00
      114000000   -1,651375368e-02    1,149397437e-02   -8,896063268e-02   -8,050315976e-01    0,000000000e+00    0,000000000e+00    0,000000000e+00    0,000000000e+00
      128000000    3,421898466e-03    1,071365736e-02   -5,142384171e-01   -6,202071905e-01    0,000000000e+00    0,000000000e+00    0,000000000e+00    0,000000000e+00
      142000000    1,464535017e-02   -2,648739610e-03   -7,668422461e-01   -2,363329083e-01    0,000000000e+00    0,000000000e+00    0,000000000e+00    0,000000000e+00
      156000000    1,505309995e-02   -1,479148027e-02   -7,666231990e-01    2,183615416e-01    0,000000000e+00    0,000000000e+00    0,000000000e+00    0,000000000e+00
      170000000    1,712109149e-02   -2,245006897e-02   -5,180370212e-01    6,044524908e-01    0,000000000e+00    0,000000000e+00    0,000000000e+00    0,000000000e+00
      184000000    2,132751420e-02   -3,718898445e-02   -1,014393494e-01    7,858983874e-01    0,000000000e+00    0,000000000e+00    0,000000000e+00    0,000000000e+00
      198000000    1,323718857e-02   -6,253106147e-02    3,430560231e-01    7,121001482e-01    0,000000000e+00    0,000000000e+00    0,000000000e+00    0,000000000e+00
      212000000   -1,844152249e-02   -8,131592721e-02    6,778634787e-01    4,098113775e-01    0,000000000e+00    0,000000000e+00    0,000000000e+00    0,000000000e+00
      226000000   -6,138123572e-02   -6,924016029e-02    7,953830361e-01   -3,042312153e-02    0,000000000e+00    0,000000000e+00    0,000000000e+00    0,000000000e+00
      240000000   -8,224831522e-02   -2,579968795e-02    6,459805965e-01   -4,667927325e-01    0,000000000e+00    0,000000000e+00    0,000000000e+00    0,000000000e+00
      254000000   -6,341324747e-02    1,696863584e-02    2,758520246e-01   -7,426860332e-01    0,000000000e+00    0,000000000e+00    0,000000000e+00    0,000000000e+00
      268000000   -2,400101908e-02    2,877467126e-02   -1,776525676e-01   -7,638840079e-01    0,000000000e+00    0,000000000e+00    0,000000000e+00    0,000000000e+00
      282000000    4,057341255e-03    1,207125280e-02   -5,615945458e-01   -5,353786349e-01    0,000000000e+00    0,000000000e+00    0,000000000e+00    0,000000000e+00
      296000000    9,837551042e-03   -7,477004547e-03   -7,594583631e-01   -1,395512074e-01    0,000000000e+00    0,000000000e+00    0,000000000e+00    0,000000000e+00
      310000000    1,169169042e-02   -1,605618931e-02   -7,121048570e-01    2,969349623e-01    0,000000000e+00    0,000000000e+00    0,000000000e+00    0,000000000e+00
      324000000    2,001785301e-02   -2,644550428e-02   -4,275216758e-01    6,375945807e-01    0,000000000e+00    0,000000000e+00    0,000000000e+00    0,000000000e+00
      338000000    2,585087903e-02   -5,242761225e-02   -7,440886460e-03    7,621000409e-01    0,000000000e+00    0,000000000e+00    0,000000000e+00    0,000000000e+00
      352000000    7,734090090e-03   -8,484919369e-02    4,067837894e-01    6,394857168e-01    0,000000000e+00    0,000000000e+00    0,000000000e+00    0,000000000e+00
      366000000   -3,469958529e-02   -9,548598528e-02    6,894162297e-01    3,109853566e-01    0,000000000e+00    0,000000000e+00    0,000000000e+00    0,000000000e+00
      380000000   -7,042336464e-02   -7,116435468e-02    7,468417883e-01   -1,258942187e-01    0,000000000e+00    0,000000000e+00    0,000000000e+00    0,000000000e+00
      394000000   -7,224626839e-02   -3,226402402e-02    5,452078581e-01   -5,210512280e-01    0,000000000e+00    0,000000000e+00    0,000000000e+00    0,000000000e+00
      408000000   -4,630714655e-02   -1,640973985e-02    1,621324867e-01   -7,321392298e-01    0,000000000e+00    0,000000000e+00    0,000000000e+00    0,000000000e+00
      422000000   -2,836417034e-02   -3,215408325e-02   -2,674679458e-01   -6,940174103e-01    0,000000000e+00    0,000000000e+00    0,000000000e+00    0,000000000e+00
      436000000   -4,053973034e-02   -5,184618011e-02   -6,035743952e-01   -4,322813451e-01    0,000000000e+00    0,000000000e+00    0,000000000e+00    0,000000000e+00
      450000000   -6,714551151e-02   -4,353237152e-02   -7,395962477e-01   -2,192644216e-02    0,000000000e+00    0,000000000e+00    0,000000000e+00    0,000000000e+00
      464000000   -7,280494273e-02   -1,158631034e-02   -6,179432869e-01    3,966161907e-01    0,000000000e+00    0,000000000e+00    0,000000000e+00    0,000000000e+00
      478000000   -4,752150923e-02    1,154539734e-02   -2,826638222e-01    6,665722132e-01    0,000000000e+00    0,000000000e+00    0,000000000e+00    0,000000000e+00
      492000000   -1,542700268e-02    5,666558165e-03    1,374749690e-01    7,004852891e-01    0,000000000e+00    0,000000000e+00    0,000000000e+00    0,000000000e+00
      506000000   -2,922637388e-03   -1,606766880e-02    4,981700480e-01    5,021695495e-01    0,000000000e+00    0,000000000e+00    0,000000000e+00    0,000000000e+00
      520000000   -4,941515159e-03   -3,129041567e-02    6,878488064e-01    1,428649724e-01    0,000000000e+00    0,000000000e+00    0,000000000e+00    0,000000000e+00
      534000000   -3,662392730e-03   -3,772081062e-02    6,429663301e-01   -2,614654899e-01    0,000000000e+00    0,000000000e+00    0,000000000e+00    0,000000000e+00
      548000000    6,432845257e-03   -5,387391150e-02    3,820948899e-01   -5,665325522e-01    0,000000000e+00    0,000000000e+00    0,000000000e+00    0,000000000e+00
      562000000    3,271772526e-03   -8,919317275e-02    3,020121017e-03   -6,708090901e-01    0,000000000e+00    0,000000000e+00    0,000000000e+00    0,000000000e+00
      576000000   -3,422015905e-02   -1,246364415e-01   -3,681084812e-01   -5,575394034e-01    0,000000000e+00    0,000000000e+00    0,000000000e+00    0,000000000e+00
      590000000   -9,573888779e-02   -1,227558032e-01   -6,184657812e-01   -2,639025748e-01    0,000000000e+00    0,000000000e+00    0,000000000e+00    0,000000000e+00
      604000000   -1,391632557e-01   -7,213730365e-02   -6,642296910e-01    1,366256922e-01    0,000000000e+00    0,000000000e+00    0,000000000e+00    0,000000000e+00
      618000000   -1,289887577e-01   -9,486545809e-03   -4,640526474e-01    4,933678806e-01    0,000000000e+00    0,000000000e+00    0,000000000e+00    0,000000000e+00
      632000000   -8,485039324e-02    1,649865694e-02   -1,006632000e-01    6,624601483e-01    0,000000000e+00    0,000000000e+00    0,000000000e+00    0,000000000e+00
      646000000   -5,125432834e-02    4,906279501e-04    2,854682803e-01    5,939038992e-01    0,000000000e+00    0,000000000e+00    0,000000000e+00    0,000000000e+00
      660000000   -5,406840518e-02   -2,103378624e-02    5,656132102e-01    3,238966465e-01    0,000000000e+00    0,000000000e+00    0,000000000e+00    0,000000000e+00
      674000000   -6,941439956e-02   -1,606731489e-02    6,403765678e-01   -6,279353052e-02    0,000000000e+00    0,000000000e+00    0,000000000e+00    0,000000000e+00
      688000000   -6,691788882e-02    8,765017614e-03    4,708783031e-01   -4,233706594e-01    0,000000000e+00    0,000000000e+00    0,000000000e+00    0,000000000e+00
      702000000   -3,542147577e-02    2,611282282e-02    1,205951720e-01   -6,085895300e-01    0,000000000e+00    0,000000000e+00    0,000000000e+00    0,000000000e+00
      716000000    2,927504946e-03    1,596974395e-02   -2,603301704e-01   -5,450806022e-01    0,000000000e+00    0,000000000e+00    0,000000000e+00    0,000000000e+00
      730000000    3,642374650e-02   -1,322830096e-02   -5,220249891e-01   -2,706089020e-01    0,000000000e+00    0,000000000e+00    0,000000000e+00    0,000000000e+00
      744000000    6,313385814e-02   -6,530307978e-02   -5,602717400e-01    9,886287153e-02    0,000000000e+00    0,000000000e+00    0,000000000e+00    0,000000000e+00
      758000000    6,184808910e-02   -1,517046988e-01   -3,663029373e-01    4,011122286e-01    0,000000000e+00    0,000000000e+00    0,000000000e+00    0,000000000e+00
      772000000   -1,740004495e-02   -2,566105723e-01   -4,538380355e-02    5,087578297e-01    0,000000000e+00    0,000000000e+00    0,000000000e+00    0,000000000e+00
      786000000   -2,022009641e-01   -2,920638621e-01    2,594481111e-01    3,988198936e-01    0,000000000e+00    0,000000000e+00    0,000000000e+00    0,000000000e+00
      800000000   -4,072281122e-01   -1,268995702e-01    4,063680470e-01    1,183148995e-01    0,000000000e+00    0,000000000e+00    0,000000000e+00    0,000000000e+00
      814000000   -3,770295382e-01    2,014703304e-01    2,968575656e-01   -1,508997977e-01    0,000000000e+00    0,000000000e+00    0,000000000e+00    0,000000000e+00
      828000000   -6,309834868e-02    3,478585184e-01    8,242891729e-02   -1,900040656e-01    0,000000000e+00    0,000000000e+00    0,000000000e+00    0,000000000e+00
      842000000    2,119629234e-01    1,860409081e-01   -3,383560106e-03   -9,289701283e-02    0,000000000e+00    0,000000000e+00    0,000000000e+00    0,000000000e+00
      856000000    2,660877109e-01   -1,059313267e-01    3,629840538e-02   -3,701255098e-02    0,000000000e+00    0,000000000e+00    0,000000000e+00    0,000000000e+00
      870000000    8,295141160e-02   -3,516260087e-01    8,869194239e-02   -9,728699923e-02    0,000000000e+00    0,000000000e+00    0,000000000e+00    0,000000000e+00
      884000000   -2,669012249e-01   -3,572413027e-01    1,196516119e-02   -2,276695520e-01    0,000000000e+00    0,000000000e+00    0,000000000e+00    0,000000000e+00
      898000000   -4,582800567e-01   -1,352366712e-02   -2,163581401e-01   -2,096467018e-01    0,000000000e+00    0,000000000e+00    0,000000000e+00    0,000000000e+00
      912000000   -2,352462858e-01    2,791413069e-01   -3,260944188e-01    7,040711492e-02    0,000000000e+00    0,000000000e+00    0,000000000e+00    0,000000000e+00
      926000000    5,520123988e-02    2,604464591e-01   -2,105863839e-01    2,607353032e-01    0,000000000e+00    0,000000000e+00    0,000000000e+00    0,000000000e+00
      940000000    2,090288848e-01    8,247784525e-02   -3,164234385e-02    3,237556517e-01    0,000000000e+00    0,000000000e+00    0,000000000e+00    0,000000000e+00
      954000000    2,216672748e-01   -1,233412847e-01    1,309173852e-01    3,000720143e-01    0,000000000e+00    0,000000000e+00    0,000000000e+00    0,000000000e+00
      968000000    1,189922243e-01   -2,929925919e-01    2,691561580e-01    2,141033113e-01    0,000000000e+00    0,000000000e+00    0,000000000e+00    0,000000000e+00
      982000000   -7,607086748e-02   -3,873387873e-01    3,606697619e-01    6,249276921e-02    0,000000000e+00    0,000000000e+00    0,000000000e+00    0,000000000e+00
      996000000   -3,074930906e-01   -3,325552344e-01    3,615347445e-01   -1,441522688e-01    0,000000000e+00    0,000000000e+00    0,000000000e+00    0,000000000e+00
     1010000000   -4,645389020e-01   -1,173319817e-01    2,219931930e-01   -3,340446651e-01    0,000000000e+00    0,000000000e+00    0,000000000e+00    0,000000000e+00
     1024000000   -4,124522209e-01    1,442242116e-01   -3,177572414e-02   -3,851555884e-01    0,000000000e+00    0,000000000e+00    0,000000000e+00    0,000000000e+00
     1038000000   -2,249467969e-01    2,872271836e-01   -2,415143698e-01   -2,576353550e-01    0,000000000e+00    0,000000000e+00    0,000000000e+00    0,000000000e+00
     1052000000   -1,440497302e-02    2,816711664e-01   -3,114228249e-01   -4,656049982e-02    0,000000000e+00    0,000000000e+00    0,000000000e+00    0,000000000e+00
     1066000000    1,349246353e-01    1,691795439e-01   -2,544769943e-01    1,384167969e-01    0,000000000e+00    0,000000000e+00    0,000000000e+00    0,000000000e+00
     1080000000    1,944466531e-01    9,739341214e-03   -1,177516356e-01    2,549280524e-01    0,000000000e+00    0,000000000e+00    0,000000000e+00    0,000000000e+00
     1094000000    1,607014686e-01   -1,672831923e-01    6,307400763e-02    2,923116386e-01    0,000000000e+00    0,000000000e+00    0,000000000e+00    0,000000000e+00
     1108000000    1,661028713e-02   -2,952648699e-01    2,592832744e-01    2,326982617e-01    0,000000000e+00    0,000000000e+00    0,000000000e+00    0,000000000e+00
     1122000000   -2,114185989e-01   -2,853055298e-01    4,383451939e-01    2,212619036e-02    0,000000000e+00    0,000000000e+00    0,000000000e+00    0,000000000e+00
     1136000000   -3,236160874e-01   -2,736467496e-02    4,006832838e-01   -3,468464315e-01    0,000000000e+00    0,000000000e+00    0,000000000e+00    0,000000000e+00
     1150000000   -1,049135923e-01    1,420520246e-01    4,970765486e-02   -5,291871428e-01    0,000000000e+00    0,000000000e+00    0,000000000e+00    0,000000000e+00
     1164000000    8,694651723e-02   -1,950058155e-02   -2,522756159e-01   -4,036891162e-01    0,000000000e+00    0,000000000e+00    0,000000000e+00    0,000000000e+00
     1178000000    2,517628297e-02   -2,514323592e-01   -3,723101914e-01   -1,771381795e-01    0,000000000e+00    0,000000000e+00    0,000000000e+00    0,000000000e+00
     1192000000   -2,232901156e-01   -3,492699862e-01   -3,416044712e-01    3,973412141e-02    0,000000000e+00    0,000000000e+00    0,000000000e+00    0,000000000e+00
     1206000000   -4,794114530e-01   -1,841720343e-01   -1,899629831e-01    1,841218770e-01    0,000000000e+00    0,000000000e+00    0,000000000e+00    0,000000000e+00
     1220000000   -5,064865351e-01    1,401153505e-01   -1,185647771e-02    1,784784645e-01    0,000000000e+00    0,000000000e+00    0,000000000e+00    0,000000000e+00
     1234000000   -2,985428274e-01    3,439253569e-01    7,628513873e-02    7,991859317e-02    0,000000000e+00    0,000000000e+00    0,000000000e+00    0,000000000e+00
     1248000000   -6,718774885e-02    3,591966629e-01    6,355977803e-02   -2,276011044e-03    0,000000000e+00    0,000000000e+00    0,000000000e+00    0,000000000e+00
     1262000000    1,102784574e-01    2,564274073e-01    3,217281774e-02   -2,572701126e-02    0,000000000e+00    0,000000000e+00    0,000000000e+00    0,000000000e+00
     1276000000    2,044735849e-01    1,069528088e-01    8,838848211e-03   -1,072451286e-02    0,000000000e+00    0,000000000e+00    0,000000000e+00    0,000000000e+00
     1290000000    2,185183465e-01   -6,490714103e-02    9,883435443e-03    2,646986768e-02    0,000000000e+00    0,000000000e+00    0,000000000e+00    0,000000000e+00
     1304000000    1,658567488e-01   -2,304137051e-01    6,444875896e-02    6,135492772e-02    0,000000000e+00    0,000000000e+00    0,000000000e+00    0,000000000e+00
     1318000000    2,530376986e-02   -3,635261059e-01    1,689763069e-01    2,191638015e-02    0,000000000e+00    0,000000000e+00    0,000000000e+00    0,000000000e+00
     1332000000   -1,532333195e-01   -3,957546651e-01    1,006524935e-01   -1,800203174e-01    0,000000000e+00    0,000000000e+00    0,000000000e+00    0,000000000e+00
     1346000000   -3,535573781e-01   -3,959771097e-01   -4,718155786e-02   -2,383391000e-02    0,000000000e+00    0,000000000e+00    0,000000000e+00    0,000000000e+00
     1360000000   -5,802105069e-01   -2,038954794e-01    7,366348803e-02    8,913335204e-02    0,000000000e+00    0,000000000e+00    0,000000000e+00    0,000000000e+00
     1374000000   -6,217414737e-01    1,091952398e-01    1,752594560e-01    5,054666474e-02    0,000000000e+00    0,000000000e+00    0,000000000e+00    0,000000000e+00
     1388000000   -4,733156562e-01    3,469370902e-01    2,277309150e-01   -3,589173406e-02    0,000000000e+00    0,000000000e+00    0,000000000e+00    0,000000000e+00
     1402000000   -2,434091270e-01    4,438131452e-01    2,131999880e-01   -7,989877462e-02    0,000000000e+00    0,000000000e+00    0,000000000e+00    0,000000000e+00
     1416000000   -3,916102275e-02    4,155484438e-01    1,946443319e-01   -1,076538712e-01    0,000000000e+00    0,000000000e+00    0,000000000e+00    0,000000000e+00
     1430000000    1,162145585e-01    3,040844500e-01    1,843270063e-01   -9,590792656e-02    0,000000000e+00    0,000000000e+00    0,000000000e+00    0,000000000e+00
     1444000000    1,979436576e-01    1,569590420e-01    1,534480900e-01   -1,060146913e-01    0,000000000e+00    0,000000000e+00    0,000000000e+00    0,000000000e+00
     1458000000    2,350592613e-01   -1,532496978e-02    1,520871371e-01   -8,498922735e-02    0,000000000e+00    0,000000000e+00    0,000000000e+00    0,000000000e+00
     1472000000    1,898041517e-01   -1,946052760e-01    1,381465793e-01   -4,053227976e-02    0,000000000e+00    0,000000000e+00    0,000000000e+00    0,000000000e+00
     1486000000    7,272159308e-02   -3,679386973e-01    1,664442420e-01    1,939777657e-02    0,000000000e+00    0,000000000e+00    0,000000000e+00    0,000000000e+00
     1500000000   -1,666308045e-01   -4,782949686e-01    2,227679789e-01    9,462665021e-02    0,000000000e+00    0,000000000e+00    0,000000000e+00    0,000000000e+00
