! NanoVNA-App
! Date: 2025-09-25 15:43:46
! Start: 100MHz Stop: 1,5GHz Points: 101
! S-Parameter data: F S11 S21 S12 S22
# Hz S RI R 50
!     Frequency           S11_Real           S11_Imag           S21_Real           S21_Imag           S12_Real           S12_Imag           S22_Real           S22_Imag
      100000000   -2,874213830e-02   -4,247501493e-03    3,739601374e-01   -7,215367556e-01    0,000000000e+00    0,000000000e+00    0,000000000e+00    0,000000000e+00
      114000000   -1,653360389e-02    1,146738604e-02   -8,901210874e-02   -8,050963283e-01    0,000000000e+00    0,000000000e+00    0,000000000e+00    0,000000000e+00
      128000000    3,459749278e-03    1,071105711e-02   -5,144081712e-01   -6,201248765e-01    0,000000000e+00    0,000000000e+00    0,000000000e+00    0,000000000e+00
      142000000    1,465151925e-02   -2,643977059e-03   -7,667071819e-01   -2,361951023e-01    0,000000000e+00    0,000000000e+00    0,000000000e+00    0,000000000e+00
      156000000    1,481808256e-02   -1,463194005e-02   -7,640820742e-01    2,201353014e-01    0,000000000e+00    0,000000000e+00    0,000000000e+00    0,000000000e+00
      170000000    1,713101566e-02   -2,249041013e-02   -5,178448558e-01    6,043325067e-01    0,000000000e+00    0,000000000e+00    0,000000000e+00    0,000000000e+00
      184000000    2,136124484e-02   -3,714819252e-02   -1,012287512e-01    7,858048081e-01    0,000000000e+00    0,000000000e+00    0,000000000e+00    0,000000000e+00
      198000000    1,320939604e-02   -6,255635619e-02    3,430324197e-01    7,122980356e-01    0,000000000e+00    0,000000000e+00    0,000000000e+00    0,000000000e+00
      212000000   -1,846467517e-02   -8,129830658e-02    6,777350307e-01    4,097875953e-01    0,000000000e+00    0,000000000e+00    0,000000000e+00    0,000000000e+00
      226000000   -6,136770546e-02   -6,914583594e-02    7,954095602e-01   -3,048614971e-02    0,000000000e+00    0,000000000e+00    0,000000000e+00    0,000000000e+00
      240000000   -8,224387467e-02   -2,579343691e-02    6,459499598e-01   -4,668731093e-01    0,000000000e+00    0,000000000e+00    0,000000000e+00    0,000000000e+00
      254000000   -6,340439618e-02    1,693584211e-02    2,760580778e-01   -7,429248095e-01    0,000000000e+00    0,000000000e+00    0,000000000e+00    0,000000000e+00
      268000000   -2,390021458e-02    2,870275453e-02   -1,778606176e-01   -7,639610171e-01    0,000000000e+00    0,000000000e+00    0,000000000e+00    0,000000000e+00
      282000000    4,091638606e-03    1,203179173e-02   -5,617021322e-01   -5,355275869e-01    0,000000000e+00    0,000000000e+00    0,000000000e+00    0,000000000e+00
      296000000    9,846091270e-03   -7,588164415e-03   -7,595851421e-01   -1,396070272e-01    0,000000000e+00    0,000000000e+00    0,000000000e+00    0,000000000e+00
      310000000    1,143074129e-02   -1,600485295e-02   -7,121644020e-01    2,985116243e-01    0,000000000e+00    0,000000000e+00    0,000000000e+00    0,000000000e+00
      324000000    2,009093203e-02   -2,668092772e-02   -4,270768762e-01    6,373516321e-01    0,000000000e+00    0,000000000e+00    0,000000000e+00    0,000000000e+00
      338000000    2,593754791e-02   -5,243968219e-02   -7,264283951e-03    7,628746629e-01    0,000000000e+00    0,000000000e+00    0,000000000e+00    0,000000000e+00
      352000000    7,684797514e-03   -8,491040021e-02    4,063792527e-01    6,389212012e-01    0,000000000e+00    0,000000000e+00    0,000000000e+00    0,000000000e+00
      366000000   -3,417864814e-02   -9,541521966e-02    6,905449629e-01    3,114658892e-01    0,000000000e+00    0,000000000e+00    0,000000000e+00    0,000000000e+00
      380000000   -7,022158056e-02   -7,116857916e-02    7,470927835e-01   -1,252378821e-01    0,000000000e+00    0,000000000e+00    0,000000000e+00    0,000000000e+00
      394000000   -7,220195979e-02   -3,259577975e-02    5,468429923e-01   -5,216713548e-01    0,000000000e+00    0,000000000e+00    0,000000000e+00    0,000000000e+00
      408000000   -4,630960897e-02   -1,649960503e-02    1,616600901e-01   -7,328681350e-01    0,000000000e+00    0,000000000e+00    0,000000000e+00    0,000000000e+00
      422000000   -2,834358066e-02   -3,212424368e-02   -2,667508423e-01   -6,958875656e-01    0,000000000e+00    0,000000000e+00    0,000000000e+00    0,000000000e+00
      436000000   -4,056647792e-02   -5,170986429e-02   -6,033354998e-01   -4,314353168e-01    0,000000000e+00    0,000000000e+00    0,000000000e+00    0,000000000e+00
      450000000   -6,744010001e-02   -4,394433647e-02   -7,399160862e-01   -2,181403153e-02    0,000000000e+00    0,000000000e+00    0,000000000e+00    0,000000000e+00
      464000000   -7,318716496e-02   -1,199016813e-02   -6,183155179e-01    3,963744640e-01    0,000000000e+00    0,000000000e+00    0,000000000e+00    0,000000000e+00
      478000000   -4,758771136e-02    1,112280972e-02   -2,825993299e-01    6,666292548e-01    0,000000000e+00    0,000000000e+00    0,000000000e+00    0,000000000e+00
      492000000   -1,544022001e-02    5,579817109e-03    1,371403188e-01    7,015917301e-01    0,000000000e+00    0,000000000e+00    0,000000000e+00    0,000000000e+00
      506000000   -2,493354725e-03   -1,567010023e-02    4,981513023e-01    5,027690530e-01    0,000000000e+00    0,000000000e+00    0,000000000e+00    0,000000000e+00
      520000000   -5,051752087e-03   -3,140921518e-02    6,868812442e-01    1,417921484e-01    0,000000000e+00    0,000000000e+00    0,000000000e+00    0,000000000e+00
      534000000   -3,717751708e-03   -3,769698739e-02    6,426896453e-01   -2,619302869e-01    0,000000000e+00    0,000000000e+00    0,000000000e+00    0,000000000e+00
      548000000    6,575255655e-03   -5,384073034e-02    3,814506829e-01   -5,663437843e-01    0,000000000e+00    0,000000000e+00    0,000000000e+00    0,000000000e+00
      562000000    3,322409000e-03   -8,984666318e-02    3,523443360e-03   -6,712053418e-01    0,000000000e+00    0,000000000e+00    0,000000000e+00    0,000000000e+00
      576000000   -3,439474106e-02   -1,239873916e-01   -3,671254814e-01   -5,566309690e-01    0,000000000e+00    0,000000000e+00    0,000000000e+00    0,000000000e+00
      590000000   -9,547358006e-02   -1,227309853e-01   -6,197357774e-01   -2,661369741e-01    0,000000000e+00    0,000000000e+00    0,000000000e+00    0,000000000e+00
      604000000   -1,392239630e-01   -7,191576809e-02   -6,647270322e-01    1,366032809e-01    0,000000000e+00    0,000000000e+00    0,000000000e+00    0,000000000e+00
      618000000   -1,296336353e-01   -1,018513273e-02   -4,646155536e-01    4,935075641e-01    0,000000000e+00    0,000000000e+00    0,000000000e+00    0,000000000e+00
      632000000   -8,464302868e-02    1,641540602e-02   -1,000291854e-01    6,619800925e-01    0,000000000e+00    0,000000000e+00    0,000000000e+00    0,000000000e+00
      646000000   -5,259887502e-02    7,235308294e-04    2,864158154e-01    5,940929055e-01    0,000000000e+00    0,000000000e+00    0,000000000e+00    0,000000000e+00
      660000000   -5,415838212e-02   -2,102527581e-02    5,641219616e-01    3,225767910e-01    0,000000000e+00    0,000000000e+00    0,000000000e+00    0,000000000e+00
      674000000   -7,004803419e-02   -1,707509346e-02    6,407617331e-01   -6,332200766e-02    0,000000000e+00    0,000000000e+00    0,000000000e+00    0,000000000e+00
      688000000   -6,710176915e-02    9,819221683e-03    4,704127014e-01   -4,240651429e-01    0,000000000e+00    0,000000000e+00    0,000000000e+00    0,000000000e+00
      702000000   -3,530502692e-02    2,542013302e-02    1,231326237e-01   -6,047415137e-01    0,000000000e+00    0,000000000e+00    0,000000000e+00    0,000000000e+00
      716000000    2,673915122e-03    1,600482687e-02   -2,593338490e-01   -5,445200205e-01    0,000000000e+00    0,000000000e+00    0,000000000e+00    0,000000000e+00
      730000000    3,695502132e-02   -1,325001195e-02   -5,214923620e-01   -2,712294161e-01    0,000000000e+00    0,000000000e+00    0,000000000e+00    0,000000000e+00
      744000000    6,291238964e-02   -6,563670933e-02   -5,604386926e-01    9,882967919e-02    0,000000000e+00    0,000000000e+00    0,000000000e+00    0,000000000e+00
      758000000    6,179292127e-02   -1,516160518e-01   -3,658572733e-01    4,001928568e-01    0,000000000e+00    0,000000000e+00    0,000000000e+00    0,000000000e+00
      772000000   -1,673180424e-02   -2,554028928e-01   -4,604551569e-02    5,091941953e-01    0,000000000e+00    0,000000000e+00    0,000000000e+00    0,000000000e+00
      786000000   -2,028881758e-01   -2,902850807e-01    2,592659295e-01    3,993569911e-01    0,000000000e+00    0,000000000e+00    0,000000000e+00    0,000000000e+00
      800000000   -4,083709717e-01   -1,270657629e-01    4,073450565e-01    1,184393167e-01    0,000000000e+00    0,000000000e+00    0,000000000e+00    0,000000000e+00
      814000000   -3,773675859e-01    2,009997815e-01    2,967750430e-01   -1,512623876e-01    0,000000000e+00    0,000000000e+00    0,000000000e+00    0,000000000e+00
      828000000   -6,204365566e-02    3,480891585e-01    8,255758882e-02   -1,902650893e-01    0,000000000e+00    0,000000000e+00    0,000000000e+00    0,000000000e+00
      842000000    2,115228325e-01    1,860104352e-01   -3,746506292e-03   -9,301946312e-02    0,000000000e+00    0,000000000e+00    0,000000000e+00    0,000000000e+00
      856000000    2,661330998e-01   -1,054067686e-01    3,608172759e-02   -3,707043082e-02    0,000000000e+00    0,000000000e+00    0,000000000e+00    0,000000000e+00
      870000000    8,248804510e-02   -3,514038622e-01    8,818638325e-02   -9,692767262e-02    0,000000000e+00    0,000000000e+00    0,000000000e+00    0,000000000e+00
      884000000   -2,667012215e-01   -3,558310568e-01    1,129064895e-02   -2,274493575e-01    0,000000000e+00    0,000000000e+00    0,000000000e+00    0,000000000e+00
      898000000   -4,579204321e-01   -1,477558818e-02   -2,146072537e-01   -2,095564753e-01    0,000000000e+00    0,000000000e+00    0,000000000e+00    0,000000000e+00
      912000000   -2,356440276e-01    2,783157527e-01   -3,261662126e-01    7,560744882e-02    0,000000000e+00    0,000000000e+00    0,000000000e+00    0,000000000e+00
      926000000    5,489307269e-02    2,604204118e-01   -2,084087133e-01    2,602287531e-01    0,000000000e+00    0,000000000e+00    0,000000000e+00    0,000000000e+00
      940000000    2,104887068e-01    8,365500718e-02   -3,013556264e-02    3,235092759e-01    0,000000000e+00    0,000000000e+00    0,000000000e+00    0,000000000e+00
      954000000    2,188449204e-01   -1,221226454e-01    1,320335716e-01    3,001214564e-01    0,000000000e+00    0,000000000e+00    0,000000000e+00    0,000000000e+00
      968000000    1,174057350e-01   -2,923895121e-01    2,679767609e-01    2,130974382e-01    0,000000000e+00    0,000000000e+00    0,000000000e+00    0,000000000e+00
      982000000   -7,569459826e-02   -3,867304623e-01    3,619996309e-01    6,274993718e-02    0,000000000e+00    0,000000000e+00    0,000000000e+00    0,000000000e+00
      996000000   -3,124636412e-01   -3,335393965e-01    3,623366654e-01   -1,416379809e-01    0,000000000e+00    0,000000000e+00    0,000000000e+00    0,000000000e+00
     1010000000   -4,598821700e-01   -1,124959290e-01    2,198676169e-01   -3,349329531e-01    0,000000000e+00    0,000000000e+00    0,000000000e+00    0,000000000e+00
     1024000000   -4,199714959e-01    1,468873620e-01   -2,970902622e-02   -3,854481280e-01    0,000000000e+00    0,000000000e+00    0,000000000e+00    0,000000000e+00
     1038000000   -2,252448946e-01    2,911044061e-01   -2,419182509e-01   -2,586230338e-01    0,000000000e+00    0,000000000e+00    0,000000000e+00    0,000000000e+00
     1052000000   -1,786306873e-02    2,822221816e-01   -3,105848730e-01   -4,716412351e-02    0,000000000e+00    0,000000000e+00    0,000000000e+00    0,000000000e+00
     1066000000    1,306558698e-01    1,674249321e-01   -2,514030933e-01    1,378165483e-01    0,000000000e+00    0,000000000e+00    0,000000000e+00    0,000000000e+00
     1080000000    1,937603354e-01    1,017615013e-02   -1,146305203e-01    2,524789870e-01    0,000000000e+00    0,000000000e+00    0,000000000e+00    0,000000000e+00
     1094000000    1,628623605e-01   -1,661380529e-01    6,149627268e-02    2,942118943e-01    0,000000000e+00    0,000000000e+00    0,000000000e+00    0,000000000e+00
     1108000000    1,674214005e-02   -2,981643081e-01    2,599972785e-01    2,359692901e-01    0,000000000e+00    0,000000000e+00    0,000000000e+00    0,000000000e+00
     1122000000   -2,097917944e-01   -2,850305736e-01    4,371021092e-01    2,485421672e-02    0,000000000e+00    0,000000000e+00    0,000000000e+00    0,000000000e+00
     1136000000   -3,214349449e-01   -3,077481687e-02    4,037548006e-01   -3,443780839e-01    0,000000000e+00    0,000000000e+00    0,000000000e+00    0,000000000e+00
     1150000000   -1,039961800e-01    1,399413198e-01    4,850040004e-02   -5,302695632e-01    0,000000000e+00    0,000000000e+00    0,000000000e+00    0,000000000e+00
     1164000000    8,365155011e-02   -1,869484410e-02   -2,522709668e-01   -4,058730006e-01    0,000000000e+00    0,000000000e+00    0,000000000e+00    0,000000000e+00
     1178000000    2,680765651e-02   -2,496761233e-01   -3,699637055e-01   -1,788342148e-01    0,000000000e+00    0,000000000e+00    0,000000000e+00    0,000000000e+00
     1192000000   -2,181494981e-01   -3,481158018e-01   -3,398407996e-01    3,844537959e-02    0,000000000e+00    0,000000000e+00    0,000000000e+00    0,000000000e+00
     1206000000   -4,809611142e-01   -1,837129146e-01   -1,896737516e-01    1,821147203e-01    0,000000000e+00    0,000000000e+00    0,000000000e+00    0,000000000e+00
     1220000000   -5,029213428e-01    1,336382329e-01   -8,948736824e-03    1,739860177e-01    0,000000000e+00    0,000000000e+00    0,000000000e+00    0,000000000e+00
     1234000000   -2,966026962e-01    3,399628103e-01    7,473319769e-02    7,754597813e-02    0,000000000e+00    0,000000000e+00    0,000000000e+00    0,000000000e+00
     1248000000   -6,224833056e-02    3,637889028e-01    6,806092709e-02    1,827586791e-03    0,000000000e+00    0,000000000e+00    0,000000000e+00    0,000000000e+00
     1262000000    1,087342203e-01    2,609987557e-01    2,982682921e-02   -2,008681931e-02    0,000000000e+00    0,000000000e+00    0,000000000e+00    0,000000000e+00
     1276000000    2,053057849e-01    1,072454005e-01    7,231619209e-03   -1,312563941e-02    0,000000000e+00    0,000000000e+00    0,000000000e+00    0,000000000e+00
     1290000000    2,194814384e-01   -6,348839402e-02    1,025716122e-02    2,546107583e-02    0,000000000e+00    0,000000000e+00    0,000000000e+00    0,000000000e+00
     1304000000    1,636497378e-01   -2,283431292e-01    5,899913982e-02    6,075238064e-02    0,000000000e+00    0,000000000e+00    0,000000000e+00    0,000000000e+00
     1318000000    2,582884021e-02   -3,619197309e-01    1,727826297e-01    1,797052473e-02    0,000000000e+00    0,000000000e+00    0,000000000e+00    0,000000000e+00
     1332000000   -1,512321532e-01   -3,937306404e-01    9,580199420e-02   -1,777779907e-01    0,000000000e+00    0,000000000e+00    0,000000000e+00    0,000000000e+00
     1346000000   -3,568025827e-01   -3,920024335e-01   -5,075845495e-02   -2,268355526e-02    0,000000000e+00    0,000000000e+00    0,000000000e+00    0,000000000e+00
     1360000000   -5,753412843e-01   -2,026929557e-01    7,569677383e-02    9,177993983e-02    0,000000000e+00    0,000000000e+00    0,000000000e+00    0,000000000e+00
     1374000000   -6,323180199e-01    1,067913994e-01    1,751144677e-01    5,777537450e-02    0,000000000e+00    0,000000000e+00    0,000000000e+00    0,000000000e+00
     1388000000   -4,740433991e-01    3,485761881e-01    2,287043929e-01   -2,198390849e-02    0,000000000e+00    0,000000000e+00    0,000000000e+00    0,000000000e+00
     1402000000   -2,442044765e-01    4,447453618e-01    2,099256366e-01   -6,894568354e-02    0,000000000e+00    0,000000000e+00    0,000000000e+00    0,000000000e+00
     1416000000   -3,526476771e-02    4,124904573e-01    1,946818084e-01   -1,067868322e-01    0,000000000e+00    0,000000000e+00    0,000000000e+00    0,000000000e+00
     1430000000    1,055299565e-01    2,999592721e-01    1,954678446e-01   -9,771439433e-02    0,000000000e+00    0,000000000e+00    0,000000000e+00    0,000000000e+00
     1444000000    2,001015991e-01    1,594367176e-01    1,620934755e-01   -1,064594463e-01    0,000000000e+00    0,000000000e+00    0,000000000e+00    0,000000000e+00
     1458000000    2,365436107e-01   -1,000968274e-02    1,474674493e-01   -7,892188430e-02    0,000000000e+00    0,000000000e+00    0,000000000e+00    0,000000000e+00
     1472000000    1,904906929e-01   -1,920062900e-01    1,366083324e-01   -3,477782384e-02    0,000000000e+00    0,000000000e+00    0,000000000e+00    0,000000000e+00
     1486000000    7,017136365e-02   -3,658640087e-01    1,717348546e-01    2,665473521e-02    0,000000000e+00    0,000000000e+00    0,000000000e+00    0,000000000e+00
     1500000000   -1,623603106e-01   -4,900356233e-01    2,368583828e-01    7,635541260e-02    0,000000000e+00    0,000000000e+00    0,000000000e+00    0,000000000e+00
