! NanoVNA-App
! Date: 2025-09-25 15:44:25
! Start: 100MHz Stop: 1,5GHz Points: 101
! S-Parameter data: F S11 S21 S12 S22
# Hz S RI R 50
!     Frequency           S11_Real           S11_Imag           S21_Real           S21_Imag           S12_Real           S12_Imag           S22_Real           S22_Imag
      100000000   -2,875882946e-02   -4,246772733e-03    3,739858568e-01   -7,215790749e-01    0,000000000e+00    0,000000000e+00    0,000000000e+00    0,000000000e+00
      114000000   -1,652737521e-02    1,148888655e-02   -8,891571313e-02   -8,052017093e-01    0,000000000e+00    0,000000000e+00    0,000000000e+00    0,000000000e+00
      128000000    3,412816441e-03    1,070503425e-02   -5,143210888e-01   -6,203478575e-01    0,000000000e+00    0,000000000e+00    0,000000000e+00    0,000000000e+00
      142000000    1,462347433e-02   -2,656518715e-03   -7,669999599e-01   -2,365654409e-01    0,000000000e+00    0,000000000e+00    0,000000000e+00    0,000000000e+00
      156000000    1,558640227e-02   -1,440862473e-02   -7,673122287e-01    2,226360887e-01    0,000000000e+00    0,000000000e+00    0,000000000e+00    0,000000000e+00
      170000000    1,711048186e-02   -2,241266891e-02   -5,179749727e-01    6,046064496e-01    0,000000000e+00    0,000000000e+00    0,000000000e+00    0,000000000e+00
      184000000    2,137005329e-02   -3,717891872e-02   -1,016403586e-01    7,862002254e-01    0,000000000e+00    0,000000000e+00    0,000000000e+00    0,000000000e+00
      198000000    1,319156960e-02   -6,252596527e-02    3,430377543e-01    7,119176984e-01    0,000000000e+00    0,000000000e+00    0,000000000e+00    0,000000000e+00
      212000000   -1,844763011e-02   -8,128211647e-02    6,779032946e-01    4,098973870e-01    0,000000000e+00    0,000000000e+00    0,000000000e+00    0,000000000e+00
      226000000   -6,138258800e-02   -6,923421472e-02    7,954037786e-01   -3,043559752e-02    0,000000000e+00    0,000000000e+00    0,000000000e+00    0,000000000e+00
      240000000   -8,228625357e-02   -2,579214983e-02    6,459012628e-01   -4,668213129e-01    0,000000000e+00    0,000000000e+00    0,000000000e+00    0,000000000e+00
      254000000   -6,343244016e-02    1,694687083e-02    2,762645483e-01   -7,429212928e-01    0,000000000e+00    0,000000000e+00    0,000000000e+00    0,000000000e+00
      268000000   -2,399580553e-02    2,876305394e-02   -1,778231710e-01   -7,639838457e-01    0,000000000e+00    0,000000000e+00    0,000000000e+00    0,000000000e+00
      282000000    4,099421669e-03    1,207820792e-02   -5,616171956e-01   -5,358108878e-01    0,000000000e+00    0,000000000e+00    0,000000000e+00    0,000000000e+00
      296000000    9,839504957e-03   -7,494823076e-03   -7,594391108e-01   -1,396008879e-01    0,000000000e+00    0,000000000e+00    0,000000000e+00    0,000000000e+00
      310000000    1,149266958e-02   -1,603487134e-02   -7,110855579e-01    2,984590828e-01    0,000000000e+00    0,000000000e+00    0,000000000e+00    0,000000000e+00
      324000000    2,014602907e-02   -2,667709813e-02   -4,271490276e-01    6,373788118e-01    0,000000000e+00    0,000000000e+00    0,000000000e+00    0,000000000e+00
      338000000    2,575325407e-02   -5,238877609e-02   -7,830443792e-03    7,639285326e-01    0,000000000e+00    0,000000000e+00    0,000000000e+00    0,000000000e+00
      352000000    7,366253063e-03   -8,483310044e-02    4,066849649e-01    6,400027275e-01    0,000000000e+00    0,000000000e+00    0,000000000e+00    0,000000000e+00
      366000000   -3,432093188e-02   -9,539762884e-02    6,902418733e-01    3,113646209e-01    0,000000000e+00    0,000000000e+00    0,000000000e+00    0,000000000e+00
      380000000   -7,022984326e-02   -7,103031874e-02    7,470780611e-01   -1,255450398e-01    0,000000000e+00    0,000000000e+00    0,000000000e+00    0,000000000e+00
      394000000   -7,221645117e-02   -3,263034299e-02    5,468427539e-01   -5,216940641e-01    0,000000000e+00    0,000000000e+00    0,000000000e+00    0,000000000e+00
      408000000   -4,640093073e-02   -1,645449735e-02    1,601453871e-01   -7,317609787e-01    0,000000000e+00    0,000000000e+00    0,000000000e+00    0,000000000e+00
      422000000   -2,850921080e-02   -3,206505254e-02   -2,674813569e-01   -6,949359775e-01    0,000000000e+00    0,000000000e+00    0,000000000e+00    0,000000000e+00
      436000000   -4,018885642e-02   -5,146113783e-02   -6,029025912e-01   -4,311673641e-01    0,000000000e+00    0,000000000e+00    0,000000000e+00    0,000000000e+00
      450000000   -6,713572890e-02   -4,401854053e-02   -7,397220135e-01   -2,189303376e-02    0,000000000e+00    0,000000000e+00    0,000000000e+00    0,000000000e+00
      464000000   -7,270421833e-02   -1,207077876e-02   -6,181261539e-01    3,963921666e-01    0,000000000e+00    0,000000000e+00    0,000000000e+00    0,000000000e+00
      478000000   -4,776062444e-02    1,135989837e-02   -2,824333310e-01    6,669837236e-01    0,000000000e+00    0,000000000e+00    0,000000000e+00    0,000000000e+00
      492000000   -1,586194523e-02    5,653569475e-03    1,364323497e-01    7,005758286e-01    0,000000000e+00    0,000000000e+00    0,000000000e+00    0,000000000e+00
      506000000   -2,649089089e-03   -1,580669358e-02    4,977209270e-01    5,024904609e-01    0,000000000e+00    0,000000000e+00    0,000000000e+00    0,000000000e+00
      520000000   -5,294030532e-03   -3,077881038e-02    6,869929433e-01    1,409529746e-01    0,000000000e+00    0,000000000e+00    0,000000000e+00    0,000000000e+00
      534000000   -3,501676954e-03   -3,801858053e-02    6,432220340e-01   -2,619636953e-01    0,000000000e+00    0,000000000e+00    0,000000000e+00    0,000000000e+00
      548000000    6,352193188e-03   -5,374251679e-02    3,810117841e-01   -5,661720037e-01    0,000000000e+00    0,000000000e+00    0,000000000e+00    0,000000000e+00
      562000000    3,469307441e-03   -8,955155313e-02    2,805714961e-03   -6,716533303e-01    0,000000000e+00    0,000000000e+00    0,000000000e+00    0,000000000e+00
      576000000   -3,397776186e-02   -1,246739849e-01   -3,682057559e-01   -5,572874546e-01    0,000000000e+00    0,000000000e+00    0,000000000e+00    0,000000000e+00
      590000000   -9,578014165e-02   -1,228466704e-01   -6,206761599e-01   -2,627198696e-01    0,000000000e+00    0,000000000e+00    0,000000000e+00    0,000000000e+00
      604000000   -1,385432631e-01   -7,208522409e-02   -6,638611555e-01    1,371528506e-01    0,000000000e+00    0,000000000e+00    0,000000000e+00    0,000000000e+00
      618000000   -1,294098794e-01   -1,059119496e-02   -4,652218521e-01    4,935494065e-01    0,000000000e+00    0,000000000e+00    0,000000000e+00    0,000000000e+00
      632000000   -8,451452106e-02    1,648505218e-02   -9,991630912e-02    6,624105573e-01    0,000000000e+00    0,000000000e+00    0,000000000e+00    0,000000000e+00
      646000000   -5,213420838e-02    1,183467451e-03    2,854297757e-01    5,947026014e-01    0,000000000e+00    0,000000000e+00    0,000000000e+00    0,000000000e+00
      660000000   -5,314221606e-02   -2,106598765e-02    5,650026798e-01    3,227750659e-01    0,000000000e+00    0,000000000e+00    0,000000000e+00    0,000000000e+00
      674000000   -7,021567225e-02   -1,662938669e-02    6,406865716e-01   -6,350801140e-02    0,000000000e+00    0,000000000e+00    0,000000000e+00    0,000000000e+00
      688000000   -6,679240614e-02    8,526162244e-03    4,709835052e-01   -4,235485494e-01    0,000000000e+00    0,000000000e+00    0,000000000e+00    0,000000000e+00
      702000000   -3,564060852e-02    2,607378922e-02    1,220111325e-01   -6,103420854e-01    0,000000000e+00    0,000000000e+00    0,000000000e+00    0,000000000e+00
      716000000    2,871119650e-03    1,567642018e-02   -2,588759065e-01   -5,450375080e-01    0,000000000e+00    0,000000000e+00    0,000000000e+00    0,000000000e+00
      730000000    3,678609058e-02   -1,425028313e-02   -5,219520330e-01   -2,714120448e-01    0,000000000e+00    0,000000000e+00    0,000000000e+00    0,000000000e+00
      744000000    6,200945005e-02   -6,485246122e-02   -5,604982376e-01    9,848163277e-02    0,000000000e+00    0,000000000e+00    0,000000000e+00    0,000000000e+00
      758000000    6,170373037e-02   -1,519181281e-01   -3,664690852e-01    4,004681408e-01    0,000000000e+00    0,000000000e+00    0,000000000e+00    0,000000000e+00
      772000000   -1,755239628e-02   -2,557765841e-01   -4,514002055e-02    5,097391605e-01    0,000000000e+00    0,000000000e+00    0,000000000e+00    0,000000000e+00
      786000000   -2,025695741e-01   -2,912091315e-01    2,597488761e-01    3,992333412e-01    0,000000000e+00    0,000000000e+00    0,000000000e+00    0,000000000e+00
      800000000   -4,083371162e-01   -1,275180876e-01    4,076664150e-01    1,186080873e-01    0,000000000e+00    0,000000000e+00    0,000000000e+00    0,000000000e+00
      814000000   -3,764297068e-01    2,014505118e-01    2,968988121e-01   -1,506290585e-01    0,000000000e+00    0,000000000e+00    0,000000000e+00    0,000000000e+00
      828000000   -6,267888099e-02    3,482472301e-01    8,212802559e-02   -1,911275536e-01    0,000000000e+00    0,000000000e+00    0,000000000e+00    0,000000000e+00
      842000000    2,114314735e-01    1,863412410e-01   -4,341962747e-03   -9,335814416e-02    0,000000000e+00    0,000000000e+00    0,000000000e+00    0,000000000e+00
      856000000    2,662265003e-01   -1,054405943e-01    3,519228101e-02   -3,679627553e-02    0,000000000e+00    0,000000000e+00    0,000000000e+00    0,000000000e+00
      870000000    8,265510947e-02   -3,509888947e-01    8,821207285e-02   -9,761298448e-02    0,000000000e+00    0,000000000e+00    0,000000000e+00    0,000000000e+00
      884000000   -2,675479650e-01   -3,563196957e-01    1,133563276e-02   -2,268962264e-01    0,000000000e+00    0,000000000e+00    0,000000000e+00    0,000000000e+00
      898000000   -4,584979415e-01   -1,452903915e-02   -2,152962983e-01   -2,099987864e-01    0,000000000e+00    0,000000000e+00    0,000000000e+00    0,000000000e+00
      912000000   -2,364969105e-01    2,783003747e-01   -3,438419998e-01    6,602700800e-02    0,000000000e+00    0,000000000e+00    0,000000000e+00    0,000000000e+00
      926000000    5,472120643e-02    2,636812329e-01   -2,094292641e-01    2,625126243e-01    0,000000000e+00    0,000000000e+00    0,000000000e+00    0,000000000e+00
      940000000    2,076182663e-01    8,358871937e-02   -3,048495203e-02    3,244458437e-01    0,000000000e+00    0,000000000e+00    0,000000000e+00    0,000000000e+00
      954000000    2,177794129e-01   -1,223676056e-01    1,315916032e-01    2,991007566e-01    0,000000000e+00    0,000000000e+00    0,000000000e+00    0,000000000e+00
      968000000    1,174935177e-01   -2,973041236e-01    2,682552338e-01    2,130269259e-01    0,000000000e+00    0,000000000e+00    0,000000000e+00    0,000000000e+00
      982000000   -7,958725840e-02   -3,854288459e-01    3,610389233e-01    6,283541024e-02    0,000000000e+00    0,000000000e+00    0,000000000e+00    0,000000000e+00
      996000000   -3,124007583e-01   -3,334203959e-01    3,607866466e-01   -1,431365907e-01    0,000000000e+00    0,000000000e+00    0,000000000e+00    0,000000000e+00
     1010000000   -4,640780091e-01   -1,170357689e-01    2,192056030e-01   -3,345714808e-01    0,000000000e+00    0,000000000e+00    0,000000000e+00    0,000000000e+00
     1024000000   -4,157393277e-01    1,472395957e-01   -3,198469430e-02   -3,843046725e-01    0,000000000e+00    0,000000000e+00    0,000000000e+00    0,000000000e+00
     1038000000   -2,197046876e-01    2,894175351e-01   -2,422041893e-01   -2,566834092e-01    0,000000000e+00    0,000000000e+00    0,000000000e+00    0,000000000e+00
     1052000000   -1,756185666e-02    2,779243886e-01   -3,086458743e-01   -4,574762285e-02    0,000000000e+00    0,000000000e+00    0,000000000e+00    0,000000000e+00
     1066000000    1,331699044e-01    1,719168276e-01   -2,527510822e-01    1,360038817e-01    0,000000000e+00    0,000000000e+00    0,000000000e+00    0,000000000e+00
     1080000000    1,912084371e-01    9,114055894e-03   -1,147696599e-01    2,532811165e-01    0,000000000e+00    0,000000000e+00    0,000000000e+00    0,000000000e+00
     1094000000    1,626236439e-01   -1,624588221e-01    6,083120778e-02    2,913599908e-01    0,000000000e+00    0,000000000e+00    0,000000000e+00    0,000000000e+00
     1108000000    1,742342114e-02   -2,927635908e-01    2,610568702e-01    2,328421474e-01    0,000000000e+00    0,000000000e+00    0,000000000e+00    0,000000000e+00
     1122000000   -2,160902917e-01   -2,849256396e-01    4,394384921e-01    2,264880389e-02    0,000000000e+00    0,000000000e+00    0,000000000e+00    0,000000000e+00
     1136000000   -3,262656629e-01   -2,584868670e-02    3,985512555e-01   -3,454529643e-01    0,000000000e+00    0,000000000e+00    0,000000000e+00    0,000000000e+00
     1150000000   -1,097106487e-01    1,418799907e-01    4,916211963e-02   -5,321968794e-01    0,000000000e+00    0,000000000e+00    0,000000000e+00    0,000000000e+00
     1164000000    8,638565987e-02   -1,615864970e-02   -2,524018884e-01   -4,029798508e-01    0,000000000e+00    0,000000000e+00    0,000000000e+00    0,000000000e+00
     1178000000    2,987354808e-02   -2,542755008e-01   -3,698365986e-01   -1,821294129e-01    0,000000000e+00    0,000000000e+00    0,000000000e+00    0,000000000e+00
     1192000000   -2,226537019e-01   -3,453556299e-01   -3,422919512e-01    4,385710508e-02    0,000000000e+00    0,000000000e+00    0,000000000e+00    0,000000000e+00
     1206000000   -4,779101908e-01   -1,827945560e-01   -1,851523668e-01    1,846881360e-01    0,000000000e+00    0,000000000e+00    0,000000000e+00    0,000000000e+00
     1220000000   -5,022746921e-01    1,408344060e-01   -7,693741005e-03    1,775056720e-01    0,000000000e+00    0,000000000e+00    0,000000000e+00    0,000000000e+00
     1234000000   -3,033345342e-01    3,442862034e-01    7,192871720e-02    7,802653313e-02    0,000000000e+00    0,000000000e+00    0,000000000e+00    0,000000000e+00
     1248000000   -6,680393964e-02    3,576581180e-01    6,842115521e-02    1,547026215e-03    0,000000000e+00    0,000000000e+00    0,000000000e+00    0,000000000e+00
     1262000000    1,087070405e-01    2,563350201e-01    2,919282950e-02   -2,576044947e-02    0,000000000e+00    0,000000000e+00    0,000000000e+00    0,000000000e+00
     1276000000    2,028212994e-01    1,057506576e-01    7,352546789e-03   -9,353757836e-03    0,000000000e+00    0,000000000e+00    0,000000000e+00    0,000000000e+00
     1290000000    2,214552462e-01   -6,133272871e-02    8,021747693e-03    2,919155173e-02    0,000000000e+00    0,000000000e+00    0,000000000e+00    0,000000000e+00
     1304000000    1,687551290e-01   -2,342319191e-01    6,701438129e-02    5,251313373e-02    0,000000000e+00    0,000000000e+00    0,000000000e+00    0,000000000e+00
     1318000000    2,587992884e-02   -3,663708568e-01    1,689429581e-01    1,031562872e-02    0,000000000e+00    0,000000000e+00    0,000000000e+00    0,000000000e+00
     1332000000   -1,504165828e-01   -3,967056572e-01    9,315367043e-02   -1,789453477e-01    0,000000000e+00    0,000000000e+00    0,000000000e+00    0,000000000e+00
     1346000000   -3,653149605e-01   -3,882844150e-01   -5,813004822e-02   -1,761272177e-02    0,000000000e+00    0,000000000e+00    0,000000000e+00    0,000000000e+00
     1360000000   -5,908852220e-01   -2,000533640e-01    5,437039956e-02    8,563925326e-02    0,000000000e+00    0,000000000e+00    0,000000000e+00    0,000000000e+00
     1374000000   -6,211990714e-01    1,076823920e-01    1,888060421e-01    5,721545219e-02    0,000000000e+00    0,000000000e+00    0,000000000e+00    0,000000000e+00
     1388000000   -4,722756743e-01    3,545778096e-01    2,144707590e-01   -1,899655908e-02    0,000000000e+00    0,000000000e+00    0,000000000e+00    0,000000000e+00
     1402000000   -2,425787747e-01    4,367054105e-01    2,203516811e-01   -8,127527684e-02    0,000000000e+00    0,000000000e+00    0,000000000e+00    0,000000000e+00
     1416000000   -4,052241147e-02    4,055986702e-01    1,909579784e-01   -1,127784923e-01    0,000000000e+00    0,000000000e+00    0,000000000e+00    0,000000000e+00
     1430000000    1,202374101e-01    2,999046445e-01    1,789446026e-01   -1,357639432e-01    0,000000000e+00    0,000000000e+00    0,000000000e+00    0,000000000e+00
     1444000000    2,020656019e-01    1,550783217e-01    1,569897681e-01   -1,116031781e-01    0,000000000e+00    0,000000000e+00    0,000000000e+00    0,000000000e+00
     1458000000    2,293599546e-01   -9,210526012e-03    1,493053138e-01   -8,059141785e-02    0,000000000e+00    0,000000000e+00    0,000000000e+00    0,000000000e+00
     1472000000    1,888212264e-01   -1,898039132e-01    1,344100982e-01   -4,056155682e-02    0,000000000e+00    0,000000000e+00    0,000000000e+00    0,000000000e+00
     1486000000    7,039667666e-02   -3,686273396e-01    1,631346047e-01    1,554494631e-02    0,000000000e+00    0,000000000e+00    0,000000000e+00    0,000000000e+00
     1500000000   -1,535465121e-01   -4,958037138e-01    2,299588472e-01    7,636346668e-02    0,000000000e+00    0,000000000e+00    0,000000000e+00    0,000000000e+00
