! NanoVNA-App
! Date: 2025-09-25 15:44:34
! Start: 100MHz Stop: 1,5GHz Points: 101
! S-Parameter data: F S11 S21 S12 S22
# Hz S RI R 50
!     Frequency           S11_Real           S11_Imag           S21_Real           S21_Imag           S12_Real           S12_Imag           S22_Real           S22_Imag
      100000000   -2,869746648e-02   -4,234753083e-03    3,738928437e-01   -7,214842439e-01    0,000000000e+00    0,000000000e+00    0,000000000e+00    0,000000000e+00
      114000000   -1,647726633e-02    1,149016619e-02   -8,915036172e-02   -8,051515222e-01    0,000000000e+00    0,000000000e+00    0,000000000e+00    0,000000000e+00
      128000000    3,444414586e-03    1,073080674e-02   -5,142466426e-01   -6,202494502e-01    0,000000000e+00    0,000000000e+00    0,000000000e+00    0,000000000e+00
      142000000    1,471535116e-02   -2,681525424e-03   -7,666478753e-01   -2,364580184e-01    0,000000000e+00    0,000000000e+00    0,000000000e+00    0,000000000e+00
      156000000    1,612916961e-02   -1,439159084e-02   -7,718704343e-01    2,233578861e-01    0,000000000e+00    0,000000000e+00    0,000000000e+00    0,000000000e+00
      170000000    1,717749052e-02   -2,250515297e-02   -5,181529522e-01    6,048029661e-01    0,000000000e+00    0,000000000e+00    0,000000000e+00    0,000000000e+00
      184000000    2,138654701e-02   -3,711810708e-02   -1,015078425e-01    7,857689857e-01    0,000000000e+00    0,000000000e+00    0,000000000e+00    0,000000000e+00
      198000000    1,325060986e-02   -6,249911338e-02    3,430404961e-01    7,121847868e-01    0,000000000e+00    0,000000000e+00    0,000000000e+00    0,000000000e+00
      212000000   -1,834045164e-02   -8,130259067e-02    6,777771711e-01    4,097161591e-01    0,000000000e+00    0,000000000e+00    0,000000000e+00    0,000000000e+00
      226000000   -6,124907359e-02   -6,927133352e-02    7,953077555e-01   -3,045515530e-02    0,000000000e+00    0,000000000e+00    0,000000000e+00    0,000000000e+00
      240000000   -8,219579607e-02   -2,582617477e-02    6,457758546e-01   -4,666393995e-01    0,000000000e+00    0,000000000e+00    0,000000000e+00    0,000000000e+00
      254000000   -6,336508691e-02    1,692015305e-02    2,758082151e-01   -7,426880002e-01    0,000000000e+00    0,000000000e+00    0,000000000e+00    0,000000000e+00
      268000000   -2,393686585e-02    2,878103592e-02   -1,780310273e-01   -7,641668320e-01    0,000000000e+00    0,000000000e+00    0,000000000e+00    0,000000000e+00
      282000000    4,219959956e-03    1,204755623e-02   -5,617383122e-01   -5,354661345e-01    0,000000000e+00    0,000000000e+00    0,000000000e+00    0,000000000e+00
      296000000    9,969118983e-03   -7,646095008e-03   -7,595013976e-01   -1,396661997e-01    0,000000000e+00    0,000000000e+00    0,000000000e+00    0,000000000e+00
      310000000    1,152348612e-02   -1,631583087e-02   -7,114961743e-01    2,971697748e-01    0,000000000e+00    0,000000000e+00    0,000000000e+00    0,000000000e+00
      324000000    2,007559873e-02   -2,658646926e-02   -4,283307791e-01    6,371859908e-01    0,000000000e+00    0,000000000e+00    0,000000000e+00    0,000000000e+00
      338000000    2,591549233e-02   -5,243853480e-02   -9,502786212e-03    7,634262443e-01    0,000000000e+00    0,000000000e+00    0,000000000e+00    0,000000000e+00
      352000000    7,665883284e-03   -8,494868129e-02    4,051699042e-01    6,387698650e-01    0,000000000e+00    0,000000000e+00    0,000000000e+00    0,000000000e+00
      366000000   -3,427326679e-02   -9,524299204e-02    6,898679137e-01    3,113887310e-01    0,000000000e+00    0,000000000e+00    0,000000000e+00    0,000000000e+00
      380000000   -7,028340548e-02   -7,125432789e-02    7,468183637e-01   -1,250661463e-01    0,000000000e+00    0,000000000e+00    0,000000000e+00    0,000000000e+00
      394000000   -7,209836692e-02   -3,236331046e-02    5,466595888e-01   -5,206773877e-01    0,000000000e+00    0,000000000e+00    0,000000000e+00    0,000000000e+00
      408000000   -4,632241651e-02   -1,634859852e-02    1,606537551e-01   -7,323408723e-01    0,000000000e+00    0,000000000e+00    0,000000000e+00    0,000000000e+00
      422000000   -2,829461358e-02   -3,241691366e-02   -2,665133476e-01   -6,953275204e-01    0,000000000e+00    0,000000000e+00    0,000000000e+00    0,000000000e+00
      436000000   -4,052299634e-02   -5,153176188e-02   -6,034160256e-01   -4,317891300e-01    0,000000000e+00    0,000000000e+00    0,000000000e+00    0,000000000e+00
      450000000   -6,680630893e-02   -4,391443729e-02   -7,395756841e-01   -2,220554091e-02    0,000000000e+00    0,000000000e+00    0,000000000e+00    0,000000000e+00
      464000000   -7,308468968e-02   -1,204661187e-02   -6,185135245e-01    3,961352110e-01    0,000000000e+00    0,000000000e+00    0,000000000e+00    0,000000000e+00
      478000000   -4,715065286e-02    1,152173616e-02   -2,824724615e-01    6,668246984e-01    0,000000000e+00    0,000000000e+00    0,000000000e+00    0,000000000e+00
      492000000   -1,589755155e-02    5,728768185e-03    1,374352723e-01    7,014487386e-01    0,000000000e+00    0,000000000e+00    0,000000000e+00    0,000000000e+00
      506000000   -2,795562614e-03   -1,581101120e-02    4,969627559e-01    5,019853711e-01    0,000000000e+00    0,000000000e+00    0,000000000e+00    0,000000000e+00
      520000000   -5,175650120e-03   -3,150574118e-02    6,879487634e-01    1,408737004e-01    0,000000000e+00    0,000000000e+00    0,000000000e+00    0,000000000e+00
      534000000   -3,631776897e-03   -3,784691542e-02    6,430398822e-01   -2,615481615e-01    0,000000000e+00    0,000000000e+00    0,000000000e+00    0,000000000e+00
      548000000    6,446720101e-03   -5,418852717e-02    3,812282979e-01   -5,667443275e-01    0,000000000e+00    0,000000000e+00    0,000000000e+00    0,000000000e+00
      562000000    3,413060214e-03   -8,927792311e-02    2,978811506e-03   -6,722331643e-01    0,000000000e+00    0,000000000e+00    0,000000000e+00    0,000000000e+00
      576000000   -3,409351408e-02   -1,243054271e-01   -3,683759570e-01   -5,571017861e-01    0,000000000e+00    0,000000000e+00    0,000000000e+00    0,000000000e+00
      590000000   -9,557802975e-02   -1,229051575e-01   -6,183917522e-01   -2,645619512e-01    0,000000000e+00    0,000000000e+00    0,000000000e+00    0,000000000e+00
      604000000   -1,385567784e-01   -7,235891372e-02   -6,637837887e-01    1,368398219e-01    0,000000000e+00    0,000000000e+00    0,000000000e+00    0,000000000e+00
      618000000   -1,295543015e-01   -1,027655695e-02   -4,645649493e-01    4,926798046e-01    0,000000000e+00    0,000000000e+00    0,000000000e+00    0,000000000e+00
      632000000   -8,433382213e-02    1,556075830e-02   -1,010617688e-01    6,619092822e-01    0,000000000e+00    0,000000000e+00    0,000000000e+00    0,000000000e+00
      646000000   -5,125471950e-02    6,949694362e-04    2,855477035e-01    5,941018462e-01    0,000000000e+00    0,000000000e+00    0,000000000e+00    0,000000000e+00
      660000000   -5,391473323e-02   -2,155459858e-02    5,646528602e-01    3,233307004e-01    0,000000000e+00    0,000000000e+00    0,000000000e+00    0,000000000e+00
      674000000   -7,025948167e-02   -1,641390286e-02    6,405531764e-01   -6,274856627e-02    0,000000000e+00    0,000000000e+00    0,000000000e+00    0,000000000e+00
      688000000   -6,736561656e-02    8,419761434e-03    4,712277055e-01   -4,240527749e-01    0,000000000e+00    0,000000000e+00    0,000000000e+00    0,000000000e+00
      702000000   -3,599121422e-02    2,574203908e-02    1,207754463e-01   -6,084845066e-01    0,000000000e+00    0,000000000e+00    0,000000000e+00    0,000000000e+00
      716000000    3,153971862e-03    1,661542244e-02   -2,593796849e-01   -5,452610850e-01    0,000000000e+00    0,000000000e+00    0,000000000e+00    0,000000000e+00
      730000000    3,723625466e-02   -1,344418526e-02   -5,216227174e-01   -2,711425126e-01    0,000000000e+00    0,000000000e+00    0,000000000e+00    0,000000000e+00
      744000000    6,233022735e-02   -6,570118666e-02   -5,606867671e-01    9,822946787e-02    0,000000000e+00    0,000000000e+00    0,000000000e+00    0,000000000e+00
      758000000    6,163369864e-02   -1,519540399e-01   -3,669597805e-01    3,996743858e-01    0,000000000e+00    0,000000000e+00    0,000000000e+00    0,000000000e+00
      772000000   -1,770894974e-02   -2,562692463e-01   -4,618856683e-02    5,090662837e-01    0,000000000e+00    0,000000000e+00    0,000000000e+00    0,000000000e+00
      786000000   -2,017847300e-01   -2,915372252e-01    2,598262727e-01    4,005270004e-01    0,000000000e+00    0,000000000e+00    0,000000000e+00    0,000000000e+00
      800000000   -4,077802002e-01   -1,276879460e-01    4,073883593e-01    1,190654784e-01    0,000000000e+00    0,000000000e+00    0,000000000e+00    0,000000000e+00
      814000000   -3,766616285e-01    2,020745873e-01    2,971901596e-01   -1,511982083e-01    0,000000000e+00    0,000000000e+00    0,000000000e+00    0,000000000e+00
      828000000   -6,373325735e-02    3,475014269e-01    8,223063499e-02   -1,907361448e-01    0,000000000e+00    0,000000000e+00    0,000000000e+00    0,000000000e+00
      842000000    2,117569298e-01    1,863223016e-01   -3,815005766e-03   -9,341684729e-02    0,000000000e+00    0,000000000e+00    0,000000000e+00    0,000000000e+00
      856000000    2,660378814e-01   -1,053205803e-01    3,552269936e-02   -3,668296337e-02    0,000000000e+00    0,000000000e+00    0,000000000e+00    0,000000000e+00
      870000000    8,292157203e-02   -3,512256444e-01    8,809817582e-02   -9,667921066e-02    0,000000000e+00    0,000000000e+00    0,000000000e+00    0,000000000e+00
      884000000   -2,666065097e-01   -3,566359580e-01    1,157954056e-02   -2,268158197e-01    0,000000000e+00    0,000000000e+00    0,000000000e+00    0,000000000e+00
      898000000   -4,572063386e-01   -1,472330187e-02   -2,142187059e-01   -2,099367380e-01    0,000000000e+00    0,000000000e+00    0,000000000e+00    0,000000000e+00
      912000000   -2,361629903e-01    2,779235840e-01   -3,431052864e-01    6,997372210e-02    0,000000000e+00    0,000000000e+00    0,000000000e+00    0,000000000e+00
      926000000    5,506332964e-02    2,642090023e-01   -2,097518295e-01    2,637484968e-01    0,000000000e+00    0,000000000e+00    0,000000000e+00    0,000000000e+00
      940000000    2,115198076e-01    8,431532234e-02   -3,022975847e-02    3,238739967e-01    0,000000000e+00    0,000000000e+00    0,000000000e+00    0,000000000e+00
      954000000    2,216740102e-01   -1,199065819e-01    1,314398646e-01    3,007178009e-01    0,000000000e+00    0,000000000e+00    0,000000000e+00    0,000000000e+00
      968000000    1,167598888e-01   -2,930619419e-01    2,692800164e-01    2,143677026e-01    0,000000000e+00    0,000000000e+00    0,000000000e+00    0,000000000e+00
      982000000   -7,888764888e-02   -3,855828941e-01    3,610943258e-01    6,199308485e-02    0,000000000e+00    0,000000000e+00    0,000000000e+00    0,000000000e+00
      996000000   -3,125244677e-01   -3,290597796e-01    3,619561195e-01   -1,436008662e-01    0,000000000e+00    0,000000000e+00    0,000000000e+00    0,000000000e+00
     1010000000   -4,567375183e-01   -1,169337332e-01    2,200645655e-01   -3,349873424e-01    0,000000000e+00    0,000000000e+00    0,000000000e+00    0,000000000e+00
     1024000000   -4,145861268e-01    1,461906731e-01   -3,134958819e-02   -3,870441914e-01    0,000000000e+00    0,000000000e+00    0,000000000e+00    0,000000000e+00
     1038000000   -2,202656269e-01    2,863772213e-01   -2,410487831e-01   -2,574109435e-01    0,000000000e+00    0,000000000e+00    0,000000000e+00    0,000000000e+00
     1052000000   -1,061085612e-02    2,785766721e-01   -3,095887005e-01   -4,611706734e-02    0,000000000e+00    0,000000000e+00    0,000000000e+00    0,000000000e+00
     1066000000    1,286440939e-01    1,664958149e-01   -2,484073788e-01    1,357768178e-01    0,000000000e+00    0,000000000e+00    0,000000000e+00    0,000000000e+00
     1080000000    1,958379000e-01    6,564559415e-03   -1,160217002e-01    2,549315095e-01    0,000000000e+00    0,000000000e+00    0,000000000e+00    0,000000000e+00
     1094000000    1,565739065e-01   -1,647090316e-01    5,916388705e-02    2,912265956e-01    0,000000000e+00    0,000000000e+00    0,000000000e+00    0,000000000e+00
     1108000000    1,876020432e-02   -2,992384136e-01    2,598744333e-01    2,364679128e-01    0,000000000e+00    0,000000000e+00    0,000000000e+00    0,000000000e+00
     1122000000   -2,110970318e-01   -2,810017169e-01    4,371322393e-01    2,524284273e-02    0,000000000e+00    0,000000000e+00    0,000000000e+00    0,000000000e+00
     1136000000   -3,270200491e-01   -3,339141235e-02    4,005865455e-01   -3,449704647e-01    0,000000000e+00    0,000000000e+00    0,000000000e+00    0,000000000e+00
     1150000000   -1,094189510e-01    1,405356824e-01    5,135538802e-02   -5,262813568e-01    0,000000000e+00    0,000000000e+00    0,000000000e+00    0,000000000e+00
     1164000000    8,186998963e-02   -1,729123853e-02   -2,533617020e-01   -4,039256573e-01    0,000000000e+00    0,000000000e+00    0,000000000e+00    0,000000000e+00
     1178000000    2,855682746e-02   -2,544648349e-01   -3,699082434e-01   -1,787347198e-01    0,000000000e+00    0,000000000e+00    0,000000000e+00    0,000000000e+00
     1192000000   -2,239793688e-01   -3,457793891e-01   -3,428806961e-01    4,069976136e-02    0,000000000e+00    0,000000000e+00    0,000000000e+00    0,000000000e+00
     1206000000   -4,833519757e-01   -1,844693273e-01   -1,922416240e-01    1,831790209e-01    0,000000000e+00    0,000000000e+00    0,000000000e+00    0,000000000e+00
     1220000000   -5,023387671e-01    1,337994933e-01   -1,082890946e-02    1,716663837e-01    0,000000000e+00    0,000000000e+00    0,000000000e+00    0,000000000e+00
     1234000000   -2,997154295e-01    3,388445377e-01    7,297820598e-02    7,431136072e-02    0,000000000e+00    0,000000000e+00    0,000000000e+00    0,000000000e+00
     1248000000   -6,611733139e-02    3,630937934e-01    6,536174566e-02    1,163031207e-03    0,000000000e+00    0,000000000e+00    0,000000000e+00    0,000000000e+00
     1262000000    1,079604477e-01    2,590602636e-01    2,658140473e-02   -2,408224717e-02    0,000000000e+00    0,000000000e+00    0,000000000e+00    0,000000000e+00
     1276000000    2,030781209e-01    1,089537665e-01    5,811537150e-03   -1,045286749e-02    0,000000000e+00    0,000000000e+00    0,000000000e+00    0,000000000e+00
     1290000000    2,183457166e-01   -6,233416498e-02    1,049689204e-02    2,656858414e-02    0,000000000e+00    0,000000000e+00    0,000000000e+00    0,000000000e+00
     1304000000    1,633043885e-01   -2,352114171e-01    5,711966380e-02    5,635381117e-02    0,000000000e+00    0,000000000e+00    0,000000000e+00    0,000000000e+00
     1318000000    2,756274119e-02   -3,622956276e-01    1,724491715e-01    2,658185177e-02    0,000000000e+00    0,000000000e+00    0,000000000e+00    0,000000000e+00
     1332000000   -1,493336111e-01   -4,015461802e-01    1,067722589e-01   -1,801817119e-01    0,000000000e+00    0,000000000e+00    0,000000000e+00    0,000000000e+00
     1346000000   -3,646642566e-01   -3,959886134e-01   -5,786943808e-02   -3,372081742e-02    0,000000000e+00    0,000000000e+00    0,000000000e+00    0,000000000e+00
     1360000000   -5,913519263e-01   -2,047549039e-01    5,287361145e-02    8,362255245e-02    0,000000000e+00    0,000000000e+00    0,000000000e+00    0,000000000e+00
     1374000000   -6,294265389e-01    1,087403074e-01    1,814294904e-01    5,858723819e-02    0,000000000e+00    0,000000000e+00    0,000000000e+00    0,000000000e+00
     1388000000   -4,736393988e-01    3,530078828e-01    2,193926424e-01   -2,311173081e-02    0,000000000e+00    0,000000000e+00    0,000000000e+00    0,000000000e+00
     1402000000   -2,464375645e-01    4,468991756e-01    2,015018314e-01   -8,764280379e-02    0,000000000e+00    0,000000000e+00    0,000000000e+00    0,000000000e+00
     1416000000   -3,784780204e-02    4,121024013e-01    1,922681183e-01   -9,380666912e-02    0,000000000e+00    0,000000000e+00    0,000000000e+00    0,000000000e+00
     1430000000    1,213859692e-01    2,996672988e-01    1,709191799e-01   -1,088377312e-01    0,000000000e+00    0,000000000e+00    0,000000000e+00    0,000000000e+00
     1444000000    1,985160857e-01    1,658843309e-01    1,696050614e-01   -1,053939983e-01    0,000000000e+00    0,000000000e+00    0,000000000e+00    0,000000000e+00
     1458000000    2,325847447e-01   -1,084041037e-02    1,501753628e-01   -9,268681705e-02    0,000000000e+00    0,000000000e+00    0,000000000e+00    0,000000000e+00
     1472000000    1,941383481e-01   -1,949302256e-01    1,370844543e-01   -5,105604604e-02    0,000000000e+00    0,000000000e+00    0,000000000e+00    0,000000000e+00
     1486000000    6,435531378e-02   -3,611906469e-01    1,573711634e-01    1,971963979e-02    0,000000000e+00    0,000000000e+00    0,000000000e+00    0,000000000e+00
     1500000000   -1,582106650e-01   -4,859410226e-01    2,295790613e-01    7,628390938e-02    0,000000000e+00    0,000000000e+00    0,000000000e+00    0,000000000e+00
