! NanoVNA-App
! Date: 2025-09-25 15:40:14
! Start: 100MHz Stop: 1,5GHz Points: 101
! S-Parameter data: F S11 S21 S12 S22
# Hz S RI R 50
!     Frequency           S11_Real           S11_Imag           S21_Real           S21_Imag           S12_Real           S12_Imag           S22_Real           S22_Imag
      100000000   -2,862045355e-02   -4,231458530e-03    3,738029003e-01   -7,214244604e-01    0,000000000e+00    0,000000000e+00    0,000000000e+00    0,000000000e+00
      114000000   -1,642584614e-02    1,148295961e-02   -8,917323500e-02   -8,051016927e-01    0,000000000e+00    0,000000000e+00    0,000000000e+00    0,000000000e+00
      128000000    3,529191250e-03    1,074787974e-02   -5,145586133e-01   -6,201806068e-01    0,000000000e+00    0,000000000e+00    0,000000000e+00    0,000000000e+00
      142000000    1,474928670e-02   -2,642454114e-03   -7,668311596e-01   -2,364626378e-01    0,000000000e+00    0,000000000e+00    0,000000000e+00    0,000000000e+00
      156000000    1,633092202e-02   -1,414107997e-02   -7,692298889e-01    2,241947055e-01    0,000000000e+00    0,000000000e+00    0,000000000e+00    0,000000000e+00
      170000000    1,726046205e-02   -2,247912250e-02   -5,181019902e-01    6,045315266e-01    0,000000000e+00    0,000000000e+00    0,000000000e+00    0,000000000e+00
      184000000    2,147485130e-02   -3,716307133e-02   -1,012899727e-01    7,856116891e-01    0,000000000e+00    0,000000000e+00    0,000000000e+00    0,000000000e+00
      198000000    1,330098975e-02   -6,255856156e-02    3,431088030e-01    7,120838761e-01    0,000000000e+00    0,000000000e+00    0,000000000e+00    0,000000000e+00
      212000000   -1,834343374e-02   -8,128270507e-02    6,776260138e-01    4,096723795e-01    0,000000000e+00    0,000000000e+00    0,000000000e+00    0,000000000e+00
      226000000   -6,118720397e-02   -6,919459999e-02    7,951637506e-01   -3,052044474e-02    0,000000000e+00    0,000000000e+00    0,000000000e+00    0,000000000e+00
      240000000   -8,208803087e-02   -2,587676793e-02    6,458545327e-01   -4,667008519e-01    0,000000000e+00    0,000000000e+00    0,000000000e+00    0,000000000e+00
      254000000   -6,327392906e-02    1,685517281e-02    2,757603526e-01   -7,429229617e-01    0,000000000e+00    0,000000000e+00    0,000000000e+00    0,000000000e+00
      268000000   -2,385195158e-02    2,866314724e-02   -1,778893620e-01   -7,636229396e-01    0,000000000e+00    0,000000000e+00    0,000000000e+00    0,000000000e+00
      282000000    4,178058356e-03    1,196003240e-02   -5,614520311e-01   -5,349457264e-01    0,000000000e+00    0,000000000e+00    0,000000000e+00    0,000000000e+00
      296000000    9,846005589e-03   -7,517002989e-03   -7,591955662e-01   -1,395527869e-01    0,000000000e+00    0,000000000e+00    0,000000000e+00    0,000000000e+00
      310000000    1,155876275e-02   -1,632806100e-02   -7,122841477e-01    2,972770929e-01    0,000000000e+00    0,000000000e+00    0,000000000e+00    0,000000000e+00
      324000000    2,021812648e-02   -2,691829391e-02   -4,269883335e-01    6,371374726e-01    0,000000000e+00    0,000000000e+00    0,000000000e+00    0,000000000e+00
      338000000    2,561557107e-02   -5,221393704e-02   -9,299027734e-03    7,636286020e-01    0,000000000e+00    0,000000000e+00    0,000000000e+00    0,000000000e+00
      352000000    7,328570355e-03   -8,477030694e-02    4,057014585e-01    6,386943460e-01    0,000000000e+00    0,000000000e+00    0,000000000e+00    0,000000000e+00
      366000000   -3,419742361e-02   -9,520382434e-02    6,902615428e-01    3,111644685e-01    0,000000000e+00    0,000000000e+00    0,000000000e+00    0,000000000e+00
      380000000   -7,044343650e-02   -7,116024196e-02    7,468529344e-01   -1,261457205e-01    0,000000000e+00    0,000000000e+00    0,000000000e+00    0,000000000e+00
      394000000   -7,206980139e-02   -3,273397684e-02    5,463119149e-01   -5,211971402e-01    0,000000000e+00    0,000000000e+00    0,000000000e+00    0,000000000e+00
      408000000   -4,614337161e-02   -1,684934460e-02    1,601990014e-01   -7,318977714e-01    0,000000000e+00    0,000000000e+00    0,000000000e+00    0,000000000e+00
      422000000   -2,813591622e-02   -3,229462355e-02   -2,667835355e-01   -6,946879029e-01    0,000000000e+00    0,000000000e+00    0,000000000e+00    0,000000000e+00
      436000000   -4,056081921e-02   -5,204052851e-02   -6,036998034e-01   -4,318804741e-01    0,000000000e+00    0,000000000e+00    0,000000000e+00    0,000000000e+00
      450000000   -6,710319221e-02   -4,395369440e-02   -7,400146127e-01   -2,173986658e-02    0,000000000e+00    0,000000000e+00    0,000000000e+00    0,000000000e+00
      464000000   -7,300027460e-02   -1,217032596e-02   -6,179211140e-01    3,965394795e-01    0,000000000e+00    0,000000000e+00    0,000000000e+00    0,000000000e+00
      478000000   -4,737282172e-02    1,110840868e-02   -2,821058929e-01    6,670405269e-01    0,000000000e+00    0,000000000e+00    0,000000000e+00    0,000000000e+00
      492000000   -1,592128538e-02    5,886545405e-03    1,368915737e-01    7,018513083e-01    0,000000000e+00    0,000000000e+00    0,000000000e+00    0,000000000e+00
      506000000   -2,880692016e-03   -1,596713439e-02    4,974067211e-01    5,026206970e-01    0,000000000e+00    0,000000000e+00    0,000000000e+00    0,000000000e+00
      520000000   -5,169859156e-03   -3,135317191e-02    6,870924234e-01    1,426011771e-01    0,000000000e+00    0,000000000e+00    0,000000000e+00    0,000000000e+00
      534000000   -3,372820793e-03   -3,821347281e-02    6,430150867e-01   -2,623878419e-01    0,000000000e+00    0,000000000e+00    0,000000000e+00    0,000000000e+00
      548000000    6,267636549e-03   -5,400118977e-02    3,813931644e-01   -5,660587549e-01    0,000000000e+00    0,000000000e+00    0,000000000e+00    0,000000000e+00
      562000000    3,469740506e-03   -8,938748389e-02    2,716055140e-03   -6,714862585e-01    0,000000000e+00    0,000000000e+00    0,000000000e+00    0,000000000e+00
      576000000   -3,378483281e-02   -1,241104454e-01   -3,673359156e-01   -5,567426682e-01    0,000000000e+00    0,000000000e+00    0,000000000e+00    0,000000000e+00
      590000000   -9,555709362e-02   -1,228101924e-01   -6,214416027e-01   -2,638221681e-01    0,000000000e+00    0,000000000e+00    0,000000000e+00    0,000000000e+00
      604000000   -1,390002966e-01   -7,246160507e-02   -6,636921167e-01    1,366350949e-01    0,000000000e+00    0,000000000e+00    0,000000000e+00    0,000000000e+00
      618000000   -1,292922348e-01   -9,394598193e-03   -4,642653763e-01    4,917322099e-01    0,000000000e+00    0,000000000e+00    0,000000000e+00    0,000000000e+00
      632000000   -8,416731656e-02    1,551789604e-02   -9,960876405e-02    6,622942686e-01    0,000000000e+00    0,000000000e+00    0,000000000e+00    0,000000000e+00
      646000000   -5,137560889e-02    4,680828424e-04    2,849292159e-01    5,941155553e-01    0,000000000e+00    0,000000000e+00    0,000000000e+00    0,000000000e+00
      660000000   -5,413225293e-02   -2,135771327e-02    5,654436350e-01    3,231060505e-01    0,000000000e+00    0,000000000e+00    0,000000000e+00    0,000000000e+00
      674000000   -6,956642121e-02   -1,721787453e-02    6,406286359e-01   -6,325472146e-02    0,000000000e+00    0,000000000e+00    0,000000000e+00    0,000000000e+00
      688000000   -6,648809463e-02    8,852459490e-03    4,703685343e-01   -4,240003228e-01    0,000000000e+00    0,000000000e+00    0,000000000e+00    0,000000000e+00
      702000000   -3,549688309e-02    2,646401152e-02    1,214277744e-01   -6,068695188e-01    0,000000000e+00    0,000000000e+00    0,000000000e+00    0,000000000e+00
      716000000    3,039966570e-03    1,654759049e-02   -2,592465878e-01   -5,445759296e-01    0,000000000e+00    0,000000000e+00    0,000000000e+00    0,000000000e+00
      730000000    3,725802898e-02   -1,351675577e-02   -5,213991404e-01   -2,710803151e-01    0,000000000e+00    0,000000000e+00    0,000000000e+00    0,000000000e+00
      744000000    6,199843809e-02   -6,467340887e-02   -5,599758625e-01    9,855429083e-02    0,000000000e+00    0,000000000e+00    0,000000000e+00    0,000000000e+00
      758000000    6,141261756e-02   -1,517331451e-01   -3,659784198e-01    4,001132548e-01    0,000000000e+00    0,000000000e+00    0,000000000e+00    0,000000000e+00
      772000000   -1,698307134e-02   -2,566864789e-01   -4,515577108e-02    5,081105828e-01    0,000000000e+00    0,000000000e+00    0,000000000e+00    0,000000000e+00
      786000000   -2,022720426e-01   -2,918043137e-01    2,596066594e-01    3,991147876e-01    0,000000000e+00    0,000000000e+00    0,000000000e+00    0,000000000e+00
      800000000   -4,086219668e-01   -1,266290545e-01    4,069138765e-01    1,183837429e-01    0,000000000e+00    0,000000000e+00    0,000000000e+00    0,000000000e+00
      814000000   -3,763585091e-01    2,014635056e-01    2,955019474e-01   -1,506266445e-01    0,000000000e+00    0,000000000e+00    0,000000000e+00    0,000000000e+00
      828000000   -6,174389645e-02    3,470049798e-01    8,209004253e-02   -1,901209354e-01    0,000000000e+00    0,000000000e+00    0,000000000e+00    0,000000000e+00
      842000000    2,116271406e-01    1,855178624e-01   -3,448156873e-03   -9,270414710e-02    0,000000000e+00    0,000000000e+00    0,000000000e+00    0,000000000e+00
      856000000    2,656598091e-01   -1,063604206e-01    3,640725464e-02   -3,698362410e-02    0,000000000e+00    0,000000000e+00    0,000000000e+00    0,000000000e+00
      870000000    8,269551396e-02   -3,514613807e-01    8,927178383e-02   -9,810060263e-02    0,000000000e+00    0,000000000e+00    0,000000000e+00    0,000000000e+00
      884000000   -2,679067850e-01   -3,554250896e-01    1,129092090e-02   -2,277903557e-01    0,000000000e+00    0,000000000e+00    0,000000000e+00    0,000000000e+00
      898000000   -4,574151635e-01   -1,244040858e-02   -2,158030719e-01   -2,095219642e-01    0,000000000e+00    0,000000000e+00    0,000000000e+00    0,000000000e+00
      912000000   -2,343796641e-01    2,779766023e-01   -3,404649794e-01    6,556829810e-02    0,000000000e+00    0,000000000e+00    0,000000000e+00    0,000000000e+00
      926000000    5,701780319e-02    2,611882091e-01   -2,081657201e-01    2,605232596e-01    0,000000000e+00    0,000000000e+00    0,000000000e+00    0,000000000e+00
      940000000    2,070792168e-01    8,342220634e-02   -3,203294054e-02    3,255752623e-01    0,000000000e+00    0,000000000e+00    0,000000000e+00    0,000000000e+00
      954000000    2,185198069e-01   -1,237963662e-01    1,309620589e-01    3,013434112e-01    0,000000000e+00    0,000000000e+00    0,000000000e+00    0,000000000e+00
      968000000    1,183784008e-01   -2,961396873e-01    2,674003541e-01    2,109278738e-01    0,000000000e+00    0,000000000e+00    0,000000000e+00    0,000000000e+00
      982000000   -7,924985886e-02   -3,851897717e-01    3,601214588e-01    6,332093477e-02    0,000000000e+00    0,000000000e+00    0,000000000e+00    0,000000000e+00
      996000000   -3,116615117e-01   -3,340269029e-01    3,640633225e-01   -1,426486224e-01    0,000000000e+00    0,000000000e+00    0,000000000e+00    0,000000000e+00
     1010000000   -4,642826319e-01   -1,170165613e-01    2,195396125e-01   -3,335727453e-01    0,000000000e+00    0,000000000e+00    0,000000000e+00    0,000000000e+00
     1024000000   -4,181452096e-01    1,402480304e-01   -3,138511255e-02   -3,838473260e-01    0,000000000e+00    0,000000000e+00    0,000000000e+00    0,000000000e+00
     1038000000   -2,222173661e-01    2,856517136e-01   -2,426967621e-01   -2,550095618e-01    0,000000000e+00    0,000000000e+00    0,000000000e+00    0,000000000e+00
     1052000000   -1,035552286e-02    2,805162370e-01   -3,133091927e-01   -4,660046846e-02    0,000000000e+00    0,000000000e+00    0,000000000e+00    0,000000000e+00
     1066000000    1,294102073e-01    1,655888259e-01   -2,522517145e-01    1,385407895e-01    0,000000000e+00    0,000000000e+00    0,000000000e+00    0,000000000e+00
     1080000000    1,918552965e-01    9,146614932e-03   -1,144132093e-01    2,542468011e-01    0,000000000e+00    0,000000000e+00    0,000000000e+00    0,000000000e+00
     1094000000    1,573923528e-01   -1,624444574e-01    6,067528948e-02    2,928373218e-01    0,000000000e+00    0,000000000e+00    0,000000000e+00    0,000000000e+00
     1108000000    1,364973746e-02   -2,975146770e-01    2,616675496e-01    2,349263132e-01    0,000000000e+00    0,000000000e+00    0,000000000e+00    0,000000000e+00
     1122000000   -2,138956487e-01   -2,853003740e-01    4,395832717e-01    2,223834954e-02    0,000000000e+00    0,000000000e+00    0,000000000e+00    0,000000000e+00
     1136000000   -3,281928599e-01   -2,623764612e-02    4,006430805e-01   -3,417526186e-01    0,000000000e+00    0,000000000e+00    0,000000000e+00    0,000000000e+00
     1150000000   -1,044087932e-01    1,348630041e-01    4,750635475e-02   -5,300270319e-01    0,000000000e+00    0,000000000e+00    0,000000000e+00    0,000000000e+00
     1164000000    8,792273700e-02   -2,077936381e-02   -2,534272373e-01   -4,009386003e-01    0,000000000e+00    0,000000000e+00    0,000000000e+00    0,000000000e+00
     1178000000    2,702282183e-02   -2,491587847e-01   -3,695618510e-01   -1,799832135e-01    0,000000000e+00    0,000000000e+00    0,000000000e+00    0,000000000e+00
     1192000000   -2,212021947e-01   -3,473683000e-01   -3,374902606e-01    3,947341442e-02    0,000000000e+00    0,000000000e+00    0,000000000e+00    0,000000000e+00
     1206000000   -4,766028821e-01   -1,816013455e-01   -1,878434718e-01    1,827368587e-01    0,000000000e+00    0,000000000e+00    0,000000000e+00    0,000000000e+00
     1220000000   -5,043032765e-01    1,350781471e-01   -1,116432436e-02    1,735667586e-01    0,000000000e+00    0,000000000e+00    0,000000000e+00    0,000000000e+00
     1234000000   -2,954241931e-01    3,405674696e-01    7,387002558e-02    7,678797096e-02    0,000000000e+00    0,000000000e+00    0,000000000e+00    0,000000000e+00
     1248000000   -5,778405815e-02    3,558399975e-01    6,942142546e-02    1,815987634e-03    0,000000000e+00    0,000000000e+00    0,000000000e+00    0,000000000e+00
     1262000000    1,060327366e-01    2,574211657e-01    2,807771228e-02   -2,112389728e-02    0,000000000e+00    0,000000000e+00    0,000000000e+00    0,000000000e+00
     1276000000    1,995551586e-01    1,040255651e-01    4,006953910e-03   -8,582496084e-03    0,000000000e+00    0,000000000e+00    0,000000000e+00    0,000000000e+00
     1290000000    2,227034718e-01   -6,512547284e-02    1,218336634e-02    2,552400716e-02    0,000000000e+00    0,000000000e+00    0,000000000e+00    0,000000000e+00
     1304000000    1,637996435e-01   -2,339795232e-01    6,030454859e-02    5,889549106e-02    0,000000000e+00    0,000000000e+00    0,000000000e+00    0,000000000e+00
     1318000000    2,403795533e-02   -3,618484437e-01    1,702939868e-01    2,390579693e-02    0,000000000e+00    0,000000000e+00    0,000000000e+00    0,000000000e+00
     1332000000   -1,468834281e-01   -3,967011571e-01    9,593095630e-02   -1,796594709e-01    0,000000000e+00    0,000000000e+00    0,000000000e+00    0,000000000e+00
     1346000000   -3,598875105e-01   -3,859199882e-01   -5,319925398e-02   -1,991798356e-02    0,000000000e+00    0,000000000e+00    0,000000000e+00    0,000000000e+00
     1360000000   -5,877844095e-01   -1,980745345e-01    6,132454798e-02    8,952111751e-02    0,000000000e+00    0,000000000e+00    0,000000000e+00    0,000000000e+00
     1374000000   -6,243297458e-01    1,100812182e-01    1,845727712e-01    5,690103024e-02    0,000000000e+00    0,000000000e+00    0,000000000e+00    0,000000000e+00
     1388000000   -4,830877185e-01    3,524133265e-01    2,158915401e-01   -2,718623541e-02    0,000000000e+00    0,000000000e+00    0,000000000e+00    0,000000000e+00
     1402000000   -2,470036298e-01    4,487100840e-01    2,076974809e-01   -7,445686311e-02    0,000000000e+00    0,000000000e+00    0,000000000e+00    0,000000000e+00
     1416000000   -4,303594306e-02    4,112574160e-01    1,889953911e-01   -9,620866179e-02    0,000000000e+00    0,000000000e+00    0,000000000e+00    0,000000000e+00
     1430000000    1,174767166e-01    3,093943894e-01    2,068707347e-01   -9,994848818e-02    0,000000000e+00    0,000000000e+00    0,000000000e+00    0,000000000e+00
     1444000000    1,992740631e-01    1,574456692e-01    1,592233330e-01   -1,095577329e-01    0,000000000e+00    0,000000000e+00    0,000000000e+00    0,000000000e+00
     1458000000    2,330409735e-01   -9,980914183e-03    1,532276720e-01   -8,453623205e-02    0,000000000e+00    0,000000000e+00    0,000000000e+00    0,000000000e+00
     1472000000    1,907670349e-01   -1,966441423e-01    1,476830244e-01   -4,967875034e-02    0,000000000e+00    0,000000000e+00    0,000000000e+00    0,000000000e+00
     1486000000    7,197777182e-02   -3,674663603e-01    1,771166176e-01    2,141005173e-02    0,000000000e+00    0,000000000e+00    0,000000000e+00    0,000000000e+00
     1500000000   -1,613226682e-01   -4,877397120e-01    2,361592799e-01    1,031075642e-01    0,000000000e+00    0,000000000e+00    0,000000000e+00    0,000000000e+00
