! NanoVNA-App
! Date: 2025-09-25 15:41:57
! Start: 100MHz Stop: 1,5GHz Points: 101
! S-Parameter data: F S11 S21 S12 S22
# Hz S RI R 50
!     Frequency           S11_Real           S11_Imag           S21_Real           S21_Imag           S12_Real           S12_Imag           S22_Real           S22_Imag
      100000000   -2,873367444e-02   -4,243289586e-03    3,739310801e-01   -7,215284705e-01    0,000000000e+00    0,000000000e+00    0,000000000e+00    0,000000000e+00
      114000000   -1,653298549e-02    1,146944333e-02   -8,912817389e-02   -8,051530719e-01    0,000000000e+00    0,000000000e+00    0,000000000e+00    0,000000000e+00
      128000000    3,383951727e-03    1,066852733e-02   -5,142807364e-01   -6,200501323e-01    0,000000000e+00    0,000000000e+00    0,000000000e+00    0,000000000e+00
      142000000    1,468109060e-02   -2,639259910e-03   -7,668210864e-01   -2,363618463e-01    0,000000000e+00    0,000000000e+00    0,000000000e+00    0,000000000e+00
      156000000    1,545644645e-02   -1,473818347e-02   -7,689014077e-01    2,196100950e-01    0,000000000e+00    0,000000000e+00    0,000000000e+00    0,000000000e+00
      170000000    1,709057018e-02   -2,242454141e-02   -5,175972581e-01    6,043012738e-01    0,000000000e+00    0,000000000e+00    0,000000000e+00    0,000000000e+00
      184000000    2,134914882e-02   -3,712580353e-02   -1,013585031e-01    7,858718634e-01    0,000000000e+00    0,000000000e+00    0,000000000e+00    0,000000000e+00
      198000000    1,327483822e-02   -6,253641844e-02    3,431293070e-01    7,120323777e-01    0,000000000e+00    0,000000000e+00    0,000000000e+00    0,000000000e+00
      212000000   -1,844506152e-02   -8,131154627e-02    6,778766513e-01    4,096751809e-01    0,000000000e+00    0,000000000e+00    0,000000000e+00    0,000000000e+00
      226000000   -6,137118861e-02   -6,922829896e-02    7,954661250e-01   -3,049847297e-02    0,000000000e+00    0,000000000e+00    0,000000000e+00    0,000000000e+00
      240000000   -8,222494274e-02   -2,586131915e-02    6,457487345e-01   -4,665809274e-01    0,000000000e+00    0,000000000e+00    0,000000000e+00    0,000000000e+00
      254000000   -6,340131909e-02    1,690294035e-02    2,759420872e-01   -7,427067757e-01    0,000000000e+00    0,000000000e+00    0,000000000e+00    0,000000000e+00
      268000000   -2,396006696e-02    2,875479124e-02   -1,778983772e-01   -7,638512254e-01    0,000000000e+00    0,000000000e+00    0,000000000e+00    0,000000000e+00
      282000000    4,042264074e-03    1,209150255e-02   -5,619473457e-01   -5,354368091e-01    0,000000000e+00    0,000000000e+00    0,000000000e+00    0,000000000e+00
      296000000    9,892043658e-03   -7,570989430e-03   -7,592921257e-01   -1,393153518e-01    0,000000000e+00    0,000000000e+00    0,000000000e+00    0,000000000e+00
      310000000    1,156574953e-02   -1,605045237e-02   -7,117162943e-01    2,991864085e-01    0,000000000e+00    0,000000000e+00    0,000000000e+00    0,000000000e+00
      324000000    1,996511593e-02   -2,653674595e-02   -4,271982908e-01    6,378489733e-01    0,000000000e+00    0,000000000e+00    0,000000000e+00    0,000000000e+00
      338000000    2,575455233e-02   -5,237010121e-02   -6,411742419e-03    7,606729269e-01    0,000000000e+00    0,000000000e+00    0,000000000e+00    0,000000000e+00
      352000000    7,264858112e-03   -8,452884108e-02    4,058424532e-01    6,385002136e-01    0,000000000e+00    0,000000000e+00    0,000000000e+00    0,000000000e+00
      366000000   -3,447679803e-02   -9,550089389e-02    6,895966530e-01    3,107227683e-01    0,000000000e+00    0,000000000e+00    0,000000000e+00    0,000000000e+00
      380000000   -7,028193772e-02   -7,093682140e-02    7,466037273e-01   -1,258621812e-01    0,000000000e+00    0,000000000e+00    0,000000000e+00    0,000000000e+00
      394000000   -7,201451808e-02   -3,257738054e-02    5,456827879e-01   -5,203586221e-01    0,000000000e+00    0,000000000e+00    0,000000000e+00    0,000000000e+00
      408000000   -4,634750634e-02   -1,643638127e-02    1,614017934e-01   -7,320879102e-01    0,000000000e+00    0,000000000e+00    0,000000000e+00    0,000000000e+00
      422000000   -2,831239253e-02   -3,212483227e-02   -2,676449418e-01   -6,944603324e-01    0,000000000e+00    0,000000000e+00    0,000000000e+00    0,000000000e+00
      436000000   -4,013905674e-02   -5,182997510e-02   -6,031194925e-01   -4,322474301e-01    0,000000000e+00    0,000000000e+00    0,000000000e+00    0,000000000e+00
      450000000   -6,674543023e-02   -4,369459674e-02   -7,395601273e-01   -2,175375819e-02    0,000000000e+00    0,000000000e+00    0,000000000e+00    0,000000000e+00
      464000000   -7,283365726e-02   -1,192416437e-02   -6,178258061e-01    3,962040246e-01    0,000000000e+00    0,000000000e+00    0,000000000e+00    0,000000000e+00
      478000000   -4,764723033e-02    1,139722019e-02   -2,826986015e-01    6,668855548e-01    0,000000000e+00    0,000000000e+00    0,000000000e+00    0,000000000e+00
      492000000   -1,538439933e-02    5,941541400e-03    1,365178078e-01    7,013484836e-01    0,000000000e+00    0,000000000e+00    0,000000000e+00    0,000000000e+00
      506000000   -2,602181397e-03   -1,593661681e-02    4,976423681e-01    5,024890304e-01    0,000000000e+00    0,000000000e+00    0,000000000e+00    0,000000000e+00
      520000000   -4,733887967e-03   -3,154132888e-02    6,868348718e-01    1,415400654e-01    0,000000000e+00    0,000000000e+00    0,000000000e+00    0,000000000e+00
      534000000   -3,611385357e-03   -3,820343316e-02    6,427022219e-01   -2,619608045e-01    0,000000000e+00    0,000000000e+00    0,000000000e+00    0,000000000e+00
      548000000    6,544292439e-03   -5,414558575e-02    3,807964027e-01   -5,668016672e-01    0,000000000e+00    0,000000000e+00    0,000000000e+00    0,000000000e+00
      562000000    3,595513757e-03   -8,969756961e-02    4,190016072e-03   -6,715112329e-01    0,000000000e+00    0,000000000e+00    0,000000000e+00    0,000000000e+00
      576000000   -3,344272077e-02   -1,240412071e-01   -3,679696918e-01   -5,573894382e-01    0,000000000e+00    0,000000000e+00    0,000000000e+00    0,000000000e+00
      590000000   -9,591037780e-02   -1,222266480e-01   -6,211522222e-01   -2,626307011e-01    0,000000000e+00    0,000000000e+00    0,000000000e+00    0,000000000e+00
      604000000   -1,388870925e-01   -7,226377726e-02   -6,641268730e-01    1,367727965e-01    0,000000000e+00    0,000000000e+00    0,000000000e+00    0,000000000e+00
      618000000   -1,291748285e-01   -9,458321147e-03   -4,654831886e-01    4,922492802e-01    0,000000000e+00    0,000000000e+00    0,000000000e+00    0,000000000e+00
      632000000   -8,501510322e-02    1,628292911e-02   -1,001940966e-01    6,622498035e-01    0,000000000e+00    0,000000000e+00    0,000000000e+00    0,000000000e+00
      646000000   -5,235568807e-02    3,607450053e-04    2,850950956e-01    5,942167640e-01    0,000000000e+00    0,000000000e+00    0,000000000e+00    0,000000000e+00
      660000000   -5,395633727e-02   -2,021481283e-02    5,647095442e-01    3,237700760e-01    0,000000000e+00    0,000000000e+00    0,000000000e+00    0,000000000e+00
      674000000   -7,007468492e-02   -1,620246097e-02    6,405638456e-01   -6,302280724e-02    0,000000000e+00    0,000000000e+00    0,000000000e+00    0,000000000e+00
      688000000   -6,634795666e-02    9,016118012e-03    4,709232748e-01   -4,234140515e-01    0,000000000e+00    0,000000000e+00    0,000000000e+00    0,000000000e+00
      702000000   -3,674697503e-02    2,547358535e-02    1,256179810e-01   -6,033601165e-01    0,000000000e+00    0,000000000e+00    0,000000000e+00    0,000000000e+00
      716000000    3,149794880e-03    1,583140902e-02   -2,598052323e-01   -5,451964140e-01    0,000000000e+00    0,000000000e+00    0,000000000e+00    0,000000000e+00
      730000000    3,649229184e-02   -1,344602834e-02   -5,219353437e-01   -2,714534104e-01    0,000000000e+00    0,000000000e+00    0,000000000e+00    0,000000000e+00
      744000000    6,204868481e-02   -6,568200141e-02   -5,604960918e-01    9,842033684e-02    0,000000000e+00    0,000000000e+00    0,000000000e+00    0,000000000e+00
      758000000    6,067099795e-02   -1,515609622e-01   -3,661628366e-01    3,999594450e-01    0,000000000e+00    0,000000000e+00    0,000000000e+00    0,000000000e+00
      772000000   -1,686178334e-02   -2,560994029e-01   -4,500822350e-02    5,103717446e-01    0,000000000e+00    0,000000000e+00    0,000000000e+00    0,000000000e+00
      786000000   -2,020583898e-01   -2,908582985e-01    2,591376901e-01    3,987248540e-01    0,000000000e+00    0,000000000e+00    0,000000000e+00    0,000000000e+00
      800000000   -4,080697894e-01   -1,261367649e-01    4,072437286e-01    1,183017120e-01    0,000000000e+00    0,000000000e+00    0,000000000e+00    0,000000000e+00
      814000000   -3,762623072e-01    2,015681565e-01    2,968984544e-01   -1,507897079e-01    0,000000000e+00    0,000000000e+00    0,000000000e+00    0,000000000e+00
      828000000   -6,282846630e-02    3,474672139e-01    8,244058490e-02   -1,904439181e-01    0,000000000e+00    0,000000000e+00    0,000000000e+00    0,000000000e+00
      842000000    2,116546184e-01    1,858578175e-01   -3,545764368e-03   -9,317524731e-02    0,000000000e+00    0,000000000e+00    0,000000000e+00    0,000000000e+00
      856000000    2,659831345e-01   -1,058228686e-01    3,619965538e-02   -3,673678264e-02    0,000000000e+00    0,000000000e+00    0,000000000e+00    0,000000000e+00
      870000000    8,160901815e-02   -3,514107168e-01    8,899383247e-02   -9,746379405e-02    0,000000000e+00    0,000000000e+00    0,000000000e+00    0,000000000e+00
      884000000   -2,670903504e-01   -3,558075428e-01    1,132330298e-02   -2,273391783e-01    0,000000000e+00    0,000000000e+00    0,000000000e+00    0,000000000e+00
      898000000   -4,576508403e-01   -1,259388216e-02   -2,158595622e-01   -2,088971436e-01    0,000000000e+00    0,000000000e+00    0,000000000e+00    0,000000000e+00
      912000000   -2,355394512e-01    2,774328291e-01   -3,331173360e-01    8,051100373e-02    0,000000000e+00    0,000000000e+00    0,000000000e+00    0,000000000e+00
      926000000    5,447394028e-02    2,617354095e-01   -2,110650539e-01    2,622812688e-01    0,000000000e+00    0,000000000e+00    0,000000000e+00    0,000000000e+00
      940000000    2,107607722e-01    8,397096395e-02   -3,074793145e-02    3,251284957e-01    0,000000000e+00    0,000000000e+00    0,000000000e+00    0,000000000e+00
      954000000    2,191893756e-01   -1,214590520e-01    1,310093105e-01    3,014291227e-01    0,000000000e+00    0,000000000e+00    0,000000000e+00    0,000000000e+00
      968000000    1,180673912e-01   -2,967124879e-01    2,676271796e-01    2,139157653e-01    0,000000000e+00    0,000000000e+00    0,000000000e+00    0,000000000e+00
      982000000   -7,523493469e-02   -3,852696419e-01    3,626211882e-01    6,311725825e-02    0,000000000e+00    0,000000000e+00    0,000000000e+00    0,000000000e+00
      996000000   -3,141810894e-01   -3,301047981e-01    3,613921106e-01   -1,423188001e-01    0,000000000e+00    0,000000000e+00    0,000000000e+00    0,000000000e+00
     1010000000   -4,614216089e-01   -1,184080020e-01    2,195157111e-01   -3,357370496e-01    0,000000000e+00    0,000000000e+00    0,000000000e+00    0,000000000e+00
     1024000000   -4,188007712e-01    1,474377811e-01   -3,129879385e-02   -3,864771724e-01    0,000000000e+00    0,000000000e+00    0,000000000e+00    0,000000000e+00
     1038000000   -2,190039307e-01    2,891825140e-01   -2,412771434e-01   -2,549090087e-01    0,000000000e+00    0,000000000e+00    0,000000000e+00    0,000000000e+00
     1052000000   -1,314844564e-02    2,782297432e-01   -3,107043505e-01   -4,539777711e-02    0,000000000e+00    0,000000000e+00    0,000000000e+00    0,000000000e+00
     1066000000    1,294910908e-01    1,711157858e-01   -2,504255176e-01    1,402136534e-01    0,000000000e+00    0,000000000e+00    0,000000000e+00    0,000000000e+00
     1080000000    1,898107678e-01    7,096030749e-03   -1,149710342e-01    2,536520958e-01    0,000000000e+00    0,000000000e+00    0,000000000e+00    0,000000000e+00
     1094000000    1,611994058e-01   -1,613952518e-01    6,053123996e-02    2,912217081e-01    0,000000000e+00    0,000000000e+00    0,000000000e+00    0,000000000e+00
     1108000000    1,949902065e-02   -2,985500693e-01    2,629530132e-01    2,331830412e-01    0,000000000e+00    0,000000000e+00    0,000000000e+00    0,000000000e+00
     1122000000   -2,099854946e-01   -2,831404507e-01    4,414895177e-01    2,328796312e-02    0,000000000e+00    0,000000000e+00    0,000000000e+00    0,000000000e+00
     1136000000   -3,247270584e-01   -3,374198079e-02    4,024190903e-01   -3,452640772e-01    0,000000000e+00    0,000000000e+00    0,000000000e+00    0,000000000e+00
     1150000000   -1,023261175e-01    1,350197941e-01    5,173638090e-02   -5,304304957e-01    0,000000000e+00    0,000000000e+00    0,000000000e+00    0,000000000e+00
     1164000000    8,741743863e-02   -1,579130627e-02   -2,526769042e-01   -4,038156867e-01    0,000000000e+00    0,000000000e+00    0,000000000e+00    0,000000000e+00
     1178000000    2,713344432e-02   -2,518374622e-01   -3,722485900e-01   -1,772578359e-01    0,000000000e+00    0,000000000e+00    0,000000000e+00    0,000000000e+00
     1192000000   -2,220114470e-01   -3,494722545e-01   -3,382380903e-01    4,154531285e-02    0,000000000e+00    0,000000000e+00    0,000000000e+00    0,000000000e+00
     1206000000   -4,851144552e-01   -1,799291670e-01   -1,870846152e-01    1,842848659e-01    0,000000000e+00    0,000000000e+00    0,000000000e+00    0,000000000e+00
     1220000000   -4,961466491e-01    1,398783475e-01   -6,382472813e-03    1,740642488e-01    0,000000000e+00    0,000000000e+00    0,000000000e+00    0,000000000e+00
     1234000000   -3,036179543e-01    3,410809636e-01    7,306035608e-02    7,600923628e-02    0,000000000e+00    0,000000000e+00    0,000000000e+00    0,000000000e+00
     1248000000   -6,050374731e-02    3,548126519e-01    7,015047967e-02   -6,027334370e-03    0,000000000e+00    0,000000000e+00    0,000000000e+00    0,000000000e+00
     1262000000    1,073869765e-01    2,607340813e-01    2,884133905e-02   -2,309672162e-02    0,000000000e+00    0,000000000e+00    0,000000000e+00    0,000000000e+00
     1276000000    2,017334253e-01    1,098735332e-01    5,507987458e-03   -9,073124267e-03    0,000000000e+00    0,000000000e+00    0,000000000e+00    0,000000000e+00
     1290000000    2,179350555e-01   -6,362678856e-02    7,612080779e-03    2,800707333e-02    0,000000000e+00    0,000000000e+00    0,000000000e+00    0,000000000e+00
     1304000000    1,682286114e-01   -2,296995223e-01    6,791137159e-02    6,038096175e-02    0,000000000e+00    0,000000000e+00    0,000000000e+00    0,000000000e+00
     1318000000    2,604946867e-02   -3,637681901e-01    1,759260893e-01    1,527719107e-02    0,000000000e+00    0,000000000e+00    0,000000000e+00    0,000000000e+00
     1332000000   -1,513432264e-01   -3,971951604e-01    8,815135062e-02   -1,813215166e-01    0,000000000e+00    0,000000000e+00    0,000000000e+00    0,000000000e+00
     1346000000   -3,615323901e-01   -3,934790194e-01   -6,323865056e-02   -2,514924482e-02    0,000000000e+00    0,000000000e+00    0,000000000e+00    0,000000000e+00
     1360000000   -5,846008658e-01   -2,095503509e-01    6,359750032e-02    7,829590142e-02    0,000000000e+00    0,000000000e+00    0,000000000e+00    0,000000000e+00
     1374000000   -6,252124310e-01    1,005768478e-01    1,843483895e-01    4,169440269e-02    0,000000000e+00    0,000000000e+00    0,000000000e+00    0,000000000e+00
     1388000000   -4,700486958e-01    3,563881814e-01    2,224408090e-01   -1,801207289e-02    0,000000000e+00    0,000000000e+00    0,000000000e+00    0,000000000e+00
     1402000000   -2,499604970e-01    4,443539083e-01    2,085026354e-01   -8,402135968e-02    0,000000000e+00    0,000000000e+00    0,000000000e+00    0,000000000e+00
     1416000000   -3,768222407e-02    4,133916795e-01    2,009870708e-01   -1,066737846e-01    0,000000000e+00    0,000000000e+00    0,000000000e+00    0,000000000e+00
     1430000000    1,069531068e-01    3,065507412e-01    1,782881618e-01   -1,064877883e-01    0,000000000e+00    0,000000000e+00    0,000000000e+00    0,000000000e+00
     1444000000    1,997231692e-01    1,548862755e-01    1,640354842e-01   -1,128189415e-01    0,000000000e+00    0,000000000e+00    0,000000000e+00    0,000000000e+00
     1458000000    2,338069528e-01   -9,924446233e-03    1,552599967e-01   -8,088340610e-02    0,000000000e+00    0,000000000e+00    0,000000000e+00    0,000000000e+00
     1472000000    1,891577691e-01   -1,933179498e-01    1,436159760e-01   -3,609406948e-02    0,000000000e+00    0,000000000e+00    0,000000000e+00    0,000000000e+00
     1486000000    6,658038497e-02   -3,654717803e-01    1,708692908e-01    3,034957126e-02    0,000000000e+00    0,000000000e+00    0,000000000e+00    0,000000000e+00
     1500000000   -1,649281085e-01   -4,850235283e-01    2,173676491e-01    9,027983248e-02    0,000000000e+00    0,000000000e+00    0,000000000e+00    0,000000000e+00
