! NanoVNA-App
! Date: 2025-09-25 15:45:59
! Start: 100MHz Stop: 1,5GHz Points: 101
! S-Parameter data: F S11 S21 S12 S22
# Hz S RI R 50
!     Frequency           S11_Real           S11_Imag           S21_Real           S21_Imag           S12_Real           S12_Imag           S22_Real           S22_Imag
      100000000   -2,880202048e-02   -4,256672692e-03    3,739953339e-01   -7,215640545e-01    0,000000000e+00    0,000000000e+00    0,000000000e+00    0,000000000e+00
      114000000   -1,656893827e-02    1,149685681e-02   -8,907269686e-02   -8,051929474e-01    0,000000000e+00    0,000000000e+00    0,000000000e+00    0,000000000e+00
      128000000    3,411931219e-03    1,069730427e-02   -5,143539310e-01   -6,203601956e-01    0,000000000e+00    0,000000000e+00    0,000000000e+00    0,000000000e+00
      142000000    1,462716423e-02   -2,676193835e-03   -7,669042349e-01   -2,364794612e-01    0,000000000e+00    0,000000000e+00    0,000000000e+00    0,000000000e+00
      156000000    1,638393104e-02   -1,416037697e-02   -7,720487118e-01    2,245618254e-01    0,000000000e+00    0,000000000e+00    0,000000000e+00    0,000000000e+00
      170000000    1,703784615e-02   -2,244540490e-02   -5,180958509e-01    6,044241786e-01    0,000000000e+00    0,000000000e+00    0,000000000e+00    0,000000000e+00
      184000000    2,129840851e-02   -3,710533679e-02   -1,013561115e-01    7,857622504e-01    0,000000000e+00    0,000000000e+00    0,000000000e+00    0,000000000e+00
      198000000    1,321024261e-02   -6,249225512e-02    3,431785107e-01    7,123784423e-01    0,000000000e+00    0,000000000e+00    0,000000000e+00    0,000000000e+00
      212000000   -1,844074577e-02   -8,128853142e-02    6,778342724e-01    4,100106657e-01    0,000000000e+00    0,000000000e+00    0,000000000e+00    0,000000000e+00
      226000000   -6,141657755e-02   -6,920334697e-02    7,954965234e-01   -3,045346402e-02    0,000000000e+00    0,000000000e+00    0,000000000e+00    0,000000000e+00
      240000000   -8,234066516e-02   -2,582124434e-02    6,460816860e-01   -4,667676687e-01    0,000000000e+00    0,000000000e+00    0,000000000e+00    0,000000000e+00
      254000000   -6,344809383e-02    1,700154506e-02    2,760327756e-01   -7,428992391e-01    0,000000000e+00    0,000000000e+00    0,000000000e+00    0,000000000e+00
      268000000   -2,393673919e-02    2,884806320e-02   -1,775376648e-01   -7,637907267e-01    0,000000000e+00    0,000000000e+00    0,000000000e+00    0,000000000e+00
      282000000    4,132280592e-03    1,212074328e-02   -5,615984797e-01   -5,355094671e-01    0,000000000e+00    0,000000000e+00    0,000000000e+00    0,000000000e+00
      296000000    9,783161804e-03   -7,586050313e-03   -7,593565583e-01   -1,396688372e-01    0,000000000e+00    0,000000000e+00    0,000000000e+00    0,000000000e+00
      310000000    1,158154570e-02   -1,602067798e-02   -7,129284143e-01    2,978856862e-01    0,000000000e+00    0,000000000e+00    0,000000000e+00    0,000000000e+00
      324000000    2,000276558e-02   -2,682954259e-02   -4,265088737e-01    6,374187469e-01    0,000000000e+00    0,000000000e+00    0,000000000e+00    0,000000000e+00
      338000000    2,576086111e-02   -5,209843069e-02   -1,000299677e-02    7,626172304e-01    0,000000000e+00    0,000000000e+00    0,000000000e+00    0,000000000e+00
      352000000    7,468116470e-03   -8,467511833e-02    4,058558345e-01    6,392112970e-01    0,000000000e+00    0,000000000e+00    0,000000000e+00    0,000000000e+00
      366000000   -3,440915421e-02   -9,559938312e-02    6,903928518e-01    3,102819920e-01    0,000000000e+00    0,000000000e+00    0,000000000e+00    0,000000000e+00
      380000000   -7,021329552e-02   -7,126515359e-02    7,476779222e-01   -1,254826039e-01    0,000000000e+00    0,000000000e+00    0,000000000e+00    0,000000000e+00
      394000000   -7,243662328e-02   -3,257488459e-02    5,452944040e-01   -5,221061110e-01    0,000000000e+00    0,000000000e+00    0,000000000e+00    0,000000000e+00
      408000000   -4,629921913e-02   -1,647999510e-02    1,610181928e-01   -7,307173610e-01    0,000000000e+00    0,000000000e+00    0,000000000e+00    0,000000000e+00
      422000000   -2,827256732e-02   -3,190624341e-02   -2,668466270e-01   -6,951574087e-01    0,000000000e+00    0,000000000e+00    0,000000000e+00    0,000000000e+00
      436000000   -4,034226760e-02   -5,217986926e-02   -6,031210423e-01   -4,320099950e-01    0,000000000e+00    0,000000000e+00    0,000000000e+00    0,000000000e+00
      450000000   -6,727540493e-02   -4,380024225e-02   -7,403099537e-01   -2,218045294e-02    0,000000000e+00    0,000000000e+00    0,000000000e+00    0,000000000e+00
      464000000   -7,280006260e-02   -1,172406971e-02   -6,181950569e-01    3,964265287e-01    0,000000000e+00    0,000000000e+00    0,000000000e+00    0,000000000e+00
      478000000   -4,750914872e-02    1,177664008e-02   -2,827931643e-01    6,669364572e-01    0,000000000e+00    0,000000000e+00    0,000000000e+00    0,000000000e+00
      492000000   -1,559694204e-02    5,342620891e-03    1,373892874e-01    7,014815211e-01    0,000000000e+00    0,000000000e+00    0,000000000e+00    0,000000000e+00
      506000000   -2,695462666e-03   -1,556881610e-02    4,977428019e-01    5,032286048e-01    0,000000000e+00    0,000000000e+00    0,000000000e+00    0,000000000e+00
      520000000   -5,021207966e-03   -3,137163818e-02    6,863077283e-01    1,426644474e-01    0,000000000e+00    0,000000000e+00    0,000000000e+00    0,000000000e+00
      534000000   -3,478762694e-03   -3,820189461e-02    6,433014274e-01   -2,618054152e-01    0,000000000e+00    0,000000000e+00    0,000000000e+00    0,000000000e+00
      548000000    6,515639834e-03   -5,358239636e-02    3,818332255e-01   -5,664283037e-01    0,000000000e+00    0,000000000e+00    0,000000000e+00    0,000000000e+00
      562000000    3,420381108e-03   -8,947941661e-02    2,969838446e-03   -6,717489958e-01    0,000000000e+00    0,000000000e+00    0,000000000e+00    0,000000000e+00
      576000000   -3,388921544e-02   -1,239749566e-01   -3,678522706e-01   -5,573204160e-01    0,000000000e+00    0,000000000e+00    0,000000000e+00    0,000000000e+00
      590000000   -9,571761638e-02   -1,227814853e-01   -6,199806333e-01   -2,630095184e-01    0,000000000e+00    0,000000000e+00    0,000000000e+00    0,000000000e+00
      604000000   -1,386739165e-01   -7,234797627e-02   -6,641014814e-01    1,362196952e-01    0,000000000e+00    0,000000000e+00    0,000000000e+00    0,000000000e+00
      618000000   -1,290319860e-01   -1,000696607e-02   -4,647876918e-01    4,918595254e-01    0,000000000e+00    0,000000000e+00    0,000000000e+00    0,000000000e+00
      632000000   -8,468829840e-02    1,565792970e-02   -9,942267090e-02    6,628683209e-01    0,000000000e+00    0,000000000e+00    0,000000000e+00    0,000000000e+00
      646000000   -5,234814435e-02    9,630957502e-04    2,863160074e-01    5,943688750e-01    0,000000000e+00    0,000000000e+00    0,000000000e+00    0,000000000e+00
      660000000   -5,396777391e-02   -2,077033743e-02    5,658296943e-01    3,246154785e-01    0,000000000e+00    0,000000000e+00    0,000000000e+00    0,000000000e+00
      674000000   -6,938739121e-02   -1,607812010e-02    6,408454180e-01   -6,300517917e-02    0,000000000e+00    0,000000000e+00    0,000000000e+00    0,000000000e+00
      688000000   -6,698877364e-02    8,715360425e-03    4,704192281e-01   -4,239879251e-01    0,000000000e+00    0,000000000e+00    0,000000000e+00    0,000000000e+00
      702000000   -3,688125685e-02    2,610258386e-02    1,250773519e-01   -6,061103940e-01    0,000000000e+00    0,000000000e+00    0,000000000e+00    0,000000000e+00
      716000000    3,035987029e-03    1,585856639e-02   -2,583990097e-01   -5,452823043e-01    0,000000000e+00    0,000000000e+00    0,000000000e+00    0,000000000e+00
      730000000    3,665142506e-02   -1,432259753e-02   -5,218382478e-01   -2,715759575e-01    0,000000000e+00    0,000000000e+00    0,000000000e+00    0,000000000e+00
      744000000    6,210388243e-02   -6,447013468e-02   -5,605222583e-01    9,827387333e-02    0,000000000e+00    0,000000000e+00    0,000000000e+00    0,000000000e+00
      758000000    6,100466102e-02   -1,521043181e-01   -3,663869798e-01    4,005342126e-01    0,000000000e+00    0,000000000e+00    0,000000000e+00    0,000000000e+00
      772000000   -1,644540392e-02   -2,562588453e-01   -4,611594602e-02    5,094417334e-01    0,000000000e+00    0,000000000e+00    0,000000000e+00    0,000000000e+00
      786000000   -2,015412897e-01   -2,910108566e-01    2,590649724e-01    3,997087181e-01    0,000000000e+00    0,000000000e+00    0,000000000e+00    0,000000000e+00
      800000000   -4,069055021e-01   -1,266156435e-01    4,077032208e-01    1,187142134e-01    0,000000000e+00    0,000000000e+00    0,000000000e+00    0,000000000e+00
      814000000   -3,770148158e-01    2,015838176e-01    2,976161242e-01   -1,510817111e-01    0,000000000e+00    0,000000000e+00    0,000000000e+00    0,000000000e+00
      828000000   -6,347166747e-02    3,468016982e-01    8,262818307e-02   -1,918497086e-01    0,000000000e+00    0,000000000e+00    0,000000000e+00    0,000000000e+00
      842000000    2,112816721e-01    1,864674836e-01   -3,664975055e-03   -9,411852807e-02    0,000000000e+00    0,000000000e+00    0,000000000e+00    0,000000000e+00
      856000000    2,661896944e-01   -1,047714949e-01    3,508774564e-02   -3,733672574e-02    0,000000000e+00    0,000000000e+00    0,000000000e+00    0,000000000e+00
      870000000    8,278316259e-02   -3,511509895e-01    8,837924153e-02   -9,651461989e-02    0,000000000e+00    0,000000000e+00    0,000000000e+00    0,000000000e+00
      884000000   -2,670066953e-01   -3,560585678e-01    1,069062948e-02   -2,264859676e-01    0,000000000e+00    0,000000000e+00    0,000000000e+00    0,000000000e+00
      898000000   -4,588195384e-01   -1,457758714e-02   -2,146677673e-01   -2,104220241e-01    0,000000000e+00    0,000000000e+00    0,000000000e+00    0,000000000e+00
      912000000   -2,360860854e-01    2,782580853e-01   -3,313728273e-01    7,874632627e-02    0,000000000e+00    0,000000000e+00    0,000000000e+00    0,000000000e+00
      926000000    5,495169014e-02    2,612514198e-01   -2,086690962e-01    2,589041293e-01    0,000000000e+00    0,000000000e+00    0,000000000e+00    0,000000000e+00
      940000000    2,096367627e-01    8,347706497e-02   -3,149056435e-02    3,243520260e-01    0,000000000e+00    0,000000000e+00    0,000000000e+00    0,000000000e+00
      954000000    2,190772891e-01   -1,216211841e-01    1,320068538e-01    3,008501530e-01    0,000000000e+00    0,000000000e+00    0,000000000e+00    0,000000000e+00
      968000000    1,189878583e-01   -2,916884124e-01    2,694492340e-01    2,121603787e-01    0,000000000e+00    0,000000000e+00    0,000000000e+00    0,000000000e+00
      982000000   -7,590010017e-02   -3,862325549e-01    3,605920374e-01    6,408972293e-02    0,000000000e+00    0,000000000e+00    0,000000000e+00    0,000000000e+00
      996000000   -3,133445382e-01   -3,337457478e-01    3,624558747e-01   -1,427104771e-01    0,000000000e+00    0,000000000e+00    0,000000000e+00    0,000000000e+00
     1010000000   -4,598297477e-01   -1,200444177e-01    2,183019072e-01   -3,335504830e-01    0,000000000e+00    0,000000000e+00    0,000000000e+00    0,000000000e+00
     1024000000   -4,135649800e-01    1,425943226e-01   -3,015929274e-02   -3,847632706e-01    0,000000000e+00    0,000000000e+00    0,000000000e+00    0,000000000e+00
     1038000000   -2,271533310e-01    2,891866565e-01   -2,411381006e-01   -2,571282685e-01    0,000000000e+00    0,000000000e+00    0,000000000e+00    0,000000000e+00
     1052000000   -1,223854534e-02    2,836195529e-01   -3,125871718e-01   -4,610574991e-02    0,000000000e+00    0,000000000e+00    0,000000000e+00    0,000000000e+00
     1066000000    1,314658672e-01    1,660586298e-01   -2,506304085e-01    1,402817518e-01    0,000000000e+00    0,000000000e+00    0,000000000e+00    0,000000000e+00
     1080000000    1,915341020e-01    9,363284335e-03   -1,145001575e-01    2,546438575e-01    0,000000000e+00    0,000000000e+00    0,000000000e+00    0,000000000e+00
     1094000000    1,613510996e-01   -1,599560976e-01    5,866197869e-02    2,904254794e-01    0,000000000e+00    0,000000000e+00    0,000000000e+00    0,000000000e+00
     1108000000    2,188678831e-02   -3,001509309e-01    2,587683797e-01    2,368723750e-01    0,000000000e+00    0,000000000e+00    0,000000000e+00    0,000000000e+00
     1122000000   -2,098640949e-01   -2,842858732e-01    4,360967577e-01    2,647143230e-02    0,000000000e+00    0,000000000e+00    0,000000000e+00    0,000000000e+00
     1136000000   -3,315699100e-01   -3,106978722e-02    4,028110206e-01   -3,461389244e-01    0,000000000e+00    0,000000000e+00    0,000000000e+00    0,000000000e+00
     1150000000   -1,101784110e-01    1,368879676e-01    4,848562926e-02   -5,295609832e-01    0,000000000e+00    0,000000000e+00    0,000000000e+00    0,000000000e+00
     1164000000    8,536592126e-02   -1,281216741e-02   -2,542152703e-01   -4,042685628e-01    0,000000000e+00    0,000000000e+00    0,000000000e+00    0,000000000e+00
     1178000000    2,865649946e-02   -2,489628792e-01   -3,699726164e-01   -1,803749353e-01    0,000000000e+00    0,000000000e+00    0,000000000e+00    0,000000000e+00
     1192000000   -2,168011218e-01   -3,468154669e-01   -3,378843963e-01    4,129599780e-02    0,000000000e+00    0,000000000e+00    0,000000000e+00    0,000000000e+00
     1206000000   -4,832107723e-01   -1,814292967e-01   -1,935587674e-01    1,824232936e-01    0,000000000e+00    0,000000000e+00    0,000000000e+00    0,000000000e+00
     1220000000   -5,044285059e-01    1,334371567e-01   -1,051406655e-02    1,752912402e-01    0,000000000e+00    0,000000000e+00    0,000000000e+00    0,000000000e+00
     1234000000   -3,008603752e-01    3,386282921e-01    7,599601895e-02    7,722491026e-02    0,000000000e+00    0,000000000e+00    0,000000000e+00    0,000000000e+00
     1248000000   -6,489071995e-02    3,652495444e-01    6,776443869e-02   -2,911202144e-03    0,000000000e+00    0,000000000e+00    0,000000000e+00    0,000000000e+00
     1262000000    1,075004190e-01    2,619450986e-01    2,891030535e-02   -2,651899494e-02    0,000000000e+00    0,000000000e+00    0,000000000e+00    0,000000000e+00
     1276000000    2,002904862e-01    1,073862836e-01    2,019870095e-03   -9,294203483e-03    0,000000000e+00    0,000000000e+00    0,000000000e+00    0,000000000e+00
     1290000000    2,191720009e-01   -6,648632884e-02    1,157163549e-02    2,407535724e-02    0,000000000e+00    0,000000000e+00    0,000000000e+00    0,000000000e+00
     1304000000    1,636947542e-01   -2,317107320e-01    6,172081456e-02    6,194581091e-02    0,000000000e+00    0,000000000e+00    0,000000000e+00    0,000000000e+00
     1318000000    2,538185567e-02   -3,629323542e-01    1,708011180e-01    1,956394687e-02    0,000000000e+00    0,000000000e+00    0,000000000e+00    0,000000000e+00
     1332000000   -1,494008601e-01   -4,041175842e-01    9,697248787e-02   -1,807684451e-01    0,000000000e+00    0,000000000e+00    0,000000000e+00    0,000000000e+00
     1346000000   -3,596214950e-01   -3,935962617e-01   -6,097726151e-02   -2,396815456e-02    0,000000000e+00    0,000000000e+00    0,000000000e+00    0,000000000e+00
     1360000000   -5,824965239e-01   -2,118542492e-01    5,867974460e-02    7,751015574e-02    0,000000000e+00    0,000000000e+00    0,000000000e+00    0,000000000e+00
     1374000000   -6,211625934e-01    1,025478020e-01    1,853693277e-01    5,309093371e-02    0,000000000e+00    0,000000000e+00    0,000000000e+00    0,000000000e+00
     1388000000   -4,755400419e-01    3,521766663e-01    2,234469950e-01   -1,458690409e-02    0,000000000e+00    0,000000000e+00    0,000000000e+00    0,000000000e+00
     1402000000   -2,499521375e-01    4,425795078e-01    2,125732750e-01   -9,079877287e-02    0,000000000e+00    0,000000000e+00    0,000000000e+00    0,000000000e+00
     1416000000   -4,100031033e-02    4,123683572e-01    1,851315349e-01   -1,033871323e-01    0,000000000e+00    0,000000000e+00    0,000000000e+00    0,000000000e+00
     1430000000    1,119113192e-01    3,098447919e-01    1,925512552e-01   -1,059879363e-01    0,000000000e+00    0,000000000e+00    0,000000000e+00    0,000000000e+00
     1444000000    1,999359429e-01    1,532878429e-01    1,674581915e-01   -1,190971062e-01    0,000000000e+00    0,000000000e+00    0,000000000e+00    0,000000000e+00
     1458000000    2,349082530e-01   -1,163239032e-02    1,546102315e-01   -8,716406673e-02    0,000000000e+00    0,000000000e+00    0,000000000e+00    0,000000000e+00
     1472000000    1,870078146e-01   -1,973517984e-01    1,428632140e-01   -4,737179354e-02    0,000000000e+00    0,000000000e+00    0,000000000e+00    0,000000000e+00
     1486000000    7,127241045e-02   -3,649638593e-01    1,716073155e-01    1,221173164e-02    0,000000000e+00    0,000000000e+00    0,000000000e+00    0,000000000e+00
     1500000000   -1,560481489e-01   -4,895759523e-01    2,437499464e-01    9,297823161e-02    0,000000000e+00    0,000000000e+00    0,000000000e+00    0,000000000e+00
