! NanoVNA-App
! Date: 2025-09-25 15:45:42
! Start: 100MHz Stop: 1,5GHz Points: 101
! S-Parameter data: F S11 S21 S12 S22
# Hz S RI R 50
!     Frequency           S11_Real           S11_Imag           S21_Real           S21_Imag           S12_Real           S12_Imag           S22_Real           S22_Imag
      100000000   -2,879637852e-02   -4,251765553e-03    3,740311861e-01   -7,215872407e-01    0,000000000e+00    0,000000000e+00    0,000000000e+00    0,000000000e+00
      114000000   -1,659057848e-02    1,152883936e-02   -8,904240280e-02   -8,053088188e-01    0,000000000e+00    0,000000000e+00    0,000000000e+00    0,000000000e+00
      128000000    3,402606817e-03    1,073415019e-02   -5,146087408e-01   -6,203670502e-01    0,000000000e+00    0,000000000e+00    0,000000000e+00    0,000000000e+00
      142000000    1,464384887e-02   -2,669379581e-03   -7,668601274e-01   -2,363826036e-01    0,000000000e+00    0,000000000e+00    0,000000000e+00    0,000000000e+00
      156000000    1,596443355e-02   -1,423538290e-02   -7,687371373e-01    2,236412168e-01    0,000000000e+00    0,000000000e+00    0,000000000e+00    0,000000000e+00
      170000000    1,707563736e-02   -2,252530493e-02   -5,180296898e-01    6,043398976e-01    0,000000000e+00    0,000000000e+00    0,000000000e+00    0,000000000e+00
      184000000    2,129165269e-02   -3,711368889e-02   -1,014481485e-01    7,861035466e-01    0,000000000e+00    0,000000000e+00    0,000000000e+00    0,000000000e+00
      198000000    1,323356386e-02   -6,250338256e-02    3,430349529e-01    7,125536203e-01    0,000000000e+00    0,000000000e+00    0,000000000e+00    0,000000000e+00
      212000000   -1,845481619e-02   -8,126295358e-02    6,779146791e-01    4,098828733e-01    0,000000000e+00    0,000000000e+00    0,000000000e+00    0,000000000e+00
      226000000   -6,142673641e-02   -6,923084706e-02    7,954802513e-01   -3,049376793e-02    0,000000000e+00    0,000000000e+00    0,000000000e+00    0,000000000e+00
      240000000   -8,229009807e-02   -2,582543530e-02    6,457986832e-01   -4,666081071e-01    0,000000000e+00    0,000000000e+00    0,000000000e+00    0,000000000e+00
      254000000   -6,344176829e-02    1,699718274e-02    2,762127221e-01   -7,428356409e-01    0,000000000e+00    0,000000000e+00    0,000000000e+00    0,000000000e+00
      268000000   -2,398603410e-02    2,884043194e-02   -1,777829081e-01   -7,642123103e-01    0,000000000e+00    0,000000000e+00    0,000000000e+00    0,000000000e+00
      282000000    4,072270356e-03    1,212922949e-02   -5,617282391e-01   -5,354343057e-01    0,000000000e+00    0,000000000e+00    0,000000000e+00    0,000000000e+00
      296000000    9,901196696e-03   -7,553135976e-03   -7,597258091e-01   -1,396728754e-01    0,000000000e+00    0,000000000e+00    0,000000000e+00    0,000000000e+00
      310000000    1,152908709e-02   -1,608374342e-02   -7,118281126e-01    2,972850502e-01    0,000000000e+00    0,000000000e+00    0,000000000e+00    0,000000000e+00
      324000000    2,015961893e-02   -2,666203491e-02   -4,267971218e-01    6,369857788e-01    0,000000000e+00    0,000000000e+00    0,000000000e+00    0,000000000e+00
      338000000    2,560636401e-02   -5,202805251e-02   -7,527437061e-03    7,630795240e-01    0,000000000e+00    0,000000000e+00    0,000000000e+00    0,000000000e+00
      352000000    7,580142934e-03   -8,466484398e-02    4,061758518e-01    6,397967339e-01    0,000000000e+00    0,000000000e+00    0,000000000e+00    0,000000000e+00
      366000000   -3,453647718e-02   -9,518812597e-02    6,896853447e-01    3,114673197e-01    0,000000000e+00    0,000000000e+00    0,000000000e+00    0,000000000e+00
      380000000   -7,031332701e-02   -7,111741602e-02    7,475053668e-01   -1,257008612e-01    0,000000000e+00    0,000000000e+00    0,000000000e+00    0,000000000e+00
      394000000   -7,205290347e-02   -3,257215768e-02    5,462824702e-01   -5,202454329e-01    0,000000000e+00    0,000000000e+00    0,000000000e+00    0,000000000e+00
      408000000   -4,617111757e-02   -1,631447487e-02    1,619720161e-01   -7,304368019e-01    0,000000000e+00    0,000000000e+00    0,000000000e+00    0,000000000e+00
      422000000   -2,835321426e-02   -3,205808252e-02   -2,670875192e-01   -6,958072782e-01    0,000000000e+00    0,000000000e+00    0,000000000e+00    0,000000000e+00
      436000000   -4,065075889e-02   -5,164615065e-02   -6,030209661e-01   -4,313642681e-01    0,000000000e+00    0,000000000e+00    0,000000000e+00    0,000000000e+00
      450000000   -6,690361351e-02   -4,399632290e-02   -7,398021817e-01   -2,190276980e-02    0,000000000e+00    0,000000000e+00    0,000000000e+00    0,000000000e+00
      464000000   -7,314364612e-02   -1,196453162e-02   -6,188104749e-01    3,965572715e-01    0,000000000e+00    0,000000000e+00    0,000000000e+00    0,000000000e+00
      478000000   -4,756883159e-02    1,167448889e-02   -2,832365632e-01    6,675792933e-01    0,000000000e+00    0,000000000e+00    0,000000000e+00    0,000000000e+00
      492000000   -1,585310698e-02    6,011168007e-03    1,369682252e-01    7,013329864e-01    0,000000000e+00    0,000000000e+00    0,000000000e+00    0,000000000e+00
      506000000   -2,440354088e-03   -1,593321562e-02    4,979180396e-01    5,023573041e-01    0,000000000e+00    0,000000000e+00    0,000000000e+00    0,000000000e+00
      520000000   -5,330862012e-03   -3,167607263e-02    6,873647571e-01    1,405370235e-01    0,000000000e+00    0,000000000e+00    0,000000000e+00    0,000000000e+00
      534000000   -3,404622665e-03   -3,787462786e-02    6,430605650e-01   -2,613546848e-01    0,000000000e+00    0,000000000e+00    0,000000000e+00    0,000000000e+00
      548000000    6,438022014e-03   -5,403074250e-02    3,809967041e-01   -5,669791698e-01    0,000000000e+00    0,000000000e+00    0,000000000e+00    0,000000000e+00
      562000000    3,169990378e-03   -8,916912228e-02    3,147525480e-03   -6,717365384e-01    0,000000000e+00    0,000000000e+00    0,000000000e+00    0,000000000e+00
      576000000   -3,444560245e-02   -1,242583916e-01   -3,682247996e-01   -5,572540760e-01    0,000000000e+00    0,000000000e+00    0,000000000e+00    0,000000000e+00
      590000000   -9,566746652e-02   -1,225452051e-01   -6,180793047e-01   -2,632995844e-01    0,000000000e+00    0,000000000e+00    0,000000000e+00    0,000000000e+00
      604000000   -1,388699710e-01   -7,217860222e-02   -6,640641689e-01    1,371173412e-01    0,000000000e+00    0,000000000e+00    0,000000000e+00    0,000000000e+00
      618000000   -1,290725470e-01   -1,060684770e-02   -4,643857479e-01    4,927675724e-01    0,000000000e+00    0,000000000e+00    0,000000000e+00    0,000000000e+00
      632000000   -8,382117003e-02    1,603633352e-02   -1,002880856e-01    6,632707119e-01    0,000000000e+00    0,000000000e+00    0,000000000e+00    0,000000000e+00
      646000000   -5,162392929e-02    1,059610164e-03    2,844636142e-01    5,951665640e-01    0,000000000e+00    0,000000000e+00    0,000000000e+00    0,000000000e+00
      660000000   -5,381270498e-02   -2,135351859e-02    5,653039217e-01    3,238301277e-01    0,000000000e+00    0,000000000e+00    0,000000000e+00    0,000000000e+00
      674000000   -6,945906579e-02   -1,743577234e-02    6,411202550e-01   -6,285835803e-02    0,000000000e+00    0,000000000e+00    0,000000000e+00    0,000000000e+00
      688000000   -6,634521484e-02    9,130596183e-03    4,714406133e-01   -4,243087769e-01    0,000000000e+00    0,000000000e+00    0,000000000e+00    0,000000000e+00
      702000000   -3,602120653e-02    2,551094256e-02    1,221120879e-01   -6,034861803e-01    0,000000000e+00    0,000000000e+00    0,000000000e+00    0,000000000e+00
      716000000    3,523088060e-03    1,690604165e-02   -2,586187422e-01   -5,448889136e-01    0,000000000e+00    0,000000000e+00    0,000000000e+00    0,000000000e+00
      730000000    3,658231348e-02   -1,310384367e-02   -5,222032666e-01   -2,714674473e-01    0,000000000e+00    0,000000000e+00    0,000000000e+00    0,000000000e+00
      744000000    6,170169264e-02   -6,528168917e-02   -5,607404113e-01    9,847792983e-02    0,000000000e+00    0,000000000e+00    0,000000000e+00    0,000000000e+00
      758000000    6,108329073e-02   -1,512226909e-01   -3,665881753e-01    3,997875750e-01    0,000000000e+00    0,000000000e+00    0,000000000e+00    0,000000000e+00
      772000000   -1,773419417e-02   -2,555638850e-01   -4,535344243e-02    5,088236332e-01    0,000000000e+00    0,000000000e+00    0,000000000e+00    0,000000000e+00
      786000000   -2,026430368e-01   -2,924233675e-01    2,597289979e-01    3,996942341e-01    0,000000000e+00    0,000000000e+00    0,000000000e+00    0,000000000e+00
      800000000   -4,082555175e-01   -1,267316788e-01    4,076902568e-01    1,188807786e-01    0,000000000e+00    0,000000000e+00    0,000000000e+00    0,000000000e+00
      814000000   -3,776075244e-01    2,012795508e-01    2,972635627e-01   -1,513707936e-01    0,000000000e+00    0,000000000e+00    0,000000000e+00    0,000000000e+00
      828000000   -6,355769187e-02    3,470220864e-01    8,319842815e-02   -1,914190203e-01    0,000000000e+00    0,000000000e+00    0,000000000e+00    0,000000000e+00
      842000000    2,117604464e-01    1,862692982e-01   -3,457540413e-03   -9,409168363e-02    0,000000000e+00    0,000000000e+00    0,000000000e+00    0,000000000e+00
      856000000    2,661272287e-01   -1,054281667e-01    3,497387096e-02   -3,720572963e-02    0,000000000e+00    0,000000000e+00    0,000000000e+00    0,000000000e+00
      870000000    8,292371035e-02   -3,513909578e-01    8,801943809e-02   -9,718246013e-02    0,000000000e+00    0,000000000e+00    0,000000000e+00    0,000000000e+00
      884000000   -2,673957646e-01   -3,558995724e-01    1,084615663e-02   -2,271627635e-01    0,000000000e+00    0,000000000e+00    0,000000000e+00    0,000000000e+00
      898000000   -4,583830535e-01   -1,499585155e-02   -2,149941474e-01   -2,103410065e-01    0,000000000e+00    0,000000000e+00    0,000000000e+00    0,000000000e+00
      912000000   -2,346159965e-01    2,796665728e-01   -3,267800808e-01    6,618859619e-02    0,000000000e+00    0,000000000e+00    0,000000000e+00    0,000000000e+00
      926000000    5,706142262e-02    2,630479038e-01   -2,090109885e-01    2,634367049e-01    0,000000000e+00    0,000000000e+00    0,000000000e+00    0,000000000e+00
      940000000    2,090207487e-01    8,712610602e-02   -3,154034540e-02    3,255061507e-01    0,000000000e+00    0,000000000e+00    0,000000000e+00    0,000000000e+00
      954000000    2,222520262e-01   -1,232868135e-01    1,292622387e-01    3,023281693e-01    0,000000000e+00    0,000000000e+00    0,000000000e+00    0,000000000e+00
      968000000    1,193171516e-01   -2,932690680e-01    2,692680359e-01    2,139078677e-01    0,000000000e+00    0,000000000e+00    0,000000000e+00    0,000000000e+00
      982000000   -7,669124752e-02   -3,821938932e-01    3,614194393e-01    6,201696023e-02    0,000000000e+00    0,000000000e+00    0,000000000e+00    0,000000000e+00
      996000000   -3,085125089e-01   -3,330250084e-01    3,625115156e-01   -1,432752311e-01    0,000000000e+00    0,000000000e+00    0,000000000e+00    0,000000000e+00
     1010000000   -4,567229152e-01   -1,163263768e-01    2,186924070e-01   -3,345543146e-01    0,000000000e+00    0,000000000e+00    0,000000000e+00    0,000000000e+00
     1024000000   -4,136312902e-01    1,462155432e-01   -3,180706128e-02   -3,836630583e-01    0,000000000e+00    0,000000000e+00    0,000000000e+00    0,000000000e+00
     1038000000   -2,249953300e-01    2,850213051e-01   -2,398523241e-01   -2,585086226e-01    0,000000000e+00    0,000000000e+00    0,000000000e+00    0,000000000e+00
     1052000000   -1,421712432e-02    2,767035067e-01   -3,116858602e-01   -4,771139845e-02    0,000000000e+00    0,000000000e+00    0,000000000e+00    0,000000000e+00
     1066000000    1,302898526e-01    1,701443195e-01   -2,514305115e-01    1,391292661e-01    0,000000000e+00    0,000000000e+00    0,000000000e+00    0,000000000e+00
     1080000000    1,903223544e-01    8,664592169e-03   -1,152982935e-01    2,525669932e-01    0,000000000e+00    0,000000000e+00    0,000000000e+00    0,000000000e+00
     1094000000    1,597439945e-01   -1,659956425e-01    5,882168561e-02    2,944438159e-01    0,000000000e+00    0,000000000e+00    0,000000000e+00    0,000000000e+00
     1108000000    2,011444047e-02   -2,998984158e-01    2,601130903e-01    2,359302491e-01    0,000000000e+00    0,000000000e+00    0,000000000e+00    0,000000000e+00
     1122000000   -2,154514492e-01   -2,809537947e-01    4,383641481e-01    2,366103977e-02    0,000000000e+00    0,000000000e+00    0,000000000e+00    0,000000000e+00
     1136000000   -3,303127587e-01   -3,176796436e-02    4,017485380e-01   -3,442853987e-01    0,000000000e+00    0,000000000e+00    0,000000000e+00    0,000000000e+00
     1150000000   -1,116368473e-01    1,371436566e-01    4,953594133e-02   -5,300000906e-01    0,000000000e+00    0,000000000e+00    0,000000000e+00    0,000000000e+00
     1164000000    8,568225056e-02   -1,414845511e-02   -2,531356812e-01   -4,011158049e-01    0,000000000e+00    0,000000000e+00    0,000000000e+00    0,000000000e+00
     1178000000    2,823609114e-02   -2,538370192e-01   -3,687229156e-01   -1,823334992e-01    0,000000000e+00    0,000000000e+00    0,000000000e+00    0,000000000e+00
     1192000000   -2,250121832e-01   -3,490366638e-01   -3,453145623e-01    4,043092951e-02    0,000000000e+00    0,000000000e+00    0,000000000e+00    0,000000000e+00
     1206000000   -4,775549471e-01   -1,790623218e-01   -1,885720044e-01    1,862846762e-01    0,000000000e+00    0,000000000e+00    0,000000000e+00    0,000000000e+00
     1220000000   -4,993527234e-01    1,317280680e-01   -7,559793070e-03    1,734617054e-01    0,000000000e+00    0,000000000e+00    0,000000000e+00    0,000000000e+00
     1234000000   -2,982704043e-01    3,470258415e-01    7,544895262e-02    7,527168095e-02    0,000000000e+00    0,000000000e+00    0,000000000e+00    0,000000000e+00
     1248000000   -6,356140971e-02    3,556881547e-01    6,568189710e-02   -3,863374513e-05    0,000000000e+00    0,000000000e+00    0,000000000e+00    0,000000000e+00
     1262000000    1,063205898e-01    2,619381249e-01    2,797952667e-02   -2,115214802e-02    0,000000000e+00    0,000000000e+00    0,000000000e+00    0,000000000e+00
     1276000000    2,065822631e-01    1,103655696e-01    5,959023722e-03   -1,218043454e-02    0,000000000e+00    0,000000000e+00    0,000000000e+00    0,000000000e+00
     1290000000    2,216236740e-01   -6,602720916e-02    1,021072920e-02    2,070969157e-02    0,000000000e+00    0,000000000e+00    0,000000000e+00    0,000000000e+00
     1304000000    1,685143560e-01   -2,330155969e-01    6,509501487e-02    5,562246591e-02    0,000000000e+00    0,000000000e+00    0,000000000e+00    0,000000000e+00
     1318000000    2,447253466e-02   -3,617661297e-01    1,685550660e-01    2,408185042e-02    0,000000000e+00    0,000000000e+00    0,000000000e+00    0,000000000e+00
     1332000000   -1,489252746e-01   -4,023273289e-01    1,060695499e-01   -1,845461130e-01    0,000000000e+00    0,000000000e+00    0,000000000e+00    0,000000000e+00
     1346000000   -3,538330495e-01   -3,917310536e-01   -5,136051029e-02   -2,250585891e-02    0,000000000e+00    0,000000000e+00    0,000000000e+00    0,000000000e+00
     1360000000   -5,854138136e-01   -2,016646117e-01    6,335414201e-02    9,209518135e-02    0,000000000e+00    0,000000000e+00    0,000000000e+00    0,000000000e+00
     1374000000   -6,263970137e-01    1,073741242e-01    1,742732823e-01    4,943175241e-02    0,000000000e+00    0,000000000e+00    0,000000000e+00    0,000000000e+00
     1388000000   -4,696542025e-01    3,485225737e-01    2,198008597e-01   -3,251607716e-02    0,000000000e+00    0,000000000e+00    0,000000000e+00    0,000000000e+00
     1402000000   -2,472312599e-01    4,467755556e-01    2,226990908e-01   -8,322970569e-02    0,000000000e+00    0,000000000e+00    0,000000000e+00    0,000000000e+00
     1416000000   -3,693037853e-02    4,081631303e-01    1,940966994e-01   -1,012873128e-01    0,000000000e+00    0,000000000e+00    0,000000000e+00    0,000000000e+00
     1430000000    1,112021431e-01    2,970490456e-01    1,743288636e-01   -1,041535661e-01    0,000000000e+00    0,000000000e+00    0,000000000e+00    0,000000000e+00
     1444000000    1,993898153e-01    1,566258818e-01    1,549553722e-01   -1,102055386e-01    0,000000000e+00    0,000000000e+00    0,000000000e+00    0,000000000e+00
     1458000000    2,340229154e-01   -1,097364165e-02    1,426511407e-01   -8,049837500e-02    0,000000000e+00    0,000000000e+00    0,000000000e+00    0,000000000e+00
     1472000000    1,933350414e-01   -1,970918775e-01    1,311265528e-01   -5,653820559e-02    0,000000000e+00    0,000000000e+00    0,000000000e+00    0,000000000e+00
     1486000000    6,570237130e-02   -3,639934659e-01    1,749139577e-01    1,025404315e-02    0,000000000e+00    0,000000000e+00    0,000000000e+00    0,000000000e+00
     1500000000   -1,509305686e-01   -4,845675826e-01    2,410453707e-01    9,425131977e-02    0,000000000e+00    0,000000000e+00    0,000000000e+00    0,000000000e+00
