! NanoVNA-App
! Date: 2025-09-25 15:41:28
! Start: 100MHz Stop: 1,5GHz Points: 101
! S-Parameter data: F S11 S21 S12 S22
# Hz S RI R 50
!     Frequency           S11_Real           S11_Imag           S21_Real           S21_Imag           S12_Real           S12_Imag           S22_Real           S22_Imag
      100000000   -2,868815325e-02   -4,238346592e-03    3,738799989e-01   -7,215680480e-01    0,000000000e+00    0,000000000e+00    0,000000000e+00    0,000000000e+00
      114000000   -1,649911515e-02    1,146372594e-02   -8,913236856e-02   -8,051221967e-01    0,000000000e+00    0,000000000e+00    0,000000000e+00    0,000000000e+00
      128000000    3,502347274e-03    1,070327219e-02   -5,143567920e-01   -6,201359630e-01    0,000000000e+00    0,000000000e+00    0,000000000e+00    0,000000000e+00
      142000000    1,470908616e-02   -2,654116135e-03   -7,669940591e-01   -2,363625020e-01    0,000000000e+00    0,000000000e+00    0,000000000e+00    0,000000000e+00
      156000000    1,623756811e-02   -1,409569103e-02   -7,693589330e-01    2,241275609e-01    0,000000000e+00    0,000000000e+00    0,000000000e+00    0,000000000e+00
      170000000    1,718528569e-02   -2,247906104e-02   -5,178942084e-01    6,044306755e-01    0,000000000e+00    0,000000000e+00    0,000000000e+00    0,000000000e+00
      184000000    2,135922015e-02   -3,718868271e-02   -1,013151631e-01    7,857871652e-01    0,000000000e+00    0,000000000e+00    0,000000000e+00    0,000000000e+00
      198000000    1,332171727e-02   -6,256246567e-02    3,427948356e-01    7,116800547e-01    0,000000000e+00    0,000000000e+00    0,000000000e+00    0,000000000e+00
      212000000   -1,836910099e-02   -8,128020167e-02    6,777595282e-01    4,097885787e-01    0,000000000e+00    0,000000000e+00    0,000000000e+00    0,000000000e+00
      226000000   -6,133164465e-02   -6,925579906e-02    7,953727245e-01   -3,037793376e-02    0,000000000e+00    0,000000000e+00    0,000000000e+00    0,000000000e+00
      240000000   -8,222259581e-02   -2,579659224e-02    6,458781362e-01   -4,667089880e-01    0,000000000e+00    0,000000000e+00    0,000000000e+00    0,000000000e+00
      254000000   -6,333775073e-02    1,689074002e-02    2,761015594e-01   -7,430956960e-01    0,000000000e+00    0,000000000e+00    0,000000000e+00    0,000000000e+00
      268000000   -2,395390160e-02    2,873249911e-02   -1,780099720e-01   -7,640067339e-01    0,000000000e+00    0,000000000e+00    0,000000000e+00    0,000000000e+00
      282000000    4,174262751e-03    1,204993762e-02   -5,613786578e-01   -5,354654789e-01    0,000000000e+00    0,000000000e+00    0,000000000e+00    0,000000000e+00
      296000000    9,783735499e-03   -7,573664654e-03   -7,594701648e-01   -1,397032291e-01    0,000000000e+00    0,000000000e+00    0,000000000e+00    0,000000000e+00
      310000000    1,155016199e-02   -1,596698351e-02   -7,108657360e-01    2,973745167e-01    0,000000000e+00    0,000000000e+00    0,000000000e+00    0,000000000e+00
      324000000    2,014286816e-02   -2,666936815e-02   -4,262149632e-01    6,371769905e-01    0,000000000e+00    0,000000000e+00    0,000000000e+00    0,000000000e+00
      338000000    2,569985390e-02   -5,215843022e-02   -7,248163223e-03    7,632516026e-01    0,000000000e+00    0,000000000e+00    0,000000000e+00    0,000000000e+00
      352000000    7,672891021e-03   -8,470122516e-02    4,067462087e-01    6,385639310e-01    0,000000000e+00    0,000000000e+00    0,000000000e+00    0,000000000e+00
      366000000   -3,458960354e-02   -9,509395063e-02    6,901820898e-01    3,115634024e-01    0,000000000e+00    0,000000000e+00    0,000000000e+00    0,000000000e+00
      380000000   -7,035677880e-02   -7,117486745e-02    7,467790842e-01   -1,256403923e-01    0,000000000e+00    0,000000000e+00    0,000000000e+00    0,000000000e+00
      394000000   -7,246538252e-02   -3,270390630e-02    5,469635129e-01   -5,204129219e-01    0,000000000e+00    0,000000000e+00    0,000000000e+00    0,000000000e+00
      408000000   -4,644930735e-02   -1,648909412e-02    1,604245454e-01   -7,312828302e-01    0,000000000e+00    0,000000000e+00    0,000000000e+00    0,000000000e+00
      422000000   -2,823649161e-02   -3,235628828e-02   -2,668454349e-01   -6,949373484e-01    0,000000000e+00    0,000000000e+00    0,000000000e+00    0,000000000e+00
      436000000   -4,046367109e-02   -5,180526152e-02   -6,026731730e-01   -4,316095114e-01    0,000000000e+00    0,000000000e+00    0,000000000e+00    0,000000000e+00
      450000000   -6,700869650e-02   -4,366531968e-02   -7,398508787e-01   -2,156142518e-02    0,000000000e+00    0,000000000e+00    0,000000000e+00    0,000000000e+00
      464000000   -7,273988426e-02   -1,175193768e-02   -6,180272698e-01    3,970446885e-01    0,000000000e+00    0,000000000e+00    0,000000000e+00    0,000000000e+00
      478000000   -4,794367403e-02    1,160541084e-02   -2,830759883e-01    6,668888927e-01    0,000000000e+00    0,000000000e+00    0,000000000e+00    0,000000000e+00
      492000000   -1,582599990e-02    6,016794126e-03    1,375491619e-01    6,999337673e-01    0,000000000e+00    0,000000000e+00    0,000000000e+00    0,000000000e+00
      506000000   -2,641867148e-03   -1,572420262e-02    4,975600243e-01    5,033323765e-01    0,000000000e+00    0,000000000e+00    0,000000000e+00    0,000000000e+00
      520000000   -4,858135711e-03   -3,137575835e-02    6,883243918e-01    1,400144994e-01    0,000000000e+00    0,000000000e+00    0,000000000e+00    0,000000000e+00
      534000000   -3,577789292e-03   -3,773734719e-02    6,430093646e-01   -2,611129880e-01    0,000000000e+00    0,000000000e+00    0,000000000e+00    0,000000000e+00
      548000000    6,518303882e-03   -5,379191414e-02    3,817680180e-01   -5,662803054e-01    0,000000000e+00    0,000000000e+00    0,000000000e+00    0,000000000e+00
      562000000    3,764147870e-03   -8,960574120e-02    3,135928651e-03   -6,723166108e-01    0,000000000e+00    0,000000000e+00    0,000000000e+00    0,000000000e+00
      576000000   -3,357475251e-02   -1,240941584e-01   -3,673945367e-01   -5,574243665e-01    0,000000000e+00    0,000000000e+00    0,000000000e+00    0,000000000e+00
      590000000   -9,583330899e-02   -1,227084473e-01   -6,212050319e-01   -2,628842592e-01    0,000000000e+00    0,000000000e+00    0,000000000e+00    0,000000000e+00
      604000000   -1,391218454e-01   -7,238418609e-02   -6,640801430e-01    1,368435919e-01    0,000000000e+00    0,000000000e+00    0,000000000e+00    0,000000000e+00
      618000000   -1,290555000e-01   -9,693108499e-03   -4,627646506e-01    4,936227202e-01    0,000000000e+00    0,000000000e+00    0,000000000e+00    0,000000000e+00
      632000000   -8,440166712e-02    1,544878073e-02   -1,000114009e-01    6,622084379e-01    0,000000000e+00    0,000000000e+00    0,000000000e+00    0,000000000e+00
      646000000   -5,127466097e-02    3,636802139e-04    2,844898999e-01    5,940879583e-01    0,000000000e+00    0,000000000e+00    0,000000000e+00    0,000000000e+00
      660000000   -5,423594266e-02   -2,127415128e-02    5,642173290e-01    3,237062693e-01    0,000000000e+00    0,000000000e+00    0,000000000e+00    0,000000000e+00
      674000000   -6,943804026e-02   -1,585613936e-02    6,408166885e-01   -6,319830567e-02    0,000000000e+00    0,000000000e+00    0,000000000e+00    0,000000000e+00
      688000000   -6,667713076e-02    8,471324109e-03    4,708559513e-01   -4,243481755e-01    0,000000000e+00    0,000000000e+00    0,000000000e+00    0,000000000e+00
      702000000   -3,500405326e-02    2,576794475e-02    1,197614521e-01   -6,060556173e-01    0,000000000e+00    0,000000000e+00    0,000000000e+00    0,000000000e+00
      716000000    4,107145127e-03    1,679667830e-02   -2,597287595e-01   -5,443878174e-01    0,000000000e+00    0,000000000e+00    0,000000000e+00    0,000000000e+00
      730000000    3,687134758e-02   -1,335727423e-02   -5,214411020e-01   -2,712700963e-01    0,000000000e+00    0,000000000e+00    0,000000000e+00    0,000000000e+00
      744000000    6,186850369e-02   -6,484604627e-02   -5,600504875e-01    9,875275195e-02    0,000000000e+00    0,000000000e+00    0,000000000e+00    0,000000000e+00
      758000000    6,080844998e-02   -1,521977931e-01   -3,657981753e-01    3,997671604e-01    0,000000000e+00    0,000000000e+00    0,000000000e+00    0,000000000e+00
      772000000   -1,733783633e-02   -2,567404211e-01   -4,610174522e-02    5,085772276e-01    0,000000000e+00    0,000000000e+00    0,000000000e+00    0,000000000e+00
      786000000   -2,033012360e-01   -2,906366587e-01    2,588801384e-01    3,983711302e-01    0,000000000e+00    0,000000000e+00    0,000000000e+00    0,000000000e+00
      800000000   -4,068936110e-01   -1,272156686e-01    4,065047204e-01    1,181130782e-01    0,000000000e+00    0,000000000e+00    0,000000000e+00    0,000000000e+00
      814000000   -3,768185973e-01    2,014615238e-01    2,961676121e-01   -1,507250220e-01    0,000000000e+00    0,000000000e+00    0,000000000e+00    0,000000000e+00
      828000000   -6,210608780e-02    3,471243083e-01    8,230293542e-02   -1,908754855e-01    0,000000000e+00    0,000000000e+00    0,000000000e+00    0,000000000e+00
      842000000    2,115805745e-01    1,855171472e-01   -3,238433506e-03   -9,264559299e-02    0,000000000e+00    0,000000000e+00    0,000000000e+00    0,000000000e+00
      856000000    2,659488022e-01   -1,058428660e-01    3,562283143e-02   -3,702909872e-02    0,000000000e+00    0,000000000e+00    0,000000000e+00    0,000000000e+00
      870000000    8,214854449e-02   -3,510715365e-01    8,897318691e-02   -9,748352319e-02    0,000000000e+00    0,000000000e+00    0,000000000e+00    0,000000000e+00
      884000000   -2,667959332e-01   -3,558510542e-01    1,128544472e-02   -2,277628332e-01    0,000000000e+00    0,000000000e+00    0,000000000e+00    0,000000000e+00
      898000000   -4,580491781e-01   -1,319971308e-02   -2,158071548e-01   -2,090553492e-01    0,000000000e+00    0,000000000e+00    0,000000000e+00    0,000000000e+00
      912000000   -2,351539880e-01    2,778518796e-01   -3,363606632e-01    8,043505251e-02    0,000000000e+00    0,000000000e+00    0,000000000e+00    0,000000000e+00
      926000000    5,327263102e-02    2,612079382e-01   -2,111979872e-01    2,609706521e-01    0,000000000e+00    0,000000000e+00    0,000000000e+00    0,000000000e+00
      940000000    2,093392015e-01    8,213878423e-02   -3,052360006e-02    3,257742822e-01    0,000000000e+00    0,000000000e+00    0,000000000e+00    0,000000000e+00
      954000000    2,196850479e-01   -1,199361011e-01    1,313758790e-01    3,016578257e-01    0,000000000e+00    0,000000000e+00    0,000000000e+00    0,000000000e+00
      968000000    1,162108183e-01   -2,954360247e-01    2,676188052e-01    2,133209556e-01    0,000000000e+00    0,000000000e+00    0,000000000e+00    0,000000000e+00
      982000000   -7,527487725e-02   -3,825263977e-01    3,600451052e-01    6,252206862e-02    0,000000000e+00    0,000000000e+00    0,000000000e+00    0,000000000e+00
      996000000   -3,108314276e-01   -3,277376592e-01    3,615799546e-01   -1,425536275e-01    0,000000000e+00    0,000000000e+00    0,000000000e+00    0,000000000e+00
     1010000000   -4,626787901e-01   -1,131363437e-01    2,199548036e-01   -3,339694142e-01    0,000000000e+00    0,000000000e+00    0,000000000e+00    0,000000000e+00
     1024000000   -4,140453339e-01    1,425719559e-01   -3,222021088e-02   -3,863716424e-01    0,000000000e+00    0,000000000e+00    0,000000000e+00    0,000000000e+00
     1038000000   -2,240073532e-01    2,880655825e-01   -2,406106442e-01   -2,562263310e-01    0,000000000e+00    0,000000000e+00    0,000000000e+00    0,000000000e+00
     1052000000   -1,219670381e-02    2,811239362e-01   -3,104093671e-01   -4,705253989e-02    0,000000000e+00    0,000000000e+00    0,000000000e+00    0,000000000e+00
     1066000000    1,337118000e-01    1,717088968e-01   -2,517639995e-01    1,382384598e-01    0,000000000e+00    0,000000000e+00    0,000000000e+00    0,000000000e+00
     1080000000    1,910488904e-01    1,027660072e-02   -1,159993932e-01    2,522094846e-01    0,000000000e+00    0,000000000e+00    0,000000000e+00    0,000000000e+00
     1094000000    1,621510834e-01   -1,646502167e-01    5,995246395e-02    2,931413651e-01    0,000000000e+00    0,000000000e+00    0,000000000e+00    0,000000000e+00
     1108000000    2,069376968e-02   -2,952488065e-01    2,607469261e-01    2,335513532e-01    0,000000000e+00    0,000000000e+00    0,000000000e+00    0,000000000e+00
     1122000000   -2,124193907e-01   -2,799848914e-01    4,399125278e-01    2,369952761e-02    0,000000000e+00    0,000000000e+00    0,000000000e+00    0,000000000e+00
     1136000000   -3,250917494e-01   -2,510887012e-02    4,026372135e-01   -3,458797336e-01    0,000000000e+00    0,000000000e+00    0,000000000e+00    0,000000000e+00
     1150000000   -1,104863435e-01    1,406380683e-01    4,664549232e-02   -5,314420462e-01    0,000000000e+00    0,000000000e+00    0,000000000e+00    0,000000000e+00
     1164000000    8,515360206e-02   -2,032938600e-02   -2,515746951e-01   -4,050555229e-01    0,000000000e+00    0,000000000e+00    0,000000000e+00    0,000000000e+00
     1178000000    2,964981273e-02   -2,551717162e-01   -3,675948083e-01   -1,794948280e-01    0,000000000e+00    0,000000000e+00    0,000000000e+00    0,000000000e+00
     1192000000   -2,190454751e-01   -3,473564386e-01   -3,403269053e-01    3,925302625e-02    0,000000000e+00    0,000000000e+00    0,000000000e+00    0,000000000e+00
     1206000000   -4,794203341e-01   -1,852955222e-01   -1,908728629e-01    1,834108382e-01    0,000000000e+00    0,000000000e+00    0,000000000e+00    0,000000000e+00
     1220000000   -4,976647198e-01    1,376921386e-01   -9,230758063e-03    1,761918664e-01    0,000000000e+00    0,000000000e+00    0,000000000e+00    0,000000000e+00
     1234000000   -2,942895591e-01    3,416732252e-01    7,826218009e-02    7,845035940e-02    0,000000000e+00    0,000000000e+00    0,000000000e+00    0,000000000e+00
     1248000000   -6,545206159e-02    3,565883338e-01    6,765296310e-02    1,493710151e-04    0,000000000e+00    0,000000000e+00    0,000000000e+00    0,000000000e+00
     1262000000    1,105531603e-01    2,613572180e-01    3,138364479e-02   -1,846725866e-02    0,000000000e+00    0,000000000e+00    0,000000000e+00    0,000000000e+00
     1276000000    2,030183226e-01    1,058361158e-01    7,463393267e-03   -8,836261928e-03    0,000000000e+00    0,000000000e+00    0,000000000e+00    0,000000000e+00
     1290000000    2,227739394e-01   -6,158109754e-02    1,930786297e-02    2,685264684e-02    0,000000000e+00    0,000000000e+00    0,000000000e+00    0,000000000e+00
     1304000000    1,644128859e-01   -2,389727384e-01    6,420598924e-02    5,434326082e-02    0,000000000e+00    0,000000000e+00    0,000000000e+00    0,000000000e+00
     1318000000    2,891473100e-02   -3,649691045e-01    1,705110520e-01    1,266158652e-02    0,000000000e+00    0,000000000e+00    0,000000000e+00    0,000000000e+00
     1332000000   -1,475227177e-01   -3,951311707e-01    1,040351465e-01   -1,776997447e-01    0,000000000e+00    0,000000000e+00    0,000000000e+00    0,000000000e+00
     1346000000   -3,636663258e-01   -3,961546719e-01   -6,346917152e-02   -2,911682054e-02    0,000000000e+00    0,000000000e+00    0,000000000e+00    0,000000000e+00
     1360000000   -5,914826989e-01   -1,969728172e-01    5,367224663e-02    9,043873101e-02    0,000000000e+00    0,000000000e+00    0,000000000e+00    0,000000000e+00
     1374000000   -6,279833317e-01    1,079995632e-01    1,676715165e-01    5,234535784e-02    0,000000000e+00    0,000000000e+00    0,000000000e+00    0,000000000e+00
     1388000000   -4,712162316e-01    3,561572731e-01    2,265435606e-01   -1,370090060e-02    0,000000000e+00    0,000000000e+00    0,000000000e+00    0,000000000e+00
     1402000000   -2,463808656e-01    4,459639788e-01    2,106104940e-01   -7,154328376e-02    0,000000000e+00    0,000000000e+00    0,000000000e+00    0,000000000e+00
     1416000000   -3,200972453e-02    4,156231582e-01    1,972277015e-01   -1,021571159e-01    0,000000000e+00    0,000000000e+00    0,000000000e+00    0,000000000e+00
     1430000000    1,072421223e-01    3,150269985e-01    1,732731611e-01   -9,747367352e-02    0,000000000e+00    0,000000000e+00    0,000000000e+00    0,000000000e+00
     1444000000    2,034553140e-01    1,553830653e-01    1,569230407e-01   -1,046881229e-01    0,000000000e+00    0,000000000e+00    0,000000000e+00    0,000000000e+00
     1458000000    2,295234948e-01   -1,501489431e-02    1,378015876e-01   -9,584530443e-02    0,000000000e+00    0,000000000e+00    0,000000000e+00    0,000000000e+00
     1472000000    1,954305321e-01   -1,985682696e-01    1,483647078e-01   -4,785649851e-02    0,000000000e+00    0,000000000e+00    0,000000000e+00    0,000000000e+00
     1486000000    6,818241626e-02   -3,655157387e-01    1,726223230e-01    2,063432336e-02    0,000000000e+00    0,000000000e+00    0,000000000e+00    0,000000000e+00
     1500000000   -1,628754884e-01   -4,841955304e-01    2,347106338e-01    9,704328328e-02    0,000000000e+00    0,000000000e+00    0,000000000e+00    0,000000000e+00
