! NanoVNA-App
! Date: 2025-09-25 15:42:41
! Start: 100MHz Stop: 1,5GHz Points: 101
! S-Parameter data: F S11 S21 S12 S22
# Hz S RI R 50
!     Frequency           S11_Real           S11_Imag           S21_Real           S21_Imag           S12_Real           S12_Imag           S22_Real           S22_Imag
      100000000   -2,876113355e-02   -4,232184961e-03    3,739705682e-01   -7,215317488e-01    0,000000000e+00    0,000000000e+00    0,000000000e+00    0,000000000e+00
      114000000   -1,653805003e-02    1,148664113e-02   -8,896589279e-02   -8,050076365e-01    0,000000000e+00    0,000000000e+00    0,000000000e+00    0,000000000e+00
      128000000    3,382396186e-03    1,070001349e-02   -5,144006610e-01   -6,201432943e-01    0,000000000e+00    0,000000000e+00    0,000000000e+00    0,000000000e+00
      142000000    1,462933887e-02   -2,652834170e-03   -7,670257688e-01   -2,364680022e-01    0,000000000e+00    0,000000000e+00    0,000000000e+00    0,000000000e+00
      156000000    1,470900979e-02   -1,458699536e-02   -7,641491294e-01    2,202699631e-01    0,000000000e+00    0,000000000e+00    0,000000000e+00    0,000000000e+00
      170000000    1,707006432e-02   -2,250791155e-02   -5,180600882e-01    6,043915749e-01    0,000000000e+00    0,000000000e+00    0,000000000e+00    0,000000000e+00
      184000000    2,133616805e-02   -3,717704490e-02   -1,012835726e-01    7,854690552e-01    0,000000000e+00    0,000000000e+00    0,000000000e+00    0,000000000e+00
      198000000    1,322859619e-02   -6,257780641e-02    3,431946635e-01    7,120146155e-01    0,000000000e+00    0,000000000e+00    0,000000000e+00    0,000000000e+00
      212000000   -1,845447905e-02   -8,123529702e-02    6,779330373e-01    4,099201858e-01    0,000000000e+00    0,000000000e+00    0,000000000e+00    0,000000000e+00
      226000000   -6,142121926e-02   -6,919667870e-02    7,954155207e-01   -3,050485998e-02    0,000000000e+00    0,000000000e+00    0,000000000e+00    0,000000000e+00
      240000000   -8,220043033e-02   -2,580151521e-02    6,459304094e-01   -4,666634202e-01    0,000000000e+00    0,000000000e+00    0,000000000e+00    0,000000000e+00
      254000000   -6,340852380e-02    1,693677343e-02    2,760720253e-01   -7,426215410e-01    0,000000000e+00    0,000000000e+00    0,000000000e+00    0,000000000e+00
      268000000   -2,397543006e-02    2,877662890e-02   -1,781124920e-01   -7,641272545e-01    0,000000000e+00    0,000000000e+00    0,000000000e+00    0,000000000e+00
      282000000    3,997089341e-03    1,209534146e-02   -5,615957379e-01   -5,354457498e-01    0,000000000e+00    0,000000000e+00    0,000000000e+00    0,000000000e+00
      296000000    9,798737243e-03   -7,490934338e-03   -7,594689131e-01   -1,397099644e-01    0,000000000e+00    0,000000000e+00    0,000000000e+00    0,000000000e+00
      310000000    1,155885961e-02   -1,618406177e-02   -7,119229436e-01    2,967319787e-01    0,000000000e+00    0,000000000e+00    0,000000000e+00    0,000000000e+00
      324000000    2,010978200e-02   -2,667372487e-02   -4,272756279e-01    6,369631290e-01    0,000000000e+00    0,000000000e+00    0,000000000e+00    0,000000000e+00
      338000000    2,554122917e-02   -5,212525278e-02   -1,057809778e-02    7,632052302e-01    0,000000000e+00    0,000000000e+00    0,000000000e+00    0,000000000e+00
      352000000    7,715433370e-03   -8,480533957e-02    4,064268172e-01    6,390753388e-01    0,000000000e+00    0,000000000e+00    0,000000000e+00    0,000000000e+00
      366000000   -3,417626396e-02   -9,530783445e-02    6,906672120e-01    3,111080229e-01    0,000000000e+00    0,000000000e+00    0,000000000e+00    0,000000000e+00
      380000000   -7,053467631e-02   -7,102528214e-02    7,465952635e-01   -1,250106394e-01    0,000000000e+00    0,000000000e+00    0,000000000e+00    0,000000000e+00
      394000000   -7,219734788e-02   -3,275787830e-02    5,474593639e-01   -5,217151642e-01    0,000000000e+00    0,000000000e+00    0,000000000e+00    0,000000000e+00
      408000000   -4,598400369e-02   -1,634264737e-02    1,618722230e-01   -7,322078943e-01    0,000000000e+00    0,000000000e+00    0,000000000e+00    0,000000000e+00
      422000000   -2,830291726e-02   -3,218571097e-02   -2,672078311e-01   -6,944596767e-01    0,000000000e+00    0,000000000e+00    0,000000000e+00    0,000000000e+00
      436000000   -4,043279961e-02   -5,203773826e-02   -6,031853557e-01   -4,325022697e-01    0,000000000e+00    0,000000000e+00    0,000000000e+00    0,000000000e+00
      450000000   -6,725789607e-02   -4,388820380e-02   -7,397876978e-01   -2,176710218e-02    0,000000000e+00    0,000000000e+00    0,000000000e+00    0,000000000e+00
      464000000   -7,324460894e-02   -1,203382108e-02   -6,184259653e-01    3,968192041e-01    0,000000000e+00    0,000000000e+00    0,000000000e+00    0,000000000e+00
      478000000   -4,748841748e-02    1,134090871e-02   -2,827522457e-01    6,668234468e-01    0,000000000e+00    0,000000000e+00    0,000000000e+00    0,000000000e+00
      492000000   -1,569049992e-02    5,382116418e-03    1,376527101e-01    7,010657191e-01    0,000000000e+00    0,000000000e+00    0,000000000e+00    0,000000000e+00
      506000000   -2,974000992e-03   -1,572928764e-02    4,975693524e-01    5,027859807e-01    0,000000000e+00    0,000000000e+00    0,000000000e+00    0,000000000e+00
      520000000   -4,904378206e-03   -3,110563755e-02    6,872901320e-01    1,429844350e-01    0,000000000e+00    0,000000000e+00    0,000000000e+00    0,000000000e+00
      534000000   -3,527623368e-03   -3,802193329e-02    6,431474090e-01   -2,620052397e-01    0,000000000e+00    0,000000000e+00    0,000000000e+00    0,000000000e+00
      548000000    6,079870276e-03   -5,372443795e-02    3,813176453e-01   -5,661227107e-01    0,000000000e+00    0,000000000e+00    0,000000000e+00    0,000000000e+00
      562000000    3,087745048e-03   -8,944746107e-02    2,602040069e-03   -6,717606187e-01    0,000000000e+00    0,000000000e+00    0,000000000e+00    0,000000000e+00
      576000000   -3,408788517e-02   -1,242768690e-01   -3,680867553e-01   -5,572140217e-01    0,000000000e+00    0,000000000e+00    0,000000000e+00    0,000000000e+00
      590000000   -9,578312188e-02   -1,228355169e-01   -6,189584136e-01   -2,651335001e-01    0,000000000e+00    0,000000000e+00    0,000000000e+00    0,000000000e+00
      604000000   -1,390787661e-01   -7,216961682e-02   -6,643840075e-01    1,365901679e-01    0,000000000e+00    0,000000000e+00    0,000000000e+00    0,000000000e+00
      618000000   -1,292973757e-01   -1,027700957e-02   -4,643324912e-01    4,919618666e-01    0,000000000e+00    0,000000000e+00    0,000000000e+00    0,000000000e+00
      632000000   -8,425134420e-02    1,558987796e-02   -1,002651006e-01    6,617702246e-01    0,000000000e+00    0,000000000e+00    0,000000000e+00    0,000000000e+00
      646000000   -5,152048171e-02    6,017273408e-04    2,857625782e-01    5,945206881e-01    0,000000000e+00    0,000000000e+00    0,000000000e+00    0,000000000e+00
      660000000   -5,317691714e-02   -2,031019516e-02    5,645533204e-01    3,234790266e-01    0,000000000e+00    0,000000000e+00    0,000000000e+00    0,000000000e+00
      674000000   -6,941235065e-02   -1,723376662e-02    6,406059265e-01   -6,274039298e-02    0,000000000e+00    0,000000000e+00    0,000000000e+00    0,000000000e+00
      688000000   -6,759649515e-02    9,610233828e-03    4,701789916e-01   -4,240265787e-01    0,000000000e+00    0,000000000e+00    0,000000000e+00    0,000000000e+00
      702000000   -3,709581494e-02    2,634235285e-02    1,198043376e-01   -6,113312840e-01    0,000000000e+00    0,000000000e+00    0,000000000e+00    0,000000000e+00
      716000000    4,028154071e-03    1,663259603e-02   -2,586792707e-01   -5,445820093e-01    0,000000000e+00    0,000000000e+00    0,000000000e+00    0,000000000e+00
      730000000    3,634247929e-02   -1,434209198e-02   -5,217663646e-01   -2,714683712e-01    0,000000000e+00    0,000000000e+00    0,000000000e+00    0,000000000e+00
      744000000    6,279598922e-02   -6,546722353e-02   -5,601360798e-01    9,907318652e-02    0,000000000e+00    0,000000000e+00    0,000000000e+00    0,000000000e+00
      758000000    6,156627461e-02   -1,516732424e-01   -3,666107357e-01    4,009188116e-01    0,000000000e+00    0,000000000e+00    0,000000000e+00    0,000000000e+00
      772000000   -1,762148552e-02   -2,564603388e-01   -4,489955679e-02    5,098961592e-01    0,000000000e+00    0,000000000e+00    0,000000000e+00    0,000000000e+00
      786000000   -2,019969374e-01   -2,915255129e-01    2,593840063e-01    3,993481696e-01    0,000000000e+00    0,000000000e+00    0,000000000e+00    0,000000000e+00
      800000000   -4,069989622e-01   -1,272416562e-01    4,073909223e-01    1,187102720e-01    0,000000000e+00    0,000000000e+00    0,000000000e+00    0,000000000e+00
      814000000   -3,765442371e-01    2,030188292e-01    2,956580818e-01   -1,513566971e-01    0,000000000e+00    0,000000000e+00    0,000000000e+00    0,000000000e+00
      828000000   -6,168983504e-02    3,471831977e-01    8,238567412e-02   -1,905272156e-01    0,000000000e+00    0,000000000e+00    0,000000000e+00    0,000000000e+00
      842000000    2,112643272e-01    1,856474578e-01   -3,959979396e-03   -9,331700951e-02    0,000000000e+00    0,000000000e+00    0,000000000e+00    0,000000000e+00
      856000000    2,658815682e-01   -1,057687998e-01    3,589188308e-02   -3,740968928e-02    0,000000000e+00    0,000000000e+00    0,000000000e+00    0,000000000e+00
      870000000    8,283791691e-02   -3,515416086e-01    8,901429921e-02   -9,701393545e-02    0,000000000e+00    0,000000000e+00    0,000000000e+00    0,000000000e+00
      884000000   -2,673159242e-01   -3,564110994e-01    1,100034267e-02   -2,279616296e-01    0,000000000e+00    0,000000000e+00    0,000000000e+00    0,000000000e+00
      898000000   -4,583579004e-01   -1,313374098e-02   -2,154408246e-01   -2,101717591e-01    0,000000000e+00    0,000000000e+00    0,000000000e+00    0,000000000e+00
      912000000   -2,361597121e-01    2,774215043e-01   -3,312435448e-01    6,323133409e-02    0,000000000e+00    0,000000000e+00    0,000000000e+00    0,000000000e+00
      926000000    5,707250163e-02    2,624660432e-01   -2,074545771e-01    2,618517578e-01    0,000000000e+00    0,000000000e+00    0,000000000e+00    0,000000000e+00
      940000000    2,099224329e-01    8,589685708e-02   -3,204071149e-02    3,268008828e-01    0,000000000e+00    0,000000000e+00    0,000000000e+00    0,000000000e+00
      954000000    2,227840573e-01   -1,225274280e-01    1,307147294e-01    3,023566008e-01    0,000000000e+00    0,000000000e+00    0,000000000e+00    0,000000000e+00
      968000000    1,179151386e-01   -2,929824889e-01    2,669577301e-01    2,125228494e-01    0,000000000e+00    0,000000000e+00    0,000000000e+00    0,000000000e+00
      982000000   -7,676480711e-02   -3,828378320e-01    3,609020710e-01    6,347420067e-02    0,000000000e+00    0,000000000e+00    0,000000000e+00    0,000000000e+00
      996000000   -3,087269068e-01   -3,322241604e-01    3,610507846e-01   -1,440179646e-01    0,000000000e+00    0,000000000e+00    0,000000000e+00    0,000000000e+00
     1010000000   -4,607694149e-01   -1,195883229e-01    2,194898278e-01   -3,345681727e-01    0,000000000e+00    0,000000000e+00    0,000000000e+00    0,000000000e+00
     1024000000   -4,159386456e-01    1,391836107e-01   -3,195808083e-02   -3,852614760e-01    0,000000000e+00    0,000000000e+00    0,000000000e+00    0,000000000e+00
     1038000000   -2,271987200e-01    2,921192348e-01   -2,414932251e-01   -2,574431896e-01    0,000000000e+00    0,000000000e+00    0,000000000e+00    0,000000000e+00
     1052000000   -1,100404188e-02    2,809657454e-01   -3,125227392e-01   -4,767518863e-02    0,000000000e+00    0,000000000e+00    0,000000000e+00    0,000000000e+00
     1066000000    1,339722127e-01    1,728329360e-01   -2,502567172e-01    1,360225528e-01    0,000000000e+00    0,000000000e+00    0,000000000e+00    0,000000000e+00
     1080000000    1,931853890e-01    1,165959239e-02   -1,152805984e-01    2,542922199e-01    0,000000000e+00    0,000000000e+00    0,000000000e+00    0,000000000e+00
     1094000000    1,620827168e-01   -1,640874445e-01    6,042164564e-02    2,916945815e-01    0,000000000e+00    0,000000000e+00    0,000000000e+00    0,000000000e+00
     1108000000    1,666367613e-02   -2,985005081e-01    2,605741024e-01    2,354865521e-01    0,000000000e+00    0,000000000e+00    0,000000000e+00    0,000000000e+00
     1122000000   -2,144612670e-01   -2,786125839e-01    4,364705980e-01    2,354029752e-02    0,000000000e+00    0,000000000e+00    0,000000000e+00    0,000000000e+00
     1136000000   -3,251121044e-01   -3,394189849e-02    4,030480385e-01   -3,439326882e-01    0,000000000e+00    0,000000000e+00    0,000000000e+00    0,000000000e+00
     1150000000   -1,078398079e-01    1,417686343e-01    4,839439318e-02   -5,296627283e-01    0,000000000e+00    0,000000000e+00    0,000000000e+00    0,000000000e+00
     1164000000    8,776787668e-02   -1,531686354e-02   -2,509744167e-01   -4,014729261e-01    0,000000000e+00    0,000000000e+00    0,000000000e+00    0,000000000e+00
     1178000000    2,740446851e-02   -2,546631694e-01   -3,715987802e-01   -1,791354716e-01    0,000000000e+00    0,000000000e+00    0,000000000e+00    0,000000000e+00
     1192000000   -2,204416692e-01   -3,479904532e-01   -3,399232626e-01    4,068849981e-02    0,000000000e+00    0,000000000e+00    0,000000000e+00    0,000000000e+00
     1206000000   -4,759350121e-01   -1,795345247e-01   -1,886121929e-01    1,804382801e-01    0,000000000e+00    0,000000000e+00    0,000000000e+00    0,000000000e+00
     1220000000   -4,974566400e-01    1,348482519e-01   -5,173538812e-03    1,772390604e-01    0,000000000e+00    0,000000000e+00    0,000000000e+00    0,000000000e+00
     1234000000   -3,022717834e-01    3,458192050e-01    7,122020423e-02    8,292441815e-02    0,000000000e+00    0,000000000e+00    0,000000000e+00    0,000000000e+00
     1248000000   -5,837452784e-02    3,629792631e-01    7,215543091e-02    4,233488813e-03    0,000000000e+00    0,000000000e+00    0,000000000e+00    0,000000000e+00
     1262000000    1,090870649e-01    2,541891038e-01    3,471932933e-02   -2,701880038e-02    0,000000000e+00    0,000000000e+00    0,000000000e+00    0,000000000e+00
     1276000000    2,003477514e-01    1,079091504e-01    4,085069057e-03   -8,169045672e-03    0,000000000e+00    0,000000000e+00    0,000000000e+00    0,000000000e+00
     1290000000    2,193880826e-01   -6,371439993e-02    8,511450142e-03    2,523112111e-02    0,000000000e+00    0,000000000e+00    0,000000000e+00    0,000000000e+00
     1304000000    1,643635929e-01   -2,321952432e-01    5,876828358e-02    5,826078355e-02    0,000000000e+00    0,000000000e+00    0,000000000e+00    0,000000000e+00
     1318000000    2,816589922e-02   -3,638336360e-01    1,727175564e-01    2,001680434e-02    0,000000000e+00    0,000000000e+00    0,000000000e+00    0,000000000e+00
     1332000000   -1,478912681e-01   -3,995962739e-01    1,062868461e-01   -1,828974634e-01    0,000000000e+00    0,000000000e+00    0,000000000e+00    0,000000000e+00
     1346000000   -3,625549376e-01   -3,921248019e-01   -6,356772035e-02   -1,857682876e-02    0,000000000e+00    0,000000000e+00    0,000000000e+00    0,000000000e+00
     1360000000   -5,815195441e-01   -2,007909864e-01    6,488443911e-02    9,092150629e-02    0,000000000e+00    0,000000000e+00    0,000000000e+00    0,000000000e+00
     1374000000   -6,276099086e-01    1,009897441e-01    1,774037480e-01    4,490466788e-02    0,000000000e+00    0,000000000e+00    0,000000000e+00    0,000000000e+00
     1388000000   -4,694275558e-01    3,450035751e-01    2,221024036e-01   -3,078863397e-02    0,000000000e+00    0,000000000e+00    0,000000000e+00    0,000000000e+00
     1402000000   -2,491500825e-01    4,466006160e-01    2,058919221e-01   -7,207673788e-02    0,000000000e+00    0,000000000e+00    0,000000000e+00    0,000000000e+00
     1416000000   -3,101970069e-02    4,138771594e-01    1,945847571e-01   -1,098187491e-01    0,000000000e+00    0,000000000e+00    0,000000000e+00    0,000000000e+00
     1430000000    1,128327474e-01    2,961598039e-01    1,572591066e-01   -1,155597121e-01    0,000000000e+00    0,000000000e+00    0,000000000e+00    0,000000000e+00
     1444000000    2,044038475e-01    1,529015601e-01    1,575901210e-01   -1,079840660e-01    0,000000000e+00    0,000000000e+00    0,000000000e+00    0,000000000e+00
     1458000000    2,317561209e-01   -7,721858565e-03    1,501541436e-01   -8,295053244e-02    0,000000000e+00    0,000000000e+00    0,000000000e+00    0,000000000e+00
     1472000000    1,868644804e-01   -1,893551499e-01    1,357609481e-01   -3,748857602e-02    0,000000000e+00    0,000000000e+00    0,000000000e+00    0,000000000e+00
     1486000000    6,413450837e-02   -3,673138320e-01    1,625871658e-01    1,263264194e-02    0,000000000e+00    0,000000000e+00    0,000000000e+00    0,000000000e+00
     1500000000   -1,665571332e-01   -4,857541025e-01    2,151398510e-01    9,122843295e-02    0,000000000e+00    0,000000000e+00    0,000000000e+00    0,000000000e+00
