! NanoVNA-App
! Date: 2025-09-25 15:45:39
! Start: 100MHz Stop: 1,5GHz Points: 101
! S-Parameter data: F S11 S21 S12 S22
# Hz S RI R 50
!     Frequency           S11_Real           S11_Imag           S21_Real           S21_Imag           S12_Real           S12_Imag           S22_Real           S22_Imag
      100000000   -2,879470214e-02   -4,246327095e-03    3,740262687e-01   -7,215656042e-01    0,000000000e+00    0,000000000e+00    0,000000000e+00    0,000000000e+00
      114000000   -1,656713337e-02    1,149222348e-02   -8,894825727e-02   -8,051349521e-01    0,000000000e+00    0,000000000e+00    0,000000000e+00    0,000000000e+00
      128000000    3,383640666e-03    1,071504224e-02   -5,144355893e-01   -6,201794147e-01    0,000000000e+00    0,000000000e+00    0,000000000e+00    0,000000000e+00
      142000000    1,463646535e-02   -2,662190003e-03   -7,668919563e-01   -2,364473343e-01    0,000000000e+00    0,000000000e+00    0,000000000e+00    0,000000000e+00
      156000000    1,479552966e-02   -1,452618372e-02   -7,640862465e-01    2,200096399e-01    0,000000000e+00    0,000000000e+00    0,000000000e+00    0,000000000e+00
      170000000    1,701059751e-02   -2,252324112e-02   -5,180664062e-01    6,043531895e-01    0,000000000e+00    0,000000000e+00    0,000000000e+00    0,000000000e+00
      184000000    2,128022537e-02   -3,713682666e-02   -1,013940200e-01    7,857750654e-01    0,000000000e+00    0,000000000e+00    0,000000000e+00    0,000000000e+00
      198000000    1,321632601e-02   -6,248997897e-02    3,430137336e-01    7,123088241e-01    0,000000000e+00    0,000000000e+00    0,000000000e+00    0,000000000e+00
      212000000   -1,842658594e-02   -8,128993213e-02    6,777371168e-01    4,097598791e-01    0,000000000e+00    0,000000000e+00    0,000000000e+00    0,000000000e+00
      226000000   -6,136268750e-02   -6,926462799e-02    7,953777313e-01   -3,054940514e-02    0,000000000e+00    0,000000000e+00    0,000000000e+00    0,000000000e+00
      240000000   -8,230013400e-02   -2,579355240e-02    6,458084583e-01   -4,666597247e-01    0,000000000e+00    0,000000000e+00    0,000000000e+00    0,000000000e+00
      254000000   -6,345217675e-02    1,702359505e-02    2,760442197e-01   -7,428528666e-01    0,000000000e+00    0,000000000e+00    0,000000000e+00    0,000000000e+00
      268000000   -2,394401841e-02    2,873684280e-02   -1,781642139e-01   -7,639442086e-01    0,000000000e+00    0,000000000e+00    0,000000000e+00    0,000000000e+00
      282000000    4,136982374e-03    1,206157357e-02   -5,618068576e-01   -5,354757905e-01    0,000000000e+00    0,000000000e+00    0,000000000e+00    0,000000000e+00
      296000000    9,927182458e-03   -7,641289849e-03   -7,595137954e-01   -1,395705640e-01    0,000000000e+00    0,000000000e+00    0,000000000e+00    0,000000000e+00
      310000000    1,148593333e-02   -1,602081209e-02   -7,132380605e-01    2,982803583e-01    0,000000000e+00    0,000000000e+00    0,000000000e+00    0,000000000e+00
      324000000    1,981775835e-02   -2,660046890e-02   -4,281365573e-01    6,367030144e-01    0,000000000e+00    0,000000000e+00    0,000000000e+00    0,000000000e+00
      338000000    2,586168982e-02   -5,213302001e-02   -8,960568346e-03    7,601054907e-01    0,000000000e+00    0,000000000e+00    0,000000000e+00    0,000000000e+00
      352000000    7,517601363e-03   -8,488579839e-02    4,060660303e-01    6,393160820e-01    0,000000000e+00    0,000000000e+00    0,000000000e+00    0,000000000e+00
      366000000   -3,449853510e-02   -9,547554702e-02    6,903771758e-01    3,111520112e-01    0,000000000e+00    0,000000000e+00    0,000000000e+00    0,000000000e+00
      380000000   -7,036261261e-02   -7,119837403e-02    7,476266623e-01   -1,259882599e-01    0,000000000e+00    0,000000000e+00    0,000000000e+00    0,000000000e+00
      394000000   -7,209323347e-02   -3,265663236e-02    5,459951162e-01   -5,221399665e-01    0,000000000e+00    0,000000000e+00    0,000000000e+00    0,000000000e+00
      408000000   -4,632347822e-02   -1,648286544e-02    1,604496092e-01   -7,318452597e-01    0,000000000e+00    0,000000000e+00    0,000000000e+00    0,000000000e+00
      422000000   -2,816672437e-02   -3,199912235e-02   -2,671892643e-01   -6,948840618e-01    0,000000000e+00    0,000000000e+00    0,000000000e+00    0,000000000e+00
      436000000   -4,041495547e-02   -5,198090896e-02   -6,035144925e-01   -4,322642386e-01    0,000000000e+00    0,000000000e+00    0,000000000e+00    0,000000000e+00
      450000000   -6,693125516e-02   -4,392654821e-02   -7,395281792e-01   -2,159233205e-02    0,000000000e+00    0,000000000e+00    0,000000000e+00    0,000000000e+00
      464000000   -7,297553867e-02   -1,168982778e-02   -6,184977889e-01    3,968478441e-01    0,000000000e+00    0,000000000e+00    0,000000000e+00    0,000000000e+00
      478000000   -4,766395316e-02    1,110901125e-02   -2,826088667e-01    6,672000289e-01    0,000000000e+00    0,000000000e+00    0,000000000e+00    0,000000000e+00
      492000000   -1,601915434e-02    5,650900770e-03    1,365499347e-01    7,010360360e-01    0,000000000e+00    0,000000000e+00    0,000000000e+00    0,000000000e+00
      506000000   -2,603787696e-03   -1,570434310e-02    4,973993003e-01    5,022888184e-01    0,000000000e+00    0,000000000e+00    0,000000000e+00    0,000000000e+00
      520000000   -4,962085281e-03   -3,130349889e-02    6,879240274e-01    1,427777410e-01    0,000000000e+00    0,000000000e+00    0,000000000e+00    0,000000000e+00
      534000000   -3,649594029e-03   -3,823085502e-02    6,430092454e-01   -2,618792951e-01    0,000000000e+00    0,000000000e+00    0,000000000e+00    0,000000000e+00
      548000000    6,420502439e-03   -5,406897888e-02    3,811489642e-01   -5,669028163e-01    0,000000000e+00    0,000000000e+00    0,000000000e+00    0,000000000e+00
      562000000    3,067331854e-03   -8,975467831e-02    3,775208490e-03   -6,711075902e-01    0,000000000e+00    0,000000000e+00    0,000000000e+00    0,000000000e+00
      576000000   -3,380634636e-02   -1,239681840e-01   -3,676608503e-01   -5,576306581e-01    0,000000000e+00    0,000000000e+00    0,000000000e+00    0,000000000e+00
      590000000   -9,570147097e-02   -1,227870733e-01   -6,202984452e-01   -2,662968338e-01    0,000000000e+00    0,000000000e+00    0,000000000e+00    0,000000000e+00
      604000000   -1,389280558e-01   -7,216167450e-02   -6,647092104e-01    1,370889395e-01    0,000000000e+00    0,000000000e+00    0,000000000e+00    0,000000000e+00
      618000000   -1,299078017e-01   -9,964549914e-03   -4,649271965e-01    4,924424291e-01    0,000000000e+00    0,000000000e+00    0,000000000e+00    0,000000000e+00
      632000000   -8,446121961e-02    1,667206921e-02   -1,001811326e-01    6,617543101e-01    0,000000000e+00    0,000000000e+00    0,000000000e+00    0,000000000e+00
      646000000   -5,184944347e-02    5,680684990e-05    2,857351303e-01    5,950850844e-01    0,000000000e+00    0,000000000e+00    0,000000000e+00    0,000000000e+00
      660000000   -5,317408592e-02   -2,114219964e-02    5,648835897e-01    3,229632676e-01    0,000000000e+00    0,000000000e+00    0,000000000e+00    0,000000000e+00
      674000000   -6,904450059e-02   -1,689588651e-02    6,407966018e-01   -6,292396784e-02    0,000000000e+00    0,000000000e+00    0,000000000e+00    0,000000000e+00
      688000000   -6,761890650e-02    8,929477073e-03    4,710700810e-01   -4,239801764e-01    0,000000000e+00    0,000000000e+00    0,000000000e+00    0,000000000e+00
      702000000   -3,495930880e-02    2,673299052e-02    1,200642064e-01   -6,051662564e-01    0,000000000e+00    0,000000000e+00    0,000000000e+00    0,000000000e+00
      716000000    3,851068905e-03    1,559402328e-02   -2,601180077e-01   -5,457686186e-01    0,000000000e+00    0,000000000e+00    0,000000000e+00    0,000000000e+00
      730000000    3,717868030e-02   -1,385341585e-02   -5,214816332e-01   -2,719653249e-01    0,000000000e+00    0,000000000e+00    0,000000000e+00    0,000000000e+00
      744000000    6,281112880e-02   -6,491708755e-02   -5,608566403e-01    9,824330360e-02    0,000000000e+00    0,000000000e+00    0,000000000e+00    0,000000000e+00
      758000000    6,119778380e-02   -1,509266049e-01   -3,666026592e-01    3,998591006e-01    0,000000000e+00    0,000000000e+00    0,000000000e+00    0,000000000e+00
      772000000   -1,777425781e-02   -2,552469373e-01   -4,507659376e-02    5,098986030e-01    0,000000000e+00    0,000000000e+00    0,000000000e+00    0,000000000e+00
      786000000   -2,014912665e-01   -2,914535105e-01    2,594244778e-01    3,995019197e-01    0,000000000e+00    0,000000000e+00    0,000000000e+00    0,000000000e+00
      800000000   -4,081661105e-01   -1,279534549e-01    4,077927470e-01    1,192288995e-01    0,000000000e+00    0,000000000e+00    0,000000000e+00    0,000000000e+00
      814000000   -3,771408200e-01    2,024206072e-01    2,970958352e-01   -1,512529552e-01    0,000000000e+00    0,000000000e+00    0,000000000e+00    0,000000000e+00
      828000000   -6,338017434e-02    3,481822610e-01    8,262292296e-02   -1,910891384e-01    0,000000000e+00    0,000000000e+00    0,000000000e+00    0,000000000e+00
      842000000    2,111176550e-01    1,861180365e-01   -3,515479155e-03   -9,346515685e-02    0,000000000e+00    0,000000000e+00    0,000000000e+00    0,000000000e+00
      856000000    2,662968934e-01   -1,049207747e-01    3,478497639e-02   -3,740901873e-02    0,000000000e+00    0,000000000e+00    0,000000000e+00    0,000000000e+00
      870000000    8,305942267e-02   -3,513385952e-01    8,811827004e-02   -9,703022242e-02    0,000000000e+00    0,000000000e+00    0,000000000e+00    0,000000000e+00
      884000000   -2,662412822e-01   -3,563053012e-01    1,187838055e-02   -2,270135283e-01    0,000000000e+00    0,000000000e+00    0,000000000e+00    0,000000000e+00
      898000000   -4,584333301e-01   -1,380084269e-02   -2,150888890e-01   -2,090355754e-01    0,000000000e+00    0,000000000e+00    0,000000000e+00    0,000000000e+00
      912000000   -2,350408286e-01    2,793841064e-01   -3,394384384e-01    6,438603997e-02    0,000000000e+00    0,000000000e+00    0,000000000e+00    0,000000000e+00
      926000000    5,556339771e-02    2,635785341e-01   -2,095886171e-01    2,650352418e-01    0,000000000e+00    0,000000000e+00    0,000000000e+00    0,000000000e+00
      940000000    2,081423104e-01    8,636701107e-02   -3,267186135e-02    3,251327574e-01    0,000000000e+00    0,000000000e+00    0,000000000e+00    0,000000000e+00
      954000000    2,226523608e-01   -1,235557050e-01    1,325053722e-01    3,005145490e-01    0,000000000e+00    0,000000000e+00    0,000000000e+00    0,000000000e+00
      968000000    1,217281818e-01   -2,944068313e-01    2,694649696e-01    2,131827027e-01    0,000000000e+00    0,000000000e+00    0,000000000e+00    0,000000000e+00
      982000000   -7,822494209e-02   -3,819409311e-01    3,620089889e-01    6,266717613e-02    0,000000000e+00    0,000000000e+00    0,000000000e+00    0,000000000e+00
      996000000   -3,127430975e-01   -3,282186985e-01    3,640588224e-01   -1,436827481e-01    0,000000000e+00    0,000000000e+00    0,000000000e+00    0,000000000e+00
     1010000000   -4,581740499e-01   -1,186095923e-01    2,207175344e-01   -3,353229463e-01    0,000000000e+00    0,000000000e+00    0,000000000e+00    0,000000000e+00
     1024000000   -4,142442942e-01    1,448629349e-01   -3,270617500e-02   -3,864889443e-01    0,000000000e+00    0,000000000e+00    0,000000000e+00    0,000000000e+00
     1038000000   -2,238557041e-01    2,863016725e-01   -2,410153300e-01   -2,564456165e-01    0,000000000e+00    0,000000000e+00    0,000000000e+00    0,000000000e+00
     1052000000   -1,187589299e-02    2,787663043e-01   -3,119050562e-01   -4,781485349e-02    0,000000000e+00    0,000000000e+00    0,000000000e+00    0,000000000e+00
     1066000000    1,335553676e-01    1,684739143e-01   -2,487580627e-01    1,382411271e-01    0,000000000e+00    0,000000000e+00    0,000000000e+00    0,000000000e+00
     1080000000    1,914855838e-01    7,518358994e-03   -1,154999882e-01    2,535525858e-01    0,000000000e+00    0,000000000e+00    0,000000000e+00    0,000000000e+00
     1094000000    1,587141901e-01   -1,656830907e-01    5,985986814e-02    2,903343439e-01    0,000000000e+00    0,000000000e+00    0,000000000e+00    0,000000000e+00
     1108000000    1,911415160e-02   -2,940328121e-01    2,593912482e-01    2,337806672e-01    0,000000000e+00    0,000000000e+00    0,000000000e+00    0,000000000e+00
     1122000000   -2,163618207e-01   -2,795713544e-01    4,417261481e-01    2,269688807e-02    0,000000000e+00    0,000000000e+00    0,000000000e+00    0,000000000e+00
     1136000000   -3,292752504e-01   -3,248261288e-02    4,012368917e-01   -3,418319225e-01    0,000000000e+00    0,000000000e+00    0,000000000e+00    0,000000000e+00
     1150000000   -1,061971188e-01    1,364293098e-01    4,891764000e-02   -5,307720304e-01    0,000000000e+00    0,000000000e+00    0,000000000e+00    0,000000000e+00
     1164000000    8,659202605e-02   -1,850121468e-02   -2,538877428e-01   -4,069746435e-01    0,000000000e+00    0,000000000e+00    0,000000000e+00    0,000000000e+00
     1178000000    2,714868635e-02   -2,525401115e-01   -3,731100261e-01   -1,783735901e-01    0,000000000e+00    0,000000000e+00    0,000000000e+00    0,000000000e+00
     1192000000   -2,195930332e-01   -3,490588963e-01   -3,391221762e-01    3,938570246e-02    0,000000000e+00    0,000000000e+00    0,000000000e+00    0,000000000e+00
     1206000000   -4,773287177e-01   -1,827208996e-01   -1,871801317e-01    1,822087914e-01    0,000000000e+00    0,000000000e+00    0,000000000e+00    0,000000000e+00
     1220000000   -5,071982145e-01    1,369347423e-01   -1,164528914e-02    1,743655652e-01    0,000000000e+00    0,000000000e+00    0,000000000e+00    0,000000000e+00
     1234000000   -2,984679639e-01    3,486573696e-01    7,744847983e-02    8,163018525e-02    0,000000000e+00    0,000000000e+00    0,000000000e+00    0,000000000e+00
     1248000000   -5,863027275e-02    3,547864854e-01    6,595487893e-02   -3,223487409e-03    0,000000000e+00    0,000000000e+00    0,000000000e+00    0,000000000e+00
     1262000000    1,132244319e-01    2,571764588e-01    3,456334025e-02   -2,297728695e-02    0,000000000e+00    0,000000000e+00    0,000000000e+00    0,000000000e+00
     1276000000    1,989995837e-01    1,069096625e-01    4,579239991e-03   -9,047461674e-03    0,000000000e+00    0,000000000e+00    0,000000000e+00    0,000000000e+00
     1290000000    2,210788578e-01   -6,135053560e-02    1,225520950e-02    2,693115361e-02    0,000000000e+00    0,000000000e+00    0,000000000e+00    0,000000000e+00
     1304000000    1,679995805e-01   -2,311697602e-01    6,202537194e-02    5,726310611e-02    0,000000000e+00    0,000000000e+00    0,000000000e+00    0,000000000e+00
     1318000000    2,811413072e-02   -3,654713035e-01    1,687211543e-01    1,883373410e-02    0,000000000e+00    0,000000000e+00    0,000000000e+00    0,000000000e+00
     1332000000   -1,481477469e-01   -3,995104134e-01    1,013150811e-01   -1,813876480e-01    0,000000000e+00    0,000000000e+00    0,000000000e+00    0,000000000e+00
     1346000000   -3,617991507e-01   -3,875290453e-01   -5,749354511e-02   -2,081187256e-02    0,000000000e+00    0,000000000e+00    0,000000000e+00    0,000000000e+00
     1360000000   -5,845911503e-01   -2,081019431e-01    6,421022117e-02    8,149818331e-02    0,000000000e+00    0,000000000e+00    0,000000000e+00    0,000000000e+00
     1374000000   -6,336314082e-01    1,060076356e-01    1,698478907e-01    4,896057397e-02    0,000000000e+00    0,000000000e+00    0,000000000e+00    0,000000000e+00
     1388000000   -4,785198569e-01    3,547131717e-01    2,127193958e-01   -2,781382203e-02    0,000000000e+00    0,000000000e+00    0,000000000e+00    0,000000000e+00
     1402000000   -2,430968136e-01    4,391650856e-01    2,091798037e-01   -8,494826406e-02    0,000000000e+00    0,000000000e+00    0,000000000e+00    0,000000000e+00
     1416000000   -3,672083840e-02    4,093256891e-01    2,058934718e-01   -1,038377583e-01    0,000000000e+00    0,000000000e+00    0,000000000e+00    0,000000000e+00
     1430000000    1,124287844e-01    3,030124307e-01    1,961280107e-01   -1,354654729e-01    0,000000000e+00    0,000000000e+00    0,000000000e+00    0,000000000e+00
     1444000000    2,052396089e-01    1,580195725e-01    1,679416597e-01   -1,014077514e-01    0,000000000e+00    0,000000000e+00    0,000000000e+00    0,000000000e+00
     1458000000    2,284357101e-01   -1,309941616e-02    1,417909265e-01   -8,689754456e-02    0,000000000e+00    0,000000000e+00    0,000000000e+00    0,000000000e+00
     1472000000    1,957436800e-01   -1,926681846e-01    1,437448710e-01   -4,402710125e-02    0,000000000e+00    0,000000000e+00    0,000000000e+00    0,000000000e+00
     1486000000    6,481666118e-02   -3,616459966e-01    1,696940660e-01    2,131284587e-02    0,000000000e+00    0,000000000e+00    0,000000000e+00    0,000000000e+00
     1500000000   -1,638641059e-01   -4,913337231e-01    2,200341225e-01    7,867597044e-02    0,000000000e+00    0,000000000e+00    0,000000000e+00    0,000000000e+00
