! NanoVNA-App
! Date: 2025-09-25 15:41:02
! Start: 100MHz Stop: 1,5GHz Points: 101
! S-Parameter data: F S11 S21 S12 S22
# Hz S RI R 50
!     Frequency           S11_Real           S11_Imag           S21_Real           S21_Imag           S12_Real           S12_Imag           S22_Real           S22_Imag
      100000000   -2,869811282e-02   -4,238678608e-03    3,739277124e-01   -7,215799093e-01    0,000000000e+00    0,000000000e+00    0,000000000e+00    0,000000000e+00
      114000000   -1,649089344e-02    1,149973180e-02   -8,909475803e-02   -8,052296042e-01    0,000000000e+00    0,000000000e+00    0,000000000e+00    0,000000000e+00
      128000000    3,457203740e-03    1,069327723e-02   -5,143656731e-01   -6,202498674e-01    0,000000000e+00    0,000000000e+00    0,000000000e+00    0,000000000e+00
      142000000    1,467377413e-02   -2,656509401e-03   -7,668830752e-01   -2,362700850e-01    0,000000000e+00    0,000000000e+00    0,000000000e+00    0,000000000e+00
      156000000    1,629442722e-02   -1,406683214e-02   -7,695714831e-01    2,241764069e-01    0,000000000e+00    0,000000000e+00    0,000000000e+00    0,000000000e+00
      170000000    1,711520366e-02   -2,245220728e-02   -5,177714825e-01    6,041641831e-01    0,000000000e+00    0,000000000e+00    0,000000000e+00    0,000000000e+00
      184000000    2,136183530e-02   -3,717440739e-02   -1,014481485e-01    7,859596610e-01    0,000000000e+00    0,000000000e+00    0,000000000e+00    0,000000000e+00
      198000000    1,329844259e-02   -6,258585304e-02    3,430293202e-01    7,119539976e-01    0,000000000e+00    0,000000000e+00    0,000000000e+00    0,000000000e+00
      212000000   -1,842392981e-02   -8,123480529e-02    6,780406833e-01    4,099210501e-01    0,000000000e+00    0,000000000e+00    0,000000000e+00    0,000000000e+00
      226000000   -6,131759658e-02   -6,921651214e-02    7,952787280e-01   -3,049636632e-02    0,000000000e+00    0,000000000e+00    0,000000000e+00    0,000000000e+00
      240000000   -8,213555813e-02   -2,585070767e-02    6,456419230e-01   -4,667001963e-01    0,000000000e+00    0,000000000e+00    0,000000000e+00    0,000000000e+00
      254000000   -6,334985793e-02    1,687357947e-02    2,760880888e-01   -7,429596186e-01    0,000000000e+00    0,000000000e+00    0,000000000e+00    0,000000000e+00
      268000000   -2,391305938e-02    2,879108489e-02   -1,778552085e-01   -7,640254498e-01    0,000000000e+00    0,000000000e+00    0,000000000e+00    0,000000000e+00
      282000000    4,091240466e-03    1,208232902e-02   -5,616772771e-01   -5,358809233e-01    0,000000000e+00    0,000000000e+00    0,000000000e+00    0,000000000e+00
      296000000    9,817744605e-03   -7,481120527e-03   -7,594072819e-01   -1,394910067e-01    0,000000000e+00    0,000000000e+00    0,000000000e+00    0,000000000e+00
      310000000    1,159265079e-02   -1,611830480e-02   -7,118582726e-01    2,969824672e-01    0,000000000e+00    0,000000000e+00    0,000000000e+00    0,000000000e+00
      324000000    2,002563328e-02   -2,663890086e-02   -4,263768196e-01    6,367818117e-01    0,000000000e+00    0,000000000e+00    0,000000000e+00    0,000000000e+00
      338000000    2,569739707e-02   -5,225811899e-02   -7,422406692e-03    7,600106001e-01    0,000000000e+00    0,000000000e+00    0,000000000e+00    0,000000000e+00
      352000000    7,141659502e-03   -8,461343497e-02    4,061816633e-01    6,400342584e-01    0,000000000e+00    0,000000000e+00    0,000000000e+00    0,000000000e+00
      366000000   -3,448261693e-02   -9,550736099e-02    6,906307340e-01    3,106784821e-01    0,000000000e+00    0,000000000e+00    0,000000000e+00    0,000000000e+00
      380000000   -7,023984939e-02   -7,115001976e-02    7,468482852e-01   -1,258144528e-01    0,000000000e+00    0,000000000e+00    0,000000000e+00    0,000000000e+00
      394000000   -7,201457024e-02   -3,277369216e-02    5,473016500e-01   -5,209175348e-01    0,000000000e+00    0,000000000e+00    0,000000000e+00    0,000000000e+00
      408000000   -4,645239562e-02   -1,647481881e-02    1,606122702e-01   -7,315406799e-01    0,000000000e+00    0,000000000e+00    0,000000000e+00    0,000000000e+00
      422000000   -2,832813002e-02   -3,199361637e-02   -2,675662935e-01   -6,949308515e-01    0,000000000e+00    0,000000000e+00    0,000000000e+00    0,000000000e+00
      436000000   -4,050641879e-02   -5,198227242e-02   -6,034421921e-01   -4,315727353e-01    0,000000000e+00    0,000000000e+00    0,000000000e+00    0,000000000e+00
      450000000   -6,686254591e-02   -4,360684007e-02   -7,400376201e-01   -2,173102275e-02    0,000000000e+00    0,000000000e+00    0,000000000e+00    0,000000000e+00
      464000000   -7,288603485e-02   -1,167316269e-02   -6,179776788e-01    3,968976438e-01    0,000000000e+00    0,000000000e+00    0,000000000e+00    0,000000000e+00
      478000000   -4,765646905e-02    1,146964822e-02   -2,825188041e-01    6,671330929e-01    0,000000000e+00    0,000000000e+00    0,000000000e+00    0,000000000e+00
      492000000   -1,594307087e-02    5,283731502e-03    1,369869262e-01    7,004035115e-01    0,000000000e+00    0,000000000e+00    0,000000000e+00    0,000000000e+00
      506000000   -2,704294398e-03   -1,575215161e-02    4,975283742e-01    5,030931234e-01    0,000000000e+00    0,000000000e+00    0,000000000e+00    0,000000000e+00
      520000000   -5,099618807e-03   -3,157962486e-02    6,871030331e-01    1,407067031e-01    0,000000000e+00    0,000000000e+00    0,000000000e+00    0,000000000e+00
      534000000   -3,670578124e-03   -3,790764883e-02    6,425134540e-01   -2,611335516e-01    0,000000000e+00    0,000000000e+00    0,000000000e+00    0,000000000e+00
      548000000    6,537468173e-03   -5,423181131e-02    3,814197481e-01   -5,665800571e-01    0,000000000e+00    0,000000000e+00    0,000000000e+00    0,000000000e+00
      562000000    3,491633572e-03   -8,940016478e-02    3,259563586e-03   -6,708708405e-01    0,000000000e+00    0,000000000e+00    0,000000000e+00    0,000000000e+00
      576000000   -3,405685723e-02   -1,244752109e-01   -3,676140904e-01   -5,574378967e-01    0,000000000e+00    0,000000000e+00    0,000000000e+00    0,000000000e+00
      590000000   -9,559132904e-02   -1,228846610e-01   -6,182011962e-01   -2,646020651e-01    0,000000000e+00    0,000000000e+00    0,000000000e+00    0,000000000e+00
      604000000   -1,387537718e-01   -7,202107459e-02   -6,636773348e-01    1,368800998e-01    0,000000000e+00    0,000000000e+00    0,000000000e+00    0,000000000e+00
      618000000   -1,290107816e-01   -1,037921011e-02   -4,649724960e-01    4,927015305e-01    0,000000000e+00    0,000000000e+00    0,000000000e+00    0,000000000e+00
      632000000   -8,399698138e-02    1,576833054e-02   -9,908030182e-02    6,621571183e-01    0,000000000e+00    0,000000000e+00    0,000000000e+00    0,000000000e+00
      646000000   -5,255650729e-02    4,585508723e-04    2,855199575e-01    5,934430957e-01    0,000000000e+00    0,000000000e+00    0,000000000e+00    0,000000000e+00
      660000000   -5,337625369e-02   -2,031401172e-02    5,646234751e-01    3,232535720e-01    0,000000000e+00    0,000000000e+00    0,000000000e+00    0,000000000e+00
      674000000   -6,944934279e-02   -1,712921821e-02    6,405751705e-01   -6,307317317e-02    0,000000000e+00    0,000000000e+00    0,000000000e+00    0,000000000e+00
      688000000   -6,764585525e-02    8,899621665e-03    4,705294967e-01   -4,240743816e-01    0,000000000e+00    0,000000000e+00    0,000000000e+00    0,000000000e+00
      702000000   -3,661395609e-02    2,635363303e-02    1,264747381e-01   -6,024558544e-01    0,000000000e+00    0,000000000e+00    0,000000000e+00    0,000000000e+00
      716000000    4,166290164e-03    1,607804373e-02   -2,596781254e-01   -5,442295074e-01    0,000000000e+00    0,000000000e+00    0,000000000e+00    0,000000000e+00
      730000000    3,649934009e-02   -1,438169833e-02   -5,218226910e-01   -2,716899514e-01    0,000000000e+00    0,000000000e+00    0,000000000e+00    0,000000000e+00
      744000000    6,256219745e-02   -6,569354236e-02   -5,603249073e-01    9,876479208e-02    0,000000000e+00    0,000000000e+00    0,000000000e+00    0,000000000e+00
      758000000    6,122512370e-02   -1,520017236e-01   -3,664217889e-01    4,003998935e-01    0,000000000e+00    0,000000000e+00    0,000000000e+00    0,000000000e+00
      772000000   -1,772738434e-02   -2,566116750e-01   -4,502492025e-02    5,080308914e-01    0,000000000e+00    0,000000000e+00    0,000000000e+00    0,000000000e+00
      786000000   -2,030801475e-01   -2,907153964e-01    2,598653436e-01    3,983075023e-01    0,000000000e+00    0,000000000e+00    0,000000000e+00    0,000000000e+00
      800000000   -4,072653055e-01   -1,266172677e-01    4,065663815e-01    1,183431372e-01    0,000000000e+00    0,000000000e+00    0,000000000e+00    0,000000000e+00
      814000000   -3,765869141e-01    2,033455372e-01    2,961052954e-01   -1,514416188e-01    0,000000000e+00    0,000000000e+00    0,000000000e+00    0,000000000e+00
      828000000   -6,270956993e-02    3,466621041e-01    8,313592523e-02   -1,902708262e-01    0,000000000e+00    0,000000000e+00    0,000000000e+00    0,000000000e+00
      842000000    2,120439112e-01    1,857179552e-01   -3,396607703e-03   -9,246839583e-02    0,000000000e+00    0,000000000e+00    0,000000000e+00    0,000000000e+00
      856000000    2,659078836e-01   -1,058999747e-01    3,635733202e-02   -3,667297587e-02    0,000000000e+00    0,000000000e+00    0,000000000e+00    0,000000000e+00
      870000000    8,229628950e-02   -3,509371877e-01    8,930067718e-02   -9,720280021e-02    0,000000000e+00    0,000000000e+00    0,000000000e+00    0,000000000e+00
      884000000   -2,675543725e-01   -3,547271192e-01    1,072213519e-02   -2,271793932e-01    0,000000000e+00    0,000000000e+00    0,000000000e+00    0,000000000e+00
      898000000   -4,582794607e-01   -1,250328124e-02   -2,154680341e-01   -2,096928507e-01    0,000000000e+00    0,000000000e+00    0,000000000e+00    0,000000000e+00
      912000000   -2,358795255e-01    2,800020278e-01   -3,431863487e-01    6,698369980e-02    0,000000000e+00    0,000000000e+00    0,000000000e+00    0,000000000e+00
      926000000    5,574336275e-02    2,591345310e-01   -2,091001719e-01    2,601694763e-01    0,000000000e+00    0,000000000e+00    0,000000000e+00    0,000000000e+00
      940000000    2,112248242e-01    8,450070024e-02   -3,130535036e-02    3,246769607e-01    0,000000000e+00    0,000000000e+00    0,000000000e+00    0,000000000e+00
      954000000    2,180460393e-01   -1,234117374e-01    1,323931813e-01    3,006310165e-01    0,000000000e+00    0,000000000e+00    0,000000000e+00    0,000000000e+00
      968000000    1,182866320e-01   -2,970779538e-01    2,686195970e-01    2,132192850e-01    0,000000000e+00    0,000000000e+00    0,000000000e+00    0,000000000e+00
      982000000   -7,885836810e-02   -3,863685131e-01    3,598814309e-01    6,398785859e-02    0,000000000e+00    0,000000000e+00    0,000000000e+00    0,000000000e+00
      996000000   -3,108246922e-01   -3,283904493e-01    3,622395098e-01   -1,448028833e-01    0,000000000e+00    0,000000000e+00    0,000000000e+00    0,000000000e+00
     1010000000   -4,577107430e-01   -1,187751517e-01    2,191643566e-01   -3,358827531e-01    0,000000000e+00    0,000000000e+00    0,000000000e+00    0,000000000e+00
     1024000000   -4,141960442e-01    1,452626139e-01   -3,184190020e-02   -3,878129721e-01    0,000000000e+00    0,000000000e+00    0,000000000e+00    0,000000000e+00
     1038000000   -2,213847190e-01    2,859312892e-01   -2,421062291e-01   -2,564514279e-01    0,000000000e+00    0,000000000e+00    0,000000000e+00    0,000000000e+00
     1052000000   -1,220883522e-02    2,818374634e-01   -3,106798530e-01   -4,779129103e-02    0,000000000e+00    0,000000000e+00    0,000000000e+00    0,000000000e+00
     1066000000    1,315422952e-01    1,717358977e-01   -2,513822615e-01    1,399956793e-01    0,000000000e+00    0,000000000e+00    0,000000000e+00    0,000000000e+00
     1080000000    1,943811029e-01    5,037702620e-03   -1,158952266e-01    2,525714636e-01    0,000000000e+00    0,000000000e+00    0,000000000e+00    0,000000000e+00
     1094000000    1,557850391e-01   -1,633670926e-01    6,339794397e-02    2,925101817e-01    0,000000000e+00    0,000000000e+00    0,000000000e+00    0,000000000e+00
     1108000000    2,091771923e-02   -2,925441861e-01    2,584131658e-01    2,336387038e-01    0,000000000e+00    0,000000000e+00    0,000000000e+00    0,000000000e+00
     1122000000   -2,144799531e-01   -2,871626019e-01    4,381995499e-01    2,847677469e-02    0,000000000e+00    0,000000000e+00    0,000000000e+00    0,000000000e+00
     1136000000   -3,304315805e-01   -2,708433010e-02    3,989994526e-01   -3,443703353e-01    0,000000000e+00    0,000000000e+00    0,000000000e+00    0,000000000e+00
     1150000000   -1,016662940e-01    1,424686909e-01    4,565829039e-02   -5,285249352e-01    0,000000000e+00    0,000000000e+00    0,000000000e+00    0,000000000e+00
     1164000000    8,487644792e-02   -1,573833823e-02   -2,524314225e-01   -4,009864032e-01    0,000000000e+00    0,000000000e+00    0,000000000e+00    0,000000000e+00
     1178000000    2,955907583e-02   -2,532370687e-01   -3,677569032e-01   -1,802851558e-01    0,000000000e+00    0,000000000e+00    0,000000000e+00    0,000000000e+00
     1192000000   -2,195258439e-01   -3,485184610e-01   -3,423446119e-01    3,963059559e-02    0,000000000e+00    0,000000000e+00    0,000000000e+00    0,000000000e+00
     1206000000   -4,801048636e-01   -1,802112758e-01   -1,889816374e-01    1,854622960e-01    0,000000000e+00    0,000000000e+00    0,000000000e+00    0,000000000e+00
     1220000000   -5,021094084e-01    1,343265772e-01   -8,341181092e-03    1,717671603e-01    0,000000000e+00    0,000000000e+00    0,000000000e+00    0,000000000e+00
     1234000000   -3,035427630e-01    3,432393372e-01    7,073111832e-02    7,729560882e-02    0,000000000e+00    0,000000000e+00    0,000000000e+00    0,000000000e+00
     1248000000   -6,328643113e-02    3,592740297e-01    6,184016541e-02   -7,698762929e-04    0,000000000e+00    0,000000000e+00    0,000000000e+00    0,000000000e+00
     1262000000    1,065769047e-01    2,606230378e-01    2,827571891e-02   -2,434810437e-02    0,000000000e+00    0,000000000e+00    0,000000000e+00    0,000000000e+00
     1276000000    2,020148188e-01    1,080390662e-01    7,639850955e-03   -1,274872571e-02    0,000000000e+00    0,000000000e+00    0,000000000e+00    0,000000000e+00
     1290000000    2,255915403e-01   -6,285621971e-02    1,048957650e-02    2,483134158e-02    0,000000000e+00    0,000000000e+00    0,000000000e+00    0,000000000e+00
     1304000000    1,638638079e-01   -2,333065569e-01    6,076050922e-02    5,679749697e-02    0,000000000e+00    0,000000000e+00    0,000000000e+00    0,000000000e+00
     1318000000    2,241681702e-02   -3,620992303e-01    1,727556139e-01    2,058635838e-02    0,000000000e+00    0,000000000e+00    0,000000000e+00    0,000000000e+00
     1332000000   -1,535724998e-01   -3,983284831e-01    9,743325412e-02   -1,836090088e-01    0,000000000e+00    0,000000000e+00    0,000000000e+00    0,000000000e+00
     1346000000   -3,562585413e-01   -3,914116621e-01   -5,148066953e-02   -2,703377232e-02    0,000000000e+00    0,000000000e+00    0,000000000e+00    0,000000000e+00
     1360000000   -5,847334266e-01   -2,042290419e-01    6,706903875e-02    8,869331330e-02    0,000000000e+00    0,000000000e+00    0,000000000e+00    0,000000000e+00
     1374000000   -6,247519255e-01    1,007725522e-01    1,753434539e-01    4,789701104e-02    0,000000000e+00    0,000000000e+00    0,000000000e+00    0,000000000e+00
     1388000000   -4,738825858e-01    3,531639576e-01    2,215989232e-01   -2,747091092e-02    0,000000000e+00    0,000000000e+00    0,000000000e+00    0,000000000e+00
     1402000000   -2,457028925e-01    4,406550825e-01    1,963116527e-01   -7,601685077e-02    0,000000000e+00    0,000000000e+00    0,000000000e+00    0,000000000e+00
     1416000000   -3,315081075e-02    4,181570411e-01    1,939489245e-01   -8,929613233e-02    0,000000000e+00    0,000000000e+00    0,000000000e+00    0,000000000e+00
     1430000000    1,117688194e-01    3,083621860e-01    1,670220196e-01   -1,130554453e-01    0,000000000e+00    0,000000000e+00    0,000000000e+00    0,000000000e+00
     1444000000    2,013891935e-01    1,560623199e-01    1,607405096e-01   -9,946849942e-02    0,000000000e+00    0,000000000e+00    0,000000000e+00    0,000000000e+00
     1458000000    2,302352190e-01   -1,178782620e-02    1,411762536e-01   -8,733430505e-02    0,000000000e+00    0,000000000e+00    0,000000000e+00    0,000000000e+00
     1472000000    1,895809919e-01   -1,960905343e-01    1,465754062e-01   -5,204157531e-02    0,000000000e+00    0,000000000e+00    0,000000000e+00    0,000000000e+00
     1486000000    6,937386096e-02   -3,559099436e-01    1,553945690e-01    2,328850701e-02    0,000000000e+00    0,000000000e+00    0,000000000e+00    0,000000000e+00
     1500000000   -1,566005498e-01   -4,885469079e-01    2,293393016e-01    7,232770324e-02    0,000000000e+00    0,000000000e+00    0,000000000e+00    0,000000000e+00
