! NanoVNA-App
! Date: 2025-09-25 15:43:25
! Start: 100MHz Stop: 1,5GHz Points: 101
! S-Parameter data: F S11 S21 S12 S22
# Hz S RI R 50
!     Frequency           S11_Real           S11_Imag           S21_Real           S21_Imag           S12_Real           S12_Imag           S22_Real           S22_Imag
      100000000   -2,875012532e-02   -4,246479366e-03    3,739638925e-01   -7,215890288e-01    0,000000000e+00    0,000000000e+00    0,000000000e+00    0,000000000e+00
      114000000   -1,649574190e-02    1,147625502e-02   -8,916030824e-02   -8,051919937e-01    0,000000000e+00    0,000000000e+00    0,000000000e+00    0,000000000e+00
      128000000    3,428953001e-03    1,071865950e-02   -5,144214630e-01   -6,200019121e-01    0,000000000e+00    0,000000000e+00    0,000000000e+00    0,000000000e+00
      142000000    1,466835663e-02   -2,651925897e-03   -7,668367624e-01   -2,364186794e-01    0,000000000e+00    0,000000000e+00    0,000000000e+00    0,000000000e+00
      156000000    1,481919829e-02   -1,450458635e-02   -7,642816305e-01    2,202842683e-01    0,000000000e+00    0,000000000e+00    0,000000000e+00    0,000000000e+00
      170000000    1,716542244e-02   -2,251503803e-02   -5,177773237e-01    6,043618321e-01    0,000000000e+00    0,000000000e+00    0,000000000e+00    0,000000000e+00
      184000000    2,135505341e-02   -3,712670878e-02   -1,012552083e-01    7,860482335e-01    0,000000000e+00    0,000000000e+00    0,000000000e+00    0,000000000e+00
      198000000    1,325116493e-02   -6,256061047e-02    3,431688547e-01    7,125087976e-01    0,000000000e+00    0,000000000e+00    0,000000000e+00    0,000000000e+00
      212000000   -1,842173003e-02   -8,123740554e-02    6,779769659e-01    4,097970724e-01    0,000000000e+00    0,000000000e+00    0,000000000e+00    0,000000000e+00
      226000000   -6,139489636e-02   -6,921267509e-02    7,954757214e-01   -3,046857752e-02    0,000000000e+00    0,000000000e+00    0,000000000e+00    0,000000000e+00
      240000000   -8,224631101e-02   -2,583270706e-02    6,460053325e-01   -4,665119946e-01    0,000000000e+00    0,000000000e+00    0,000000000e+00    0,000000000e+00
      254000000   -6,336885691e-02    1,697570458e-02    2,759383023e-01   -7,430867553e-01    0,000000000e+00    0,000000000e+00    0,000000000e+00    0,000000000e+00
      268000000   -2,397278138e-02    2,869052999e-02   -1,777793616e-01   -7,638415694e-01    0,000000000e+00    0,000000000e+00    0,000000000e+00    0,000000000e+00
      282000000    4,076297861e-03    1,208203658e-02   -5,615549088e-01   -5,354650021e-01    0,000000000e+00    0,000000000e+00    0,000000000e+00    0,000000000e+00
      296000000    9,820302948e-03   -7,466508076e-03   -7,593129873e-01   -1,393834203e-01    0,000000000e+00    0,000000000e+00    0,000000000e+00    0,000000000e+00
      310000000    1,136224810e-02   -1,629242860e-02   -7,125295401e-01    2,978379428e-01    0,000000000e+00    0,000000000e+00    0,000000000e+00    0,000000000e+00
      324000000    2,007067204e-02   -2,656854875e-02   -4,271603525e-01    6,370568275e-01    0,000000000e+00    0,000000000e+00    0,000000000e+00    0,000000000e+00
      338000000    2,590021305e-02   -5,224883556e-02   -8,733319119e-03    7,596261501e-01    0,000000000e+00    0,000000000e+00    0,000000000e+00    0,000000000e+00
      352000000    7,568276022e-03   -8,470032364e-02    4,055753350e-01    6,400034428e-01    0,000000000e+00    0,000000000e+00    0,000000000e+00    0,000000000e+00
      366000000   -3,441836312e-02   -9,554231167e-02    6,903713942e-01    3,106848300e-01    0,000000000e+00    0,000000000e+00    0,000000000e+00    0,000000000e+00
      380000000   -7,029949874e-02   -7,110197097e-02    7,471674085e-01   -1,259664446e-01    0,000000000e+00    0,000000000e+00    0,000000000e+00    0,000000000e+00
      394000000   -7,232028991e-02   -3,258122876e-02    5,456039310e-01   -5,218939185e-01    0,000000000e+00    0,000000000e+00    0,000000000e+00    0,000000000e+00
      408000000   -4,635791481e-02   -1,639215462e-02    1,611237824e-01   -7,321957350e-01    0,000000000e+00    0,000000000e+00    0,000000000e+00    0,000000000e+00
      422000000   -2,842487954e-02   -3,209627792e-02   -2,680603862e-01   -6,947445869e-01    0,000000000e+00    0,000000000e+00    0,000000000e+00    0,000000000e+00
      436000000   -4,041193053e-02   -5,173380300e-02   -6,038153768e-01   -4,314001203e-01    0,000000000e+00    0,000000000e+00    0,000000000e+00    0,000000000e+00
      450000000   -6,683696061e-02   -4,395406693e-02   -7,392497659e-01   -2,179009281e-02    0,000000000e+00    0,000000000e+00    0,000000000e+00    0,000000000e+00
      464000000   -7,294840366e-02   -1,191217825e-02   -6,180999875e-01    3,965318501e-01    0,000000000e+00    0,000000000e+00    0,000000000e+00    0,000000000e+00
      478000000   -4,756425694e-02    1,120677404e-02   -2,823027074e-01    6,667585969e-01    0,000000000e+00    0,000000000e+00    0,000000000e+00    0,000000000e+00
      492000000   -1,548885833e-02    5,576641764e-03    1,374749988e-01    7,007420063e-01    0,000000000e+00    0,000000000e+00    0,000000000e+00    0,000000000e+00
      506000000   -2,870797645e-03   -1,592060551e-02    4,976400733e-01    5,023435950e-01    0,000000000e+00    0,000000000e+00    0,000000000e+00    0,000000000e+00
      520000000   -4,966220818e-03   -3,131293133e-02    6,882137656e-01    1,406435221e-01    0,000000000e+00    0,000000000e+00    0,000000000e+00    0,000000000e+00
      534000000   -3,329595085e-03   -3,821545094e-02    6,430540681e-01   -2,621393502e-01    0,000000000e+00    0,000000000e+00    0,000000000e+00    0,000000000e+00
      548000000    6,759169511e-03   -5,391326174e-02    3,816269934e-01   -5,659226179e-01    0,000000000e+00    0,000000000e+00    0,000000000e+00    0,000000000e+00
      562000000    3,345187055e-03   -8,883451670e-02    3,063001903e-03   -6,708358526e-01    0,000000000e+00    0,000000000e+00    0,000000000e+00    0,000000000e+00
      576000000   -3,387857229e-02   -1,241976321e-01   -3,683833480e-01   -5,574110150e-01    0,000000000e+00    0,000000000e+00    0,000000000e+00    0,000000000e+00
      590000000   -9,559531510e-02   -1,224570945e-01   -6,209503412e-01   -2,642433047e-01    0,000000000e+00    0,000000000e+00    0,000000000e+00    0,000000000e+00
      604000000   -1,392584145e-01   -7,245196402e-02   -6,640586853e-01    1,366174966e-01    0,000000000e+00    0,000000000e+00    0,000000000e+00    0,000000000e+00
      618000000   -1,294377893e-01   -1,040820684e-02   -4,647744596e-01    4,936850369e-01    0,000000000e+00    0,000000000e+00    0,000000000e+00    0,000000000e+00
      632000000   -8,471197635e-02    1,631796360e-02   -1,007222161e-01    6,614186168e-01    0,000000000e+00    0,000000000e+00    0,000000000e+00    0,000000000e+00
      646000000   -5,236637220e-02    7,202642155e-04    2,854607105e-01    5,942807794e-01    0,000000000e+00    0,000000000e+00    0,000000000e+00    0,000000000e+00
      660000000   -5,409687012e-02   -2,111727744e-02    5,650778413e-01    3,233603537e-01    0,000000000e+00    0,000000000e+00    0,000000000e+00    0,000000000e+00
      674000000   -6,975281984e-02   -1,615073718e-02    6,410409808e-01   -6,303109229e-02    0,000000000e+00    0,000000000e+00    0,000000000e+00    0,000000000e+00
      688000000   -6,759240478e-02    9,412193671e-03    4,708594680e-01   -4,238585532e-01    0,000000000e+00    0,000000000e+00    0,000000000e+00    0,000000000e+00
      702000000   -3,636980429e-02    2,579531446e-02    1,190030500e-01   -6,107186079e-01    0,000000000e+00    0,000000000e+00    0,000000000e+00    0,000000000e+00
      716000000    3,676790977e-03    1,537371520e-02   -2,587280273e-01   -5,459885001e-01    0,000000000e+00    0,000000000e+00    0,000000000e+00    0,000000000e+00
      730000000    3,725726157e-02   -1,409816183e-02   -5,216794014e-01   -2,715372443e-01    0,000000000e+00    0,000000000e+00    0,000000000e+00    0,000000000e+00
      744000000    6,281141937e-02   -6,513409317e-02   -5,599704385e-01    9,825205803e-02    0,000000000e+00    0,000000000e+00    0,000000000e+00    0,000000000e+00
      758000000    6,160666421e-02   -1,510317028e-01   -3,668310940e-01    4,004080892e-01    0,000000000e+00    0,000000000e+00    0,000000000e+00    0,000000000e+00
      772000000   -1,757158339e-02   -2,548668385e-01   -4,646376148e-02    5,082132816e-01    0,000000000e+00    0,000000000e+00    0,000000000e+00    0,000000000e+00
      786000000   -2,019089013e-01   -2,913755774e-01    2,584113181e-01    3,990501463e-01    0,000000000e+00    0,000000000e+00    0,000000000e+00    0,000000000e+00
      800000000   -4,078859091e-01   -1,280234307e-01    4,072576463e-01    1,191567630e-01    0,000000000e+00    0,000000000e+00    0,000000000e+00    0,000000000e+00
      814000000   -3,751556873e-01    2,022201270e-01    2,967710495e-01   -1,514273882e-01    0,000000000e+00    0,000000000e+00    0,000000000e+00    0,000000000e+00
      828000000   -6,232473254e-02    3,488030136e-01    8,228339255e-02   -1,910948604e-01    0,000000000e+00    0,000000000e+00    0,000000000e+00    0,000000000e+00
      842000000    2,115812749e-01    1,860063970e-01   -3,414722392e-03   -9,347870946e-02    0,000000000e+00    0,000000000e+00    0,000000000e+00    0,000000000e+00
      856000000    2,662185431e-01   -1,055091247e-01    3,581425548e-02   -3,717600182e-02    0,000000000e+00    0,000000000e+00    0,000000000e+00    0,000000000e+00
      870000000    8,247843385e-02   -3,514505029e-01    8,865639567e-02   -9,705770016e-02    0,000000000e+00    0,000000000e+00    0,000000000e+00    0,000000000e+00
      884000000   -2,666955292e-01   -3,566236794e-01    1,169872377e-02   -2,269354016e-01    0,000000000e+00    0,000000000e+00    0,000000000e+00    0,000000000e+00
      898000000   -4,576593041e-01   -1,460032165e-02   -2,150170356e-01   -2,095324993e-01    0,000000000e+00    0,000000000e+00    0,000000000e+00    0,000000000e+00
      912000000   -2,347046584e-01    2,795677185e-01   -3,417575061e-01    7,737588882e-02    0,000000000e+00    0,000000000e+00    0,000000000e+00    0,000000000e+00
      926000000    5,397932604e-02    2,619260252e-01   -2,114638835e-01    2,612210810e-01    0,000000000e+00    0,000000000e+00    0,000000000e+00    0,000000000e+00
      940000000    2,100336552e-01    8,255687356e-02   -3,129912540e-02    3,252861798e-01    0,000000000e+00    0,000000000e+00    0,000000000e+00    0,000000000e+00
      954000000    2,185546309e-01   -1,210660413e-01    1,323709041e-01    3,011373878e-01    0,000000000e+00    0,000000000e+00    0,000000000e+00    0,000000000e+00
      968000000    1,184031442e-01   -2,935757935e-01    2,682782114e-01    2,133860290e-01    0,000000000e+00    0,000000000e+00    0,000000000e+00    0,000000000e+00
      982000000   -7,507889718e-02   -3,862835467e-01    3,606364131e-01    6,148274988e-02    0,000000000e+00    0,000000000e+00    0,000000000e+00    0,000000000e+00
      996000000   -3,074310422e-01   -3,305733502e-01    3,622136116e-01   -1,423872262e-01    0,000000000e+00    0,000000000e+00    0,000000000e+00    0,000000000e+00
     1010000000   -4,586320817e-01   -1,135546640e-01    2,157705873e-01   -3,340625763e-01    0,000000000e+00    0,000000000e+00    0,000000000e+00    0,000000000e+00
     1024000000   -4,140850008e-01    1,403190047e-01   -3,241465613e-02   -3,859232962e-01    0,000000000e+00    0,000000000e+00    0,000000000e+00    0,000000000e+00
     1038000000   -2,270134240e-01    2,906773388e-01   -2,427278757e-01   -2,565903962e-01    0,000000000e+00    0,000000000e+00    0,000000000e+00    0,000000000e+00
     1052000000   -1,857900992e-02    2,778808475e-01   -3,092198968e-01   -4,543074220e-02    0,000000000e+00    0,000000000e+00    0,000000000e+00    0,000000000e+00
     1066000000    1,308579445e-01    1,660904884e-01   -2,502525747e-01    1,389189363e-01    0,000000000e+00    0,000000000e+00    0,000000000e+00    0,000000000e+00
     1080000000    1,955658048e-01    6,484508049e-03   -1,161652505e-01    2,554453015e-01    0,000000000e+00    0,000000000e+00    0,000000000e+00    0,000000000e+00
     1094000000    1,636170149e-01   -1,626204997e-01    6,027414650e-02    2,926897109e-01    0,000000000e+00    0,000000000e+00    0,000000000e+00    0,000000000e+00
     1108000000    1,860280707e-02   -2,929562628e-01    2,599945366e-01    2,332011461e-01    0,000000000e+00    0,000000000e+00    0,000000000e+00    0,000000000e+00
     1122000000   -2,176278979e-01   -2,841271460e-01    4,396992326e-01    2,165679075e-02    0,000000000e+00    0,000000000e+00    0,000000000e+00    0,000000000e+00
     1136000000   -3,244876266e-01   -2,612363733e-02    3,995520175e-01   -3,467475474e-01    0,000000000e+00    0,000000000e+00    0,000000000e+00    0,000000000e+00
     1150000000   -1,075677797e-01    1,415453255e-01    4,713894799e-02   -5,326089859e-01    0,000000000e+00    0,000000000e+00    0,000000000e+00    0,000000000e+00
     1164000000    8,830220252e-02   -1,841750927e-02   -2,504316568e-01   -4,050732255e-01    0,000000000e+00    0,000000000e+00    0,000000000e+00    0,000000000e+00
     1178000000    2,757272497e-02   -2,516162694e-01   -3,682031035e-01   -1,773108542e-01    0,000000000e+00    0,000000000e+00    0,000000000e+00    0,000000000e+00
     1192000000   -2,204559147e-01   -3,509072363e-01   -3,431478441e-01    3,936590999e-02    0,000000000e+00    0,000000000e+00    0,000000000e+00    0,000000000e+00
     1206000000   -4,777130485e-01   -1,785351485e-01   -1,921370476e-01    1,830178499e-01    0,000000000e+00    0,000000000e+00    0,000000000e+00    0,000000000e+00
     1220000000   -4,997303784e-01    1,341542006e-01   -1,264139824e-02    1,795041114e-01    0,000000000e+00    0,000000000e+00    0,000000000e+00    0,000000000e+00
     1234000000   -2,965071797e-01    3,451134264e-01    7,763979584e-02    8,010734618e-02    0,000000000e+00    0,000000000e+00    0,000000000e+00    0,000000000e+00
     1248000000   -6,246923283e-02    3,573898375e-01    7,034822553e-02   -6,105462555e-03    0,000000000e+00    0,000000000e+00    0,000000000e+00    0,000000000e+00
     1262000000    1,052490100e-01    2,605730593e-01    2,931266464e-02   -2,293106541e-02    0,000000000e+00    0,000000000e+00    0,000000000e+00    0,000000000e+00
     1276000000    1,980444342e-01    1,069665700e-01    1,859133947e-03   -6,379222497e-03    0,000000000e+00    0,000000000e+00    0,000000000e+00    0,000000000e+00
     1290000000    2,203000784e-01   -6,469567865e-02    8,462537080e-03    2,192072012e-02    0,000000000e+00    0,000000000e+00    0,000000000e+00    0,000000000e+00
     1304000000    1,693685651e-01   -2,350049168e-01    6,646022201e-02    5,524591357e-02    0,000000000e+00    0,000000000e+00    0,000000000e+00    0,000000000e+00
     1318000000    2,895540930e-02   -3,636611402e-01    1,777930856e-01    1,310966909e-02    0,000000000e+00    0,000000000e+00    0,000000000e+00    0,000000000e+00
     1332000000   -1,514875740e-01   -3,944097459e-01    1,033255532e-01   -1,779048443e-01    0,000000000e+00    0,000000000e+00    0,000000000e+00    0,000000000e+00
     1346000000   -3,568277955e-01   -3,948264420e-01   -5,284532532e-02   -3,243807331e-02    0,000000000e+00    0,000000000e+00    0,000000000e+00    0,000000000e+00
     1360000000   -5,794820786e-01   -2,039490938e-01    6,585025787e-02    8,650857210e-02    0,000000000e+00    0,000000000e+00    0,000000000e+00    0,000000000e+00
     1374000000   -6,299256682e-01    1,043666899e-01    1,732579023e-01    3,711975366e-02    0,000000000e+00    0,000000000e+00    0,000000000e+00    0,000000000e+00
     1388000000   -4,819020331e-01    3,558914065e-01    2,246961445e-01   -1,557135675e-02    0,000000000e+00    0,000000000e+00    0,000000000e+00    0,000000000e+00
     1402000000   -2,408254445e-01    4,478548169e-01    2,124646008e-01   -8,171957731e-02    0,000000000e+00    0,000000000e+00    0,000000000e+00    0,000000000e+00
     1416000000   -4,152418673e-02    4,108053446e-01    1,938813478e-01   -9,487469494e-02    0,000000000e+00    0,000000000e+00    0,000000000e+00    0,000000000e+00
     1430000000    1,107282490e-01    2,982230186e-01    1,825857162e-01   -1,047554016e-01    0,000000000e+00    0,000000000e+00    0,000000000e+00    0,000000000e+00
     1444000000    2,039216310e-01    1,561260372e-01    1,688040942e-01   -1,085988805e-01    0,000000000e+00    0,000000000e+00    0,000000000e+00    0,000000000e+00
     1458000000    2,308513820e-01   -1,319770981e-02    1,470261514e-01   -9,291920811e-02    0,000000000e+00    0,000000000e+00    0,000000000e+00    0,000000000e+00
     1472000000    1,864217669e-01   -1,915143132e-01    1,440453529e-01   -3,650084138e-02    0,000000000e+00    0,000000000e+00    0,000000000e+00    0,000000000e+00
     1486000000    6,433959305e-02   -3,640956581e-01    1,502249688e-01    1,793892309e-02    0,000000000e+00    0,000000000e+00    0,000000000e+00    0,000000000e+00
     1500000000   -1,565988809e-01   -4,878233075e-01    2,246807814e-01    9,276264161e-02    0,000000000e+00    0,000000000e+00    0,000000000e+00    0,000000000e+00
