! NanoVNA-App
! Date: 2025-09-25 15:45:30
! Start: 100MHz Stop: 1,5GHz Points: 101
! S-Parameter data: F S11 S21 S12 S22
# Hz S RI R 50
!     Frequency           S11_Real           S11_Imag           S21_Real           S21_Imag           S12_Real           S12_Imag           S22_Real           S22_Imag
      100000000   -2,879319340e-02   -4,260317888e-03    3,739782870e-01   -7,215980291e-01    0,000000000e+00    0,000000000e+00    0,000000000e+00    0,000000000e+00
      114000000   -1,656782441e-02    1,152786985e-02   -8,906772733e-02   -8,053589463e-01    0,000000000e+00    0,000000000e+00    0,000000000e+00    0,000000000e+00
      128000000    3,454423742e-03    1,067099720e-02   -5,143892169e-01   -6,203618646e-01    0,000000000e+00    0,000000000e+00    0,000000000e+00    0,000000000e+00
      142000000    1,464822143e-02   -2,655279357e-03   -7,668651938e-01   -2,365420312e-01    0,000000000e+00    0,000000000e+00    0,000000000e+00    0,000000000e+00
      156000000    1,473025046e-02   -1,466781367e-02   -7,641804218e-01    2,202073932e-01    0,000000000e+00    0,000000000e+00    0,000000000e+00    0,000000000e+00
      170000000    1,706466265e-02   -2,243504301e-02   -5,177848339e-01    6,043069363e-01    0,000000000e+00    0,000000000e+00    0,000000000e+00    0,000000000e+00
      184000000    2,129883319e-02   -3,710443154e-02   -1,015585586e-01    7,859745622e-01    0,000000000e+00    0,000000000e+00    0,000000000e+00    0,000000000e+00
      198000000    1,322668139e-02   -6,248144805e-02    3,432972133e-01    7,120845318e-01    0,000000000e+00    0,000000000e+00    0,000000000e+00    0,000000000e+00
      212000000   -1,841200516e-02   -8,131149411e-02    6,778793335e-01    4,098705947e-01    0,000000000e+00    0,000000000e+00    0,000000000e+00    0,000000000e+00
      226000000   -6,141445413e-02   -6,927249581e-02    7,954369187e-01   -3,045989759e-02    0,000000000e+00    0,000000000e+00    0,000000000e+00    0,000000000e+00
      240000000   -8,233791590e-02   -2,578503452e-02    6,459013224e-01   -4,666701853e-01    0,000000000e+00    0,000000000e+00    0,000000000e+00    0,000000000e+00
      254000000   -6,347098947e-02    1,695947349e-02    2,762650847e-01   -7,429884076e-01    0,000000000e+00    0,000000000e+00    0,000000000e+00    0,000000000e+00
      268000000   -2,396373451e-02    2,881057188e-02   -1,776655465e-01   -7,642489076e-01    0,000000000e+00    0,000000000e+00    0,000000000e+00    0,000000000e+00
      282000000    4,163179547e-03    1,207168121e-02   -5,615611672e-01   -5,357487202e-01    0,000000000e+00    0,000000000e+00    0,000000000e+00    0,000000000e+00
      296000000    9,811813943e-03   -7,598695811e-03   -7,593390942e-01   -1,395545751e-01    0,000000000e+00    0,000000000e+00    0,000000000e+00    0,000000000e+00
      310000000    1,154382806e-02   -1,605676115e-02   -7,122005224e-01    2,991182208e-01    0,000000000e+00    0,000000000e+00    0,000000000e+00    0,000000000e+00
      324000000    1,999649033e-02   -2,678987943e-02   -4,274689853e-01    6,370300055e-01    0,000000000e+00    0,000000000e+00    0,000000000e+00    0,000000000e+00
      338000000    2,567944117e-02   -5,277140066e-02   -8,522138000e-03    7,620534897e-01    0,000000000e+00    0,000000000e+00    0,000000000e+00    0,000000000e+00
      352000000    7,374992128e-03   -8,462067693e-02    4,063251913e-01    6,398536563e-01    0,000000000e+00    0,000000000e+00    0,000000000e+00    0,000000000e+00
      366000000   -3,430423513e-02   -9,552741796e-02    6,902883649e-01    3,109937906e-01    0,000000000e+00    0,000000000e+00    0,000000000e+00    0,000000000e+00
      380000000   -7,043981552e-02   -7,117102295e-02    7,467019558e-01   -1,261078119e-01    0,000000000e+00    0,000000000e+00    0,000000000e+00    0,000000000e+00
      394000000   -7,243875414e-02   -3,255523741e-02    5,458373427e-01   -5,221050382e-01    0,000000000e+00    0,000000000e+00    0,000000000e+00    0,000000000e+00
      408000000   -4,638720304e-02   -1,629427634e-02    1,619197875e-01   -7,310111523e-01    0,000000000e+00    0,000000000e+00    0,000000000e+00    0,000000000e+00
      422000000   -2,825202420e-02   -3,195972741e-02   -2,672207355e-01   -6,940947771e-01    0,000000000e+00    0,000000000e+00    0,000000000e+00    0,000000000e+00
      436000000   -4,051334411e-02   -5,173247680e-02   -6,031285524e-01   -4,319656491e-01    0,000000000e+00    0,000000000e+00    0,000000000e+00    0,000000000e+00
      450000000   -6,701520830e-02   -4,413322732e-02   -7,398068905e-01   -2,204641141e-02    0,000000000e+00    0,000000000e+00    0,000000000e+00    0,000000000e+00
      464000000   -7,294068485e-02   -1,170529053e-02   -6,177216768e-01    3,967270851e-01    0,000000000e+00    0,000000000e+00    0,000000000e+00    0,000000000e+00
      478000000   -4,745584726e-02    1,111409254e-02   -2,823523581e-01    6,670562029e-01    0,000000000e+00    0,000000000e+00    0,000000000e+00    0,000000000e+00
      492000000   -1,603822224e-02    5,809544120e-03    1,375888288e-01    7,019277811e-01    0,000000000e+00    0,000000000e+00    0,000000000e+00    0,000000000e+00
      506000000   -2,811570652e-03   -1,601011865e-02    4,975222051e-01    5,029582381e-01    0,000000000e+00    0,000000000e+00    0,000000000e+00    0,000000000e+00
      520000000   -5,150928162e-03   -3,184248507e-02    6,892853975e-01    1,405642033e-01    0,000000000e+00    0,000000000e+00    0,000000000e+00    0,000000000e+00
      534000000   -3,807056230e-03   -3,787212819e-02    6,430457830e-01   -2,618229985e-01    0,000000000e+00    0,000000000e+00    0,000000000e+00    0,000000000e+00
      548000000    6,434665062e-03   -5,408972129e-02    3,812901676e-01   -5,665824413e-01    0,000000000e+00    0,000000000e+00    0,000000000e+00    0,000000000e+00
      562000000    3,789982991e-03   -8,893063664e-02    2,601368353e-03   -6,717416644e-01    0,000000000e+00    0,000000000e+00    0,000000000e+00    0,000000000e+00
      576000000   -3,370323777e-02   -1,245900020e-01   -3,673076034e-01   -5,576235652e-01    0,000000000e+00    0,000000000e+00    0,000000000e+00    0,000000000e+00
      590000000   -9,572955966e-02   -1,226901487e-01   -6,183404326e-01   -2,629221082e-01    0,000000000e+00    0,000000000e+00    0,000000000e+00    0,000000000e+00
      604000000   -1,388361007e-01   -7,198387384e-02   -6,641077399e-01    1,366999149e-01    0,000000000e+00    0,000000000e+00    0,000000000e+00    0,000000000e+00
      618000000   -1,296899617e-01   -9,579311125e-03   -4,642308950e-01    4,927135408e-01    0,000000000e+00    0,000000000e+00    0,000000000e+00    0,000000000e+00
      632000000   -8,493426442e-02    1,586328633e-02   -9,932726622e-02    6,620473266e-01    0,000000000e+00    0,000000000e+00    0,000000000e+00    0,000000000e+00
      646000000   -5,144708604e-02   -9,045643310e-06    2,846565843e-01    5,944854021e-01    0,000000000e+00    0,000000000e+00    0,000000000e+00    0,000000000e+00
      660000000   -5,416095257e-02   -2,068549581e-02    5,640713573e-01    3,228861392e-01    0,000000000e+00    0,000000000e+00    0,000000000e+00    0,000000000e+00
      674000000   -7,008905709e-02   -1,710895821e-02    6,405569911e-01   -6,319404393e-02    0,000000000e+00    0,000000000e+00    0,000000000e+00    0,000000000e+00
      688000000   -6,731306016e-02    8,790054359e-03    4,702097774e-01   -4,245347679e-01    0,000000000e+00    0,000000000e+00    0,000000000e+00    0,000000000e+00
      702000000   -3,555507585e-02    2,580173314e-02    1,193960011e-01   -6,088950038e-01    0,000000000e+00    0,000000000e+00    0,000000000e+00    0,000000000e+00
      716000000    4,145944025e-03    1,589717902e-02   -2,586584687e-01   -5,444961786e-01    0,000000000e+00    0,000000000e+00    0,000000000e+00    0,000000000e+00
      730000000    3,716921806e-02   -1,355569717e-02   -5,220922232e-01   -2,720667422e-01    0,000000000e+00    0,000000000e+00    0,000000000e+00    0,000000000e+00
      744000000    6,204961240e-02   -6,565876305e-02   -5,604649186e-01    9,838186204e-02    0,000000000e+00    0,000000000e+00    0,000000000e+00    0,000000000e+00
      758000000    6,143255532e-02   -1,518890411e-01   -3,672759533e-01    4,008197188e-01    0,000000000e+00    0,000000000e+00    0,000000000e+00    0,000000000e+00
      772000000   -1,731977239e-02   -2,552081048e-01   -4,507047683e-02    5,086147189e-01    0,000000000e+00    0,000000000e+00    0,000000000e+00    0,000000000e+00
      786000000   -2,030685991e-01   -2,909079492e-01    2,593865991e-01    3,989361823e-01    0,000000000e+00    0,000000000e+00    0,000000000e+00    0,000000000e+00
      800000000   -4,063911438e-01   -1,265945584e-01    4,077455997e-01    1,190203503e-01    0,000000000e+00    0,000000000e+00    0,000000000e+00    0,000000000e+00
      814000000   -3,771469593e-01    2,003427297e-01    2,972243428e-01   -1,509362459e-01    0,000000000e+00    0,000000000e+00    0,000000000e+00    0,000000000e+00
      828000000   -6,360299885e-02    3,471985459e-01    8,318577707e-02   -1,914270371e-01    0,000000000e+00    0,000000000e+00    0,000000000e+00    0,000000000e+00
      842000000    2,116269916e-01    1,861273944e-01   -4,107721150e-03   -9,393922240e-02    0,000000000e+00    0,000000000e+00    0,000000000e+00    0,000000000e+00
      856000000    2,664659917e-01   -1,052682474e-01    3,588347882e-02   -3,732323647e-02    0,000000000e+00    0,000000000e+00    0,000000000e+00    0,000000000e+00
      870000000    8,260474354e-02   -3,516570330e-01    8,790739626e-02   -9,687379003e-02    0,000000000e+00    0,000000000e+00    0,000000000e+00    0,000000000e+00
      884000000   -2,658791840e-01   -3,564074636e-01    1,188380923e-02   -2,279373556e-01    0,000000000e+00    0,000000000e+00    0,000000000e+00    0,000000000e+00
      898000000   -4,574740827e-01   -1,386687160e-02   -2,150441855e-01   -2,087935060e-01    0,000000000e+00    0,000000000e+00    0,000000000e+00    0,000000000e+00
      912000000   -2,365539074e-01    2,787842155e-01   -3,450322151e-01    7,228716463e-02    0,000000000e+00    0,000000000e+00    0,000000000e+00    0,000000000e+00
      926000000    5,335012078e-02    2,616728842e-01   -2,118864954e-01    2,610605955e-01    0,000000000e+00    0,000000000e+00    0,000000000e+00    0,000000000e+00
      940000000    2,090925127e-01    8,688231558e-02   -3,131355345e-02    3,266072571e-01    0,000000000e+00    0,000000000e+00    0,000000000e+00    0,000000000e+00
      954000000    2,194457948e-01   -1,203521490e-01    1,328738481e-01    3,010837436e-01    0,000000000e+00    0,000000000e+00    0,000000000e+00    0,000000000e+00
      968000000    1,157652438e-01   -2,950161397e-01    2,673948109e-01    2,141585499e-01    0,000000000e+00    0,000000000e+00    0,000000000e+00    0,000000000e+00
      982000000   -7,398536801e-02   -3,850106597e-01    3,601163030e-01    6,170943379e-02    0,000000000e+00    0,000000000e+00    0,000000000e+00    0,000000000e+00
      996000000   -3,130537868e-01   -3,332349062e-01    3,620861471e-01   -1,436429322e-01    0,000000000e+00    0,000000000e+00    0,000000000e+00    0,000000000e+00
     1010000000   -4,589447379e-01   -1,182305962e-01    2,197139263e-01   -3,342097700e-01    0,000000000e+00    0,000000000e+00    0,000000000e+00    0,000000000e+00
     1024000000   -4,136686623e-01    1,432975829e-01   -3,027648479e-02   -3,866599202e-01    0,000000000e+00    0,000000000e+00    0,000000000e+00    0,000000000e+00
     1038000000   -2,214406878e-01    2,917979658e-01   -2,413341403e-01   -2,582469285e-01    0,000000000e+00    0,000000000e+00    0,000000000e+00    0,000000000e+00
     1052000000   -1,276624855e-02    2,850258350e-01   -3,099551201e-01   -4,735926539e-02    0,000000000e+00    0,000000000e+00    0,000000000e+00    0,000000000e+00
     1066000000    1,332757026e-01    1,670047790e-01   -2,499976605e-01    1,368338764e-01    0,000000000e+00    0,000000000e+00    0,000000000e+00    0,000000000e+00
     1080000000    1,942590475e-01    1,145275868e-02   -1,185994670e-01    2,554554939e-01    0,000000000e+00    0,000000000e+00    0,000000000e+00    0,000000000e+00
     1094000000    1,606947631e-01   -1,653222293e-01    6,114260852e-02    2,918510139e-01    0,000000000e+00    0,000000000e+00    0,000000000e+00    0,000000000e+00
     1108000000    2,224620618e-02   -2,962390780e-01    2,600027323e-01    2,349288166e-01    0,000000000e+00    0,000000000e+00    0,000000000e+00    0,000000000e+00
     1122000000   -2,152837366e-01   -2,855806649e-01    4,374243915e-01    2,578011155e-02    0,000000000e+00    0,000000000e+00    0,000000000e+00    0,000000000e+00
     1136000000   -3,298738003e-01   -2,757427283e-02    4,008995593e-01   -3,463873863e-01    0,000000000e+00    0,000000000e+00    0,000000000e+00    0,000000000e+00
     1150000000   -1,113575995e-01    1,368425190e-01    4,719359800e-02   -5,295208097e-01    0,000000000e+00    0,000000000e+00    0,000000000e+00    0,000000000e+00
     1164000000    8,715227991e-02   -1,663637534e-02   -2,515286207e-01   -4,051349461e-01    0,000000000e+00    0,000000000e+00    0,000000000e+00    0,000000000e+00
     1178000000    2,809004858e-02   -2,525375485e-01   -3,737972081e-01   -1,833810806e-01    0,000000000e+00    0,000000000e+00    0,000000000e+00    0,000000000e+00
     1192000000   -2,232928574e-01   -3,454376459e-01   -3,419441879e-01    4,008834437e-02    0,000000000e+00    0,000000000e+00    0,000000000e+00    0,000000000e+00
     1206000000   -4,747934639e-01   -1,829633713e-01   -1,896664202e-01    1,853217036e-01    0,000000000e+00    0,000000000e+00    0,000000000e+00    0,000000000e+00
     1220000000   -4,994187653e-01    1,388394088e-01   -7,552701049e-03    1,742470860e-01    0,000000000e+00    0,000000000e+00    0,000000000e+00    0,000000000e+00
     1234000000   -3,013215363e-01    3,465004861e-01    7,142777741e-02    8,186704665e-02    0,000000000e+00    0,000000000e+00    0,000000000e+00    0,000000000e+00
     1248000000   -5,813417956e-02    3,587598205e-01    7,086222619e-02   -2,254543826e-03    0,000000000e+00    0,000000000e+00    0,000000000e+00    0,000000000e+00
     1262000000    1,150246337e-01    2,645642459e-01    3,095682338e-02   -1,981262863e-02    0,000000000e+00    0,000000000e+00    0,000000000e+00    0,000000000e+00
     1276000000    1,978929490e-01    1,067265272e-01    2,415309893e-03   -1,075986307e-02    0,000000000e+00    0,000000000e+00    0,000000000e+00    0,000000000e+00
     1290000000    2,205561697e-01   -6,428752095e-02    1,278442796e-02    2,111633867e-02    0,000000000e+00    0,000000000e+00    0,000000000e+00    0,000000000e+00
     1304000000    1,653428823e-01   -2,301052660e-01    6,275572628e-02    6,288399547e-02    0,000000000e+00    0,000000000e+00    0,000000000e+00    0,000000000e+00
     1318000000    2,690753341e-02   -3,660773337e-01    1,633436978e-01    1,950395852e-02    0,000000000e+00    0,000000000e+00    0,000000000e+00    0,000000000e+00
     1332000000   -1,514879465e-01   -3,956325054e-01    9,701269120e-02   -1,798299551e-01    0,000000000e+00    0,000000000e+00    0,000000000e+00    0,000000000e+00
     1346000000   -3,607711196e-01   -3,839997053e-01   -5,134090036e-02   -3,186429292e-02    0,000000000e+00    0,000000000e+00    0,000000000e+00    0,000000000e+00
     1360000000   -5,835787058e-01   -2,032422870e-01    7,310411334e-02    9,469256550e-02    0,000000000e+00    0,000000000e+00    0,000000000e+00    0,000000000e+00
     1374000000   -6,213778257e-01    1,005650386e-01    1,732056886e-01    4,514754191e-02    0,000000000e+00    0,000000000e+00    0,000000000e+00    0,000000000e+00
     1388000000   -4,695266187e-01    3,514744639e-01    2,235193551e-01   -2,786296979e-02    0,000000000e+00    0,000000000e+00    0,000000000e+00    0,000000000e+00
     1402000000   -2,438899577e-01    4,430142641e-01    2,067351788e-01   -8,124276996e-02    0,000000000e+00    0,000000000e+00    0,000000000e+00    0,000000000e+00
     1416000000   -3,627284616e-02    4,124403000e-01    1,959288716e-01   -1,048350334e-01    0,000000000e+00    0,000000000e+00    0,000000000e+00    0,000000000e+00
     1430000000    1,048158109e-01    3,007401228e-01    1,533581465e-01   -1,045213193e-01    0,000000000e+00    0,000000000e+00    0,000000000e+00    0,000000000e+00
     1444000000    2,032590061e-01    1,582051367e-01    1,584335566e-01   -1,031998470e-01    0,000000000e+00    0,000000000e+00    0,000000000e+00    0,000000000e+00
     1458000000    2,291616797e-01   -8,962948807e-03    1,440589428e-01   -8,528649062e-02    0,000000000e+00    0,000000000e+00    0,000000000e+00    0,000000000e+00
     1472000000    1,854554266e-01   -1,906714439e-01    1,354850978e-01   -3,844338655e-02    0,000000000e+00    0,000000000e+00    0,000000000e+00    0,000000000e+00
     1486000000    6,624449790e-02   -3,562049270e-01    1,683108062e-01    2,206377685e-02    0,000000000e+00    0,000000000e+00    0,000000000e+00    0,000000000e+00
     1500000000   -1,618853062e-01   -4,793474674e-01    2,307708412e-01    9,021496028e-02    0,000000000e+00    0,000000000e+00    0,000000000e+00    0,000000000e+00
