! NanoVNA-App
! Date: 2025-09-25 15:43:17
! Start: 100MHz Stop: 1,5GHz Points: 101
! S-Parameter data: F S11 S21 S12 S22
# Hz S RI R 50
!     Frequency           S11_Real           S11_Imag           S21_Real           S21_Imag           S12_Real           S12_Imag           S22_Real           S22_Imag
      100000000   -2,878650092e-02   -4,257935565e-03    3,739641011e-01   -7,216253281e-01    0,000000000e+00    0,000000000e+00    0,000000000e+00    0,000000000e+00
      114000000   -1,655435003e-02    1,151486579e-02   -8,917953074e-02   -8,052688241e-01    0,000000000e+00    0,000000000e+00    0,000000000e+00    0,000000000e+00
      128000000    3,317210823e-03    1,069681905e-02   -5,145759583e-01   -6,203274727e-01    0,000000000e+00    0,000000000e+00    0,000000000e+00    0,000000000e+00
      142000000    1,461557858e-02   -2,636036370e-03   -7,667802572e-01   -2,365452498e-01    0,000000000e+00    0,000000000e+00    0,000000000e+00    0,000000000e+00
      156000000    1,474026497e-02   -1,467427425e-02   -7,643348575e-01    2,180873156e-01    0,000000000e+00    0,000000000e+00    0,000000000e+00    0,000000000e+00
      170000000    1,705096476e-02   -2,252345532e-02   -5,180876255e-01    6,047573686e-01    0,000000000e+00    0,000000000e+00    0,000000000e+00    0,000000000e+00
      184000000    2,131613716e-02   -3,717432916e-02   -1,015475318e-01    7,860472798e-01    0,000000000e+00    0,000000000e+00    0,000000000e+00    0,000000000e+00
      198000000    1,323259529e-02   -6,255020946e-02    3,429014385e-01    7,120819688e-01    0,000000000e+00    0,000000000e+00    0,000000000e+00    0,000000000e+00
      212000000   -1,847392507e-02   -8,131655306e-02    6,776958108e-01    4,097675681e-01    0,000000000e+00    0,000000000e+00    0,000000000e+00    0,000000000e+00
      226000000   -6,142674387e-02   -6,915271282e-02    7,954305410e-01   -3,047726862e-02    0,000000000e+00    0,000000000e+00    0,000000000e+00    0,000000000e+00
      240000000   -8,229704946e-02   -2,578974701e-02    6,458334327e-01   -4,666555822e-01    0,000000000e+00    0,000000000e+00    0,000000000e+00    0,000000000e+00
      254000000   -6,341750175e-02    1,693267189e-02    2,762088478e-01   -7,428565621e-01    0,000000000e+00    0,000000000e+00    0,000000000e+00    0,000000000e+00
      268000000   -2,387673408e-02    2,878009528e-02   -1,780676544e-01   -7,636815906e-01    0,000000000e+00    0,000000000e+00    0,000000000e+00    0,000000000e+00
      282000000    3,979345318e-03    1,205964666e-02   -5,616827011e-01   -5,356237888e-01    0,000000000e+00    0,000000000e+00    0,000000000e+00    0,000000000e+00
      296000000    9,801857173e-03   -7,549521048e-03   -7,595577240e-01   -1,396072209e-01    0,000000000e+00    0,000000000e+00    0,000000000e+00    0,000000000e+00
      310000000    1,154955663e-02   -1,597172394e-02   -7,118868828e-01    2,972185314e-01    0,000000000e+00    0,000000000e+00    0,000000000e+00    0,000000000e+00
      324000000    2,006882243e-02   -2,672440186e-02   -4,264951050e-01    6,374846697e-01    0,000000000e+00    0,000000000e+00    0,000000000e+00    0,000000000e+00
      338000000    2,569928952e-02   -5,227948725e-02   -1,077048108e-02    7,630414367e-01    0,000000000e+00    0,000000000e+00    0,000000000e+00    0,000000000e+00
      352000000    7,370471023e-03   -8,474856615e-02    4,063581526e-01    6,386676431e-01    0,000000000e+00    0,000000000e+00    0,000000000e+00    0,000000000e+00
      366000000   -3,463962674e-02   -9,537819028e-02    6,903455853e-01    3,109162748e-01    0,000000000e+00    0,000000000e+00    0,000000000e+00    0,000000000e+00
      380000000   -7,042685151e-02   -7,086849958e-02    7,473669052e-01   -1,254714131e-01    0,000000000e+00    0,000000000e+00    0,000000000e+00    0,000000000e+00
      394000000   -7,227233797e-02   -3,267212212e-02    5,465840101e-01   -5,199448466e-01    0,000000000e+00    0,000000000e+00    0,000000000e+00    0,000000000e+00
      408000000   -4,629477859e-02   -1,633996516e-02    1,624586880e-01   -7,324647903e-01    0,000000000e+00    0,000000000e+00    0,000000000e+00    0,000000000e+00
      422000000   -2,840921283e-02   -3,214591369e-02   -2,660162449e-01   -6,943158507e-01    0,000000000e+00    0,000000000e+00    0,000000000e+00    0,000000000e+00
      436000000   -4,059307277e-02   -5,173825845e-02   -6,033506393e-01   -4,315766990e-01    0,000000000e+00    0,000000000e+00    0,000000000e+00    0,000000000e+00
      450000000   -6,732148677e-02   -4,376781359e-02   -7,400889397e-01   -2,203554846e-02    0,000000000e+00    0,000000000e+00    0,000000000e+00    0,000000000e+00
      464000000   -7,293508202e-02   -1,151006296e-02   -6,182283759e-01    3,969116509e-01    0,000000000e+00    0,000000000e+00    0,000000000e+00    0,000000000e+00
      478000000   -4,768333212e-02    1,159663033e-02   -2,823798358e-01    6,677325368e-01    0,000000000e+00    0,000000000e+00    0,000000000e+00    0,000000000e+00
      492000000   -1,593369246e-02    5,930098705e-03    1,364985853e-01    7,011689544e-01    0,000000000e+00    0,000000000e+00    0,000000000e+00    0,000000000e+00
      506000000   -2,790745348e-03   -1,579602621e-02    4,975693822e-01    5,029216409e-01    0,000000000e+00    0,000000000e+00    0,000000000e+00    0,000000000e+00
      520000000   -4,863958806e-03   -3,143756464e-02    6,892063618e-01    1,421043873e-01    0,000000000e+00    0,000000000e+00    0,000000000e+00    0,000000000e+00
      534000000   -3,747785930e-03   -3,793177754e-02    6,431298256e-01   -2,615408599e-01    0,000000000e+00    0,000000000e+00    0,000000000e+00    0,000000000e+00
      548000000    6,045419257e-03   -5,368568376e-02    3,810777664e-01   -5,660979748e-01    0,000000000e+00    0,000000000e+00    0,000000000e+00    0,000000000e+00
      562000000    3,227184294e-03   -8,977475017e-02    2,946079941e-03   -6,714392900e-01    0,000000000e+00    0,000000000e+00    0,000000000e+00    0,000000000e+00
      576000000   -3,379857168e-02   -1,240219325e-01   -3,683064282e-01   -5,567578673e-01    0,000000000e+00    0,000000000e+00    0,000000000e+00    0,000000000e+00
      590000000   -9,586388618e-02   -1,227459833e-01   -6,215290427e-01   -2,644585669e-01    0,000000000e+00    0,000000000e+00    0,000000000e+00    0,000000000e+00
      604000000   -1,388679147e-01   -7,261874527e-02   -6,641467810e-01    1,364204586e-01    0,000000000e+00    0,000000000e+00    0,000000000e+00    0,000000000e+00
      618000000   -1,295777261e-01   -9,570110589e-03   -4,640234113e-01    4,925569892e-01    0,000000000e+00    0,000000000e+00    0,000000000e+00    0,000000000e+00
      632000000   -8,401861042e-02    1,598788425e-02   -1,002788097e-01    6,625567079e-01    0,000000000e+00    0,000000000e+00    0,000000000e+00    0,000000000e+00
      646000000   -5,126329139e-02    9,304095875e-04    2,854908705e-01    5,943148136e-01    0,000000000e+00    0,000000000e+00    0,000000000e+00    0,000000000e+00
      660000000   -5,344532803e-02   -1,999901794e-02    5,646555424e-01    3,229239881e-01    0,000000000e+00    0,000000000e+00    0,000000000e+00    0,000000000e+00
      674000000   -6,906346977e-02   -1,661836170e-02    6,408589482e-01   -6,344897300e-02    0,000000000e+00    0,000000000e+00    0,000000000e+00    0,000000000e+00
      688000000   -6,755810976e-02    8,721623570e-03    4,704572260e-01   -4,238828123e-01    0,000000000e+00    0,000000000e+00    0,000000000e+00    0,000000000e+00
      702000000   -3,583150357e-02    2,689335309e-02    1,193207875e-01   -6,069058180e-01    0,000000000e+00    0,000000000e+00    0,000000000e+00    0,000000000e+00
      716000000    3,205545479e-03    1,659362018e-02   -2,587305307e-01   -5,437682271e-01    0,000000000e+00    0,000000000e+00    0,000000000e+00    0,000000000e+00
      730000000    3,593746200e-02   -1,388789993e-02   -5,221804976e-01   -2,713568211e-01    0,000000000e+00    0,000000000e+00    0,000000000e+00    0,000000000e+00
      744000000    6,211446226e-02   -6,540395319e-02   -5,604920983e-01    9,875854105e-02    0,000000000e+00    0,000000000e+00    0,000000000e+00    0,000000000e+00
      758000000    6,149506569e-02   -1,520385593e-01   -3,662044406e-01    4,001706839e-01    0,000000000e+00    0,000000000e+00    0,000000000e+00    0,000000000e+00
      772000000   -1,688659750e-02   -2,559012175e-01   -4,563985392e-02    5,093747377e-01    0,000000000e+00    0,000000000e+00    0,000000000e+00    0,000000000e+00
      786000000   -2,028830796e-01   -2,908543050e-01    2,600126863e-01    3,989770710e-01    0,000000000e+00    0,000000000e+00    0,000000000e+00    0,000000000e+00
      800000000   -4,081871212e-01   -1,268496066e-01    4,072489738e-01    1,185700521e-01    0,000000000e+00    0,000000000e+00    0,000000000e+00    0,000000000e+00
      814000000   -3,756489158e-01    2,018096149e-01    2,969770133e-01   -1,513897479e-01    0,000000000e+00    0,000000000e+00    0,000000000e+00    0,000000000e+00
      828000000   -6,196041405e-02    3,478111923e-01    8,240383118e-02   -1,907509118e-01    0,000000000e+00    0,000000000e+00    0,000000000e+00    0,000000000e+00
      842000000    2,115909606e-01    1,855552047e-01   -3,361170646e-03   -9,359093010e-02    0,000000000e+00    0,000000000e+00    0,000000000e+00    0,000000000e+00
      856000000    2,662750781e-01   -1,057511494e-01    3,586936742e-02   -3,691371530e-02    0,000000000e+00    0,000000000e+00    0,000000000e+00    0,000000000e+00
      870000000    8,288016170e-02   -3,510524035e-01    8,883509785e-02   -9,692384303e-02    0,000000000e+00    0,000000000e+00    0,000000000e+00    0,000000000e+00
      884000000   -2,676779926e-01   -3,554580212e-01    1,133353077e-02   -2,275597155e-01    0,000000000e+00    0,000000000e+00    0,000000000e+00    0,000000000e+00
      898000000   -4,568986595e-01   -1,376112550e-02   -2,144660950e-01   -2,101117074e-01    0,000000000e+00    0,000000000e+00    0,000000000e+00    0,000000000e+00
      912000000   -2,353026867e-01    2,784460783e-01   -3,421107531e-01    7,198242843e-02    0,000000000e+00    0,000000000e+00    0,000000000e+00    0,000000000e+00
      926000000    5,664319545e-02    2,634542882e-01   -2,088302821e-01    2,632757127e-01    0,000000000e+00    0,000000000e+00    0,000000000e+00    0,000000000e+00
      940000000    2,085090131e-01    8,635810763e-02   -3,024904802e-02    3,266715407e-01    0,000000000e+00    0,000000000e+00    0,000000000e+00    0,000000000e+00
      954000000    2,189185023e-01   -1,205094606e-01    1,308664232e-01    3,016844392e-01    0,000000000e+00    0,000000000e+00    0,000000000e+00    0,000000000e+00
      968000000    1,162708551e-01   -2,943293452e-01    2,679603100e-01    2,129425555e-01    0,000000000e+00    0,000000000e+00    0,000000000e+00    0,000000000e+00
      982000000   -7,692401856e-02   -3,825253546e-01    3,601866663e-01    6,163322553e-02    0,000000000e+00    0,000000000e+00    0,000000000e+00    0,000000000e+00
      996000000   -3,094570935e-01   -3,323654830e-01    3,621284962e-01   -1,433756053e-01    0,000000000e+00    0,000000000e+00    0,000000000e+00    0,000000000e+00
     1010000000   -4,638579786e-01   -1,171387807e-01    2,196162939e-01   -3,363384306e-01    0,000000000e+00    0,000000000e+00    0,000000000e+00    0,000000000e+00
     1024000000   -4,197163880e-01    1,428727955e-01   -2,995230816e-02   -3,883731365e-01    0,000000000e+00    0,000000000e+00    0,000000000e+00    0,000000000e+00
     1038000000   -2,200914770e-01    2,911944389e-01   -2,445752323e-01   -2,572945654e-01    0,000000000e+00    0,000000000e+00    0,000000000e+00    0,000000000e+00
     1052000000   -1,681742445e-02    2,813515663e-01   -3,121567965e-01   -4,744480178e-02    0,000000000e+00    0,000000000e+00    0,000000000e+00    0,000000000e+00
     1066000000    1,342750639e-01    1,703173667e-01   -2,533059418e-01    1,380263269e-01    0,000000000e+00    0,000000000e+00    0,000000000e+00    0,000000000e+00
     1080000000    1,956383139e-01    6,431593094e-03   -1,157962680e-01    2,546037138e-01    0,000000000e+00    0,000000000e+00    0,000000000e+00    0,000000000e+00
     1094000000    1,578726321e-01   -1,618210375e-01    6,240875274e-02    2,911603451e-01    0,000000000e+00    0,000000000e+00    0,000000000e+00    0,000000000e+00
     1108000000    2,126382850e-02   -2,948749065e-01    2,592603266e-01    2,343683541e-01    0,000000000e+00    0,000000000e+00    0,000000000e+00    0,000000000e+00
     1122000000   -2,174571753e-01   -2,869884372e-01    4,424694180e-01    2,205887809e-02    0,000000000e+00    0,000000000e+00    0,000000000e+00    0,000000000e+00
     1136000000   -3,271936476e-01   -3,347537667e-02    3,995804489e-01   -3,464355171e-01    0,000000000e+00    0,000000000e+00    0,000000000e+00    0,000000000e+00
     1150000000   -1,075471640e-01    1,441215277e-01    4,977866262e-02   -5,294497609e-01    0,000000000e+00    0,000000000e+00    0,000000000e+00    0,000000000e+00
     1164000000    8,164223284e-02   -1,685063727e-02   -2,519599795e-01   -4,024640322e-01    0,000000000e+00    0,000000000e+00    0,000000000e+00    0,000000000e+00
     1178000000    2,905459143e-02   -2,523105145e-01   -3,706546724e-01   -1,813402921e-01    0,000000000e+00    0,000000000e+00    0,000000000e+00    0,000000000e+00
     1192000000   -2,215259820e-01   -3,500793278e-01   -3,432873487e-01    4,075467587e-02    0,000000000e+00    0,000000000e+00    0,000000000e+00    0,000000000e+00
     1206000000   -4,810703099e-01   -1,800755262e-01   -1,890060753e-01    1,865061224e-01    0,000000000e+00    0,000000000e+00    0,000000000e+00    0,000000000e+00
     1220000000   -5,047580004e-01    1,405189335e-01   -1,210371964e-02    1,822752655e-01    0,000000000e+00    0,000000000e+00    0,000000000e+00    0,000000000e+00
     1234000000   -3,053216636e-01    3,414807618e-01    7,133153826e-02    7,312411815e-02    0,000000000e+00    0,000000000e+00    0,000000000e+00    0,000000000e+00
     1248000000   -6,322566420e-02    3,577587605e-01    6,539925933e-02   -2,914362354e-03    0,000000000e+00    0,000000000e+00    0,000000000e+00    0,000000000e+00
     1262000000    1,106200442e-01    2,627378404e-01    2,999641001e-02   -2,180780284e-02    0,000000000e+00    0,000000000e+00    0,000000000e+00    0,000000000e+00
     1276000000    2,021324933e-01    1,046584770e-01    7,660225034e-03   -1,143325865e-02    0,000000000e+00    0,000000000e+00    0,000000000e+00    0,000000000e+00
     1290000000    2,195268571e-01   -6,251010299e-02    9,597511031e-03    2,815571800e-02    0,000000000e+00    0,000000000e+00    0,000000000e+00    0,000000000e+00
     1304000000    1,683969200e-01   -2,286877334e-01    6,422013044e-02    5,730002001e-02    0,000000000e+00    0,000000000e+00    0,000000000e+00    0,000000000e+00
     1318000000    2,464328520e-02   -3,644908071e-01    1,732235104e-01    1,167575456e-02    0,000000000e+00    0,000000000e+00    0,000000000e+00    0,000000000e+00
     1332000000   -1,500224769e-01   -3,981754184e-01    9,872237593e-02   -1,814145148e-01    0,000000000e+00    0,000000000e+00    0,000000000e+00    0,000000000e+00
     1346000000   -3,593989313e-01   -3,861028850e-01   -5,925695598e-02   -2,000631392e-02    0,000000000e+00    0,000000000e+00    0,000000000e+00    0,000000000e+00
     1360000000   -5,837680101e-01   -2,078183591e-01    6,700489670e-02    8,419001848e-02    0,000000000e+00    0,000000000e+00    0,000000000e+00    0,000000000e+00
     1374000000   -6,282749772e-01    1,067992076e-01    1,717457920e-01    4,790776595e-02    0,000000000e+00    0,000000000e+00    0,000000000e+00    0,000000000e+00
     1388000000   -4,711217880e-01    3,501808345e-01    2,206588835e-01   -2,016671747e-02    0,000000000e+00    0,000000000e+00    0,000000000e+00    0,000000000e+00
     1402000000   -2,469014674e-01    4,497543275e-01    2,040033489e-01   -7,320290059e-02    0,000000000e+00    0,000000000e+00    0,000000000e+00    0,000000000e+00
     1416000000   -3,806646541e-02    4,112513363e-01    2,044963092e-01   -1,023012772e-01    0,000000000e+00    0,000000000e+00    0,000000000e+00    0,000000000e+00
     1430000000    1,017910689e-01    3,020019531e-01    1,928066313e-01   -1,039279476e-01    0,000000000e+00    0,000000000e+00    0,000000000e+00    0,000000000e+00
     1444000000    1,976150274e-01    1,592765898e-01    1,563532948e-01   -1,115254536e-01    0,000000000e+00    0,000000000e+00    0,000000000e+00    0,000000000e+00
     1458000000    2,304047495e-01   -1,155722514e-02    1,473989785e-01   -1,013637334e-01    0,000000000e+00    0,000000000e+00    0,000000000e+00    0,000000000e+00
     1472000000    1,931022555e-01   -1,956264973e-01    1,483952850e-01   -4,695777223e-02    0,000000000e+00    0,000000000e+00    0,000000000e+00    0,000000000e+00
     1486000000    6,814145297e-02   -3,623937368e-01    1,698010266e-01    2,300449647e-02    0,000000000e+00    0,000000000e+00    0,000000000e+00    0,000000000e+00
     1500000000   -1,595215499e-01   -4,983302951e-01    2,400162518e-01    7,358027995e-02    0,000000000e+00    0,000000000e+00    0,000000000e+00    0,000000000e+00
