! NanoVNA-App
! Date: 2025-09-25 15:41:18
! Start: 100MHz Stop: 1,5GHz Points: 101
! S-Parameter data: F S11 S21 S12 S22
# Hz S RI R 50
!     Frequency           S11_Real           S11_Imag           S21_Real           S21_Imag           S12_Real           S12_Imag           S22_Real           S22_Imag
      100000000   -2,872253209e-02   -4,241891205e-03    3,739597797e-01   -7,215580344e-01    0,000000000e+00    0,000000000e+00    0,000000000e+00    0,000000000e+00
      114000000   -1,650866121e-02    1,149221230e-02   -8,914125711e-02   -8,052390814e-01    0,000000000e+00    0,000000000e+00    0,000000000e+00    0,000000000e+00
      128000000    3,400016343e-03    1,073517930e-02   -5,146008134e-01   -6,203541160e-01    0,000000000e+00    0,000000000e+00    0,000000000e+00    0,000000000e+00
      142000000    1,466254517e-02   -2,637214726e-03   -7,667682171e-01   -2,362557948e-01    0,000000000e+00    0,000000000e+00    0,000000000e+00    0,000000000e+00
      156000000    1,642128453e-02   -1,401522756e-02   -7,698234916e-01    2,242885381e-01    0,000000000e+00    0,000000000e+00    0,000000000e+00    0,000000000e+00
      170000000    1,714788005e-02   -2,241322026e-02   -5,178931952e-01    6,043961644e-01    0,000000000e+00    0,000000000e+00    0,000000000e+00    0,000000000e+00
      184000000    2,135406062e-02   -3,720966354e-02   -1,013866514e-01    7,857596278e-01    0,000000000e+00    0,000000000e+00    0,000000000e+00    0,000000000e+00
      198000000    1,319633890e-02   -6,256236881e-02    3,429988921e-01    7,119959593e-01    0,000000000e+00    0,000000000e+00    0,000000000e+00    0,000000000e+00
      212000000   -1,840768754e-02   -8,122742176e-02    6,778414845e-01    4,098130763e-01    0,000000000e+00    0,000000000e+00    0,000000000e+00    0,000000000e+00
      226000000   -6,131166220e-02   -6,921124458e-02    7,953070402e-01   -3,038987517e-02    0,000000000e+00    0,000000000e+00    0,000000000e+00    0,000000000e+00
      240000000   -8,220418543e-02   -2,582031675e-02    6,459642649e-01   -4,665912688e-01    0,000000000e+00    0,000000000e+00    0,000000000e+00    0,000000000e+00
      254000000   -6,337544322e-02    1,691223122e-02    2,759566307e-01   -7,432417870e-01    0,000000000e+00    0,000000000e+00    0,000000000e+00    0,000000000e+00
      268000000   -2,391692623e-02    2,875987813e-02   -1,777093858e-01   -7,641250491e-01    0,000000000e+00    0,000000000e+00    0,000000000e+00    0,000000000e+00
      282000000    4,087391309e-03    1,211545803e-02   -5,616260171e-01   -5,352288485e-01    0,000000000e+00    0,000000000e+00    0,000000000e+00    0,000000000e+00
      296000000    9,863511659e-03   -7,557346486e-03   -7,593255639e-01   -1,394602507e-01    0,000000000e+00    0,000000000e+00    0,000000000e+00    0,000000000e+00
      310000000    1,154557802e-02   -1,592561416e-02   -7,114145756e-01    2,974558473e-01    0,000000000e+00    0,000000000e+00    0,000000000e+00    0,000000000e+00
      324000000    1,993367635e-02   -2,685322613e-02   -4,266103506e-01    6,373596191e-01    0,000000000e+00    0,000000000e+00    0,000000000e+00    0,000000000e+00
      338000000    2,590699680e-02   -5,225839838e-02   -9,336997755e-03    7,612197399e-01    0,000000000e+00    0,000000000e+00    0,000000000e+00    0,000000000e+00
      352000000    7,353167981e-03   -8,471558243e-02    4,059244394e-01    6,391073465e-01    0,000000000e+00    0,000000000e+00    0,000000000e+00    0,000000000e+00
      366000000   -3,458237275e-02   -9,505809844e-02    6,897862554e-01    3,115393817e-01    0,000000000e+00    0,000000000e+00    0,000000000e+00    0,000000000e+00
      380000000   -7,028557360e-02   -7,104603201e-02    7,469390035e-01   -1,258626729e-01    0,000000000e+00    0,000000000e+00    0,000000000e+00    0,000000000e+00
      394000000   -7,222022116e-02   -3,257606924e-02    5,451244116e-01   -5,212123990e-01    0,000000000e+00    0,000000000e+00    0,000000000e+00    0,000000000e+00
      408000000   -4,661218822e-02   -1,631214470e-02    1,616494060e-01   -7,313278317e-01    0,000000000e+00    0,000000000e+00    0,000000000e+00    0,000000000e+00
      422000000   -2,840898931e-02   -3,234999627e-02   -2,671971321e-01   -6,955912709e-01    0,000000000e+00    0,000000000e+00    0,000000000e+00    0,000000000e+00
      436000000   -4,038537666e-02   -5,187069252e-02   -6,033393741e-01   -4,325711429e-01    0,000000000e+00    0,000000000e+00    0,000000000e+00    0,000000000e+00
      450000000   -6,727248430e-02   -4,369281977e-02   -7,398465872e-01   -2,192032710e-02    0,000000000e+00    0,000000000e+00    0,000000000e+00    0,000000000e+00
      464000000   -7,291390002e-02   -1,170272473e-02   -6,180735230e-01    3,966974914e-01    0,000000000e+00    0,000000000e+00    0,000000000e+00    0,000000000e+00
      478000000   -4,732493311e-02    1,153982524e-02   -2,821680605e-01    6,668622494e-01    0,000000000e+00    0,000000000e+00    0,000000000e+00    0,000000000e+00
      492000000   -1,573957130e-02    5,501476582e-03    1,376550496e-01    7,013015747e-01    0,000000000e+00    0,000000000e+00    0,000000000e+00    0,000000000e+00
      506000000   -2,493927255e-03   -1,611396484e-02    4,973618090e-01    5,023010969e-01    0,000000000e+00    0,000000000e+00    0,000000000e+00    0,000000000e+00
      520000000   -4,764809273e-03   -3,137341887e-02    6,879729033e-01    1,414930075e-01    0,000000000e+00    0,000000000e+00    0,000000000e+00    0,000000000e+00
      534000000   -3,620021977e-03   -3,798528016e-02    6,431481242e-01   -2,619630098e-01    0,000000000e+00    0,000000000e+00    0,000000000e+00    0,000000000e+00
      548000000    6,268734578e-03   -5,431595817e-02    3,814685941e-01   -5,662622452e-01    0,000000000e+00    0,000000000e+00    0,000000000e+00    0,000000000e+00
      562000000    3,107143100e-03   -8,988086134e-02    3,622581018e-03   -6,720421910e-01    0,000000000e+00    0,000000000e+00    0,000000000e+00    0,000000000e+00
      576000000   -3,414340317e-02   -1,243887767e-01   -3,677907884e-01   -5,567868352e-01    0,000000000e+00    0,000000000e+00    0,000000000e+00    0,000000000e+00
      590000000   -9,546170384e-02   -1,228481680e-01   -6,200146079e-01   -2,656475902e-01    0,000000000e+00    0,000000000e+00    0,000000000e+00    0,000000000e+00
      604000000   -1,386853307e-01   -7,247139513e-02   -6,638529897e-01    1,363592148e-01    0,000000000e+00    0,000000000e+00    0,000000000e+00    0,000000000e+00
      618000000   -1,286091506e-01   -9,976115078e-03   -4,637299180e-01    4,933729768e-01    0,000000000e+00    0,000000000e+00    0,000000000e+00    0,000000000e+00
      632000000   -8,424530923e-02    1,644954458e-02   -9,966869652e-02    6,620667577e-01    0,000000000e+00    0,000000000e+00    0,000000000e+00    0,000000000e+00
      646000000   -5,205424875e-02    9,895296535e-04    2,859447896e-01    5,941435695e-01    0,000000000e+00    0,000000000e+00    0,000000000e+00    0,000000000e+00
      660000000   -5,421295017e-02   -2,069354616e-02    5,646077394e-01    3,234795034e-01    0,000000000e+00    0,000000000e+00    0,000000000e+00    0,000000000e+00
      674000000   -6,928320974e-02   -1,625190862e-02    6,408401132e-01   -6,303984672e-02    0,000000000e+00    0,000000000e+00    0,000000000e+00    0,000000000e+00
      688000000   -6,664180011e-02    9,869101457e-03    4,713465273e-01   -4,239916503e-01    0,000000000e+00    0,000000000e+00    0,000000000e+00    0,000000000e+00
      702000000   -3,546129540e-02    2,557436563e-02    1,203602180e-01   -6,050732136e-01    0,000000000e+00    0,000000000e+00    0,000000000e+00    0,000000000e+00
      716000000    4,138437565e-03    1,594271325e-02   -2,590835392e-01   -5,444155335e-01    0,000000000e+00    0,000000000e+00    0,000000000e+00    0,000000000e+00
      730000000    3,632873669e-02   -1,419161167e-02   -5,221071243e-01   -2,712286115e-01    0,000000000e+00    0,000000000e+00    0,000000000e+00    0,000000000e+00
      744000000    6,238400564e-02   -6,559067965e-02   -5,599939823e-01    9,863536060e-02    0,000000000e+00    0,000000000e+00    0,000000000e+00    0,000000000e+00
      758000000    6,160401925e-02   -1,521452218e-01   -3,659095466e-01    4,000070989e-01    0,000000000e+00    0,000000000e+00    0,000000000e+00    0,000000000e+00
      772000000   -1,695929095e-02   -2,555672526e-01   -4,579157382e-02    5,088097453e-01    0,000000000e+00    0,000000000e+00    0,000000000e+00    0,000000000e+00
      786000000   -2,025722265e-01   -2,908368111e-01    2,592431307e-01    3,992069364e-01    0,000000000e+00    0,000000000e+00    0,000000000e+00    0,000000000e+00
      800000000   -4,075852931e-01   -1,278973073e-01    4,067587554e-01    1,189237908e-01    0,000000000e+00    0,000000000e+00    0,000000000e+00    0,000000000e+00
      814000000   -3,775753379e-01    2,025625110e-01    2,960028052e-01   -1,503790468e-01    0,000000000e+00    0,000000000e+00    0,000000000e+00    0,000000000e+00
      828000000   -6,223285943e-02    3,479517996e-01    8,263846487e-02   -1,903193742e-01    0,000000000e+00    0,000000000e+00    0,000000000e+00    0,000000000e+00
      842000000    2,113884687e-01    1,856332272e-01   -3,534354735e-03   -9,258762002e-02    0,000000000e+00    0,000000000e+00    0,000000000e+00    0,000000000e+00
      856000000    2,660122216e-01   -1,060989127e-01    3,694108129e-02   -3,676962852e-02    0,000000000e+00    0,000000000e+00    0,000000000e+00    0,000000000e+00
      870000000    8,264807612e-02   -3,519501090e-01    8,853296936e-02   -9,761634469e-02    0,000000000e+00    0,000000000e+00    0,000000000e+00    0,000000000e+00
      884000000   -2,675310075e-01   -3,563217223e-01    1,160642412e-02   -2,284046859e-01    0,000000000e+00    0,000000000e+00    0,000000000e+00    0,000000000e+00
      898000000   -4,582041204e-01   -1,367679611e-02   -2,158336192e-01   -2,091946751e-01    0,000000000e+00    0,000000000e+00    0,000000000e+00    0,000000000e+00
      912000000   -2,345694751e-01    2,776266336e-01   -3,270233274e-01    7,550658286e-02    0,000000000e+00    0,000000000e+00    0,000000000e+00    0,000000000e+00
      926000000    5,574527010e-02    2,600017488e-01   -2,096013874e-01    2,599509954e-01    0,000000000e+00    0,000000000e+00    0,000000000e+00    0,000000000e+00
      940000000    2,112122029e-01    8,419352770e-02   -3,145471960e-02    3,254907429e-01    0,000000000e+00    0,000000000e+00    0,000000000e+00    0,000000000e+00
      954000000    2,188437432e-01   -1,233033463e-01    1,297603399e-01    3,005262911e-01    0,000000000e+00    0,000000000e+00    0,000000000e+00    0,000000000e+00
      968000000    1,176937819e-01   -2,965320051e-01    2,668937445e-01    2,130513340e-01    0,000000000e+00    0,000000000e+00    0,000000000e+00    0,000000000e+00
      982000000   -7,993107289e-02   -3,830969930e-01    3,605881035e-01    6,268885732e-02    0,000000000e+00    0,000000000e+00    0,000000000e+00    0,000000000e+00
      996000000   -3,094747365e-01   -3,297145665e-01    3,627120256e-01   -1,425654143e-01    0,000000000e+00    0,000000000e+00    0,000000000e+00    0,000000000e+00
     1010000000   -4,607454836e-01   -1,149273366e-01    2,201479822e-01   -3,357414603e-01    0,000000000e+00    0,000000000e+00    0,000000000e+00    0,000000000e+00
     1024000000   -4,166487157e-01    1,470904499e-01   -3,012966551e-02   -3,856210411e-01    0,000000000e+00    0,000000000e+00    0,000000000e+00    0,000000000e+00
     1038000000   -2,195326984e-01    2,881847024e-01   -2,445199639e-01   -2,563154399e-01    0,000000000e+00    0,000000000e+00    0,000000000e+00    0,000000000e+00
     1052000000   -1,168313250e-02    2,816821039e-01   -3,114633560e-01   -4,809599742e-02    0,000000000e+00    0,000000000e+00    0,000000000e+00    0,000000000e+00
     1066000000    1,344026625e-01    1,697816551e-01   -2,504397631e-01    1,410046220e-01    0,000000000e+00    0,000000000e+00    0,000000000e+00    0,000000000e+00
     1080000000    1,907669604e-01    9,200214408e-03   -1,157245785e-01    2,535263300e-01    0,000000000e+00    0,000000000e+00    0,000000000e+00    0,000000000e+00
     1094000000    1,634845734e-01   -1,640260816e-01    6,200723350e-02    2,932636440e-01    0,000000000e+00    0,000000000e+00    0,000000000e+00    0,000000000e+00
     1108000000    2,013589069e-02   -2,934225202e-01    2,594205141e-01    2,341824025e-01    0,000000000e+00    0,000000000e+00    0,000000000e+00    0,000000000e+00
     1122000000   -2,138670087e-01   -2,863588929e-01    4,406817853e-01    2,454933897e-02    0,000000000e+00    0,000000000e+00    0,000000000e+00    0,000000000e+00
     1136000000   -3,298854530e-01   -2,718101256e-02    3,984084129e-01   -3,477678001e-01    0,000000000e+00    0,000000000e+00    0,000000000e+00    0,000000000e+00
     1150000000   -1,075136065e-01    1,372883022e-01    4,859516397e-02   -5,300639868e-01    0,000000000e+00    0,000000000e+00    0,000000000e+00    0,000000000e+00
     1164000000    8,447737992e-02   -1,527259313e-02   -2,515451908e-01   -4,019194841e-01    0,000000000e+00    0,000000000e+00    0,000000000e+00    0,000000000e+00
     1178000000    3,054130077e-02   -2,532048523e-01   -3,739560246e-01   -1,805490106e-01    0,000000000e+00    0,000000000e+00    0,000000000e+00    0,000000000e+00
     1192000000   -2,206665874e-01   -3,463197351e-01   -3,409356475e-01    4,038194939e-02    0,000000000e+00    0,000000000e+00    0,000000000e+00    0,000000000e+00
     1206000000   -4,790570140e-01   -1,779699475e-01   -1,913478225e-01    1,848719716e-01    0,000000000e+00    0,000000000e+00    0,000000000e+00    0,000000000e+00
     1220000000   -5,057662725e-01    1,413620710e-01   -9,417806752e-03    1,739751548e-01    0,000000000e+00    0,000000000e+00    0,000000000e+00    0,000000000e+00
     1234000000   -3,076871037e-01    3,469263911e-01    7,145239413e-02    7,694026828e-02    0,000000000e+00    0,000000000e+00    0,000000000e+00    0,000000000e+00
     1248000000   -6,470609456e-02    3,565871716e-01    6,652047485e-02   -4,594662227e-03    0,000000000e+00    0,000000000e+00    0,000000000e+00    0,000000000e+00
     1262000000    1,099702343e-01    2,551428080e-01    3,016822599e-02   -2,298638411e-02    0,000000000e+00    0,000000000e+00    0,000000000e+00    0,000000000e+00
     1276000000    2,001853287e-01    1,072040498e-01    5,818651058e-03   -5,629963707e-03    0,000000000e+00    0,000000000e+00    0,000000000e+00    0,000000000e+00
     1290000000    2,184898853e-01   -6,143121421e-02    9,099674411e-03    2,422363497e-02    0,000000000e+00    0,000000000e+00    0,000000000e+00    0,000000000e+00
     1304000000    1,646646261e-01   -2,344057560e-01    6,273590028e-02    5,681600422e-02    0,000000000e+00    0,000000000e+00    0,000000000e+00    0,000000000e+00
     1318000000    2,764347009e-02   -3,637753129e-01    1,730384678e-01    8,275116794e-03    0,000000000e+00    0,000000000e+00    0,000000000e+00    0,000000000e+00
     1332000000   -1,506200582e-01   -3,944039941e-01    1,079254597e-01   -1,777171195e-01    0,000000000e+00    0,000000000e+00    0,000000000e+00    0,000000000e+00
     1346000000   -3,638103604e-01   -3,962032497e-01   -6,151433289e-02   -2,912511863e-02    0,000000000e+00    0,000000000e+00    0,000000000e+00    0,000000000e+00
     1360000000   -5,802301168e-01   -2,088148743e-01    6,280034035e-02    8,583304286e-02    0,000000000e+00    0,000000000e+00    0,000000000e+00    0,000000000e+00
     1374000000   -6,371690035e-01    1,097169220e-01    1,677009761e-01    4,618520290e-02    0,000000000e+00    0,000000000e+00    0,000000000e+00    0,000000000e+00
     1388000000   -4,805222154e-01    3,535135388e-01    2,044492960e-01   -2,869045548e-02    0,000000000e+00    0,000000000e+00    0,000000000e+00    0,000000000e+00
     1402000000   -2,444716245e-01    4,432707131e-01    2,170091271e-01   -8,146691322e-02    0,000000000e+00    0,000000000e+00    0,000000000e+00    0,000000000e+00
     1416000000   -3,306030855e-02    4,144652188e-01    1,992552131e-01   -1,076763570e-01    0,000000000e+00    0,000000000e+00    0,000000000e+00    0,000000000e+00
     1430000000    1,129608527e-01    2,977626622e-01    1,704928577e-01   -1,014829576e-01    0,000000000e+00    0,000000000e+00    0,000000000e+00    0,000000000e+00
     1444000000    2,079073340e-01    1,560085714e-01    1,702883840e-01   -1,130652502e-01    0,000000000e+00    0,000000000e+00    0,000000000e+00    0,000000000e+00
     1458000000    2,279070765e-01   -1,217006799e-02    1,586863399e-01   -8,592502773e-02    0,000000000e+00    0,000000000e+00    0,000000000e+00    0,000000000e+00
     1472000000    1,905811876e-01   -1,934603602e-01    1,412834972e-01   -3,809066489e-02    0,000000000e+00    0,000000000e+00    0,000000000e+00    0,000000000e+00
     1486000000    6,477151066e-02   -3,634294868e-01    1,570313424e-01    1,709645055e-02    0,000000000e+00    0,000000000e+00    0,000000000e+00    0,000000000e+00
     1500000000   -1,628445387e-01   -4,827783406e-01    2,291016728e-01    9,928488731e-02    0,000000000e+00    0,000000000e+00    0,000000000e+00    0,000000000e+00
