! NanoVNA-App
! Date: 2025-09-25 15:43:35
! Start: 100MHz Stop: 1,5GHz Points: 101
! S-Parameter data: F S11 S21 S12 S22
# Hz S RI R 50
!     Frequency           S11_Real           S11_Imag           S21_Real           S21_Imag           S12_Real           S12_Imag           S22_Real           S22_Imag
      100000000   -2,874554694e-02   -4,247277509e-03    3,739251792e-01   -7,215964794e-01    0,000000000e+00    0,000000000e+00    0,000000000e+00    0,000000000e+00
      114000000   -1,652232744e-02    1,149133593e-02   -8,895327151e-02   -8,051655293e-01    0,000000000e+00    0,000000000e+00    0,000000000e+00    0,000000000e+00
      128000000    3,427238902e-03    1,068998314e-02   -5,145949125e-01   -6,202650666e-01    0,000000000e+00    0,000000000e+00    0,000000000e+00    0,000000000e+00
      142000000    1,465414558e-02   -2,643519547e-03   -7,666835785e-01   -2,363684177e-01    0,000000000e+00    0,000000000e+00    0,000000000e+00    0,000000000e+00
      156000000    1,540404558e-02   -1,476400159e-02   -7,689079046e-01    2,196826935e-01    0,000000000e+00    0,000000000e+00    0,000000000e+00    0,000000000e+00
      170000000    1,706671156e-02   -2,244716138e-02   -5,180576444e-01    6,046456099e-01    0,000000000e+00    0,000000000e+00    0,000000000e+00    0,000000000e+00
      184000000    2,134887502e-02   -3,713969514e-02   -1,012269557e-01    7,858141065e-01    0,000000000e+00    0,000000000e+00    0,000000000e+00    0,000000000e+00
      198000000    1,323201507e-02   -6,255746633e-02    3,430963159e-01    7,118473649e-01    0,000000000e+00    0,000000000e+00    0,000000000e+00    0,000000000e+00
      212000000   -1,841212250e-02   -8,127292246e-02    6,777731180e-01    4,097114205e-01    0,000000000e+00    0,000000000e+00    0,000000000e+00    0,000000000e+00
      226000000   -6,133469194e-02   -6,920078397e-02    7,953653336e-01   -3,060888313e-02    0,000000000e+00    0,000000000e+00    0,000000000e+00    0,000000000e+00
      240000000   -8,221693337e-02   -2,579077333e-02    6,457574964e-01   -4,666769207e-01    0,000000000e+00    0,000000000e+00    0,000000000e+00    0,000000000e+00
      254000000   -6,339357793e-02    1,689445041e-02    2,759865224e-01   -7,430083752e-01    0,000000000e+00    0,000000000e+00    0,000000000e+00    0,000000000e+00
      268000000   -2,401555702e-02    2,879590914e-02   -1,780755371e-01   -7,640380263e-01    0,000000000e+00    0,000000000e+00    0,000000000e+00    0,000000000e+00
      282000000    4,051031545e-03    1,211981941e-02   -5,616256595e-01   -5,356444120e-01    0,000000000e+00    0,000000000e+00    0,000000000e+00    0,000000000e+00
      296000000    9,895222262e-03   -7,543790154e-03   -7,594518661e-01   -1,395902783e-01    0,000000000e+00    0,000000000e+00    0,000000000e+00    0,000000000e+00
      310000000    1,149665285e-02   -1,604163460e-02   -7,116324902e-01    2,993008494e-01    0,000000000e+00    0,000000000e+00    0,000000000e+00    0,000000000e+00
      324000000    1,995738037e-02   -2,672384493e-02   -4,270544946e-01    6,368535161e-01    0,000000000e+00    0,000000000e+00    0,000000000e+00    0,000000000e+00
      338000000    2,605414204e-02   -5,248037353e-02   -9,448450059e-03    7,619832158e-01    0,000000000e+00    0,000000000e+00    0,000000000e+00    0,000000000e+00
      352000000    7,417833898e-03   -8,465512842e-02    4,057780504e-01    6,389085054e-01    0,000000000e+00    0,000000000e+00    0,000000000e+00    0,000000000e+00
      366000000   -3,442833200e-02   -9,521207958e-02    6,902761459e-01    3,110820353e-01    0,000000000e+00    0,000000000e+00    0,000000000e+00    0,000000000e+00
      380000000   -7,032123208e-02   -7,119736820e-02    7,471377850e-01   -1,251121610e-01    0,000000000e+00    0,000000000e+00    0,000000000e+00    0,000000000e+00
      394000000   -7,213498652e-02   -3,286652640e-02    5,460396409e-01   -5,208348632e-01    0,000000000e+00    0,000000000e+00    0,000000000e+00    0,000000000e+00
      408000000   -4,640055075e-02   -1,633762568e-02    1,606758684e-01   -7,305868268e-01    0,000000000e+00    0,000000000e+00    0,000000000e+00    0,000000000e+00
      422000000   -2,824543230e-02   -3,220611811e-02   -2,669095397e-01   -6,944370270e-01    0,000000000e+00    0,000000000e+00    0,000000000e+00    0,000000000e+00
      436000000   -4,047321156e-02   -5,198682472e-02   -6,037142277e-01   -4,319813550e-01    0,000000000e+00    0,000000000e+00    0,000000000e+00    0,000000000e+00
      450000000   -6,715558469e-02   -4,409235716e-02   -7,397702932e-01   -2,215773799e-02    0,000000000e+00    0,000000000e+00    0,000000000e+00    0,000000000e+00
      464000000   -7,278046757e-02   -1,192202792e-02   -6,180275083e-01    3,966717422e-01    0,000000000e+00    0,000000000e+00    0,000000000e+00    0,000000000e+00
      478000000   -4,771757498e-02    1,136994082e-02   -2,818710208e-01    6,670349836e-01    0,000000000e+00    0,000000000e+00    0,000000000e+00    0,000000000e+00
      492000000   -1,565297693e-02    6,079663523e-03    1,375758797e-01    7,012577057e-01    0,000000000e+00    0,000000000e+00    0,000000000e+00    0,000000000e+00
      506000000   -2,517789369e-03   -1,545578893e-02    4,975205064e-01    5,026729703e-01    0,000000000e+00    0,000000000e+00    0,000000000e+00    0,000000000e+00
      520000000   -4,978740122e-03   -3,162599355e-02    6,879708767e-01    1,408269256e-01    0,000000000e+00    0,000000000e+00    0,000000000e+00    0,000000000e+00
      534000000   -3,718189197e-03   -3,799961880e-02    6,430959702e-01   -2,616464794e-01    0,000000000e+00    0,000000000e+00    0,000000000e+00    0,000000000e+00
      548000000    6,370585877e-03   -5,364548415e-02    3,809903860e-01   -5,657653213e-01    0,000000000e+00    0,000000000e+00    0,000000000e+00    0,000000000e+00
      562000000    2,850543940e-03   -8,965878934e-02    2,944552572e-03   -6,710250378e-01    0,000000000e+00    0,000000000e+00    0,000000000e+00    0,000000000e+00
      576000000   -3,370670229e-02   -1,241813675e-01   -3,673913181e-01   -5,571759939e-01    0,000000000e+00    0,000000000e+00    0,000000000e+00    0,000000000e+00
      590000000   -9,575478733e-02   -1,225782409e-01   -6,182643175e-01   -2,634496689e-01    0,000000000e+00    0,000000000e+00    0,000000000e+00    0,000000000e+00
      604000000   -1,385384947e-01   -7,203679532e-02   -6,638522148e-01    1,369898915e-01    0,000000000e+00    0,000000000e+00    0,000000000e+00    0,000000000e+00
      618000000   -1,294840723e-01   -9,599301033e-03   -4,646157324e-01    4,933832884e-01    0,000000000e+00    0,000000000e+00    0,000000000e+00    0,000000000e+00
      632000000   -8,439763635e-02    1,542301290e-02   -9,998555481e-02    6,620040536e-01    0,000000000e+00    0,000000000e+00    0,000000000e+00    0,000000000e+00
      646000000   -5,243013427e-02    1,018915209e-03    2,858758867e-01    5,949038267e-01    0,000000000e+00    0,000000000e+00    0,000000000e+00    0,000000000e+00
      660000000   -5,434385687e-02   -2,086520940e-02    5,645331740e-01    3,239474893e-01    0,000000000e+00    0,000000000e+00    0,000000000e+00    0,000000000e+00
      674000000   -6,899589300e-02   -1,651577465e-02    6,407797337e-01   -6,317634881e-02    0,000000000e+00    0,000000000e+00    0,000000000e+00    0,000000000e+00
      688000000   -6,633345038e-02    9,378449991e-03    4,712135792e-01   -4,240936041e-01    0,000000000e+00    0,000000000e+00    0,000000000e+00    0,000000000e+00
      702000000   -3,643426672e-02    2,678617463e-02    1,290478706e-01   -6,077050567e-01    0,000000000e+00    0,000000000e+00    0,000000000e+00    0,000000000e+00
      716000000    4,072809126e-03    1,577190123e-02   -2,599236965e-01   -5,452386141e-01    0,000000000e+00    0,000000000e+00    0,000000000e+00    0,000000000e+00
      730000000    3,733317181e-02   -1,352695189e-02   -5,222593546e-01   -2,711752057e-01    0,000000000e+00    0,000000000e+00    0,000000000e+00    0,000000000e+00
      744000000    6,234804541e-02   -6,434551626e-02   -5,604487062e-01    9,862741828e-02    0,000000000e+00    0,000000000e+00    0,000000000e+00    0,000000000e+00
      758000000    6,084958836e-02   -1,513847709e-01   -3,656045794e-01    3,997669220e-01    0,000000000e+00    0,000000000e+00    0,000000000e+00    0,000000000e+00
      772000000   -1,690685190e-02   -2,556397021e-01   -4,582375288e-02    5,100097656e-01    0,000000000e+00    0,000000000e+00    0,000000000e+00    0,000000000e+00
      786000000   -2,033437341e-01   -2,918871939e-01    2,595732808e-01    3,991844356e-01    0,000000000e+00    0,000000000e+00    0,000000000e+00    0,000000000e+00
      800000000   -4,070942998e-01   -1,277433038e-01    4,072113335e-01    1,188748553e-01    0,000000000e+00    0,000000000e+00    0,000000000e+00    0,000000000e+00
      814000000   -3,761412501e-01    2,010701001e-01    2,968008816e-01   -1,511093378e-01    0,000000000e+00    0,000000000e+00    0,000000000e+00    0,000000000e+00
      828000000   -6,184345111e-02    3,473283350e-01    8,283631504e-02   -1,905491650e-01    0,000000000e+00    0,000000000e+00    0,000000000e+00    0,000000000e+00
      842000000    2,113884389e-01    1,856051236e-01   -3,543836996e-03   -9,402281791e-02    0,000000000e+00    0,000000000e+00    0,000000000e+00    0,000000000e+00
      856000000    2,659342289e-01   -1,055657193e-01    3,554599732e-02   -3,688721731e-02    0,000000000e+00    0,000000000e+00    0,000000000e+00    0,000000000e+00
      870000000    8,268792927e-02   -3,508644104e-01    8,853732049e-02   -9,748627245e-02    0,000000000e+00    0,000000000e+00    0,000000000e+00    0,000000000e+00
      884000000   -2,672329545e-01   -3,562524021e-01    1,180583984e-02   -2,275198996e-01    0,000000000e+00    0,000000000e+00    0,000000000e+00    0,000000000e+00
      898000000   -4,575431645e-01   -1,445402205e-02   -2,140779495e-01   -2,098651826e-01    0,000000000e+00    0,000000000e+00    0,000000000e+00    0,000000000e+00
      912000000   -2,345747203e-01    2,794640958e-01   -3,410797119e-01    7,837279141e-02    0,000000000e+00    0,000000000e+00    0,000000000e+00    0,000000000e+00
      926000000    5,665489286e-02    2,615759671e-01   -2,076766789e-01    2,618225515e-01    0,000000000e+00    0,000000000e+00    0,000000000e+00    0,000000000e+00
      940000000    2,103706896e-01    8,577249944e-02   -3,094624728e-02    3,257553577e-01    0,000000000e+00    0,000000000e+00    0,000000000e+00    0,000000000e+00
      954000000    2,224481255e-01   -1,239269301e-01    1,317222267e-01    2,996181250e-01    0,000000000e+00    0,000000000e+00    0,000000000e+00    0,000000000e+00
      968000000    1,159180626e-01   -2,935780585e-01    2,668468654e-01    2,125874460e-01    0,000000000e+00    0,000000000e+00    0,000000000e+00    0,000000000e+00
      982000000   -7,589273155e-02   -3,812442720e-01    3,607122004e-01    6,186390668e-02    0,000000000e+00    0,000000000e+00    0,000000000e+00    0,000000000e+00
      996000000   -3,085987866e-01   -3,335744441e-01    3,649907112e-01   -1,434795409e-01    0,000000000e+00    0,000000000e+00    0,000000000e+00    0,000000000e+00
     1010000000   -4,648215473e-01   -1,177092940e-01    2,198489308e-01   -3,345510364e-01    0,000000000e+00    0,000000000e+00    0,000000000e+00    0,000000000e+00
     1024000000   -4,147244394e-01    1,459264010e-01   -3,243549168e-02   -3,867960870e-01    0,000000000e+00    0,000000000e+00    0,000000000e+00    0,000000000e+00
     1038000000   -2,253992260e-01    2,905597091e-01   -2,410680652e-01   -2,585586011e-01    0,000000000e+00    0,000000000e+00    0,000000000e+00    0,000000000e+00
     1052000000   -1,166516449e-02    2,797821164e-01   -3,114997149e-01   -4,695183411e-02    0,000000000e+00    0,000000000e+00    0,000000000e+00    0,000000000e+00
     1066000000    1,338320822e-01    1,728204638e-01   -2,527618706e-01    1,367133856e-01    0,000000000e+00    0,000000000e+00    0,000000000e+00    0,000000000e+00
     1080000000    1,929127872e-01    1,075739413e-02   -1,158262119e-01    2,515360117e-01    0,000000000e+00    0,000000000e+00    0,000000000e+00    0,000000000e+00
     1094000000    1,572847366e-01   -1,630067527e-01    5,759814754e-02    2,907105386e-01    0,000000000e+00    0,000000000e+00    0,000000000e+00    0,000000000e+00
     1108000000    1,990961656e-02   -2,928112447e-01    2,618276477e-01    2,334197462e-01    0,000000000e+00    0,000000000e+00    0,000000000e+00    0,000000000e+00
     1122000000   -2,101707011e-01   -2,858077288e-01    4,387234151e-01    2,400951087e-02    0,000000000e+00    0,000000000e+00    0,000000000e+00    0,000000000e+00
     1136000000   -3,230848312e-01   -3,175314143e-02    4,010896683e-01   -3,468320370e-01    0,000000000e+00    0,000000000e+00    0,000000000e+00    0,000000000e+00
     1150000000   -1,042885482e-01    1,416146904e-01    5,059711263e-02   -5,298870206e-01    0,000000000e+00    0,000000000e+00    0,000000000e+00    0,000000000e+00
     1164000000    8,310051262e-02   -1,491438877e-02   -2,511983216e-01   -4,037713408e-01    0,000000000e+00    0,000000000e+00    0,000000000e+00    0,000000000e+00
     1178000000    3,047960810e-02   -2,488054186e-01   -3,690136075e-01   -1,794261336e-01    0,000000000e+00    0,000000000e+00    0,000000000e+00    0,000000000e+00
     1192000000   -2,207066268e-01   -3,494560122e-01   -3,427196443e-01    4,001905769e-02    0,000000000e+00    0,000000000e+00    0,000000000e+00    0,000000000e+00
     1206000000   -4,758050144e-01   -1,843863875e-01   -1,880774200e-01    1,852221936e-01    0,000000000e+00    0,000000000e+00    0,000000000e+00    0,000000000e+00
     1220000000   -5,081173182e-01    1,383108348e-01   -1,340443455e-02    1,779338568e-01    0,000000000e+00    0,000000000e+00    0,000000000e+00    0,000000000e+00
     1234000000   -3,026712239e-01    3,389485478e-01    7,183682919e-02    7,497604191e-02    0,000000000e+00    0,000000000e+00    0,000000000e+00    0,000000000e+00
     1248000000   -6,120453775e-02    3,533033729e-01    6,404853612e-02   -2,032886259e-03    0,000000000e+00    0,000000000e+00    0,000000000e+00    0,000000000e+00
     1262000000    1,128452420e-01    2,604081035e-01    3,237906471e-02   -2,355268970e-02    0,000000000e+00    0,000000000e+00    0,000000000e+00    0,000000000e+00
     1276000000    2,032455206e-01    1,098277718e-01    5,744263530e-03   -4,672528710e-03    0,000000000e+00    0,000000000e+00    0,000000000e+00    0,000000000e+00
     1290000000    2,187479138e-01   -6,186010316e-02    1,283033378e-02    2,807180211e-02    0,000000000e+00    0,000000000e+00    0,000000000e+00    0,000000000e+00
     1304000000    1,661488861e-01   -2,317816913e-01    6,296550483e-02    5,652334541e-02    0,000000000e+00    0,000000000e+00    0,000000000e+00    0,000000000e+00
     1318000000    2,600549161e-02   -3,598816395e-01    1,737155467e-01    2,118574269e-02    0,000000000e+00    0,000000000e+00    0,000000000e+00    0,000000000e+00
     1332000000   -1,468050331e-01   -3,958535194e-01    1,021814123e-01   -1,845037043e-01    0,000000000e+00    0,000000000e+00    0,000000000e+00    0,000000000e+00
     1346000000   -3,651177585e-01   -3,885011971e-01   -6,561408192e-02   -2,640829422e-02    0,000000000e+00    0,000000000e+00    0,000000000e+00    0,000000000e+00
     1360000000   -5,818753839e-01   -2,094603032e-01    6,405992806e-02    8,491107821e-02    0,000000000e+00    0,000000000e+00    0,000000000e+00    0,000000000e+00
     1374000000   -6,299464703e-01    1,097548082e-01    1,748573631e-01    6,265386939e-02    0,000000000e+00    0,000000000e+00    0,000000000e+00    0,000000000e+00
     1388000000   -4,721938670e-01    3,482692540e-01    2,244826406e-01   -2,324710041e-02    0,000000000e+00    0,000000000e+00    0,000000000e+00    0,000000000e+00
     1402000000   -2,405999154e-01    4,468527734e-01    2,203867584e-01   -8,782517910e-02    0,000000000e+00    0,000000000e+00    0,000000000e+00    0,000000000e+00
     1416000000   -4,692231491e-02    4,072809219e-01    1,885849833e-01   -1,149196774e-01    0,000000000e+00    0,000000000e+00    0,000000000e+00    0,000000000e+00
     1430000000    1,113723144e-01    2,994034886e-01    1,471749842e-01   -1,156980544e-01    0,000000000e+00    0,000000000e+00    0,000000000e+00    0,000000000e+00
     1444000000    2,032103986e-01    1,533404291e-01    1,528235376e-01   -1,119312793e-01    0,000000000e+00    0,000000000e+00    0,000000000e+00    0,000000000e+00
     1458000000    2,322715372e-01   -1,105797477e-02    1,463202089e-01   -8,538116515e-02    0,000000000e+00    0,000000000e+00    0,000000000e+00    0,000000000e+00
     1472000000    1,890192777e-01   -1,911814809e-01    1,469503790e-01   -3,354973346e-02    0,000000000e+00    0,000000000e+00    0,000000000e+00    0,000000000e+00
     1486000000    6,014109030e-02   -3,613329828e-01    1,562551856e-01    2,308049053e-02    0,000000000e+00    0,000000000e+00    0,000000000e+00    0,000000000e+00
     1500000000   -1,586194485e-01   -4,830634296e-01    2,387894392e-01    1,011889800e-01    0,000000000e+00    0,000000000e+00    0,000000000e+00    0,000000000e+00
