! NanoVNA-App
! Date: 2025-09-25 15:39:43
! Start: 100MHz Stop: 1,5GHz Points: 101
! S-Parameter data: F S11 S21 S12 S22
# Hz S RI R 50
!     Frequency           S11_Real           S11_Imag           S21_Real           S21_Imag           S12_Real           S12_Imag           S22_Real           S22_Imag
      100000000   -2,861252986e-02   -4,208794329e-03    3,737578392e-01   -7,214550972e-01    0,000000000e+00    0,000000000e+00    0,000000000e+00    0,000000000e+00
      114000000   -1,637012139e-02    1,150305383e-02   -8,917300403e-02   -8,048342466e-01    0,000000000e+00    0,000000000e+00    0,000000000e+00    0,000000000e+00
      128000000    3,537222976e-03    1,071238704e-02   -5,143757463e-01   -6,199632883e-01    0,000000000e+00    0,000000000e+00    0,000000000e+00    0,000000000e+00
      142000000    1,480504777e-02   -2,615150530e-03   -7,667079568e-01   -2,363924980e-01    0,000000000e+00    0,000000000e+00    0,000000000e+00    0,000000000e+00
      156000000    1,484502479e-02   -1,450739056e-02   -7,634474039e-01    2,187645435e-01    0,000000000e+00    0,000000000e+00    0,000000000e+00    0,000000000e+00
      170000000    1,729150489e-02   -2,253785357e-02   -5,179002881e-01    6,045473218e-01    0,000000000e+00    0,000000000e+00    0,000000000e+00    0,000000000e+00
      184000000    2,146480791e-02   -3,713892400e-02   -1,014688089e-01    7,857944965e-01    0,000000000e+00    0,000000000e+00    0,000000000e+00    0,000000000e+00
      198000000    1,336304378e-02   -6,251534075e-02    3,430860341e-01    7,120729685e-01    0,000000000e+00    0,000000000e+00    0,000000000e+00    0,000000000e+00
      212000000   -1,830613799e-02   -8,126746118e-02    6,776600480e-01    4,096278250e-01    0,000000000e+00    0,000000000e+00    0,000000000e+00    0,000000000e+00
      226000000   -6,119290739e-02   -6,921907514e-02    7,952719331e-01   -3,055614978e-02    0,000000000e+00    0,000000000e+00    0,000000000e+00    0,000000000e+00
      240000000   -8,205223829e-02   -2,588676661e-02    6,455382705e-01   -4,664783180e-01    0,000000000e+00    0,000000000e+00    0,000000000e+00    0,000000000e+00
      254000000   -6,325200200e-02    1,685419865e-02    2,757565379e-01   -7,429822683e-01    0,000000000e+00    0,000000000e+00    0,000000000e+00    0,000000000e+00
      268000000   -2,380363457e-02    2,869656123e-02   -1,778751463e-01   -7,636330724e-01    0,000000000e+00    0,000000000e+00    0,000000000e+00    0,000000000e+00
      282000000    4,275003914e-03    1,206126623e-02   -5,611955523e-01   -5,353090763e-01    0,000000000e+00    0,000000000e+00    0,000000000e+00    0,000000000e+00
      296000000    9,923589416e-03   -7,513140328e-03   -7,592059374e-01   -1,394041032e-01    0,000000000e+00    0,000000000e+00    0,000000000e+00    0,000000000e+00
      310000000    1,167950779e-02   -1,620079204e-02   -7,119636536e-01    2,973522246e-01    0,000000000e+00    0,000000000e+00    0,000000000e+00    0,000000000e+00
      324000000    2,014661767e-02   -2,692462131e-02   -4,270609021e-01    6,370453835e-01    0,000000000e+00    0,000000000e+00    0,000000000e+00    0,000000000e+00
      338000000    2,568230778e-02   -5,254385248e-02   -9,875155985e-03    7,621642351e-01    0,000000000e+00    0,000000000e+00    0,000000000e+00    0,000000000e+00
      352000000    7,740859874e-03   -8,472173661e-02    4,053797722e-01    6,391590834e-01    0,000000000e+00    0,000000000e+00    0,000000000e+00    0,000000000e+00
      366000000   -3,419560567e-02   -9,536035359e-02    6,903992891e-01    3,114542961e-01    0,000000000e+00    0,000000000e+00    0,000000000e+00    0,000000000e+00
      380000000   -6,998492777e-02   -7,140712440e-02    7,471703291e-01   -1,259371340e-01    0,000000000e+00    0,000000000e+00    0,000000000e+00    0,000000000e+00
      394000000   -7,206010073e-02   -3,289917856e-02    5,458049774e-01   -5,221961737e-01    0,000000000e+00    0,000000000e+00    0,000000000e+00    0,000000000e+00
      408000000   -4,584943131e-02   -1,674105786e-02    1,622126251e-01   -7,323378325e-01    0,000000000e+00    0,000000000e+00    0,000000000e+00    0,000000000e+00
      422000000   -2,809453197e-02   -3,239620477e-02   -2,662116885e-01   -6,942858100e-01    0,000000000e+00    0,000000000e+00    0,000000000e+00    0,000000000e+00
      436000000   -4,065943137e-02   -5,182521418e-02   -6,033510566e-01   -4,319543839e-01    0,000000000e+00    0,000000000e+00    0,000000000e+00    0,000000000e+00
      450000000   -6,699920446e-02   -4,389177635e-02   -7,401587367e-01   -2,144757286e-02    0,000000000e+00    0,000000000e+00    0,000000000e+00    0,000000000e+00
      464000000   -7,293274999e-02   -1,181395445e-02   -6,178292632e-01    3,969784081e-01    0,000000000e+00    0,000000000e+00    0,000000000e+00    0,000000000e+00
      478000000   -4,753028601e-02    1,110699121e-02   -2,823272645e-01    6,663895845e-01    0,000000000e+00    0,000000000e+00    0,000000000e+00    0,000000000e+00
      492000000   -1,570351236e-02    5,685348995e-03    1,370187700e-01    7,010505795e-01    0,000000000e+00    0,000000000e+00    0,000000000e+00    0,000000000e+00
      506000000   -2,736138413e-03   -1,593684591e-02    4,970619082e-01    5,020058155e-01    0,000000000e+00    0,000000000e+00    0,000000000e+00    0,000000000e+00
      520000000   -5,182276014e-03   -3,178200871e-02    6,862583756e-01    1,418035775e-01    0,000000000e+00    0,000000000e+00    0,000000000e+00    0,000000000e+00
      534000000   -3,475939855e-03   -3,813017905e-02    6,428879499e-01   -2,623519301e-01    0,000000000e+00    0,000000000e+00    0,000000000e+00    0,000000000e+00
      548000000    6,743978709e-03   -5,404895544e-02    3,808968663e-01   -5,655559897e-01    0,000000000e+00    0,000000000e+00    0,000000000e+00    0,000000000e+00
      562000000    3,452012315e-03   -8,940623701e-02    3,624379402e-03   -6,710982919e-01    0,000000000e+00    0,000000000e+00    0,000000000e+00    0,000000000e+00
      576000000   -3,385943919e-02   -1,245177314e-01   -3,677770495e-01   -5,577064157e-01    0,000000000e+00    0,000000000e+00    0,000000000e+00    0,000000000e+00
      590000000   -9,563975781e-02   -1,228078231e-01   -6,209897995e-01   -2,640495598e-01    0,000000000e+00    0,000000000e+00    0,000000000e+00    0,000000000e+00
      604000000   -1,387532055e-01   -7,258819789e-02   -6,639921665e-01    1,366869509e-01    0,000000000e+00    0,000000000e+00    0,000000000e+00    0,000000000e+00
      618000000   -1,289995164e-01   -9,528334253e-03   -4,645562768e-01    4,926520586e-01    0,000000000e+00    0,000000000e+00    0,000000000e+00    0,000000000e+00
      632000000   -8,398950845e-02    1,575775258e-02   -1,000967398e-01    6,620857120e-01    0,000000000e+00    0,000000000e+00    0,000000000e+00    0,000000000e+00
      646000000   -5,254355446e-02    6,927402865e-05    2,853242159e-01    5,940483212e-01    0,000000000e+00    0,000000000e+00    0,000000000e+00    0,000000000e+00
      660000000   -5,413316563e-02   -2,163190022e-02    5,643556714e-01    3,230912089e-01    0,000000000e+00    0,000000000e+00    0,000000000e+00    0,000000000e+00
      674000000   -6,958850473e-02   -1,748499088e-02    6,406780481e-01   -6,312666833e-02    0,000000000e+00    0,000000000e+00    0,000000000e+00    0,000000000e+00
      688000000   -6,730742007e-02    9,702301584e-03    4,704395235e-01   -4,240256548e-01    0,000000000e+00    0,000000000e+00    0,000000000e+00    0,000000000e+00
      702000000   -3,649729490e-02    2,597475052e-02    1,232544780e-01   -6,047575474e-01    0,000000000e+00    0,000000000e+00    0,000000000e+00    0,000000000e+00
      716000000    4,116474651e-03    1,659419015e-02   -2,597843111e-01   -5,434705615e-01    0,000000000e+00    0,000000000e+00    0,000000000e+00    0,000000000e+00
      730000000    3,704877198e-02   -1,453774609e-02   -5,217886567e-01   -2,707366347e-01    0,000000000e+00    0,000000000e+00    0,000000000e+00    0,000000000e+00
      744000000    6,188463792e-02   -6,536652893e-02   -5,595933199e-01    9,882092476e-02    0,000000000e+00    0,000000000e+00    0,000000000e+00    0,000000000e+00
      758000000    6,096441671e-02   -1,525843441e-01   -3,666294813e-01    4,002594948e-01    0,000000000e+00    0,000000000e+00    0,000000000e+00    0,000000000e+00
      772000000   -1,756788976e-02   -2,556622326e-01   -4,465068132e-02    5,078196526e-01    0,000000000e+00    0,000000000e+00    0,000000000e+00    0,000000000e+00
      786000000   -2,023175955e-01   -2,916772962e-01    2,591192722e-01    3,991690278e-01    0,000000000e+00    0,000000000e+00    0,000000000e+00    0,000000000e+00
      800000000   -4,072982371e-01   -1,261406392e-01    4,065583944e-01    1,177472100e-01    0,000000000e+00    0,000000000e+00    0,000000000e+00    0,000000000e+00
      814000000   -3,760048449e-01    2,026423216e-01    2,955916524e-01   -1,509778053e-01    0,000000000e+00    0,000000000e+00    0,000000000e+00    0,000000000e+00
      828000000   -6,281784177e-02    3,480920494e-01    8,185151219e-02   -1,899737865e-01    0,000000000e+00    0,000000000e+00    0,000000000e+00    0,000000000e+00
      842000000    2,113130689e-01    1,852676421e-01   -2,968538785e-03   -9,211084247e-02    0,000000000e+00    0,000000000e+00    0,000000000e+00    0,000000000e+00
      856000000    2,659299374e-01   -1,063517258e-01    3,679472208e-02   -3,673253208e-02    0,000000000e+00    0,000000000e+00    0,000000000e+00    0,000000000e+00
      870000000    8,226946741e-02   -3,513010740e-01    8,978067338e-02   -9,812580049e-02    0,000000000e+00    0,000000000e+00    0,000000000e+00    0,000000000e+00
      884000000   -2,677677870e-01   -3,543536067e-01    1,183046401e-02   -2,282433659e-01    0,000000000e+00    0,000000000e+00    0,000000000e+00    0,000000000e+00
      898000000   -4,578803778e-01   -1,279973611e-02   -2,159250826e-01   -2,087077945e-01    0,000000000e+00    0,000000000e+00    0,000000000e+00    0,000000000e+00
      912000000   -2,347341180e-01    2,778448462e-01   -3,380302191e-01    6,372920424e-02    0,000000000e+00    0,000000000e+00    0,000000000e+00    0,000000000e+00
      926000000    5,640164018e-02    2,596687078e-01   -2,087696642e-01    2,611177862e-01    0,000000000e+00    0,000000000e+00    0,000000000e+00    0,000000000e+00
      940000000    2,102907300e-01    8,481776714e-02   -3,078013472e-02    3,270320594e-01    0,000000000e+00    0,000000000e+00    0,000000000e+00    0,000000000e+00
      954000000    2,214160264e-01   -1,208800599e-01    1,299273819e-01    3,008660972e-01    0,000000000e+00    0,000000000e+00    0,000000000e+00    0,000000000e+00
      968000000    1,168258339e-01   -2,930534184e-01    2,680350542e-01    2,146292329e-01    0,000000000e+00    0,000000000e+00    0,000000000e+00    0,000000000e+00
      982000000   -7,874264568e-02   -3,860258162e-01    3,608765900e-01    6,459449977e-02    0,000000000e+00    0,000000000e+00    0,000000000e+00    0,000000000e+00
      996000000   -3,105552197e-01   -3,274834454e-01    3,648264110e-01   -1,417777985e-01    0,000000000e+00    0,000000000e+00    0,000000000e+00    0,000000000e+00
     1010000000   -4,576854706e-01   -1,184736788e-01    2,202294767e-01   -3,358413577e-01    0,000000000e+00    0,000000000e+00    0,000000000e+00    0,000000000e+00
     1024000000   -4,133935273e-01    1,443541348e-01   -3,101829626e-02   -3,872351646e-01    0,000000000e+00    0,000000000e+00    0,000000000e+00    0,000000000e+00
     1038000000   -2,215220481e-01    2,853143215e-01   -2,433298081e-01   -2,555016875e-01    0,000000000e+00    0,000000000e+00    0,000000000e+00    0,000000000e+00
     1052000000   -1,832868159e-02    2,802367210e-01   -3,098740280e-01   -4,749166220e-02    0,000000000e+00    0,000000000e+00    0,000000000e+00    0,000000000e+00
     1066000000    1,349527985e-01    1,699172556e-01   -2,547563910e-01    1,376756728e-01    0,000000000e+00    0,000000000e+00    0,000000000e+00    0,000000000e+00
     1080000000    1,927885115e-01    1,093616895e-02   -1,150218025e-01    2,537975311e-01    0,000000000e+00    0,000000000e+00    0,000000000e+00    0,000000000e+00
     1094000000    1,614132673e-01   -1,639159769e-01    5,763790011e-02    2,935647666e-01    0,000000000e+00    0,000000000e+00    0,000000000e+00    0,000000000e+00
     1108000000    1,977659203e-02   -2,943520546e-01    2,614665329e-01    2,341334522e-01    0,000000000e+00    0,000000000e+00    0,000000000e+00    0,000000000e+00
     1122000000   -2,167415023e-01   -2,799196541e-01    4,406328797e-01    2,383934520e-02    0,000000000e+00    0,000000000e+00    0,000000000e+00    0,000000000e+00
     1136000000   -3,284594119e-01   -2,535057440e-02    4,017620981e-01   -3,462416828e-01    0,000000000e+00    0,000000000e+00    0,000000000e+00    0,000000000e+00
     1150000000   -9,960843623e-02    1,371906400e-01    4,838228971e-02   -5,310152769e-01    0,000000000e+00    0,000000000e+00    0,000000000e+00    0,000000000e+00
     1164000000    8,513677120e-02   -1,689239778e-02   -2,547932565e-01   -4,011241794e-01    0,000000000e+00    0,000000000e+00    0,000000000e+00    0,000000000e+00
     1178000000    2,455791645e-02   -2,519768476e-01   -3,689006865e-01   -1,798379123e-01    0,000000000e+00    0,000000000e+00    0,000000000e+00    0,000000000e+00
     1192000000   -2,246106565e-01   -3,464354575e-01   -3,409285545e-01    4,148035124e-02    0,000000000e+00    0,000000000e+00    0,000000000e+00    0,000000000e+00
     1206000000   -4,796955884e-01   -1,820824742e-01   -1,918514520e-01    1,832477152e-01    0,000000000e+00    0,000000000e+00    0,000000000e+00    0,000000000e+00
     1220000000   -5,010882616e-01    1,351097971e-01   -5,952660926e-03    1,742283553e-01    0,000000000e+00    0,000000000e+00    0,000000000e+00    0,000000000e+00
     1234000000   -2,973331511e-01    3,448421955e-01    7,221388072e-02    8,374108374e-02    0,000000000e+00    0,000000000e+00    0,000000000e+00    0,000000000e+00
     1248000000   -6,002917513e-02    3,561890125e-01    6,815929711e-02    4,208931699e-03    0,000000000e+00    0,000000000e+00    0,000000000e+00    0,000000000e+00
     1262000000    1,065676510e-01    2,599340975e-01    2,768012136e-02   -2,230852656e-02    0,000000000e+00    0,000000000e+00    0,000000000e+00    0,000000000e+00
     1276000000    1,990665644e-01    1,045826972e-01    7,207564544e-03   -9,620051831e-03    0,000000000e+00    0,000000000e+00    0,000000000e+00    0,000000000e+00
     1290000000    2,191962302e-01   -6,484659761e-02    9,757713415e-03    2,428992093e-02    0,000000000e+00    0,000000000e+00    0,000000000e+00    0,000000000e+00
     1304000000    1,677026600e-01   -2,312466800e-01    6,589576602e-02    5,967095122e-02    0,000000000e+00    0,000000000e+00    0,000000000e+00    0,000000000e+00
     1318000000    2,568078414e-02   -3,619660139e-01    1,722028702e-01    2,018856071e-02    0,000000000e+00    0,000000000e+00    0,000000000e+00    0,000000000e+00
     1332000000   -1,517982781e-01   -3,986027241e-01    9,152462333e-02   -1,856016070e-01    0,000000000e+00    0,000000000e+00    0,000000000e+00    0,000000000e+00
     1346000000   -3,635870814e-01   -3,967339098e-01   -6,361173093e-02   -3,059796616e-02    0,000000000e+00    0,000000000e+00    0,000000000e+00    0,000000000e+00
     1360000000   -5,857842565e-01   -1,975007504e-01    6,085327268e-02    9,137071669e-02    0,000000000e+00    0,000000000e+00    0,000000000e+00    0,000000000e+00
     1374000000   -6,343950629e-01    1,184147447e-01    1,741785109e-01    5,319322273e-02    0,000000000e+00    0,000000000e+00    0,000000000e+00    0,000000000e+00
     1388000000   -4,794552326e-01    3,497451842e-01    2,188304514e-01   -2,669823542e-02    0,000000000e+00    0,000000000e+00    0,000000000e+00    0,000000000e+00
     1402000000   -2,437198162e-01    4,479689896e-01    2,146757245e-01   -7,481763512e-02    0,000000000e+00    0,000000000e+00    0,000000000e+00    0,000000000e+00
     1416000000   -3,318868577e-02    4,075164497e-01    2,053504288e-01   -1,096834093e-01    0,000000000e+00    0,000000000e+00    0,000000000e+00    0,000000000e+00
     1430000000    1,227771863e-01    3,121280968e-01    1,987534463e-01   -1,293871552e-01    0,000000000e+00    0,000000000e+00    0,000000000e+00    0,000000000e+00
     1444000000    1,987027079e-01    1,608997285e-01    1,610190123e-01   -1,062236503e-01    0,000000000e+00    0,000000000e+00    0,000000000e+00    0,000000000e+00
     1458000000    2,313486487e-01   -1,144407410e-02    1,418286413e-01   -8,785749972e-02    0,000000000e+00    0,000000000e+00    0,000000000e+00    0,000000000e+00
     1472000000    1,878159493e-01   -1,972698420e-01    1,416213363e-01   -5,328267440e-02    0,000000000e+00    0,000000000e+00    0,000000000e+00    0,000000000e+00
     1486000000    7,554745674e-02   -3,668797612e-01    1,685041636e-01    2,248361893e-02    0,000000000e+00    0,000000000e+00    0,000000000e+00    0,000000000e+00
     1500000000   -1,622608453e-01   -4,937616587e-01    2,299818248e-01    6,845768541e-02    0,000000000e+00    0,000000000e+00    0,000000000e+00    0,000000000e+00
