! NanoVNA-App
! Date: 2025-09-25 15:42:11
! Start: 100MHz Stop: 1,5GHz Points: 101
! S-Parameter data: F S11 S21 S12 S22
# Hz S RI R 50
!     Frequency           S11_Real           S11_Imag           S21_Real           S21_Imag           S12_Real           S12_Imag           S22_Real           S22_Imag
      100000000   -2,874833904e-02   -4,249060992e-03    3,739536405e-01   -7,215453386e-01    0,000000000e+00    0,000000000e+00    0,000000000e+00    0,000000000e+00
      114000000   -1,653300226e-02    1,148477662e-02   -8,900048584e-02   -8,051227331e-01    0,000000000e+00    0,000000000e+00    0,000000000e+00    0,000000000e+00
      128000000    3,453314537e-03    1,070899796e-02   -5,143623352e-01   -6,201044321e-01    0,000000000e+00    0,000000000e+00    0,000000000e+00    0,000000000e+00
      142000000    1,464482024e-02   -2,643770771e-03   -7,668423057e-01   -2,363211662e-01    0,000000000e+00    0,000000000e+00    0,000000000e+00    0,000000000e+00
      156000000    1,603561267e-02   -1,434288453e-02   -7,685917616e-01    2,235334963e-01    0,000000000e+00    0,000000000e+00    0,000000000e+00    0,000000000e+00
      170000000    1,710588671e-02   -2,245648019e-02   -5,178326368e-01    6,043344736e-01    0,000000000e+00    0,000000000e+00    0,000000000e+00    0,000000000e+00
      184000000    2,132292464e-02   -3,721962869e-02   -1,014614105e-01    7,858474851e-01    0,000000000e+00    0,000000000e+00    0,000000000e+00    0,000000000e+00
      198000000    1,325539686e-02   -6,252986938e-02    3,430365026e-01    7,118273973e-01    0,000000000e+00    0,000000000e+00    0,000000000e+00    0,000000000e+00
      212000000   -1,844162866e-02   -8,125494421e-02    6,778171062e-01    4,099434316e-01    0,000000000e+00    0,000000000e+00    0,000000000e+00    0,000000000e+00
      226000000   -6,134516001e-02   -6,919513643e-02    7,954189181e-01   -3,057178110e-02    0,000000000e+00    0,000000000e+00    0,000000000e+00    0,000000000e+00
      240000000   -8,225166798e-02   -2,578454278e-02    6,458460093e-01   -4,669328332e-01    0,000000000e+00    0,000000000e+00    0,000000000e+00    0,000000000e+00
      254000000   -6,342554837e-02    1,694615744e-02    2,762919664e-01   -7,429311872e-01    0,000000000e+00    0,000000000e+00    0,000000000e+00    0,000000000e+00
      268000000   -2,397756092e-02    2,881305665e-02   -1,780655086e-01   -7,644369006e-01    0,000000000e+00    0,000000000e+00    0,000000000e+00    0,000000000e+00
      282000000    4,145081621e-03    1,206155587e-02   -5,618523359e-01   -5,359352231e-01    0,000000000e+00    0,000000000e+00    0,000000000e+00    0,000000000e+00
      296000000    9,902277030e-03   -7,453690749e-03   -7,593755722e-01   -1,395709515e-01    0,000000000e+00    0,000000000e+00    0,000000000e+00    0,000000000e+00
      310000000    1,148035470e-02   -1,616025344e-02   -7,121361494e-01    2,973190844e-01    0,000000000e+00    0,000000000e+00    0,000000000e+00    0,000000000e+00
      324000000    1,998369768e-02   -2,666117065e-02   -4,276497066e-01    6,366899014e-01    0,000000000e+00    0,000000000e+00    0,000000000e+00    0,000000000e+00
      338000000    2,570541203e-02   -5,220311880e-02   -7,211212534e-03    7,609910965e-01    0,000000000e+00    0,000000000e+00    0,000000000e+00    0,000000000e+00
      352000000    7,764447015e-03   -8,481238037e-02    4,062318504e-01    6,384539008e-01    0,000000000e+00    0,000000000e+00    0,000000000e+00    0,000000000e+00
      366000000   -3,438865766e-02   -9,549599886e-02    6,905944347e-01    3,107634187e-01    0,000000000e+00    0,000000000e+00    0,000000000e+00    0,000000000e+00
      380000000   -7,033568621e-02   -7,129647583e-02    7,468892336e-01   -1,256975830e-01    0,000000000e+00    0,000000000e+00    0,000000000e+00    0,000000000e+00
      394000000   -7,213039696e-02   -3,260755539e-02    5,475184321e-01   -5,216517448e-01    0,000000000e+00    0,000000000e+00    0,000000000e+00    0,000000000e+00
      408000000   -4,633459821e-02   -1,645902917e-02    1,629637629e-01   -7,311264873e-01    0,000000000e+00    0,000000000e+00    0,000000000e+00    0,000000000e+00
      422000000   -2,830301598e-02   -3,222736344e-02   -2,661838830e-01   -6,947726607e-01    0,000000000e+00    0,000000000e+00    0,000000000e+00    0,000000000e+00
      436000000   -4,075935110e-02   -5,170585960e-02   -6,038205028e-01   -4,311057031e-01    0,000000000e+00    0,000000000e+00    0,000000000e+00    0,000000000e+00
      450000000   -6,696956605e-02   -4,389436170e-02   -7,398844361e-01   -2,226183750e-02    0,000000000e+00    0,000000000e+00    0,000000000e+00    0,000000000e+00
      464000000   -7,313448191e-02   -1,193989534e-02   -6,188552380e-01    3,965040445e-01    0,000000000e+00    0,000000000e+00    0,000000000e+00    0,000000000e+00
      478000000   -4,762051627e-02    1,124363672e-02   -2,833411992e-01    6,662744284e-01    0,000000000e+00    0,000000000e+00    0,000000000e+00    0,000000000e+00
      492000000   -1,577802189e-02    5,787150003e-03    1,372536868e-01    7,016511559e-01    0,000000000e+00    0,000000000e+00    0,000000000e+00    0,000000000e+00
      506000000   -2,659464953e-03   -1,591007970e-02    4,972891808e-01    5,023565292e-01    0,000000000e+00    0,000000000e+00    0,000000000e+00    0,000000000e+00
      520000000   -5,137576722e-03   -3,093279339e-02    6,879531741e-01    1,420524716e-01    0,000000000e+00    0,000000000e+00    0,000000000e+00    0,000000000e+00
      534000000   -3,784397384e-03   -3,805016726e-02    6,424362063e-01   -2,616076767e-01    0,000000000e+00    0,000000000e+00    0,000000000e+00    0,000000000e+00
      548000000    6,043888163e-03   -5,393068120e-02    3,809384108e-01   -5,663989186e-01    0,000000000e+00    0,000000000e+00    0,000000000e+00    0,000000000e+00
      562000000    3,645797959e-03   -8,944626898e-02    3,324236954e-03   -6,714178324e-01    0,000000000e+00    0,000000000e+00    0,000000000e+00    0,000000000e+00
      576000000   -3,348917514e-02   -1,240580305e-01   -3,680090606e-01   -5,570233464e-01    0,000000000e+00    0,000000000e+00    0,000000000e+00    0,000000000e+00
      590000000   -9,595999122e-02   -1,226740628e-01   -6,205573082e-01   -2,649162412e-01    0,000000000e+00    0,000000000e+00    0,000000000e+00    0,000000000e+00
      604000000   -1,389872730e-01   -7,255181670e-02   -6,639392972e-01    1,364106387e-01    0,000000000e+00    0,000000000e+00    0,000000000e+00    0,000000000e+00
      618000000   -1,294738203e-01   -9,559023194e-03   -4,640794992e-01    4,934084415e-01    0,000000000e+00    0,000000000e+00    0,000000000e+00    0,000000000e+00
      632000000   -8,506458998e-02    1,596465707e-02   -9,956504405e-02    6,620718837e-01    0,000000000e+00    0,000000000e+00    0,000000000e+00    0,000000000e+00
      646000000   -5,241224170e-02    4,372796102e-04    2,851732671e-01    5,950388312e-01    0,000000000e+00    0,000000000e+00    0,000000000e+00    0,000000000e+00
      660000000   -5,341911316e-02   -2,022957616e-02    5,643230081e-01    3,232892752e-01    0,000000000e+00    0,000000000e+00    0,000000000e+00    0,000000000e+00
      674000000   -7,019571215e-02   -1,654264890e-02    6,409887075e-01   -6,333755702e-02    0,000000000e+00    0,000000000e+00    0,000000000e+00    0,000000000e+00
      688000000   -6,759805232e-02    8,873730898e-03    4,709150195e-01   -4,236495793e-01    0,000000000e+00    0,000000000e+00    0,000000000e+00    0,000000000e+00
      702000000   -3,671948239e-02    2,564316057e-02    1,211510897e-01   -6,107280850e-01    0,000000000e+00    0,000000000e+00    0,000000000e+00    0,000000000e+00
      716000000    3,397039836e-03    1,558841765e-02   -2,595916092e-01   -5,452376604e-01    0,000000000e+00    0,000000000e+00    0,000000000e+00    0,000000000e+00
      730000000    3,635180369e-02   -1,340544876e-02   -5,225154161e-01   -2,709184289e-01    0,000000000e+00    0,000000000e+00    0,000000000e+00    0,000000000e+00
      744000000    6,298449636e-02   -6,490595639e-02   -5,604321957e-01    9,839866310e-02    0,000000000e+00    0,000000000e+00    0,000000000e+00    0,000000000e+00
      758000000    6,106552854e-02   -1,513471901e-01   -3,664757609e-01    4,004988670e-01    0,000000000e+00    0,000000000e+00    0,000000000e+00    0,000000000e+00
      772000000   -1,769750193e-02   -2,556098700e-01   -4,556681216e-02    5,091469288e-01    0,000000000e+00    0,000000000e+00    0,000000000e+00    0,000000000e+00
      786000000   -2,036553323e-01   -2,911550105e-01    2,599605024e-01    3,987231553e-01    0,000000000e+00    0,000000000e+00    0,000000000e+00    0,000000000e+00
      800000000   -4,070917070e-01   -1,262779981e-01    4,070146680e-01    1,187852100e-01    0,000000000e+00    0,000000000e+00    0,000000000e+00    0,000000000e+00
      814000000   -3,766633570e-01    2,018438876e-01    2,964825034e-01   -1,507353187e-01    0,000000000e+00    0,000000000e+00    0,000000000e+00    0,000000000e+00
      828000000   -6,260505319e-02    3,479333520e-01    8,254007250e-02   -1,907201558e-01    0,000000000e+00    0,000000000e+00    0,000000000e+00    0,000000000e+00
      842000000    2,113940567e-01    1,856035143e-01   -3,392040031e-03   -9,317168593e-02    0,000000000e+00    0,000000000e+00    0,000000000e+00    0,000000000e+00
      856000000    2,658466101e-01   -1,061185226e-01    3,568679467e-02   -3,737580776e-02    0,000000000e+00    0,000000000e+00    0,000000000e+00    0,000000000e+00
      870000000    8,234233409e-02   -3,513537645e-01    8,870948106e-02   -9,722263366e-02    0,000000000e+00    0,000000000e+00    0,000000000e+00    0,000000000e+00
      884000000   -2,682805955e-01   -3,568066657e-01    1,090436615e-02   -2,281305790e-01    0,000000000e+00    0,000000000e+00    0,000000000e+00    0,000000000e+00
      898000000   -4,567068219e-01   -1,415321790e-02   -2,154802829e-01   -2,101020664e-01    0,000000000e+00    0,000000000e+00    0,000000000e+00    0,000000000e+00
      912000000   -2,345583439e-01    2,779595554e-01   -3,377340734e-01    8,107432723e-02    0,000000000e+00    0,000000000e+00    0,000000000e+00    0,000000000e+00
      926000000    5,333745107e-02    2,607314587e-01   -2,104679346e-01    2,626802325e-01    0,000000000e+00    0,000000000e+00    0,000000000e+00    0,000000000e+00
      940000000    2,095214128e-01    8,549588919e-02   -3,207511827e-02    3,277385533e-01    0,000000000e+00    0,000000000e+00    0,000000000e+00    0,000000000e+00
      954000000    2,180665731e-01   -1,215448529e-01    1,307709068e-01    3,006728590e-01    0,000000000e+00    0,000000000e+00    0,000000000e+00    0,000000000e+00
      968000000    1,180355698e-01   -2,929770648e-01    2,695153654e-01    2,150266767e-01    0,000000000e+00    0,000000000e+00    0,000000000e+00    0,000000000e+00
      982000000   -7,865839452e-02   -3,829605579e-01    3,624200225e-01    6,222759187e-02    0,000000000e+00    0,000000000e+00    0,000000000e+00    0,000000000e+00
      996000000   -3,129253089e-01   -3,292887509e-01    3,634914756e-01   -1,441896856e-01    0,000000000e+00    0,000000000e+00    0,000000000e+00    0,000000000e+00
     1010000000   -4,625198543e-01   -1,185827926e-01    2,199790031e-01   -3,356267214e-01    0,000000000e+00    0,000000000e+00    0,000000000e+00    0,000000000e+00
     1024000000   -4,119972885e-01    1,470258683e-01   -3,045864403e-02   -3,890996277e-01    0,000000000e+00    0,000000000e+00    0,000000000e+00    0,000000000e+00
     1038000000   -2,229002714e-01    2,871447504e-01   -2,437641323e-01   -2,566013038e-01    0,000000000e+00    0,000000000e+00    0,000000000e+00    0,000000000e+00
     1052000000   -1,707146503e-02    2,832584381e-01   -3,102796078e-01   -4,636445642e-02    0,000000000e+00    0,000000000e+00    0,000000000e+00    0,000000000e+00
     1066000000    1,349173933e-01    1,711241752e-01   -2,539868355e-01    1,362842917e-01    0,000000000e+00    0,000000000e+00    0,000000000e+00    0,000000000e+00
     1080000000    1,941880584e-01    1,147647668e-02   -1,149835438e-01    2,540380061e-01    0,000000000e+00    0,000000000e+00    0,000000000e+00    0,000000000e+00
     1094000000    1,607418060e-01   -1,663688719e-01    6,035128608e-02    2,929974496e-01    0,000000000e+00    0,000000000e+00    0,000000000e+00    0,000000000e+00
     1108000000    1,464057527e-02   -2,946467400e-01    2,614687681e-01    2,347020060e-01    0,000000000e+00    0,000000000e+00    0,000000000e+00    0,000000000e+00
     1122000000   -2,086722255e-01   -2,809581757e-01    4,376097322e-01    2,364306152e-02    0,000000000e+00    0,000000000e+00    0,000000000e+00    0,000000000e+00
     1136000000   -3,248477876e-01   -3,365870193e-02    4,009832740e-01   -3,460634053e-01    0,000000000e+00    0,000000000e+00    0,000000000e+00    0,000000000e+00
     1150000000   -1,079132259e-01    1,407270432e-01    4,814959317e-02   -5,312067866e-01    0,000000000e+00    0,000000000e+00    0,000000000e+00    0,000000000e+00
     1164000000    8,936341852e-02   -1,652676053e-02   -2,521711290e-01   -4,053161442e-01    0,000000000e+00    0,000000000e+00    0,000000000e+00    0,000000000e+00
     1178000000    2,842109464e-02   -2,503969073e-01   -3,722001612e-01   -1,781092137e-01    0,000000000e+00    0,000000000e+00    0,000000000e+00    0,000000000e+00
     1192000000   -2,209722549e-01   -3,442698121e-01   -3,404086828e-01    4,017105326e-02    0,000000000e+00    0,000000000e+00    0,000000000e+00    0,000000000e+00
     1206000000   -4,817695320e-01   -1,818043441e-01   -1,892836392e-01    1,834080666e-01    0,000000000e+00    0,000000000e+00    0,000000000e+00    0,000000000e+00
     1220000000   -5,085806251e-01    1,379943043e-01   -1,100148633e-02    1,773621440e-01    0,000000000e+00    0,000000000e+00    0,000000000e+00    0,000000000e+00
     1234000000   -3,033787012e-01    3,358561397e-01    7,168982178e-02    7,892800122e-02    0,000000000e+00    0,000000000e+00    0,000000000e+00    0,000000000e+00
     1248000000   -6,680446863e-02    3,560782671e-01    6,385407597e-02   -3,187017050e-03    0,000000000e+00    0,000000000e+00    0,000000000e+00    0,000000000e+00
     1262000000    1,130798832e-01    2,550117970e-01    2,887611836e-02   -2,738963440e-02    0,000000000e+00    0,000000000e+00    0,000000000e+00    0,000000000e+00
     1276000000    1,994167119e-01    1,066124439e-01    3,542296356e-03   -7,641873788e-03    0,000000000e+00    0,000000000e+00    0,000000000e+00    0,000000000e+00
     1290000000    2,186065614e-01   -6,367102265e-02    8,643836714e-03    2,315041795e-02    0,000000000e+00    0,000000000e+00    0,000000000e+00    0,000000000e+00
     1304000000    1,632173210e-01   -2,345525771e-01    6,137761474e-02    5,786149949e-02    0,000000000e+00    0,000000000e+00    0,000000000e+00    0,000000000e+00
     1318000000    2,559604496e-02   -3,610689044e-01    1,733513772e-01    1,992992312e-02    0,000000000e+00    0,000000000e+00    0,000000000e+00    0,000000000e+00
     1332000000   -1,529349536e-01   -3,935704529e-01    9,776880592e-02   -1,781781912e-01    0,000000000e+00    0,000000000e+00    0,000000000e+00    0,000000000e+00
     1346000000   -3,628131449e-01   -3,902216852e-01   -5,912007764e-02   -2,244338021e-02    0,000000000e+00    0,000000000e+00    0,000000000e+00    0,000000000e+00
     1360000000   -5,789726377e-01   -1,983155161e-01    6,635931879e-02    9,471150488e-02    0,000000000e+00    0,000000000e+00    0,000000000e+00    0,000000000e+00
     1374000000   -6,222810745e-01    9,657064825e-02    1,822049916e-01    4,039791226e-02    0,000000000e+00    0,000000000e+00    0,000000000e+00    0,000000000e+00
     1388000000   -4,712508619e-01    3,478253186e-01    2,170272917e-01   -2,830095962e-02    0,000000000e+00    0,000000000e+00    0,000000000e+00    0,000000000e+00
     1402000000   -2,471098602e-01    4,437925518e-01    2,071544975e-01   -7,473270595e-02    0,000000000e+00    0,000000000e+00    0,000000000e+00    0,000000000e+00
     1416000000   -3,283562511e-02    4,111418128e-01    1,922816038e-01   -9,565080702e-02    0,000000000e+00    0,000000000e+00    0,000000000e+00    0,000000000e+00
     1430000000    1,118706316e-01    3,019873202e-01    1,696872115e-01   -1,184068397e-01    0,000000000e+00    0,000000000e+00    0,000000000e+00    0,000000000e+00
     1444000000    2,023903430e-01    1,575108320e-01    1,636402607e-01   -1,057463065e-01    0,000000000e+00    0,000000000e+00    0,000000000e+00    0,000000000e+00
     1458000000    2,308021635e-01   -9,178527631e-03    1,531059891e-01   -8,173707873e-02    0,000000000e+00    0,000000000e+00    0,000000000e+00    0,000000000e+00
     1472000000    1,907083541e-01   -1,911909133e-01    1,428455561e-01   -3,284952417e-02    0,000000000e+00    0,000000000e+00    0,000000000e+00    0,000000000e+00
     1486000000    6,158201396e-02   -3,659706414e-01    1,512943208e-01    1,868850179e-02    0,000000000e+00    0,000000000e+00    0,000000000e+00    0,000000000e+00
     1500000000   -1,708825827e-01   -4,941998124e-01    2,241946161e-01    8,004847169e-02    0,000000000e+00    0,000000000e+00    0,000000000e+00    0,000000000e+00
