! NanoVNA-App
! Date: 2025-09-25 15:46:16
! Start: 100MHz Stop: 1,5GHz Points: 101
! S-Parameter data: F S11 S21 S12 S22
# Hz S RI R 50
!     Frequency           S11_Real           S11_Imag           S21_Real           S21_Imag           S12_Real           S12_Imag           S22_Real           S22_Imag
      100000000   -2,845148742e-02   -4,115951248e-03    3,735529482e-01   -7,214272618e-01    0,000000000e+00    0,000000000e+00    0,000000000e+00    0,000000000e+00
      114000000   -1,615473442e-02    1,160557382e-02   -8,934421837e-02   -8,046112657e-01    0,000000000e+00    0,000000000e+00    0,000000000e+00    0,000000000e+00
      128000000    3,831446171e-03    1,079738140e-02   -5,143812895e-01   -6,196236014e-01    0,000000000e+00    0,000000000e+00    0,000000000e+00    0,000000000e+00
      142000000    1,490855962e-02   -2,645130036e-03   -7,667545080e-01   -2,363993973e-01    0,000000000e+00    0,000000000e+00    0,000000000e+00    0,000000000e+00
      156000000    1,497274637e-02   -1,461712644e-02   -7,631663084e-01    2,188269645e-01    0,000000000e+00    0,000000000e+00    0,000000000e+00    0,000000000e+00
      170000000    1,740713604e-02   -2,247103676e-02   -5,175387263e-01    6,043310761e-01    0,000000000e+00    0,000000000e+00    0,000000000e+00    0,000000000e+00
      184000000    2,167284116e-02   -3,712978587e-02   -1,011780202e-01    7,855335474e-01    0,000000000e+00    0,000000000e+00    0,000000000e+00    0,000000000e+00
      198000000    1,358732395e-02   -6,253854185e-02    3,431303203e-01    7,113799453e-01    0,000000000e+00    0,000000000e+00    0,000000000e+00    0,000000000e+00
      212000000   -1,812015846e-02   -8,130787313e-02    6,773861051e-01    4,095380306e-01    0,000000000e+00    0,000000000e+00    0,000000000e+00    0,000000000e+00
      226000000   -6,100443378e-02   -6,928460300e-02    7,950670719e-01   -3,057260625e-02    0,000000000e+00    0,000000000e+00    0,000000000e+00    0,000000000e+00
      240000000   -8,192860335e-02   -2,586154453e-02    6,456655860e-01   -4,663802087e-01    0,000000000e+00    0,000000000e+00    0,000000000e+00    0,000000000e+00
      254000000   -6,301870942e-02    1,687316597e-02    2,757961750e-01   -7,421889901e-01    0,000000000e+00    0,000000000e+00    0,000000000e+00    0,000000000e+00
      268000000   -2,352945693e-02    2,865159325e-02   -1,778582782e-01   -7,633351088e-01    0,000000000e+00    0,000000000e+00    0,000000000e+00    0,000000000e+00
      282000000    4,497180693e-03    1,185204647e-02   -5,616241693e-01   -5,352036357e-01    0,000000000e+00    0,000000000e+00    0,000000000e+00    0,000000000e+00
      296000000    1,028298121e-02   -7,802818902e-03   -7,592301369e-01   -1,395169944e-01    0,000000000e+00    0,000000000e+00    0,000000000e+00    0,000000000e+00
      310000000    1,169784740e-02   -1,636633091e-02   -7,114918828e-01    2,988576889e-01    0,000000000e+00    0,000000000e+00    0,000000000e+00    0,000000000e+00
      324000000    2,036894299e-02   -2,694508806e-02   -4,266294837e-01    6,372242570e-01    0,000000000e+00    0,000000000e+00    0,000000000e+00    0,000000000e+00
      338000000    2,594874427e-02   -5,258067697e-02   -7,084955927e-03    7,613023520e-01    0,000000000e+00    0,000000000e+00    0,000000000e+00    0,000000000e+00
      352000000    8,004306816e-03   -8,476678282e-02    4,064959586e-01    6,395131350e-01    0,000000000e+00    0,000000000e+00    0,000000000e+00    0,000000000e+00
      366000000   -3,427525237e-02   -9,549710155e-02    6,903081536e-01    3,117094934e-01    0,000000000e+00    0,000000000e+00    0,000000000e+00    0,000000000e+00
      380000000   -7,010350376e-02   -7,164977491e-02    7,467845678e-01   -1,253581345e-01    0,000000000e+00    0,000000000e+00    0,000000000e+00    0,000000000e+00
      394000000   -7,216213644e-02   -3,264492378e-02    5,463700294e-01   -5,197625756e-01    0,000000000e+00    0,000000000e+00    0,000000000e+00    0,000000000e+00
      408000000   -4,593623057e-02   -1,685668342e-02    1,617806256e-01   -7,320120931e-01    0,000000000e+00    0,000000000e+00    0,000000000e+00    0,000000000e+00
      422000000   -2,820769139e-02   -3,233808279e-02   -2,667152286e-01   -6,950396895e-01    0,000000000e+00    0,000000000e+00    0,000000000e+00    0,000000000e+00
      436000000   -4,022043571e-02   -5,197560042e-02   -6,036962867e-01   -4,318861067e-01    0,000000000e+00    0,000000000e+00    0,000000000e+00    0,000000000e+00
      450000000   -6,675449759e-02   -4,394089058e-02   -7,395636439e-01   -2,176683210e-02    0,000000000e+00    0,000000000e+00    0,000000000e+00    0,000000000e+00
      464000000   -7,263526320e-02   -1,221233420e-02   -6,180720925e-01    3,965078890e-01    0,000000000e+00    0,000000000e+00    0,000000000e+00    0,000000000e+00
      478000000   -4,738939181e-02    1,081339456e-02   -2,825119793e-01    6,669723392e-01    0,000000000e+00    0,000000000e+00    0,000000000e+00    0,000000000e+00
      492000000   -1,559192501e-02    5,557976197e-03    1,369570494e-01    7,010868192e-01    0,000000000e+00    0,000000000e+00    0,000000000e+00    0,000000000e+00
      506000000   -2,302867360e-03   -1,623852737e-02    4,975299239e-01    5,025526285e-01    0,000000000e+00    0,000000000e+00    0,000000000e+00    0,000000000e+00
      520000000   -4,154701717e-03   -3,166247904e-02    6,880555153e-01    1,430553347e-01    0,000000000e+00    0,000000000e+00    0,000000000e+00    0,000000000e+00
      534000000   -3,430804936e-03   -3,804521635e-02    6,431193948e-01   -2,614071965e-01    0,000000000e+00    0,000000000e+00    0,000000000e+00    0,000000000e+00
      548000000    6,277347449e-03   -5,426155403e-02    3,807930350e-01   -5,663169622e-01    0,000000000e+00    0,000000000e+00    0,000000000e+00    0,000000000e+00
      562000000    3,424411640e-03   -8,949561417e-02    3,362692893e-03   -6,710270643e-01    0,000000000e+00    0,000000000e+00    0,000000000e+00    0,000000000e+00
      576000000   -3,437352180e-02   -1,245246679e-01   -3,680692017e-01   -5,577688813e-01    0,000000000e+00    0,000000000e+00    0,000000000e+00    0,000000000e+00
      590000000   -9,546553344e-02   -1,228924841e-01   -6,203638315e-01   -2,648248971e-01    0,000000000e+00    0,000000000e+00    0,000000000e+00    0,000000000e+00
      604000000   -1,387772560e-01   -7,225868106e-02   -6,635050774e-01    1,373298168e-01    0,000000000e+00    0,000000000e+00    0,000000000e+00    0,000000000e+00
      618000000   -1,293058544e-01   -9,857581928e-03   -4,641679227e-01    4,919458330e-01    0,000000000e+00    0,000000000e+00    0,000000000e+00    0,000000000e+00
      632000000   -8,407024294e-02    1,539827138e-02   -9,986099601e-02    6,623873711e-01    0,000000000e+00    0,000000000e+00    0,000000000e+00    0,000000000e+00
      646000000   -5,132471025e-02    3,035633126e-04    2,852720022e-01    5,940074921e-01    0,000000000e+00    0,000000000e+00    0,000000000e+00    0,000000000e+00
      660000000   -5,338900536e-02   -2,060724050e-02    5,648457408e-01    3,232585490e-01    0,000000000e+00    0,000000000e+00    0,000000000e+00    0,000000000e+00
      674000000   -6,981510669e-02   -1,655578427e-02    6,408722997e-01   -6,300533563e-02    0,000000000e+00    0,000000000e+00    0,000000000e+00    0,000000000e+00
      688000000   -6,633323431e-02    8,418517187e-03    4,705566764e-01   -4,233592451e-01    0,000000000e+00    0,000000000e+00    0,000000000e+00    0,000000000e+00
      702000000   -3,514517471e-02    2,560744062e-02    1,205800921e-01   -6,070918441e-01    0,000000000e+00    0,000000000e+00    0,000000000e+00    0,000000000e+00
      716000000    3,630635096e-03    1,517255884e-02   -2,600699961e-01   -5,447749496e-01    0,000000000e+00    0,000000000e+00    0,000000000e+00    0,000000000e+00
      730000000    3,608539328e-02   -1,363021601e-02   -5,214004517e-01   -2,719744444e-01    0,000000000e+00    0,000000000e+00    0,000000000e+00    0,000000000e+00
      744000000    6,291755289e-02   -6,551750749e-02   -5,605294108e-01    9,816653281e-02    0,000000000e+00    0,000000000e+00    0,000000000e+00    0,000000000e+00
      758000000    6,059399247e-02   -1,521649063e-01   -3,663566709e-01    3,999975622e-01    0,000000000e+00    0,000000000e+00    0,000000000e+00    0,000000000e+00
      772000000   -1,755939424e-02   -2,562561035e-01   -4,590226337e-02    5,093510151e-01    0,000000000e+00    0,000000000e+00    0,000000000e+00    0,000000000e+00
      786000000   -2,021130770e-01   -2,901220024e-01    2,592811584e-01    3,993091881e-01    0,000000000e+00    0,000000000e+00    0,000000000e+00    0,000000000e+00
      800000000   -4,073190391e-01   -1,279197335e-01    4,079053104e-01    1,191250607e-01    0,000000000e+00    0,000000000e+00    0,000000000e+00    0,000000000e+00
      814000000   -3,773394227e-01    2,002688497e-01    2,977292538e-01   -1,510067880e-01    0,000000000e+00    0,000000000e+00    0,000000000e+00    0,000000000e+00
      828000000   -6,339588016e-02    3,458333015e-01    8,340802789e-02   -1,912749112e-01    0,000000000e+00    0,000000000e+00    0,000000000e+00    0,000000000e+00
      842000000    2,106586695e-01    1,862426549e-01   -4,027447663e-03   -9,353525192e-02    0,000000000e+00    0,000000000e+00    0,000000000e+00    0,000000000e+00
      856000000    2,660098374e-01   -1,052102968e-01    3,521762043e-02   -3,703904152e-02    0,000000000e+00    0,000000000e+00    0,000000000e+00    0,000000000e+00
      870000000    8,347219974e-02   -3,510475755e-01    8,798223734e-02   -9,653960168e-02    0,000000000e+00    0,000000000e+00    0,000000000e+00    0,000000000e+00
      884000000   -2,671326995e-01   -3,568291366e-01    1,206865162e-02   -2,270812690e-01    0,000000000e+00    0,000000000e+00    0,000000000e+00    0,000000000e+00
      898000000   -4,578395486e-01   -1,368601713e-02   -2,150739729e-01   -2,093095034e-01    0,000000000e+00    0,000000000e+00    0,000000000e+00    0,000000000e+00
      912000000   -2,364136428e-01    2,776291966e-01   -3,251464069e-01    6,783384830e-02    0,000000000e+00    0,000000000e+00    0,000000000e+00    0,000000000e+00
      926000000    5,409999937e-02    2,599032819e-01   -2,103826702e-01    2,606345117e-01    0,000000000e+00    0,000000000e+00    0,000000000e+00    0,000000000e+00
      940000000    2,081588060e-01    8,279094845e-02   -3,226591274e-02    3,246296346e-01    0,000000000e+00    0,000000000e+00    0,000000000e+00    0,000000000e+00
      954000000    2,225606740e-01   -1,210044399e-01    1,332953572e-01    3,018335700e-01    0,000000000e+00    0,000000000e+00    0,000000000e+00    0,000000000e+00
      968000000    1,153896153e-01   -2,938319743e-01    2,673932910e-01    2,138133794e-01    0,000000000e+00    0,000000000e+00    0,000000000e+00    0,000000000e+00
      982000000   -7,459392399e-02   -3,837257028e-01    3,612631261e-01    6,206298992e-02    0,000000000e+00    0,000000000e+00    0,000000000e+00    0,000000000e+00
      996000000   -3,113474548e-01   -3,348885477e-01    3,617618382e-01   -1,427140981e-01    0,000000000e+00    0,000000000e+00    0,000000000e+00    0,000000000e+00
     1010000000   -4,592303336e-01   -1,142780036e-01    2,203363925e-01   -3,352025151e-01    0,000000000e+00    0,000000000e+00    0,000000000e+00    0,000000000e+00
     1024000000   -4,158087373e-01    1,475928724e-01   -3,178110346e-02   -3,853619695e-01    0,000000000e+00    0,000000000e+00    0,000000000e+00    0,000000000e+00
     1038000000   -2,255095243e-01    2,884356678e-01   -2,430611551e-01   -2,568995655e-01    0,000000000e+00    0,000000000e+00    0,000000000e+00    0,000000000e+00
     1052000000   -1,553167496e-02    2,763320506e-01   -3,122183681e-01   -4,580568522e-02    0,000000000e+00    0,000000000e+00    0,000000000e+00    0,000000000e+00
     1066000000    1,333265603e-01    1,657402813e-01   -2,528922260e-01    1,386125982e-01    0,000000000e+00    0,000000000e+00    0,000000000e+00    0,000000000e+00
     1080000000    1,898273677e-01    9,040154517e-03   -1,150308549e-01    2,554156780e-01    0,000000000e+00    0,000000000e+00    0,000000000e+00    0,000000000e+00
     1094000000    1,612716019e-01   -1,621581167e-01    5,805530027e-02    2,922010124e-01    0,000000000e+00    0,000000000e+00    0,000000000e+00    0,000000000e+00
     1108000000    1,934090629e-02   -2,993599176e-01    2,608318031e-01    2,360863686e-01    0,000000000e+00    0,000000000e+00    0,000000000e+00    0,000000000e+00
     1122000000   -2,103009969e-01   -2,840516269e-01    4,386515617e-01    2,413802594e-02    0,000000000e+00    0,000000000e+00    0,000000000e+00    0,000000000e+00
     1136000000   -3,285256326e-01   -3,500528261e-02    4,032968581e-01   -3,446621597e-01    0,000000000e+00    0,000000000e+00    0,000000000e+00    0,000000000e+00
     1150000000   -1,087926477e-01    1,429020762e-01    4,784497991e-02   -5,311526060e-01    0,000000000e+00    0,000000000e+00    0,000000000e+00    0,000000000e+00
     1164000000    8,782579750e-02   -1,842414774e-02   -2,497762740e-01   -4,051528275e-01    0,000000000e+00    0,000000000e+00    0,000000000e+00    0,000000000e+00
     1178000000    2,626916952e-02   -2,537544072e-01   -3,714409471e-01   -1,802599281e-01    0,000000000e+00    0,000000000e+00    0,000000000e+00    0,000000000e+00
     1192000000   -2,213848829e-01   -3,464095891e-01   -3,389568925e-01    4,242373258e-02    0,000000000e+00    0,000000000e+00    0,000000000e+00    0,000000000e+00
     1206000000   -4,813818634e-01   -1,807746440e-01   -1,913500279e-01    1,829404980e-01    0,000000000e+00    0,000000000e+00    0,000000000e+00    0,000000000e+00
     1220000000   -5,023667812e-01    1,418291181e-01   -1,214324683e-02    1,752891988e-01    0,000000000e+00    0,000000000e+00    0,000000000e+00    0,000000000e+00
     1234000000   -3,052335382e-01    3,436934650e-01    7,590940595e-02    7,834822685e-02    0,000000000e+00    0,000000000e+00    0,000000000e+00    0,000000000e+00
     1248000000   -6,038710847e-02    3,639500737e-01    6,760034710e-02    1,605606289e-03    0,000000000e+00    0,000000000e+00    0,000000000e+00    0,000000000e+00
     1262000000    1,112311184e-01    2,564331293e-01    2,693691477e-02   -2,623075247e-02    0,000000000e+00    0,000000000e+00    0,000000000e+00    0,000000000e+00
     1276000000    2,045811415e-01    1,053877100e-01    5,641883239e-03   -8,841019124e-03    0,000000000e+00    0,000000000e+00    0,000000000e+00    0,000000000e+00
     1290000000    2,181710154e-01   -6,265438348e-02    1,274044439e-02    2,469149791e-02    0,000000000e+00    0,000000000e+00    0,000000000e+00    0,000000000e+00
     1304000000    1,641493589e-01   -2,302877307e-01    5,943292752e-02    6,085504219e-02    0,000000000e+00    0,000000000e+00    0,000000000e+00    0,000000000e+00
     1318000000    2,475263551e-02   -3,640616834e-01    1,675206721e-01    1,808842830e-02    0,000000000e+00    0,000000000e+00    0,000000000e+00    0,000000000e+00
     1332000000   -1,485537440e-01   -3,984763026e-01    1,014039442e-01   -1,908082366e-01    0,000000000e+00    0,000000000e+00    0,000000000e+00    0,000000000e+00
     1346000000   -3,621032834e-01   -3,913404644e-01   -6,115157902e-02   -2,116500027e-02    0,000000000e+00    0,000000000e+00    0,000000000e+00    0,000000000e+00
     1360000000   -5,801155567e-01   -2,005253434e-01    6,446805596e-02    9,304264188e-02    0,000000000e+00    0,000000000e+00    0,000000000e+00    0,000000000e+00
     1374000000   -6,330170631e-01    1,107474044e-01    1,726787686e-01    6,163804233e-02    0,000000000e+00    0,000000000e+00    0,000000000e+00    0,000000000e+00
     1388000000   -4,750723541e-01    3,573234677e-01    2,144786566e-01   -2,165700123e-02    0,000000000e+00    0,000000000e+00    0,000000000e+00    0,000000000e+00
     1402000000   -2,419950515e-01    4,475115538e-01    2,146814615e-01   -7,707173377e-02    0,000000000e+00    0,000000000e+00    0,000000000e+00    0,000000000e+00
     1416000000   -4,042828828e-02    4,113779664e-01    1,892486066e-01   -9,775875509e-02    0,000000000e+00    0,000000000e+00    0,000000000e+00    0,000000000e+00
     1430000000    1,043439806e-01    2,992032170e-01    1,809353381e-01   -9,840948135e-02    0,000000000e+00    0,000000000e+00    0,000000000e+00    0,000000000e+00
     1444000000    2,020933032e-01    1,537748426e-01    1,665366441e-01   -1,063508019e-01    0,000000000e+00    0,000000000e+00    0,000000000e+00    0,000000000e+00
     1458000000    2,291425616e-01   -7,532855030e-03    1,438595951e-01   -8,005981892e-02    0,000000000e+00    0,000000000e+00    0,000000000e+00    0,000000000e+00
     1472000000    1,900825351e-01   -1,951347440e-01    1,342666596e-01   -4,453302920e-02    0,000000000e+00    0,000000000e+00    0,000000000e+00    0,000000000e+00
     1486000000    6,745739281e-02   -3,660074770e-01    1,629621536e-01    6,174489390e-03    0,000000000e+00    0,000000000e+00    0,000000000e+00    0,000000000e+00
     1500000000   -1,581538320e-01   -4,872451425e-01    2,339574397e-01    8,980257809e-02    0,000000000e+00    0,000000000e+00    0,000000000e+00    0,000000000e+00
