! NanoVNA-App
! Date: 2025-09-25 15:41:42
! Start: 100MHz Stop: 1,5GHz Points: 101
! S-Parameter data: F S11 S21 S12 S22
# Hz S RI R 50
!     Frequency           S11_Real           S11_Imag           S21_Real           S21_Imag           S12_Real           S12_Imag           S22_Real           S22_Imag
      100000000   -2,873822302e-02   -4,253827967e-03    3,739053905e-01   -7,215612531e-01    0,000000000e+00    0,000000000e+00    0,000000000e+00    0,000000000e+00
      114000000   -1,651364565e-02    1,145341806e-02   -8,910348266e-02   -8,053191304e-01    0,000000000e+00    0,000000000e+00    0,000000000e+00    0,000000000e+00
      128000000    3,426785814e-03    1,065617707e-02   -5,144770741e-01   -6,201338172e-01    0,000000000e+00    0,000000000e+00    0,000000000e+00    0,000000000e+00
      142000000    1,467055734e-02   -2,649542876e-03   -7,666725516e-01   -2,364405394e-01    0,000000000e+00    0,000000000e+00    0,000000000e+00    0,000000000e+00
      156000000    1,517411042e-02   -1,471429411e-02   -7,665237784e-01    2,183844298e-01    0,000000000e+00    0,000000000e+00    0,000000000e+00    0,000000000e+00
      170000000    1,715200208e-02   -2,244328521e-02   -5,180048347e-01    6,046994328e-01    0,000000000e+00    0,000000000e+00    0,000000000e+00    0,000000000e+00
      184000000    2,138263360e-02   -3,712824732e-02   -1,015251651e-01    7,859866023e-01    0,000000000e+00    0,000000000e+00    0,000000000e+00    0,000000000e+00
      198000000    1,324308198e-02   -6,250925362e-02    3,432245255e-01    7,122934461e-01    0,000000000e+00    0,000000000e+00    0,000000000e+00    0,000000000e+00
      212000000   -1,839950867e-02   -8,129291236e-02    6,778475642e-01    4,098189771e-01    0,000000000e+00    0,000000000e+00    0,000000000e+00    0,000000000e+00
      226000000   -6,131929159e-02   -6,930074096e-02    7,953759432e-01   -3,042016178e-02    0,000000000e+00    0,000000000e+00    0,000000000e+00    0,000000000e+00
      240000000   -8,219099790e-02   -2,585006505e-02    6,455932856e-01   -4,666226804e-01    0,000000000e+00    0,000000000e+00    0,000000000e+00    0,000000000e+00
      254000000   -6,338655949e-02    1,693776809e-02    2,758693397e-01   -7,426738739e-01    0,000000000e+00    0,000000000e+00    0,000000000e+00    0,000000000e+00
      268000000   -2,401455492e-02    2,872111276e-02   -1,778023541e-01   -7,637722492e-01    0,000000000e+00    0,000000000e+00    0,000000000e+00    0,000000000e+00
      282000000    4,104624502e-03    1,209824625e-02   -5,616434216e-01   -5,357043743e-01    0,000000000e+00    0,000000000e+00    0,000000000e+00    0,000000000e+00
      296000000    9,916771203e-03   -7,476803847e-03   -7,593412995e-01   -1,394932121e-01    0,000000000e+00    0,000000000e+00    0,000000000e+00    0,000000000e+00
      310000000    1,160107926e-02   -1,614008471e-02   -7,108567953e-01    2,979470491e-01    0,000000000e+00    0,000000000e+00    0,000000000e+00    0,000000000e+00
      324000000    1,975953765e-02   -2,676059864e-02   -4,284514487e-01    6,367032528e-01    0,000000000e+00    0,000000000e+00    0,000000000e+00    0,000000000e+00
      338000000    2,586330473e-02   -5,214328319e-02   -1,134862006e-02    7,621808052e-01    0,000000000e+00    0,000000000e+00    0,000000000e+00    0,000000000e+00
      352000000    7,211723365e-03   -8,491931856e-02    4,061928689e-01    6,393264532e-01    0,000000000e+00    0,000000000e+00    0,000000000e+00    0,000000000e+00
      366000000   -3,435991332e-02   -9,529905766e-02    6,901883483e-01    3,116043508e-01    0,000000000e+00    0,000000000e+00    0,000000000e+00    0,000000000e+00
      380000000   -7,047528774e-02   -7,093450427e-02    7,468492389e-01   -1,250916421e-01    0,000000000e+00    0,000000000e+00    0,000000000e+00    0,000000000e+00
      394000000   -7,201474905e-02   -3,265527263e-02    5,472312570e-01   -5,212591290e-01    0,000000000e+00    0,000000000e+00    0,000000000e+00    0,000000000e+00
      408000000   -4,632296041e-02   -1,628558338e-02    1,603831947e-01   -7,313869596e-01    0,000000000e+00    0,000000000e+00    0,000000000e+00    0,000000000e+00
      422000000   -2,804725990e-02   -3,207359463e-02   -2,666656375e-01   -6,948107481e-01    0,000000000e+00    0,000000000e+00    0,000000000e+00    0,000000000e+00
      436000000   -4,061565176e-02   -5,163221061e-02   -6,030339599e-01   -4,319075942e-01    0,000000000e+00    0,000000000e+00    0,000000000e+00    0,000000000e+00
      450000000   -6,690073013e-02   -4,387554154e-02   -7,397892475e-01   -2,196058631e-02    0,000000000e+00    0,000000000e+00    0,000000000e+00    0,000000000e+00
      464000000   -7,286978513e-02   -1,210784167e-02   -6,182911396e-01    3,962115943e-01    0,000000000e+00    0,000000000e+00    0,000000000e+00    0,000000000e+00
      478000000   -4,781031981e-02    1,141302008e-02   -2,832176089e-01    6,668635607e-01    0,000000000e+00    0,000000000e+00    0,000000000e+00    0,000000000e+00
      492000000   -1,566427201e-02    5,891299341e-03    1,372368932e-01    7,010312676e-01    0,000000000e+00    0,000000000e+00    0,000000000e+00    0,000000000e+00
      506000000   -2,750512445e-03   -1,607774757e-02    4,982286990e-01    5,021403432e-01    0,000000000e+00    0,000000000e+00    0,000000000e+00    0,000000000e+00
      520000000   -4,718344659e-03   -3,130282834e-02    6,878297329e-01    1,426026523e-01    0,000000000e+00    0,000000000e+00    0,000000000e+00    0,000000000e+00
      534000000   -4,105380271e-03   -3,805509210e-02    6,427497268e-01   -2,620615661e-01    0,000000000e+00    0,000000000e+00    0,000000000e+00    0,000000000e+00
      548000000    6,545356009e-03   -5,385370553e-02    3,818913996e-01   -5,658512712e-01    0,000000000e+00    0,000000000e+00    0,000000000e+00    0,000000000e+00
      562000000    3,497963771e-03   -8,910356462e-02    2,597863087e-03   -6,707589030e-01    0,000000000e+00    0,000000000e+00    0,000000000e+00    0,000000000e+00
      576000000   -3,380917385e-02   -1,241289005e-01   -3,677198291e-01   -5,570021272e-01    0,000000000e+00    0,000000000e+00    0,000000000e+00    0,000000000e+00
      590000000   -9,578641504e-02   -1,229438782e-01   -6,178845167e-01   -2,647770941e-01    0,000000000e+00    0,000000000e+00    0,000000000e+00    0,000000000e+00
      604000000   -1,384457648e-01   -7,186746597e-02   -6,635949612e-01    1,367968470e-01    0,000000000e+00    0,000000000e+00    0,000000000e+00    0,000000000e+00
      618000000   -1,290931404e-01   -9,464052506e-03   -4,640003741e-01    4,927799404e-01    0,000000000e+00    0,000000000e+00    0,000000000e+00    0,000000000e+00
      632000000   -8,488063514e-02    1,623271219e-02   -9,953253716e-02    6,618492007e-01    0,000000000e+00    0,000000000e+00    0,000000000e+00    0,000000000e+00
      646000000   -5,235285684e-02    5,251512630e-04    2,853713334e-01    5,935601592e-01    0,000000000e+00    0,000000000e+00    0,000000000e+00    0,000000000e+00
      660000000   -5,384356901e-02   -2,118682303e-02    5,644677281e-01    3,239161372e-01    0,000000000e+00    0,000000000e+00    0,000000000e+00    0,000000000e+00
      674000000   -7,007095963e-02   -1,604553871e-02    6,403491497e-01   -6,279274076e-02    0,000000000e+00    0,000000000e+00    0,000000000e+00    0,000000000e+00
      688000000   -6,751789153e-02    9,136368521e-03    4,706084430e-01   -4,233300090e-01    0,000000000e+00    0,000000000e+00    0,000000000e+00    0,000000000e+00
      702000000   -3,607240692e-02    2,575432882e-02    1,160246357e-01   -6,048265696e-01    0,000000000e+00    0,000000000e+00    0,000000000e+00    0,000000000e+00
      716000000    3,225401742e-03    1,692629792e-02   -2,596707642e-01   -5,452194214e-01    0,000000000e+00    0,000000000e+00    0,000000000e+00    0,000000000e+00
      730000000    3,619526699e-02   -1,363634132e-02   -5,214434266e-01   -2,717563212e-01    0,000000000e+00    0,000000000e+00    0,000000000e+00    0,000000000e+00
      744000000    6,294336915e-02   -6,499511749e-02   -5,604678392e-01    9,872203320e-02    0,000000000e+00    0,000000000e+00    0,000000000e+00    0,000000000e+00
      758000000    6,086359918e-02   -1,524602175e-01   -3,658311665e-01    4,002165496e-01    0,000000000e+00    0,000000000e+00    0,000000000e+00    0,000000000e+00
      772000000   -1,784020662e-02   -2,552366853e-01   -4,537800327e-02    5,095663667e-01    0,000000000e+00    0,000000000e+00    0,000000000e+00    0,000000000e+00
      786000000   -2,020039260e-01   -2,905124724e-01    2,589541674e-01    3,986316621e-01    0,000000000e+00    0,000000000e+00    0,000000000e+00    0,000000000e+00
      800000000   -4,083288014e-01   -1,275574267e-01    4,072792828e-01    1,190186292e-01    0,000000000e+00    0,000000000e+00    0,000000000e+00    0,000000000e+00
      814000000   -3,768832982e-01    2,011207789e-01    2,961031795e-01   -1,507450640e-01    0,000000000e+00    0,000000000e+00    0,000000000e+00    0,000000000e+00
      828000000   -6,287943572e-02    3,476596177e-01    8,243452013e-02   -1,908672750e-01    0,000000000e+00    0,000000000e+00    0,000000000e+00    0,000000000e+00
      842000000    2,114881426e-01    1,854771078e-01   -3,668726888e-03   -9,318200499e-02    0,000000000e+00    0,000000000e+00    0,000000000e+00    0,000000000e+00
      856000000    2,659371495e-01   -1,057644561e-01    3,613083065e-02   -3,660941869e-02    0,000000000e+00    0,000000000e+00    0,000000000e+00    0,000000000e+00
      870000000    8,224602044e-02   -3,508212864e-01    8,874777704e-02   -9,700135887e-02    0,000000000e+00    0,000000000e+00    0,000000000e+00    0,000000000e+00
      884000000   -2,678466737e-01   -3,565458357e-01    1,144024264e-02   -2,276432961e-01    0,000000000e+00    0,000000000e+00    0,000000000e+00    0,000000000e+00
      898000000   -4,567956626e-01   -1,322020683e-02   -2,146449387e-01   -2,101701796e-01    0,000000000e+00    0,000000000e+00    0,000000000e+00    0,000000000e+00
      912000000   -2,350037396e-01    2,786646485e-01   -3,294357657e-01    6,576893479e-02    0,000000000e+00    0,000000000e+00    0,000000000e+00    0,000000000e+00
      926000000    5,512572452e-02    2,609351575e-01   -2,108155042e-01    2,596446872e-01    0,000000000e+00    0,000000000e+00    0,000000000e+00    0,000000000e+00
      940000000    2,102403939e-01    8,535809815e-02   -2,992029861e-02    3,267263770e-01    0,000000000e+00    0,000000000e+00    0,000000000e+00    0,000000000e+00
      954000000    2,221609503e-01   -1,231374890e-01    1,322608888e-01    3,007993102e-01    0,000000000e+00    0,000000000e+00    0,000000000e+00    0,000000000e+00
      968000000    1,160544157e-01   -2,947764993e-01    2,685436904e-01    2,146573216e-01    0,000000000e+00    0,000000000e+00    0,000000000e+00    0,000000000e+00
      982000000   -7,894025743e-02   -3,862835467e-01    3,606651723e-01    6,354907155e-02    0,000000000e+00    0,000000000e+00    0,000000000e+00    0,000000000e+00
      996000000   -3,122611046e-01   -3,276906610e-01    3,629404306e-01   -1,423974186e-01    0,000000000e+00    0,000000000e+00    0,000000000e+00    0,000000000e+00
     1010000000   -4,640320837e-01   -1,153195947e-01    2,186043561e-01   -3,352437317e-01    0,000000000e+00    0,000000000e+00    0,000000000e+00    0,000000000e+00
     1024000000   -4,205593765e-01    1,416058093e-01   -3,184793517e-02   -3,861300945e-01    0,000000000e+00    0,000000000e+00    0,000000000e+00    0,000000000e+00
     1038000000   -2,260022163e-01    2,860248387e-01   -2,425651997e-01   -2,565343976e-01    0,000000000e+00    0,000000000e+00    0,000000000e+00    0,000000000e+00
     1052000000   -1,220512390e-02    2,830920517e-01   -3,109126985e-01   -4,676740244e-02    0,000000000e+00    0,000000000e+00    0,000000000e+00    0,000000000e+00
     1066000000    1,316655278e-01    1,718875766e-01   -2,512437403e-01    1,356171519e-01    0,000000000e+00    0,000000000e+00    0,000000000e+00    0,000000000e+00
     1080000000    1,914904118e-01    8,464735933e-03   -1,151853427e-01    2,564060092e-01    0,000000000e+00    0,000000000e+00    0,000000000e+00    0,000000000e+00
     1094000000    1,637172997e-01   -1,623769850e-01    5,842313170e-02    2,930626571e-01    0,000000000e+00    0,000000000e+00    0,000000000e+00    0,000000000e+00
     1108000000    1,888242550e-02   -3,002772629e-01    2,598940730e-01    2,359356284e-01    0,000000000e+00    0,000000000e+00    0,000000000e+00    0,000000000e+00
     1122000000   -2,119907886e-01   -2,850926220e-01    4,379928410e-01    2,292411774e-02    0,000000000e+00    0,000000000e+00    0,000000000e+00    0,000000000e+00
     1136000000   -3,290116191e-01   -3,045008704e-02    4,011520743e-01   -3,445401490e-01    0,000000000e+00    0,000000000e+00    0,000000000e+00    0,000000000e+00
     1150000000   -1,101496741e-01    1,362543851e-01    4,908302799e-02   -5,314866900e-01    0,000000000e+00    0,000000000e+00    0,000000000e+00    0,000000000e+00
     1164000000    8,177495748e-02   -1,911712997e-02   -2,536588311e-01   -4,050053954e-01    0,000000000e+00    0,000000000e+00    0,000000000e+00    0,000000000e+00
     1178000000    3,078295663e-02   -2,539384365e-01   -3,683203757e-01   -1,790460646e-01    0,000000000e+00    0,000000000e+00    0,000000000e+00    0,000000000e+00
     1192000000   -2,232757956e-01   -3,496018350e-01   -3,445328176e-01    3,925584629e-02    0,000000000e+00    0,000000000e+00    0,000000000e+00    0,000000000e+00
     1206000000   -4,840101898e-01   -1,861264259e-01   -1,888450086e-01    1,809833199e-01    0,000000000e+00    0,000000000e+00    0,000000000e+00    0,000000000e+00
     1220000000   -5,047885180e-01    1,436299831e-01   -9,685838595e-03    1,813540906e-01    0,000000000e+00    0,000000000e+00    0,000000000e+00    0,000000000e+00
     1234000000   -2,954901755e-01    3,400255740e-01    7,301633805e-02    8,038727194e-02    0,000000000e+00    0,000000000e+00    0,000000000e+00    0,000000000e+00
     1248000000   -6,519889086e-02    3,551315963e-01    6,348948181e-02   -2,717655618e-03    0,000000000e+00    0,000000000e+00    0,000000000e+00    0,000000000e+00
     1262000000    1,090301052e-01    2,601214945e-01    3,001821600e-02   -1,895970665e-02    0,000000000e+00    0,000000000e+00    0,000000000e+00    0,000000000e+00
     1276000000    1,990307271e-01    1,068079844e-01    3,511074930e-03   -8,597081527e-03    0,000000000e+00    0,000000000e+00    0,000000000e+00    0,000000000e+00
     1290000000    2,211074531e-01   -6,133984402e-02    1,176897436e-02    2,518072538e-02    0,000000000e+00    0,000000000e+00    0,000000000e+00    0,000000000e+00
     1304000000    1,640494615e-01   -2,303801030e-01    5,691182986e-02    6,210167333e-02    0,000000000e+00    0,000000000e+00    0,000000000e+00    0,000000000e+00
     1318000000    2,422126755e-02   -3,638062775e-01    1,678536236e-01    1,265079249e-02    0,000000000e+00    0,000000000e+00    0,000000000e+00    0,000000000e+00
     1332000000   -1,468505859e-01   -3,989025950e-01    9,968504310e-02   -1,940148473e-01    0,000000000e+00    0,000000000e+00    0,000000000e+00    0,000000000e+00
     1346000000   -3,556681573e-01   -3,914234936e-01   -4,926435649e-02   -1,800580136e-02    0,000000000e+00    0,000000000e+00    0,000000000e+00    0,000000000e+00
     1360000000   -5,793751478e-01   -2,015925050e-01    7,009302080e-02    8,835498244e-02    0,000000000e+00    0,000000000e+00    0,000000000e+00    0,000000000e+00
     1374000000   -6,223406792e-01    1,070571393e-01    1,855887026e-01    5,733774230e-02    0,000000000e+00    0,000000000e+00    0,000000000e+00    0,000000000e+00
     1388000000   -4,767343700e-01    3,558852375e-01    2,168108970e-01   -1,530986559e-02    0,000000000e+00    0,000000000e+00    0,000000000e+00    0,000000000e+00
     1402000000   -2,456082702e-01    4,416534305e-01    2,219043523e-01   -8,429627866e-02    0,000000000e+00    0,000000000e+00    0,000000000e+00    0,000000000e+00
     1416000000   -3,372924775e-02    4,128004611e-01    2,013247758e-01   -1,091120914e-01    0,000000000e+00    0,000000000e+00    0,000000000e+00    0,000000000e+00
     1430000000    1,109901443e-01    3,041245639e-01    1,791732013e-01   -9,535681456e-02    0,000000000e+00    0,000000000e+00    0,000000000e+00    0,000000000e+00
     1444000000    2,025158852e-01    1,562006772e-01    1,707236022e-01   -1,120978966e-01    0,000000000e+00    0,000000000e+00    0,000000000e+00    0,000000000e+00
     1458000000    2,286424786e-01   -1,283741836e-02    1,545371413e-01   -8,959026635e-02    0,000000000e+00    0,000000000e+00    0,000000000e+00    0,000000000e+00
     1472000000    1,864476651e-01   -1,931644231e-01    1,371918470e-01   -4,978170991e-02    0,000000000e+00    0,000000000e+00    0,000000000e+00    0,000000000e+00
     1486000000    6,440164894e-02   -3,596839011e-01    1,790360659e-01    2,858453430e-02    0,000000000e+00    0,000000000e+00    0,000000000e+00    0,000000000e+00
     1500000000   -1,590466648e-01   -4,920201004e-01    2,383475602e-01    6,134490296e-02    0,000000000e+00    0,000000000e+00    0,000000000e+00    0,000000000e+00
