! NanoVNA-App
! Date: 2025-09-25 15:45:36
! Start: 100MHz Stop: 1,5GHz Points: 101
! S-Parameter data: F S11 S21 S12 S22
# Hz S RI R 50
!     Frequency           S11_Real           S11_Imag           S21_Real           S21_Imag           S12_Real           S12_Imag           S22_Real           S22_Imag
      100000000   -2,879673615e-02   -4,253982566e-03    3,739491701e-01   -7,215297818e-01    0,000000000e+00    0,000000000e+00    0,000000000e+00    0,000000000e+00
      114000000   -1,655116491e-02    1,151979063e-02   -8,915898949e-02   -8,052045107e-01    0,000000000e+00    0,000000000e+00    0,000000000e+00    0,000000000e+00
      128000000    3,422818379e-03    1,069023460e-02   -5,143961310e-01   -6,202911735e-01    0,000000000e+00    0,000000000e+00    0,000000000e+00    0,000000000e+00
      142000000    1,462792791e-02   -2,665590262e-03   -7,669145465e-01   -2,366139591e-01    0,000000000e+00    0,000000000e+00    0,000000000e+00    0,000000000e+00
      156000000    1,475300826e-02   -1,464463305e-02   -7,642493248e-01    2,202285677e-01    0,000000000e+00    0,000000000e+00    0,000000000e+00    0,000000000e+00
      170000000    1,704294980e-02   -2,244136669e-02   -5,179781318e-01    6,042153239e-01    0,000000000e+00    0,000000000e+00    0,000000000e+00    0,000000000e+00
      184000000    2,131355181e-02   -3,713172302e-02   -1,014094949e-01    7,859837413e-01    0,000000000e+00    0,000000000e+00    0,000000000e+00    0,000000000e+00
      198000000    1,323361229e-02   -6,252016127e-02    3,430733085e-01    7,121028304e-01    0,000000000e+00    0,000000000e+00    0,000000000e+00    0,000000000e+00
      212000000   -1,840093359e-02   -8,131941408e-02    6,777026653e-01    4,097600281e-01    0,000000000e+00    0,000000000e+00    0,000000000e+00    0,000000000e+00
      226000000   -6,133951619e-02   -6,924203038e-02    7,953982949e-01   -3,048430569e-02    0,000000000e+00    0,000000000e+00    0,000000000e+00    0,000000000e+00
      240000000   -8,231982589e-02   -2,579972148e-02    6,459132433e-01   -4,668171704e-01    0,000000000e+00    0,000000000e+00    0,000000000e+00    0,000000000e+00
      254000000   -6,343057752e-02    1,702821627e-02    2,761478126e-01   -7,430296540e-01    0,000000000e+00    0,000000000e+00    0,000000000e+00    0,000000000e+00
      268000000   -2,401349507e-02    2,884560078e-02   -1,778706163e-01   -7,640305758e-01    0,000000000e+00    0,000000000e+00    0,000000000e+00    0,000000000e+00
      282000000    4,160445184e-03    1,205835957e-02   -5,616677999e-01   -5,356546640e-01    0,000000000e+00    0,000000000e+00    0,000000000e+00    0,000000000e+00
      296000000    9,778444655e-03   -7,533200085e-03   -7,595323920e-01   -1,394676864e-01    0,000000000e+00    0,000000000e+00    0,000000000e+00    0,000000000e+00
      310000000    1,141521987e-02   -1,599082910e-02   -7,118904591e-01    2,992191315e-01    0,000000000e+00    0,000000000e+00    0,000000000e+00    0,000000000e+00
      324000000    2,015348338e-02   -2,658850886e-02   -4,273287058e-01    6,369795799e-01    0,000000000e+00    0,000000000e+00    0,000000000e+00    0,000000000e+00
      338000000    2,592755295e-02   -5,222153664e-02   -9,796158411e-03    7,618616223e-01    0,000000000e+00    0,000000000e+00    0,000000000e+00    0,000000000e+00
      352000000    7,622313686e-03   -8,457556367e-02    4,058584571e-01    6,389074326e-01    0,000000000e+00    0,000000000e+00    0,000000000e+00    0,000000000e+00
      366000000   -3,418968990e-02   -9,550443292e-02    6,900733709e-01    3,112534881e-01    0,000000000e+00    0,000000000e+00    0,000000000e+00    0,000000000e+00
      380000000   -7,049926370e-02   -7,158232480e-02    7,469780445e-01   -1,258989125e-01    0,000000000e+00    0,000000000e+00    0,000000000e+00    0,000000000e+00
      394000000   -7,224738598e-02   -3,268022090e-02    5,461881161e-01   -5,210838914e-01    0,000000000e+00    0,000000000e+00    0,000000000e+00    0,000000000e+00
      408000000   -4,614334181e-02   -1,641933247e-02    1,621798575e-01   -7,317342162e-01    0,000000000e+00    0,000000000e+00    0,000000000e+00    0,000000000e+00
      422000000   -2,813216485e-02   -3,200492635e-02   -2,667551935e-01   -6,951090693e-01    0,000000000e+00    0,000000000e+00    0,000000000e+00    0,000000000e+00
      436000000   -4,054488987e-02   -5,203881860e-02   -6,033254266e-01   -4,322596788e-01    0,000000000e+00    0,000000000e+00    0,000000000e+00    0,000000000e+00
      450000000   -6,724835187e-02   -4,359266907e-02   -7,398004532e-01   -2,147020586e-02    0,000000000e+00    0,000000000e+00    0,000000000e+00    0,000000000e+00
      464000000   -7,328755409e-02   -1,184738614e-02   -6,184187531e-01    3,969209492e-01    0,000000000e+00    0,000000000e+00    0,000000000e+00    0,000000000e+00
      478000000   -4,760614783e-02    1,136755105e-02   -2,825379968e-01    6,673807502e-01    0,000000000e+00    0,000000000e+00    0,000000000e+00    0,000000000e+00
      492000000   -1,575955003e-02    6,006639451e-03    1,365296990e-01    7,013779879e-01    0,000000000e+00    0,000000000e+00    0,000000000e+00    0,000000000e+00
      506000000   -2,817774890e-03   -1,556861028e-02    4,972906709e-01    5,031997561e-01    0,000000000e+00    0,000000000e+00    0,000000000e+00    0,000000000e+00
      520000000   -4,823673517e-03   -3,122452088e-02    6,879145503e-01    1,424678564e-01    0,000000000e+00    0,000000000e+00    0,000000000e+00    0,000000000e+00
      534000000   -3,552466165e-03   -3,808207810e-02    6,435672045e-01   -2,620214224e-01    0,000000000e+00    0,000000000e+00    0,000000000e+00    0,000000000e+00
      548000000    6,085305940e-03   -5,404022709e-02    3,811346889e-01   -5,664237738e-01    0,000000000e+00    0,000000000e+00    0,000000000e+00    0,000000000e+00
      562000000    3,325481666e-03   -8,899024129e-02    3,596686525e-03   -6,714519262e-01    0,000000000e+00    0,000000000e+00    0,000000000e+00    0,000000000e+00
      576000000   -3,423556313e-02   -1,240407750e-01   -3,687964976e-01   -5,572919250e-01    0,000000000e+00    0,000000000e+00    0,000000000e+00    0,000000000e+00
      590000000   -9,551259875e-02   -1,228954643e-01   -6,207995415e-01   -2,631654143e-01    0,000000000e+00    0,000000000e+00    0,000000000e+00    0,000000000e+00
      604000000   -1,387366056e-01   -7,251639664e-02   -6,637938619e-01    1,365912706e-01    0,000000000e+00    0,000000000e+00    0,000000000e+00    0,000000000e+00
      618000000   -1,290933490e-01   -9,590926580e-03   -4,647986889e-01    4,937156141e-01    0,000000000e+00    0,000000000e+00    0,000000000e+00    0,000000000e+00
      632000000   -8,505028486e-02    1,615280099e-02   -9,924712032e-02    6,627644300e-01    0,000000000e+00    0,000000000e+00    0,000000000e+00    0,000000000e+00
      646000000   -5,161124468e-02    9,296925273e-04    2,849268615e-01    5,944347382e-01    0,000000000e+00    0,000000000e+00    0,000000000e+00    0,000000000e+00
      660000000   -5,357996002e-02   -2,031309903e-02    5,650306344e-01    3,230604529e-01    0,000000000e+00    0,000000000e+00    0,000000000e+00    0,000000000e+00
      674000000   -7,004207373e-02   -1,630915515e-02    6,411232948e-01   -6,277033687e-02    0,000000000e+00    0,000000000e+00    0,000000000e+00    0,000000000e+00
      688000000   -6,737265736e-02    8,858519606e-03    4,704828262e-01   -4,235543609e-01    0,000000000e+00    0,000000000e+00    0,000000000e+00    0,000000000e+00
      702000000   -3,629167005e-02    2,540390939e-02    1,259733140e-01   -6,070696115e-01    0,000000000e+00    0,000000000e+00    0,000000000e+00    0,000000000e+00
      716000000    2,959075850e-03    1,663165540e-02   -2,597118020e-01   -5,452779531e-01    0,000000000e+00    0,000000000e+00    0,000000000e+00    0,000000000e+00
      730000000    3,609256819e-02   -1,417438313e-02   -5,220103264e-01   -2,718983591e-01    0,000000000e+00    0,000000000e+00    0,000000000e+00    0,000000000e+00
      744000000    6,205740198e-02   -6,549758464e-02   -5,604031086e-01    9,845024347e-02    0,000000000e+00    0,000000000e+00    0,000000000e+00    0,000000000e+00
      758000000    6,116250902e-02   -1,522898525e-01   -3,664560020e-01    4,007607400e-01    0,000000000e+00    0,000000000e+00    0,000000000e+00    0,000000000e+00
      772000000   -1,682783477e-02   -2,561722398e-01   -4,509188607e-02    5,100269318e-01    0,000000000e+00    0,000000000e+00    0,000000000e+00    0,000000000e+00
      786000000   -2,029002458e-01   -2,912358344e-01    2,600585222e-01    3,990388513e-01    0,000000000e+00    0,000000000e+00    0,000000000e+00    0,000000000e+00
      800000000   -4,079152644e-01   -1,282171905e-01    4,073995650e-01    1,191506535e-01    0,000000000e+00    0,000000000e+00    0,000000000e+00    0,000000000e+00
      814000000   -3,764381409e-01    2,008105069e-01    2,971819043e-01   -1,517213881e-01    0,000000000e+00    0,000000000e+00    0,000000000e+00    0,000000000e+00
      828000000   -6,335146725e-02    3,479377329e-01    8,205595613e-02   -1,913695335e-01    0,000000000e+00    0,000000000e+00    0,000000000e+00    0,000000000e+00
      842000000    2,114010453e-01    1,871005595e-01   -4,141091835e-03   -9,341598302e-02    0,000000000e+00    0,000000000e+00    0,000000000e+00    0,000000000e+00
      856000000    2,661382556e-01   -1,050600260e-01    3,541776165e-02   -3,715688735e-02    0,000000000e+00    0,000000000e+00    0,000000000e+00    0,000000000e+00
      870000000    8,420635015e-02   -3,510487974e-01    8,818489313e-02   -9,714245796e-02    0,000000000e+00    0,000000000e+00    0,000000000e+00    0,000000000e+00
      884000000   -2,664753795e-01   -3,565517962e-01    1,265849173e-02   -2,260908931e-01    0,000000000e+00    0,000000000e+00    0,000000000e+00    0,000000000e+00
      898000000   -4,585831463e-01   -1,370994654e-02   -2,152924389e-01   -2,094024867e-01    0,000000000e+00    0,000000000e+00    0,000000000e+00    0,000000000e+00
      912000000   -2,363184690e-01    2,784639597e-01   -3,250262737e-01    6,736337394e-02    0,000000000e+00    0,000000000e+00    0,000000000e+00    0,000000000e+00
      926000000    5,712089315e-02    2,625750303e-01   -2,082991153e-01    2,624136806e-01    0,000000000e+00    0,000000000e+00    0,000000000e+00    0,000000000e+00
      940000000    2,093459219e-01    8,614302427e-02   -3,287475929e-02    3,258926570e-01    0,000000000e+00    0,000000000e+00    0,000000000e+00    0,000000000e+00
      954000000    2,195441574e-01   -1,196177825e-01    1,327499151e-01    3,014231920e-01    0,000000000e+00    0,000000000e+00    0,000000000e+00    0,000000000e+00
      968000000    1,162421107e-01   -2,927609682e-01    2,671119869e-01    2,143116295e-01    0,000000000e+00    0,000000000e+00    0,000000000e+00    0,000000000e+00
      982000000   -7,903498411e-02   -3,846261203e-01    3,613129854e-01    6,340134144e-02    0,000000000e+00    0,000000000e+00    0,000000000e+00    0,000000000e+00
      996000000   -3,076300919e-01   -3,289228082e-01    3,629622161e-01   -1,425905675e-01    0,000000000e+00    0,000000000e+00    0,000000000e+00    0,000000000e+00
     1010000000   -4,608705342e-01   -1,141865328e-01    2,213340700e-01   -3,334346414e-01    0,000000000e+00    0,000000000e+00    0,000000000e+00    0,000000000e+00
     1024000000   -4,197029769e-01    1,461755633e-01   -2,965908870e-02   -3,856585026e-01    0,000000000e+00    0,000000000e+00    0,000000000e+00    0,000000000e+00
     1038000000   -2,257821858e-01    2,860431969e-01   -2,414314449e-01   -2,573489547e-01    0,000000000e+00    0,000000000e+00    0,000000000e+00    0,000000000e+00
     1052000000   -1,312013902e-02    2,831332386e-01   -3,120229244e-01   -4,742129520e-02    0,000000000e+00    0,000000000e+00    0,000000000e+00    0,000000000e+00
     1066000000    1,349795908e-01    1,665554494e-01   -2,512549758e-01    1,367737055e-01    0,000000000e+00    0,000000000e+00    0,000000000e+00    0,000000000e+00
     1080000000    1,950299591e-01    9,021910839e-03   -1,159449071e-01    2,558997571e-01    0,000000000e+00    0,000000000e+00    0,000000000e+00    0,000000000e+00
     1094000000    1,598513573e-01   -1,646604091e-01    6,031328440e-02    2,936746478e-01    0,000000000e+00    0,000000000e+00    0,000000000e+00    0,000000000e+00
     1108000000    1,967982203e-02   -2,974189222e-01    2,619586587e-01    2,339653820e-01    0,000000000e+00    0,000000000e+00    0,000000000e+00    0,000000000e+00
     1122000000   -2,171394080e-01   -2,858062685e-01    4,383854270e-01    2,441015653e-02    0,000000000e+00    0,000000000e+00    0,000000000e+00    0,000000000e+00
     1136000000   -3,279238343e-01   -3,456819430e-02    4,005569518e-01   -3,441843688e-01    0,000000000e+00    0,000000000e+00    0,000000000e+00    0,000000000e+00
     1150000000   -1,041572392e-01    1,395645887e-01    4,858044907e-02   -5,307186842e-01    0,000000000e+00    0,000000000e+00    0,000000000e+00    0,000000000e+00
     1164000000    8,504705131e-02   -1,214619447e-02   -2,500284016e-01   -4,030399621e-01    0,000000000e+00    0,000000000e+00    0,000000000e+00    0,000000000e+00
     1178000000    2,704485506e-02   -2,494233102e-01   -3,721205890e-01   -1,799293905e-01    0,000000000e+00    0,000000000e+00    0,000000000e+00    0,000000000e+00
     1192000000   -2,177460045e-01   -3,450646102e-01   -3,379409015e-01    4,178012162e-02    0,000000000e+00    0,000000000e+00    0,000000000e+00    0,000000000e+00
     1206000000   -4,795227349e-01   -1,838103533e-01   -1,908201575e-01    1,814147830e-01    0,000000000e+00    0,000000000e+00    0,000000000e+00    0,000000000e+00
     1220000000   -4,979375899e-01    1,379137635e-01   -1,344530098e-02    1,748926938e-01    0,000000000e+00    0,000000000e+00    0,000000000e+00    0,000000000e+00
     1234000000   -2,977242470e-01    3,444283903e-01    7,720165700e-02    7,903142273e-02    0,000000000e+00    0,000000000e+00    0,000000000e+00    0,000000000e+00
     1248000000   -5,920208618e-02    3,647053540e-01    6,986670196e-02   -3,556595417e-03    0,000000000e+00    0,000000000e+00    0,000000000e+00    0,000000000e+00
     1262000000    1,131845713e-01    2,549019158e-01    3,304710984e-02   -2,586094663e-02    0,000000000e+00    0,000000000e+00    0,000000000e+00    0,000000000e+00
     1276000000    2,032816857e-01    1,079193577e-01    7,977436297e-03   -1,062372420e-02    0,000000000e+00    0,000000000e+00    0,000000000e+00    0,000000000e+00
     1290000000    2,197676152e-01   -6,628075242e-02    1,321810018e-02    2,091591805e-02    0,000000000e+00    0,000000000e+00    0,000000000e+00    0,000000000e+00
     1304000000    1,645979583e-01   -2,294466943e-01    5,721419305e-02    5,627060309e-02    0,000000000e+00    0,000000000e+00    0,000000000e+00    0,000000000e+00
     1318000000    2,576174773e-02   -3,645871282e-01    1,727078110e-01    1,978784800e-02    0,000000000e+00    0,000000000e+00    0,000000000e+00    0,000000000e+00
     1332000000   -1,494419128e-01   -3,938825727e-01    1,047705710e-01   -1,774935275e-01    0,000000000e+00    0,000000000e+00    0,000000000e+00    0,000000000e+00
     1346000000   -3,610005379e-01   -3,893870413e-01   -5,407276005e-02   -2,992131934e-02    0,000000000e+00    0,000000000e+00    0,000000000e+00    0,000000000e+00
     1360000000   -5,781245828e-01   -2,030965388e-01    5,995092168e-02    8,977568150e-02    0,000000000e+00    0,000000000e+00    0,000000000e+00    0,000000000e+00
     1374000000   -6,200629473e-01    1,108554378e-01    1,898798347e-01    5,722730234e-02    0,000000000e+00    0,000000000e+00    0,000000000e+00    0,000000000e+00
     1388000000   -4,820412099e-01    3,629364073e-01    2,171892077e-01   -2,010233887e-02    0,000000000e+00    0,000000000e+00    0,000000000e+00    0,000000000e+00
     1402000000   -2,508213520e-01    4,483032525e-01    2,017575949e-01   -7,856388390e-02    0,000000000e+00    0,000000000e+00    0,000000000e+00    0,000000000e+00
     1416000000   -4,122133553e-02    4,088634253e-01    1,901669800e-01   -1,054027528e-01    0,000000000e+00    0,000000000e+00    0,000000000e+00    0,000000000e+00
     1430000000    1,114840731e-01    3,078015745e-01    1,703178734e-01   -8,218835294e-02    0,000000000e+00    0,000000000e+00    0,000000000e+00    0,000000000e+00
     1444000000    2,039031982e-01    1,562052965e-01    1,672767997e-01   -1,127998531e-01    0,000000000e+00    0,000000000e+00    0,000000000e+00    0,000000000e+00
     1458000000    2,342816889e-01   -1,454418339e-02    1,439566463e-01   -9,311024845e-02    0,000000000e+00    0,000000000e+00    0,000000000e+00    0,000000000e+00
     1472000000    1,940475553e-01   -1,943253130e-01    1,540505886e-01   -4,739702120e-02    0,000000000e+00    0,000000000e+00    0,000000000e+00    0,000000000e+00
     1486000000    7,483609021e-02   -3,634173274e-01    1,731543243e-01    2,286812663e-02    0,000000000e+00    0,000000000e+00    0,000000000e+00    0,000000000e+00
     1500000000   -1,481676400e-01   -4,924444258e-01    2,419235408e-01    7,501637191e-02    0,000000000e+00    0,000000000e+00    0,000000000e+00    0,000000000e+00
