! NanoVNA-App
! Date: 2025-09-25 15:38:41
! Start: 100MHz Stop: 1,5GHz Points: 101
! S-Parameter data: F S11 S21 S12 S22
# Hz S RI R 50
!     Frequency           S11_Real           S11_Imag           S21_Real           S21_Imag           S12_Real           S12_Imag           S22_Real           S22_Imag
      100000000   -2,865922451e-02   -4,248107318e-03    3,738371134e-01   -7,215553522e-01    0,000000000e+00    0,000000000e+00    0,000000000e+00    0,000000000e+00
      114000000   -1,645001210e-02    1,145520806e-02   -8,917564899e-02   -8,051925898e-01    0,000000000e+00    0,000000000e+00    0,000000000e+00    0,000000000e+00
      128000000    3,455653787e-03    1,069831476e-02   -5,145741105e-01   -6,202843785e-01    0,000000000e+00    0,000000000e+00    0,000000000e+00    0,000000000e+00
      142000000    1,467956696e-02   -2,607702045e-03   -7,669752240e-01   -2,362747788e-01    0,000000000e+00    0,000000000e+00    0,000000000e+00    0,000000000e+00
      156000000    1,495947689e-02   -1,461532246e-02   -7,643256783e-01    2,180551142e-01    0,000000000e+00    0,000000000e+00    0,000000000e+00    0,000000000e+00
      170000000    1,718031242e-02   -2,242752165e-02   -5,176791549e-01    6,043895483e-01    0,000000000e+00    0,000000000e+00    0,000000000e+00    0,000000000e+00
      184000000    2,138159610e-02   -3,721824288e-02   -1,012432426e-01    7,858289480e-01    0,000000000e+00    0,000000000e+00    0,000000000e+00    0,000000000e+00
      198000000    1,327280328e-02   -6,259262562e-02    3,433778286e-01    7,122074962e-01    0,000000000e+00    0,000000000e+00    0,000000000e+00    0,000000000e+00
      212000000   -1,835807413e-02   -8,124775440e-02    6,777050495e-01    4,095143378e-01    0,000000000e+00    0,000000000e+00    0,000000000e+00    0,000000000e+00
      226000000   -6,124305353e-02   -6,922063977e-02    7,951714396e-01   -3,067256883e-02    0,000000000e+00    0,000000000e+00    0,000000000e+00    0,000000000e+00
      240000000   -8,210813999e-02   -2,577490918e-02    6,455057859e-01   -4,667598903e-01    0,000000000e+00    0,000000000e+00    0,000000000e+00    0,000000000e+00
      254000000   -6,329848617e-02    1,683955453e-02    2,756381929e-01   -7,430604696e-01    0,000000000e+00    0,000000000e+00    0,000000000e+00    0,000000000e+00
      268000000   -2,392862365e-02    2,863996290e-02   -1,776564419e-01   -7,639132738e-01    0,000000000e+00    0,000000000e+00    0,000000000e+00    0,000000000e+00
      282000000    4,048319068e-03    1,204375736e-02   -5,618666410e-01   -5,350083709e-01    0,000000000e+00    0,000000000e+00    0,000000000e+00    0,000000000e+00
      296000000    9,919128381e-03   -7,529757451e-03   -7,592350245e-01   -1,393990070e-01    0,000000000e+00    0,000000000e+00    0,000000000e+00    0,000000000e+00
      310000000    1,152654178e-02   -1,599899307e-02   -7,129647136e-01    2,977032661e-01    0,000000000e+00    0,000000000e+00    0,000000000e+00    0,000000000e+00
      324000000    2,036465332e-02   -2,678498626e-02   -4,269853830e-01    6,358348727e-01    0,000000000e+00    0,000000000e+00    0,000000000e+00    0,000000000e+00
      338000000    2,594307624e-02   -5,224636942e-02   -9,859053418e-03    7,614946961e-01    0,000000000e+00    0,000000000e+00    0,000000000e+00    0,000000000e+00
      352000000    7,535388228e-03   -8,508160710e-02    4,068665802e-01    6,390220523e-01    0,000000000e+00    0,000000000e+00    0,000000000e+00    0,000000000e+00
      366000000   -3,442718834e-02   -9,535883367e-02    6,892040372e-01    3,111613691e-01    0,000000000e+00    0,000000000e+00    0,000000000e+00    0,000000000e+00
      380000000   -7,028859854e-02   -7,085938007e-02    7,464923263e-01   -1,258677244e-01    0,000000000e+00    0,000000000e+00    0,000000000e+00    0,000000000e+00
      394000000   -7,190827280e-02   -3,263578936e-02    5,476041436e-01   -5,208373070e-01    0,000000000e+00    0,000000000e+00    0,000000000e+00    0,000000000e+00
      408000000   -4,633436352e-02   -1,647195406e-02    1,606407464e-01   -7,309777737e-01    0,000000000e+00    0,000000000e+00    0,000000000e+00    0,000000000e+00
      422000000   -2,823819034e-02   -3,235524893e-02   -2,666755617e-01   -6,949446201e-01    0,000000000e+00    0,000000000e+00    0,000000000e+00    0,000000000e+00
      436000000   -4,045359790e-02   -5,178188160e-02   -6,040187478e-01   -4,315397739e-01    0,000000000e+00    0,000000000e+00    0,000000000e+00    0,000000000e+00
      450000000   -6,709116697e-02   -4,368204251e-02   -7,395849228e-01   -2,168603987e-02    0,000000000e+00    0,000000000e+00    0,000000000e+00    0,000000000e+00
      464000000   -7,304298133e-02   -1,190583222e-02   -6,178820133e-01    3,971817195e-01    0,000000000e+00    0,000000000e+00    0,000000000e+00    0,000000000e+00
      478000000   -4,735548422e-02    1,101203449e-02   -2,822423577e-01    6,670117974e-01    0,000000000e+00    0,000000000e+00    0,000000000e+00    0,000000000e+00
      492000000   -1,596836559e-02    5,972757936e-03    1,370357871e-01    7,013728619e-01    0,000000000e+00    0,000000000e+00    0,000000000e+00    0,000000000e+00
      506000000   -2,476021647e-03   -1,576518640e-02    4,979405701e-01    5,022129416e-01    0,000000000e+00    0,000000000e+00    0,000000000e+00    0,000000000e+00
      520000000   -4,932278767e-03   -3,130738810e-02    6,889820695e-01    1,423603445e-01    0,000000000e+00    0,000000000e+00    0,000000000e+00    0,000000000e+00
      534000000   -3,518777899e-03   -3,793722019e-02    6,425694227e-01   -2,619509995e-01    0,000000000e+00    0,000000000e+00    0,000000000e+00    0,000000000e+00
      548000000    6,146708969e-03   -5,412005633e-02    3,810622394e-01   -5,659822822e-01    0,000000000e+00    0,000000000e+00    0,000000000e+00    0,000000000e+00
      562000000    3,071113955e-03   -9,007160366e-02    1,823887695e-03   -6,710265875e-01    0,000000000e+00    0,000000000e+00    0,000000000e+00    0,000000000e+00
      576000000   -3,367439285e-02   -1,245733425e-01   -3,678372502e-01   -5,571360588e-01    0,000000000e+00    0,000000000e+00    0,000000000e+00    0,000000000e+00
      590000000   -9,603640437e-02   -1,226875558e-01   -6,215357780e-01   -2,638426423e-01    0,000000000e+00    0,000000000e+00    0,000000000e+00    0,000000000e+00
      604000000   -1,392731518e-01   -7,236824185e-02   -6,640382409e-01    1,371402144e-01    0,000000000e+00    0,000000000e+00    0,000000000e+00    0,000000000e+00
      618000000   -1,291449964e-01   -1,068302523e-02   -4,640289843e-01    4,922504425e-01    0,000000000e+00    0,000000000e+00    0,000000000e+00    0,000000000e+00
      632000000   -8,411100507e-02    1,547201257e-02   -1,003278941e-01    6,621894240e-01    0,000000000e+00    0,000000000e+00    0,000000000e+00    0,000000000e+00
      646000000   -5,143025145e-02    6,431186921e-04    2,856535912e-01    5,933439732e-01    0,000000000e+00    0,000000000e+00    0,000000000e+00    0,000000000e+00
      660000000   -5,388024822e-02   -2,146451734e-02    5,647379756e-01    3,224081695e-01    0,000000000e+00    0,000000000e+00    0,000000000e+00    0,000000000e+00
      674000000   -7,029646635e-02   -1,608316973e-02    6,404874921e-01   -6,349286437e-02    0,000000000e+00    0,000000000e+00    0,000000000e+00    0,000000000e+00
      688000000   -6,613441557e-02    9,292456321e-03    4,706484079e-01   -4,242385626e-01    0,000000000e+00    0,000000000e+00    0,000000000e+00    0,000000000e+00
      702000000   -3,548500314e-02    2,606253140e-02    1,205348372e-01   -6,035426259e-01    0,000000000e+00    0,000000000e+00    0,000000000e+00    0,000000000e+00
      716000000    3,011235269e-03    1,654112712e-02   -2,596074939e-01   -5,442862511e-01    0,000000000e+00    0,000000000e+00    0,000000000e+00    0,000000000e+00
      730000000    3,756247088e-02   -1,341988053e-02   -5,216364861e-01   -2,705617249e-01    0,000000000e+00    0,000000000e+00    0,000000000e+00    0,000000000e+00
      744000000    6,254129857e-02   -6,489398330e-02   -5,602993369e-01    9,865923971e-02    0,000000000e+00    0,000000000e+00    0,000000000e+00    0,000000000e+00
      758000000    6,114319339e-02   -1,518097669e-01   -3,655745089e-01    4,002732635e-01    0,000000000e+00    0,000000000e+00    0,000000000e+00    0,000000000e+00
      772000000   -1,795884408e-02   -2,565179467e-01   -4,482566193e-02    5,088176727e-01    0,000000000e+00    0,000000000e+00    0,000000000e+00    0,000000000e+00
      786000000   -2,032856792e-01   -2,909681499e-01    2,594453692e-01    3,977122307e-01    0,000000000e+00    0,000000000e+00    0,000000000e+00    0,000000000e+00
      800000000   -4,076413810e-01   -1,274718195e-01    4,065425396e-01    1,186062172e-01    0,000000000e+00    0,000000000e+00    0,000000000e+00    0,000000000e+00
      814000000   -3,772083223e-01    2,022488862e-01    2,955384851e-01   -1,513883770e-01    0,000000000e+00    0,000000000e+00    0,000000000e+00    0,000000000e+00
      828000000   -6,075775623e-02    3,474073410e-01    8,235396445e-02   -1,894672215e-01    0,000000000e+00    0,000000000e+00    0,000000000e+00    0,000000000e+00
      842000000    2,121010274e-01    1,843741536e-01   -3,283879487e-03   -9,253392369e-02    0,000000000e+00    0,000000000e+00    0,000000000e+00    0,000000000e+00
      856000000    2,652861476e-01   -1,067752242e-01    3,656827286e-02   -3,664308414e-02    0,000000000e+00    0,000000000e+00    0,000000000e+00    0,000000000e+00
      870000000    8,193672448e-02   -3,514671028e-01    8,947500587e-02   -9,778733552e-02    0,000000000e+00    0,000000000e+00    0,000000000e+00    0,000000000e+00
      884000000   -2,672218084e-01   -3,559764922e-01    1,156632509e-02   -2,291990072e-01    0,000000000e+00    0,000000000e+00    0,000000000e+00    0,000000000e+00
      898000000   -4,567230344e-01   -1,378585771e-02   -2,154298723e-01   -2,097292691e-01    0,000000000e+00    0,000000000e+00    0,000000000e+00    0,000000000e+00
      912000000   -2,353859693e-01    2,790084481e-01   -3,392158449e-01    7,993119210e-02    0,000000000e+00    0,000000000e+00    0,000000000e+00    0,000000000e+00
      926000000    5,678312853e-02    2,613551021e-01   -2,075572610e-01    2,625801563e-01    0,000000000e+00    0,000000000e+00    0,000000000e+00    0,000000000e+00
      940000000    2,090351135e-01    8,187253028e-02   -3,093895689e-02    3,241256475e-01    0,000000000e+00    0,000000000e+00    0,000000000e+00    0,000000000e+00
      954000000    2,210171372e-01   -1,243038774e-01    1,309094578e-01    2,996057272e-01    0,000000000e+00    0,000000000e+00    0,000000000e+00    0,000000000e+00
      968000000    1,194372475e-01   -2,958104014e-01    2,685852647e-01    2,137173265e-01    0,000000000e+00    0,000000000e+00    0,000000000e+00    0,000000000e+00
      982000000   -7,658397406e-02   -3,816454709e-01    3,609919846e-01    6,333930790e-02    0,000000000e+00    0,000000000e+00    0,000000000e+00    0,000000000e+00
      996000000   -3,100237548e-01   -3,275031149e-01    3,645958006e-01   -1,420978457e-01    0,000000000e+00    0,000000000e+00    0,000000000e+00    0,000000000e+00
     1010000000   -4,590638280e-01   -1,201154739e-01    2,167069167e-01   -3,363423645e-01    0,000000000e+00    0,000000000e+00    0,000000000e+00    0,000000000e+00
     1024000000   -4,128585458e-01    1,425801069e-01   -3,217311203e-02   -3,823742270e-01    0,000000000e+00    0,000000000e+00    0,000000000e+00    0,000000000e+00
     1038000000   -2,210130841e-01    2,902016342e-01   -2,424383909e-01   -2,566913962e-01    0,000000000e+00    0,000000000e+00    0,000000000e+00    0,000000000e+00
     1052000000   -1,607931778e-02    2,779301405e-01   -3,105444908e-01   -4,478936270e-02    0,000000000e+00    0,000000000e+00    0,000000000e+00    0,000000000e+00
     1066000000    1,310374439e-01    1,657209545e-01   -2,469694912e-01    1,378330439e-01    0,000000000e+00    0,000000000e+00    0,000000000e+00    0,000000000e+00
     1080000000    1,912575513e-01    9,324645624e-03   -1,154273674e-01    2,553650439e-01    0,000000000e+00    0,000000000e+00    0,000000000e+00    0,000000000e+00
     1094000000    1,572373211e-01   -1,629003286e-01    5,972956493e-02    2,914663553e-01    0,000000000e+00    0,000000000e+00    0,000000000e+00    0,000000000e+00
     1108000000    1,978561841e-02   -2,924515903e-01    2,611458600e-01    2,342001349e-01    0,000000000e+00    0,000000000e+00    0,000000000e+00    0,000000000e+00
     1122000000   -2,108163536e-01   -2,854463160e-01    4,412051737e-01    2,309461683e-02    0,000000000e+00    0,000000000e+00    0,000000000e+00    0,000000000e+00
     1136000000   -3,285541534e-01   -2,862406150e-02    4,027704597e-01   -3,474714160e-01    0,000000000e+00    0,000000000e+00    0,000000000e+00    0,000000000e+00
     1150000000   -1,026865095e-01    1,394931078e-01    4,692955688e-02   -5,277048945e-01    0,000000000e+00    0,000000000e+00    0,000000000e+00    0,000000000e+00
     1164000000    8,608462662e-02   -2,128946595e-02   -2,494830191e-01   -4,035364389e-01    0,000000000e+00    0,000000000e+00    0,000000000e+00    0,000000000e+00
     1178000000    2,513269335e-02   -2,510428727e-01   -3,692877293e-01   -1,785883754e-01    0,000000000e+00    0,000000000e+00    0,000000000e+00    0,000000000e+00
     1192000000   -2,259061933e-01   -3,470630050e-01   -3,395813107e-01    4,081335664e-02    0,000000000e+00    0,000000000e+00    0,000000000e+00    0,000000000e+00
     1206000000   -4,821952283e-01   -1,813213527e-01   -1,918548793e-01    1,787338704e-01    0,000000000e+00    0,000000000e+00    0,000000000e+00    0,000000000e+00
     1220000000   -4,985421598e-01    1,419437677e-01   -5,633355118e-03    1,750699878e-01    0,000000000e+00    0,000000000e+00    0,000000000e+00    0,000000000e+00
     1234000000   -3,029431105e-01    3,461319804e-01    6,959162652e-02    8,281594515e-02    0,000000000e+00    0,000000000e+00    0,000000000e+00    0,000000000e+00
     1248000000   -6,760194898e-02    3,600062132e-01    6,501711905e-02    1,724610804e-03    0,000000000e+00    0,000000000e+00    0,000000000e+00    0,000000000e+00
     1262000000    1,057835296e-01    2,556054294e-01    2,819569223e-02   -2,338221483e-02    0,000000000e+00    0,000000000e+00    0,000000000e+00    0,000000000e+00
     1276000000    1,997448653e-01    1,101013124e-01    7,626375649e-03   -7,004209794e-03    0,000000000e+00    0,000000000e+00    0,000000000e+00    0,000000000e+00
     1290000000    2,170849591e-01   -6,290484965e-02    4,892367870e-03    2,564834431e-02    0,000000000e+00    0,000000000e+00    0,000000000e+00    0,000000000e+00
     1304000000    1,669989228e-01   -2,275114208e-01    6,626953930e-02    6,418363005e-02    0,000000000e+00    0,000000000e+00    0,000000000e+00    0,000000000e+00
     1318000000    2,320408821e-02   -3,632777631e-01    1,657232642e-01    2,213799395e-02    0,000000000e+00    0,000000000e+00    0,000000000e+00    0,000000000e+00
     1332000000   -1,472166032e-01   -3,951404393e-01    1,075940207e-01   -1,832521558e-01    0,000000000e+00    0,000000000e+00    0,000000000e+00    0,000000000e+00
     1346000000   -3,563156724e-01   -3,908636272e-01   -5,501721054e-02   -2,090808749e-02    0,000000000e+00    0,000000000e+00    0,000000000e+00    0,000000000e+00
     1360000000   -5,880624056e-01   -1,984958649e-01    6,494764239e-02    9,650077671e-02    0,000000000e+00    0,000000000e+00    0,000000000e+00    0,000000000e+00
     1374000000   -6,338859797e-01    1,156338975e-01    1,774334759e-01    5,496231094e-02    0,000000000e+00    0,000000000e+00    0,000000000e+00    0,000000000e+00
     1388000000   -4,713507593e-01    3,584777117e-01    2,221333981e-01   -3,164847940e-02    0,000000000e+00    0,000000000e+00    0,000000000e+00    0,000000000e+00
     1402000000   -2,451599538e-01    4,411598742e-01    2,093522400e-01   -8,697827905e-02    0,000000000e+00    0,000000000e+00    0,000000000e+00    0,000000000e+00
     1416000000   -4,096242413e-02    4,051118791e-01    2,022226006e-01   -1,133544594e-01    0,000000000e+00    0,000000000e+00    0,000000000e+00    0,000000000e+00
     1430000000    1,173774227e-01    3,117935658e-01    2,008644044e-01   -1,260029078e-01    0,000000000e+00    0,000000000e+00    0,000000000e+00    0,000000000e+00
     1444000000    1,960169822e-01    1,544789970e-01    1,671909541e-01   -1,197125539e-01    0,000000000e+00    0,000000000e+00    0,000000000e+00    0,000000000e+00
     1458000000    2,320431769e-01   -1,501685381e-02    1,533330977e-01   -9,182320535e-02    0,000000000e+00    0,000000000e+00    0,000000000e+00    0,000000000e+00
     1472000000    1,909168810e-01   -1,980817169e-01    1,375471950e-01   -5,248776078e-02    0,000000000e+00    0,000000000e+00    0,000000000e+00    0,000000000e+00
     1486000000    6,189270318e-02   -3,639094532e-01    1,570634842e-01    2,648120932e-02    0,000000000e+00    0,000000000e+00    0,000000000e+00    0,000000000e+00
     1500000000   -1,596794724e-01   -4,845152199e-01    2,375036329e-01    9,515251219e-02    0,000000000e+00    0,000000000e+00    0,000000000e+00    0,000000000e+00
