! NanoVNA-App
! Date: 2025-09-25 15:44:46
! Start: 100MHz Stop: 1,5GHz Points: 101
! S-Parameter data: F S11 S21 S12 S22
# Hz S RI R 50
!     Frequency           S11_Real           S11_Imag           S21_Real           S21_Imag           S12_Real           S12_Imag           S22_Real           S22_Imag
      100000000   -2,875522338e-02   -4,245882854e-03    3,739414513e-01   -7,215751410e-01    0,000000000e+00    0,000000000e+00    0,000000000e+00    0,000000000e+00
      114000000   -1,655912399e-02    1,146713831e-02   -8,898373693e-02   -8,051640391e-01    0,000000000e+00    0,000000000e+00    0,000000000e+00    0,000000000e+00
      128000000    3,470228286e-03    1,072900463e-02   -5,145280361e-01   -6,202644706e-01    0,000000000e+00    0,000000000e+00    0,000000000e+00    0,000000000e+00
      142000000    1,468506176e-02   -2,668864094e-03   -7,666550279e-01   -2,362867147e-01    0,000000000e+00    0,000000000e+00    0,000000000e+00    0,000000000e+00
      156000000    1,609177515e-02   -1,447848137e-02   -7,720106244e-01    2,235273272e-01    0,000000000e+00    0,000000000e+00    0,000000000e+00    0,000000000e+00
      170000000    1,709236205e-02   -2,251633070e-02   -5,178833008e-01    6,046062708e-01    0,000000000e+00    0,000000000e+00    0,000000000e+00    0,000000000e+00
      184000000    2,134759352e-02   -3,711958602e-02   -1,015061215e-01    7,855670452e-01    0,000000000e+00    0,000000000e+00    0,000000000e+00    0,000000000e+00
      198000000    1,323324256e-02   -6,246732920e-02    3,431276381e-01    7,120993733e-01    0,000000000e+00    0,000000000e+00    0,000000000e+00    0,000000000e+00
      212000000   -1,838949136e-02   -8,129820228e-02    6,776116490e-01    4,096950889e-01    0,000000000e+00    0,000000000e+00    0,000000000e+00    0,000000000e+00
      226000000   -6,138891354e-02   -6,923200935e-02    7,954348922e-01   -3,045913018e-02    0,000000000e+00    0,000000000e+00    0,000000000e+00    0,000000000e+00
      240000000   -8,222626895e-02   -2,584069222e-02    6,457681656e-01   -4,665724635e-01    0,000000000e+00    0,000000000e+00    0,000000000e+00    0,000000000e+00
      254000000   -6,342564523e-02    1,697126217e-02    2,759155333e-01   -7,430850863e-01    0,000000000e+00    0,000000000e+00    0,000000000e+00    0,000000000e+00
      268000000   -2,395343035e-02    2,879004553e-02   -1,776528955e-01   -7,637829781e-01    0,000000000e+00    0,000000000e+00    0,000000000e+00    0,000000000e+00
      282000000    4,040387925e-03    1,200071629e-02   -5,616328716e-01   -5,355404019e-01    0,000000000e+00    0,000000000e+00    0,000000000e+00    0,000000000e+00
      296000000    9,834733792e-03   -7,668909617e-03   -7,591947913e-01   -1,394288391e-01    0,000000000e+00    0,000000000e+00    0,000000000e+00    0,000000000e+00
      310000000    1,142782532e-02   -1,602054201e-02   -7,117661238e-01    2,971425354e-01    0,000000000e+00    0,000000000e+00    0,000000000e+00    0,000000000e+00
      324000000    2,004201896e-02   -2,679441683e-02   -4,276376367e-01    6,385008693e-01    0,000000000e+00    0,000000000e+00    0,000000000e+00    0,000000000e+00
      338000000    2,556378767e-02   -5,221704021e-02   -7,492309902e-03    7,592890263e-01    0,000000000e+00    0,000000000e+00    0,000000000e+00    0,000000000e+00
      352000000    7,434824482e-03   -8,488978446e-02    4,053149521e-01    6,386454701e-01    0,000000000e+00    0,000000000e+00    0,000000000e+00    0,000000000e+00
      366000000   -3,447151184e-02   -9,560686350e-02    6,897240877e-01    3,114272058e-01    0,000000000e+00    0,000000000e+00    0,000000000e+00    0,000000000e+00
      380000000   -7,035244256e-02   -7,102230191e-02    7,472425103e-01   -1,253727376e-01    0,000000000e+00    0,000000000e+00    0,000000000e+00    0,000000000e+00
      394000000   -7,221633196e-02   -3,258469328e-02    5,459648967e-01   -5,200153589e-01    0,000000000e+00    0,000000000e+00    0,000000000e+00    0,000000000e+00
      408000000   -4,649585485e-02   -1,647094637e-02    1,609527618e-01   -7,331752777e-01    0,000000000e+00    0,000000000e+00    0,000000000e+00    0,000000000e+00
      422000000   -2,805268392e-02   -3,214295954e-02   -2,665451765e-01   -6,951013803e-01    0,000000000e+00    0,000000000e+00    0,000000000e+00    0,000000000e+00
      436000000   -4,022153467e-02   -5,188775808e-02   -6,028250456e-01   -4,316531122e-01    0,000000000e+00    0,000000000e+00    0,000000000e+00    0,000000000e+00
      450000000   -6,711457670e-02   -4,411400482e-02   -7,404030561e-01   -2,209548093e-02    0,000000000e+00    0,000000000e+00    0,000000000e+00    0,000000000e+00
      464000000   -7,324365526e-02   -1,182916202e-02   -6,182088852e-01    3,970098197e-01    0,000000000e+00    0,000000000e+00    0,000000000e+00    0,000000000e+00
      478000000   -4,736530408e-02    1,158319972e-02   -2,826214731e-01    6,671313047e-01    0,000000000e+00    0,000000000e+00    0,000000000e+00    0,000000000e+00
      492000000   -1,571124047e-02    6,072201766e-03    1,372425556e-01    7,021892071e-01    0,000000000e+00    0,000000000e+00    0,000000000e+00    0,000000000e+00
      506000000   -2,684555482e-03   -1,604141854e-02    4,979758859e-01    5,026710629e-01    0,000000000e+00    0,000000000e+00    0,000000000e+00    0,000000000e+00
      520000000   -5,255329888e-03   -3,150010481e-02    6,878287196e-01    1,403685808e-01    0,000000000e+00    0,000000000e+00    0,000000000e+00    0,000000000e+00
      534000000   -3,814290976e-03   -3,794911876e-02    6,426497698e-01   -2,620311975e-01    0,000000000e+00    0,000000000e+00    0,000000000e+00    0,000000000e+00
      548000000    6,130040623e-03   -5,415799469e-02    3,812932074e-01   -5,670152903e-01    0,000000000e+00    0,000000000e+00    0,000000000e+00    0,000000000e+00
      562000000    3,210094292e-03   -8,970538527e-02    3,330840264e-03   -6,717137694e-01    0,000000000e+00    0,000000000e+00    0,000000000e+00    0,000000000e+00
      576000000   -3,391546011e-02   -1,245906577e-01   -3,678069711e-01   -5,572724938e-01    0,000000000e+00    0,000000000e+00    0,000000000e+00    0,000000000e+00
      590000000   -9,576545656e-02   -1,227473542e-01   -6,212452650e-01   -2,629630864e-01    0,000000000e+00    0,000000000e+00    0,000000000e+00    0,000000000e+00
      604000000   -1,393297911e-01   -7,246106863e-02   -6,646257043e-01    1,368736029e-01    0,000000000e+00    0,000000000e+00    0,000000000e+00    0,000000000e+00
      618000000   -1,296364069e-01   -1,021700352e-02   -4,650077522e-01    4,920958579e-01    0,000000000e+00    0,000000000e+00    0,000000000e+00    0,000000000e+00
      632000000   -8,414989710e-02    1,556167193e-02   -9,929622710e-02    6,629353762e-01    0,000000000e+00    0,000000000e+00    0,000000000e+00    0,000000000e+00
      646000000   -5,132306740e-02    5,676594446e-04    2,845833600e-01    5,939957500e-01    0,000000000e+00    0,000000000e+00    0,000000000e+00    0,000000000e+00
      660000000   -5,400419980e-02   -2,101096697e-02    5,647118092e-01    3,230988979e-01    0,000000000e+00    0,000000000e+00    0,000000000e+00    0,000000000e+00
      674000000   -7,004524022e-02   -1,707624458e-02    6,410089731e-01   -6,256312877e-02    0,000000000e+00    0,000000000e+00    0,000000000e+00    0,000000000e+00
      688000000   -6,691236794e-02    9,719862603e-03    4,704383314e-01   -4,237779081e-01    0,000000000e+00    0,000000000e+00    0,000000000e+00    0,000000000e+00
      702000000   -3,631259874e-02    2,602809668e-02    1,201670021e-01   -6,063678265e-01    0,000000000e+00    0,000000000e+00    0,000000000e+00    0,000000000e+00
      716000000    4,057419486e-03    1,656657830e-02   -2,594968975e-01   -5,448636413e-01    0,000000000e+00    0,000000000e+00    0,000000000e+00    0,000000000e+00
      730000000    3,633338213e-02   -1,430072077e-02   -5,221499801e-01   -2,714282870e-01    0,000000000e+00    0,000000000e+00    0,000000000e+00    0,000000000e+00
      744000000    6,194759160e-02   -6,459616125e-02   -5,606689453e-01    9,850459546e-02    0,000000000e+00    0,000000000e+00    0,000000000e+00    0,000000000e+00
      758000000    6,025598943e-02   -1,516436487e-01   -3,664165735e-01    4,006241858e-01    0,000000000e+00    0,000000000e+00    0,000000000e+00    0,000000000e+00
      772000000   -1,671036519e-02   -2,552939355e-01   -4,484571144e-02    5,090025067e-01    0,000000000e+00    0,000000000e+00    0,000000000e+00    0,000000000e+00
      786000000   -2,024929523e-01   -2,904459536e-01    2,599763274e-01    3,987629116e-01    0,000000000e+00    0,000000000e+00    0,000000000e+00    0,000000000e+00
      800000000   -4,082609117e-01   -1,274207681e-01    4,073529243e-01    1,187361851e-01    0,000000000e+00    0,000000000e+00    0,000000000e+00    0,000000000e+00
      814000000   -3,766098022e-01    2,022853941e-01    2,971471846e-01   -1,513327062e-01    0,000000000e+00    0,000000000e+00    0,000000000e+00    0,000000000e+00
      828000000   -6,330052018e-02    3,483935893e-01    8,244737238e-02   -1,910083592e-01    0,000000000e+00    0,000000000e+00    0,000000000e+00    0,000000000e+00
      842000000    2,114571780e-01    1,860432327e-01   -3,554526716e-03   -9,390902519e-02    0,000000000e+00    0,000000000e+00    0,000000000e+00    0,000000000e+00
      856000000    2,660515010e-01   -1,053226516e-01    3,529985622e-02   -3,690028191e-02    0,000000000e+00    0,000000000e+00    0,000000000e+00    0,000000000e+00
      870000000    8,272898197e-02   -3,517901003e-01    8,805435151e-02   -9,730811417e-02    0,000000000e+00    0,000000000e+00    0,000000000e+00    0,000000000e+00
      884000000   -2,662685812e-01   -3,566370904e-01    1,250239834e-02   -2,273014039e-01    0,000000000e+00    0,000000000e+00    0,000000000e+00    0,000000000e+00
      898000000   -4,573102593e-01   -1,391539350e-02   -2,142116725e-01   -2,093422711e-01    0,000000000e+00    0,000000000e+00    0,000000000e+00    0,000000000e+00
      912000000   -2,353304923e-01    2,781409025e-01   -3,424404263e-01    6,768625975e-02    0,000000000e+00    0,000000000e+00    0,000000000e+00    0,000000000e+00
      926000000    5,354219675e-02    2,613618374e-01   -2,113460004e-01    2,607384026e-01    0,000000000e+00    0,000000000e+00    0,000000000e+00    0,000000000e+00
      940000000    2,096428126e-01    8,302812278e-02   -3,090053238e-02    3,233454823e-01    0,000000000e+00    0,000000000e+00    0,000000000e+00    0,000000000e+00
      954000000    2,200645655e-01   -1,198069975e-01    1,307131797e-01    3,013973534e-01    0,000000000e+00    0,000000000e+00    0,000000000e+00    0,000000000e+00
      968000000    1,164682880e-01   -2,952760756e-01    2,674773633e-01    2,131798565e-01    0,000000000e+00    0,000000000e+00    0,000000000e+00    0,000000000e+00
      982000000   -7,771005481e-02   -3,864928484e-01    3,617587686e-01    6,305612624e-02    0,000000000e+00    0,000000000e+00    0,000000000e+00    0,000000000e+00
      996000000   -3,080837727e-01   -3,334321678e-01    3,625555634e-01   -1,438441426e-01    0,000000000e+00    0,000000000e+00    0,000000000e+00    0,000000000e+00
     1010000000   -4,577511549e-01   -1,158696339e-01    2,184836566e-01   -3,347626030e-01    0,000000000e+00    0,000000000e+00    0,000000000e+00    0,000000000e+00
     1024000000   -4,192146361e-01    1,392837167e-01   -3,026529588e-02   -3,859018981e-01    0,000000000e+00    0,000000000e+00    0,000000000e+00    0,000000000e+00
     1038000000   -2,241810858e-01    2,923158407e-01   -2,410077602e-01   -2,580163479e-01    0,000000000e+00    0,000000000e+00    0,000000000e+00    0,000000000e+00
     1052000000   -1,029931754e-02    2,805211544e-01   -3,110666573e-01   -4,577080905e-02    0,000000000e+00    0,000000000e+00    0,000000000e+00    0,000000000e+00
     1066000000    1,298297197e-01    1,678342670e-01   -2,503290474e-01    1,372922957e-01    0,000000000e+00    0,000000000e+00    0,000000000e+00    0,000000000e+00
     1080000000    1,958956122e-01    1,159624569e-02   -1,165001616e-01    2,532357574e-01    0,000000000e+00    0,000000000e+00    0,000000000e+00    0,000000000e+00
     1094000000    1,614719182e-01   -1,647830158e-01    6,075012684e-02    2,938269079e-01    0,000000000e+00    0,000000000e+00    0,000000000e+00    0,000000000e+00
     1108000000    2,125682309e-02   -2,978896201e-01    2,596250772e-01    2,378502488e-01    0,000000000e+00    0,000000000e+00    0,000000000e+00    0,000000000e+00
     1122000000   -2,100112736e-01   -2,812359333e-01    4,397870898e-01    2,548899129e-02    0,000000000e+00    0,000000000e+00    0,000000000e+00    0,000000000e+00
     1136000000   -3,268190324e-01   -3,364697099e-02    4,021244645e-01   -3,435318172e-01    0,000000000e+00    0,000000000e+00    0,000000000e+00    0,000000000e+00
     1150000000   -1,059393659e-01    1,356290430e-01    4,879290983e-02   -5,313199759e-01    0,000000000e+00    0,000000000e+00    0,000000000e+00    0,000000000e+00
     1164000000    8,165667951e-02   -1,481254864e-02   -2,531532645e-01   -4,044542313e-01    0,000000000e+00    0,000000000e+00    0,000000000e+00    0,000000000e+00
     1178000000    2,976844460e-02   -2,496859729e-01   -3,687134087e-01   -1,782726496e-01    0,000000000e+00    0,000000000e+00    0,000000000e+00    0,000000000e+00
     1192000000   -2,196824402e-01   -3,484974205e-01   -3,409645855e-01    4,140835628e-02    0,000000000e+00    0,000000000e+00    0,000000000e+00    0,000000000e+00
     1206000000   -4,850954115e-01   -1,839484721e-01   -1,924623698e-01    1,842649281e-01    0,000000000e+00    0,000000000e+00    0,000000000e+00    0,000000000e+00
     1220000000   -5,013800859e-01    1,335551888e-01   -6,219936535e-03    1,722140908e-01    0,000000000e+00    0,000000000e+00    0,000000000e+00    0,000000000e+00
     1234000000   -2,970924973e-01    3,408022821e-01    7,549056411e-02    7,814286649e-02    0,000000000e+00    0,000000000e+00    0,000000000e+00    0,000000000e+00
     1248000000   -5,384541675e-02    3,587360978e-01    6,666792929e-02   -1,597675844e-03    0,000000000e+00    0,000000000e+00    0,000000000e+00    0,000000000e+00
     1262000000    1,084018573e-01    2,626726627e-01    3,162770346e-02   -2,537961863e-02    0,000000000e+00    0,000000000e+00    0,000000000e+00    0,000000000e+00
     1276000000    2,010672688e-01    1,029841825e-01    5,039714742e-03   -1,251486968e-02    0,000000000e+00    0,000000000e+00    0,000000000e+00    0,000000000e+00
     1290000000    2,188730091e-01   -6,537331641e-02    9,632980451e-03    2,206500061e-02    0,000000000e+00    0,000000000e+00    0,000000000e+00    0,000000000e+00
     1304000000    1,658408493e-01   -2,336594611e-01    5,821448565e-02    5,559884384e-02    0,000000000e+00    0,000000000e+00    0,000000000e+00    0,000000000e+00
     1318000000    2,868826874e-02   -3,610081673e-01    1,660367101e-01    1,777148433e-02    0,000000000e+00    0,000000000e+00    0,000000000e+00    0,000000000e+00
     1332000000   -1,545002609e-01   -3,946937919e-01    9,585195780e-02   -1,803444624e-01    0,000000000e+00    0,000000000e+00    0,000000000e+00    0,000000000e+00
     1346000000   -3,629659712e-01   -3,881171346e-01   -5,533829704e-02   -1,969582215e-02    0,000000000e+00    0,000000000e+00    0,000000000e+00    0,000000000e+00
     1360000000   -5,809838176e-01   -2,080706358e-01    7,126963884e-02    8,485683799e-02    0,000000000e+00    0,000000000e+00    0,000000000e+00    0,000000000e+00
     1374000000   -6,294767261e-01    1,089068279e-01    1,762640625e-01    4,438391700e-02    0,000000000e+00    0,000000000e+00    0,000000000e+00    0,000000000e+00
     1388000000   -4,739391506e-01    3,471529782e-01    2,187819034e-01   -3,271686286e-02    0,000000000e+00    0,000000000e+00    0,000000000e+00    0,000000000e+00
     1402000000   -2,467125058e-01    4,398274720e-01    1,996662021e-01   -7,670461386e-02    0,000000000e+00    0,000000000e+00    0,000000000e+00    0,000000000e+00
     1416000000   -3,512970731e-02    4,055985212e-01    1,994230896e-01   -1,017976105e-01    0,000000000e+00    0,000000000e+00    0,000000000e+00    0,000000000e+00
     1430000000    1,101949885e-01    3,119433224e-01    1,820372045e-01   -1,051557586e-01    0,000000000e+00    0,000000000e+00    0,000000000e+00    0,000000000e+00
     1444000000    1,998653561e-01    1,595304608e-01    1,665292084e-01   -1,020363644e-01    0,000000000e+00    0,000000000e+00    0,000000000e+00    0,000000000e+00
     1458000000    2,303322703e-01   -1,410077419e-02    1,451198608e-01   -8,412683755e-02    0,000000000e+00    0,000000000e+00    0,000000000e+00    0,000000000e+00
     1472000000    1,924774349e-01   -1,946988851e-01    1,453150064e-01   -4,746710137e-02    0,000000000e+00    0,000000000e+00    0,000000000e+00    0,000000000e+00
     1486000000    6,658165902e-02   -3,599471450e-01    1,665393412e-01    2,633063681e-02    0,000000000e+00    0,000000000e+00    0,000000000e+00    0,000000000e+00
     1500000000   -1,647652388e-01   -4,836948812e-01    2,175977379e-01    9,576812387e-02    0,000000000e+00    0,000000000e+00    0,000000000e+00    0,000000000e+00
