! NanoVNA-App
! Date: 2025-09-25 15:43:55
! Start: 100MHz Stop: 1,5GHz Points: 101
! S-Parameter data: F S11 S21 S12 S22
# Hz S RI R 50
!     Frequency           S11_Real           S11_Imag           S21_Real           S21_Imag           S12_Real           S12_Imag           S22_Real           S22_Imag
      100000000   -2,875459753e-02   -4,248396028e-03    3,739389479e-01   -7,215409279e-01    0,000000000e+00    0,000000000e+00    0,000000000e+00    0,000000000e+00
      114000000   -1,653300971e-02    1,150715817e-02   -8,920941502e-02   -8,051976562e-01    0,000000000e+00    0,000000000e+00    0,000000000e+00    0,000000000e+00
      128000000    3,348986153e-03    1,068721991e-02   -5,143777728e-01   -6,201888919e-01    0,000000000e+00    0,000000000e+00    0,000000000e+00    0,000000000e+00
      142000000    1,464264747e-02   -2,653404139e-03   -7,666627765e-01   -2,364552319e-01    0,000000000e+00    0,000000000e+00    0,000000000e+00    0,000000000e+00
      156000000    1,474775560e-02   -1,456031669e-02   -7,639856935e-01    2,201223224e-01    0,000000000e+00    0,000000000e+00    0,000000000e+00    0,000000000e+00
      170000000    1,713323593e-02   -2,248812281e-02   -5,180476904e-01    6,044818759e-01    0,000000000e+00    0,000000000e+00    0,000000000e+00    0,000000000e+00
      184000000    2,135681361e-02   -3,713212535e-02   -1,014552712e-01    7,859894037e-01    0,000000000e+00    0,000000000e+00    0,000000000e+00    0,000000000e+00
      198000000    1,320442930e-02   -6,252498925e-02    3,432916701e-01    7,123425603e-01    0,000000000e+00    0,000000000e+00    0,000000000e+00    0,000000000e+00
      212000000   -1,843187772e-02   -8,128027618e-02    6,777677536e-01    4,098380506e-01    0,000000000e+00    0,000000000e+00    0,000000000e+00    0,000000000e+00
      226000000   -6,139794737e-02   -6,922025234e-02    7,953861356e-01   -3,050108254e-02    0,000000000e+00    0,000000000e+00    0,000000000e+00    0,000000000e+00
      240000000   -8,224584907e-02   -2,579709701e-02    6,457944512e-01   -4,668337405e-01    0,000000000e+00    0,000000000e+00    0,000000000e+00    0,000000000e+00
      254000000   -6,341512501e-02    1,694666035e-02    2,758725286e-01   -7,427470088e-01    0,000000000e+00    0,000000000e+00    0,000000000e+00    0,000000000e+00
      268000000   -2,395211533e-02    2,872384898e-02   -1,778869331e-01   -7,637550831e-01    0,000000000e+00    0,000000000e+00    0,000000000e+00    0,000000000e+00
      282000000    4,037549254e-03    1,209649257e-02   -5,618822575e-01   -5,353501439e-01    0,000000000e+00    0,000000000e+00    0,000000000e+00    0,000000000e+00
      296000000    9,966593236e-03   -7,495307829e-03   -7,596214414e-01   -1,397058517e-01    0,000000000e+00    0,000000000e+00    0,000000000e+00    0,000000000e+00
      310000000    1,140039600e-02   -1,610306464e-02   -7,120251656e-01    2,974382937e-01    0,000000000e+00    0,000000000e+00    0,000000000e+00    0,000000000e+00
      324000000    2,003925480e-02   -2,662008256e-02   -4,274050891e-01    6,373224258e-01    0,000000000e+00    0,000000000e+00    0,000000000e+00    0,000000000e+00
      338000000    2,570746467e-02   -5,230234563e-02   -9,891008958e-03    7,612415552e-01    0,000000000e+00    0,000000000e+00    0,000000000e+00    0,000000000e+00
      352000000    7,533078082e-03   -8,466163278e-02    4,059962332e-01    6,391995549e-01    0,000000000e+00    0,000000000e+00    0,000000000e+00    0,000000000e+00
      366000000   -3,466399759e-02   -9,549228847e-02    6,903156638e-01    3,107983768e-01    0,000000000e+00    0,000000000e+00    0,000000000e+00    0,000000000e+00
      380000000   -7,026319951e-02   -7,120601088e-02    7,470890284e-01   -1,260527372e-01    0,000000000e+00    0,000000000e+00    0,000000000e+00    0,000000000e+00
      394000000   -7,220067829e-02   -3,248975426e-02    5,449402332e-01   -5,202597380e-01    0,000000000e+00    0,000000000e+00    0,000000000e+00    0,000000000e+00
      408000000   -4,607173800e-02   -1,635554805e-02    1,625971645e-01   -7,310959697e-01    0,000000000e+00    0,000000000e+00    0,000000000e+00    0,000000000e+00
      422000000   -2,836762555e-02   -3,208477795e-02   -2,675502002e-01   -6,947708726e-01    0,000000000e+00    0,000000000e+00    0,000000000e+00    0,000000000e+00
      436000000   -4,035827890e-02   -5,173451826e-02   -6,034160852e-01   -4,317026734e-01    0,000000000e+00    0,000000000e+00    0,000000000e+00    0,000000000e+00
      450000000   -6,725414097e-02   -4,364534095e-02   -7,403829694e-01   -2,174793556e-02    0,000000000e+00    0,000000000e+00    0,000000000e+00    0,000000000e+00
      464000000   -7,280243933e-02   -1,163728628e-02   -6,186881661e-01    3,970972598e-01    0,000000000e+00    0,000000000e+00    0,000000000e+00    0,000000000e+00
      478000000   -4,740431905e-02    1,100543886e-02   -2,827010155e-01    6,670696139e-01    0,000000000e+00    0,000000000e+00    0,000000000e+00    0,000000000e+00
      492000000   -1,552692614e-02    5,625773687e-03    1,379159093e-01    7,011541128e-01    0,000000000e+00    0,000000000e+00    0,000000000e+00    0,000000000e+00
      506000000   -2,691905480e-03   -1,565616205e-02    4,976874590e-01    5,028844476e-01    0,000000000e+00    0,000000000e+00    0,000000000e+00    0,000000000e+00
      520000000   -5,189352203e-03   -3,083977289e-02    6,872421503e-01    1,421826482e-01    0,000000000e+00    0,000000000e+00    0,000000000e+00    0,000000000e+00
      534000000   -3,840447869e-03   -3,800656274e-02    6,428937912e-01   -2,619986236e-01    0,000000000e+00    0,000000000e+00    0,000000000e+00    0,000000000e+00
      548000000    6,301090587e-03   -5,416126549e-02    3,813973963e-01   -5,671376586e-01    0,000000000e+00    0,000000000e+00    0,000000000e+00    0,000000000e+00
      562000000    3,056023736e-03   -8,950795978e-02    3,289135406e-03   -6,716566086e-01    0,000000000e+00    0,000000000e+00    0,000000000e+00    0,000000000e+00
      576000000   -3,436584771e-02   -1,242250353e-01   -3,680983782e-01   -5,569989681e-01    0,000000000e+00    0,000000000e+00    0,000000000e+00    0,000000000e+00
      590000000   -9,534195065e-02   -1,226122305e-01   -6,187120676e-01   -2,648853660e-01    0,000000000e+00    0,000000000e+00    0,000000000e+00    0,000000000e+00
      604000000   -1,390027404e-01   -7,226421684e-02   -6,644234657e-01    1,362222433e-01    0,000000000e+00    0,000000000e+00    0,000000000e+00    0,000000000e+00
      618000000   -1,290950030e-01   -1,047418173e-02   -4,648602009e-01    4,927292168e-01    0,000000000e+00    0,000000000e+00    0,000000000e+00    0,000000000e+00
      632000000   -8,493011445e-02    1,637544110e-02   -1,000191867e-01    6,622566581e-01    0,000000000e+00    0,000000000e+00    0,000000000e+00    0,000000000e+00
      646000000   -5,270358175e-02    5,585352774e-04    2,865256667e-01    5,937578082e-01    0,000000000e+00    0,000000000e+00    0,000000000e+00    0,000000000e+00
      660000000   -5,314616859e-02   -2,037559450e-02    5,649655461e-01    3,236109018e-01    0,000000000e+00    0,000000000e+00    0,000000000e+00    0,000000000e+00
      674000000   -6,972520798e-02   -1,711237803e-02    6,413154006e-01   -6,292794645e-02    0,000000000e+00    0,000000000e+00    0,000000000e+00    0,000000000e+00
      688000000   -6,730291247e-02    9,774755687e-03    4,714157879e-01   -4,242656827e-01    0,000000000e+00    0,000000000e+00    0,000000000e+00    0,000000000e+00
      702000000   -3,558149189e-02    2,617462166e-02    1,182502210e-01   -6,089898944e-01    0,000000000e+00    0,000000000e+00    0,000000000e+00    0,000000000e+00
      716000000    2,879566979e-03    1,601708494e-02   -2,597845495e-01   -5,444123149e-01    0,000000000e+00    0,000000000e+00    0,000000000e+00    0,000000000e+00
      730000000    3,636508062e-02   -1,445090119e-02   -5,219742656e-01   -2,711015642e-01    0,000000000e+00    0,000000000e+00    0,000000000e+00    0,000000000e+00
      744000000    6,316057593e-02   -6,534466147e-02   -5,606072545e-01    9,878375381e-02    0,000000000e+00    0,000000000e+00    0,000000000e+00    0,000000000e+00
      758000000    6,030771881e-02   -1,517294049e-01   -3,661991954e-01    3,998070359e-01    0,000000000e+00    0,000000000e+00    0,000000000e+00    0,000000000e+00
      772000000   -1,753947139e-02   -2,563486099e-01   -4,654125869e-02    5,091933012e-01    0,000000000e+00    0,000000000e+00    0,000000000e+00    0,000000000e+00
      786000000   -2,016698867e-01   -2,916598618e-01    2,591083944e-01    3,990831077e-01    0,000000000e+00    0,000000000e+00    0,000000000e+00    0,000000000e+00
      800000000   -4,068151712e-01   -1,269107461e-01    4,075908065e-01    1,183876321e-01    0,000000000e+00    0,000000000e+00    0,000000000e+00    0,000000000e+00
      814000000   -3,772318065e-01    2,012082785e-01    2,970161438e-01   -1,513056010e-01    0,000000000e+00    0,000000000e+00    0,000000000e+00    0,000000000e+00
      828000000   -6,280831248e-02    3,466670811e-01    8,194968849e-02   -1,905776709e-01    0,000000000e+00    0,000000000e+00    0,000000000e+00    0,000000000e+00
      842000000    2,120976597e-01    1,858129948e-01   -3,241224913e-03   -9,359961748e-02    0,000000000e+00    0,000000000e+00    0,000000000e+00    0,000000000e+00
      856000000    2,659921646e-01   -1,058154479e-01    3,541098908e-02   -3,695746884e-02    0,000000000e+00    0,000000000e+00    0,000000000e+00    0,000000000e+00
      870000000    8,330046386e-02   -3,516447246e-01    8,837249875e-02   -9,702664614e-02    0,000000000e+00    0,000000000e+00    0,000000000e+00    0,000000000e+00
      884000000   -2,684209049e-01   -3,555210531e-01    1,120386552e-02   -2,282470316e-01    0,000000000e+00    0,000000000e+00    0,000000000e+00    0,000000000e+00
      898000000   -4,577809870e-01   -1,484718174e-02   -2,149557322e-01   -2,101121098e-01    0,000000000e+00    0,000000000e+00    0,000000000e+00    0,000000000e+00
      912000000   -2,359330952e-01    2,785293758e-01   -3,398657441e-01    6,270201504e-02    0,000000000e+00    0,000000000e+00    0,000000000e+00    0,000000000e+00
      926000000    5,668798462e-02    2,615419626e-01   -2,096787095e-01    2,602393031e-01    0,000000000e+00    0,000000000e+00    0,000000000e+00    0,000000000e+00
      940000000    2,076905519e-01    8,381894231e-02   -3,100679815e-02    3,251633346e-01    0,000000000e+00    0,000000000e+00    0,000000000e+00    0,000000000e+00
      954000000    2,217956632e-01   -1,186734140e-01    1,313883811e-01    3,010776937e-01    0,000000000e+00    0,000000000e+00    0,000000000e+00    0,000000000e+00
      968000000    1,154018268e-01   -2,926711440e-01    2,672320902e-01    2,146089673e-01    0,000000000e+00    0,000000000e+00    0,000000000e+00    0,000000000e+00
      982000000   -7,892075926e-02   -3,852572739e-01    3,616854250e-01    6,248160079e-02    0,000000000e+00    0,000000000e+00    0,000000000e+00    0,000000000e+00
      996000000   -3,101777434e-01   -3,332190812e-01    3,641387522e-01   -1,425799727e-01    0,000000000e+00    0,000000000e+00    0,000000000e+00    0,000000000e+00
     1010000000   -4,573841393e-01   -1,178984717e-01    2,202390432e-01   -3,351380527e-01    0,000000000e+00    0,000000000e+00    0,000000000e+00    0,000000000e+00
     1024000000   -4,207587540e-01    1,420130879e-01   -2,931183204e-02   -3,855314851e-01    0,000000000e+00    0,000000000e+00    0,000000000e+00    0,000000000e+00
     1038000000   -2,238703072e-01    2,920235693e-01   -2,416142225e-01   -2,561278939e-01    0,000000000e+00    0,000000000e+00    0,000000000e+00    0,000000000e+00
     1052000000   -1,548064779e-02    2,813610137e-01   -3,101085722e-01   -4,759728909e-02    0,000000000e+00    0,000000000e+00    0,000000000e+00    0,000000000e+00
     1066000000    1,306146234e-01    1,665741205e-01   -2,530631721e-01    1,402950585e-01    0,000000000e+00    0,000000000e+00    0,000000000e+00    0,000000000e+00
     1080000000    1,928157359e-01    1,086359564e-02   -1,173090413e-01    2,534799874e-01    0,000000000e+00    0,000000000e+00    0,000000000e+00    0,000000000e+00
     1094000000    1,585592479e-01   -1,630686373e-01    5,957557634e-02    2,912580371e-01    0,000000000e+00    0,000000000e+00    0,000000000e+00    0,000000000e+00
     1108000000    1,722388528e-02   -2,998635471e-01    2,629575729e-01    2,339356244e-01    0,000000000e+00    0,000000000e+00    0,000000000e+00    0,000000000e+00
     1122000000   -2,099846005e-01   -2,861386836e-01    4,393438995e-01    2,523490414e-02    0,000000000e+00    0,000000000e+00    0,000000000e+00    0,000000000e+00
     1136000000   -3,280907571e-01   -3,107221052e-02    4,035885036e-01   -3,437434137e-01    0,000000000e+00    0,000000000e+00    0,000000000e+00    0,000000000e+00
     1150000000   -1,074780300e-01    1,361220479e-01    4,896881059e-02   -5,341076851e-01    0,000000000e+00    0,000000000e+00    0,000000000e+00    0,000000000e+00
     1164000000    8,717373013e-02   -1,920636557e-02   -2,485701144e-01   -4,049091339e-01    0,000000000e+00    0,000000000e+00    0,000000000e+00    0,000000000e+00
     1178000000    2,972809412e-02   -2,535258830e-01   -3,673949838e-01   -1,791490018e-01    0,000000000e+00    0,000000000e+00    0,000000000e+00    0,000000000e+00
     1192000000   -2,214019001e-01   -3,486200273e-01   -3,408890665e-01    3,921744227e-02    0,000000000e+00    0,000000000e+00    0,000000000e+00    0,000000000e+00
     1206000000   -4,776205122e-01   -1,764654517e-01   -1,874435842e-01    1,835066080e-01    0,000000000e+00    0,000000000e+00    0,000000000e+00    0,000000000e+00
     1220000000   -5,056123137e-01    1,389722675e-01   -9,391953237e-03    1,779398024e-01    0,000000000e+00    0,000000000e+00    0,000000000e+00    0,000000000e+00
     1234000000   -2,956708968e-01    3,435835242e-01    7,816364616e-02    8,158301562e-02    0,000000000e+00    0,000000000e+00    0,000000000e+00    0,000000000e+00
     1248000000   -6,523991376e-02    3,552284241e-01    6,952778250e-02    2,622372936e-03    0,000000000e+00    0,000000000e+00    0,000000000e+00    0,000000000e+00
     1262000000    1,087683588e-01    2,631270587e-01    3,214122355e-02   -2,154377475e-02    0,000000000e+00    0,000000000e+00    0,000000000e+00    0,000000000e+00
     1276000000    2,067333460e-01    1,076310426e-01    5,197181832e-03   -9,688149206e-03    0,000000000e+00    0,000000000e+00    0,000000000e+00    0,000000000e+00
     1290000000    2,220233381e-01   -6,270872802e-02    1,475954056e-02    2,709696442e-02    0,000000000e+00    0,000000000e+00    0,000000000e+00    0,000000000e+00
     1304000000    1,658453047e-01   -2,313275486e-01    5,658377334e-02    5,955048278e-02    0,000000000e+00    0,000000000e+00    0,000000000e+00    0,000000000e+00
     1318000000    2,384589799e-02   -3,639100492e-01    1,634307057e-01    1,902335137e-02    0,000000000e+00    0,000000000e+00    0,000000000e+00    0,000000000e+00
     1332000000   -1,483946890e-01   -3,998985887e-01    1,045663431e-01   -1,838726699e-01    0,000000000e+00    0,000000000e+00    0,000000000e+00    0,000000000e+00
     1346000000   -3,583699167e-01   -3,928742409e-01   -5,278919637e-02   -2,922227979e-02    0,000000000e+00    0,000000000e+00    0,000000000e+00    0,000000000e+00
     1360000000   -5,784096122e-01   -2,026323378e-01    7,496199012e-02    8,310350776e-02    0,000000000e+00    0,000000000e+00    0,000000000e+00    0,000000000e+00
     1374000000   -6,260576844e-01    1,111646667e-01    1,841317266e-01    5,681415647e-02    0,000000000e+00    0,000000000e+00    0,000000000e+00    0,000000000e+00
     1388000000   -4,760008156e-01    3,567521870e-01    2,188340425e-01   -1,471461169e-02    0,000000000e+00    0,000000000e+00    0,000000000e+00    0,000000000e+00
     1402000000   -2,503621280e-01    4,449012578e-01    2,006852627e-01   -7,957267016e-02    0,000000000e+00    0,000000000e+00    0,000000000e+00    0,000000000e+00
     1416000000   -3,756582737e-02    4,091730714e-01    1,926106364e-01   -1,121262535e-01    0,000000000e+00    0,000000000e+00    0,000000000e+00    0,000000000e+00
     1430000000    1,167304739e-01    3,033154905e-01    1,742441207e-01   -1,007715538e-01    0,000000000e+00    0,000000000e+00    0,000000000e+00    0,000000000e+00
     1444000000    2,014546692e-01    1,500977874e-01    1,669054776e-01   -1,188182458e-01    0,000000000e+00    0,000000000e+00    0,000000000e+00    0,000000000e+00
     1458000000    2,310872376e-01   -9,983403608e-03    1,520367861e-01   -9,150539339e-02    0,000000000e+00    0,000000000e+00    0,000000000e+00    0,000000000e+00
     1472000000    1,893374920e-01   -1,904156804e-01    1,423118562e-01   -3,678809106e-02    0,000000000e+00    0,000000000e+00    0,000000000e+00    0,000000000e+00
     1486000000    7,206146419e-02   -3,695844114e-01    1,684370190e-01    2,686238848e-02    0,000000000e+00    0,000000000e+00    0,000000000e+00    0,000000000e+00
     1500000000   -1,591931880e-01   -4,894633591e-01    2,301749289e-01    9,551888704e-02    0,000000000e+00    0,000000000e+00    0,000000000e+00    0,000000000e+00
