! NanoVNA-App
! Date: 2025-09-25 15:40:55
! Start: 100MHz Stop: 1,5GHz Points: 101
! S-Parameter data: F S11 S21 S12 S22
# Hz S RI R 50
!     Frequency           S11_Real           S11_Imag           S21_Real           S21_Imag           S12_Real           S12_Imag           S22_Real           S22_Imag
      100000000   -2,870898508e-02   -4,243071657e-03    3,739143908e-01   -7,215462327e-01    0,000000000e+00    0,000000000e+00    0,000000000e+00    0,000000000e+00
      114000000   -1,645212062e-02    1,148605067e-02   -8,891233057e-02   -8,051434159e-01    0,000000000e+00    0,000000000e+00    0,000000000e+00    0,000000000e+00
      128000000    3,465159796e-03    1,068161614e-02   -5,144632459e-01   -6,201216578e-01    0,000000000e+00    0,000000000e+00    0,000000000e+00    0,000000000e+00
      142000000    1,468700822e-02   -2,648924245e-03   -7,668830156e-01   -2,363611162e-01    0,000000000e+00    0,000000000e+00    0,000000000e+00    0,000000000e+00
      156000000    1,487425342e-02   -1,456228178e-02   -7,643011212e-01    2,180789262e-01    0,000000000e+00    0,000000000e+00    0,000000000e+00    0,000000000e+00
      170000000    1,718243212e-02   -2,244724147e-02   -5,179342628e-01    6,045266986e-01    0,000000000e+00    0,000000000e+00    0,000000000e+00    0,000000000e+00
      184000000    2,143941633e-02   -3,720637411e-02   -1,015230492e-01    7,859312892e-01    0,000000000e+00    0,000000000e+00    0,000000000e+00    0,000000000e+00
      198000000    1,325239893e-02   -6,259407848e-02    3,432213366e-01    7,120289803e-01    0,000000000e+00    0,000000000e+00    0,000000000e+00    0,000000000e+00
      212000000   -1,839800179e-02   -8,130889386e-02    6,775779128e-01    4,095323384e-01    0,000000000e+00    0,000000000e+00    0,000000000e+00    0,000000000e+00
      226000000   -6,131268665e-02   -6,920067966e-02    7,953893542e-01   -3,052954376e-02    0,000000000e+00    0,000000000e+00    0,000000000e+00    0,000000000e+00
      240000000   -8,215642720e-02   -2,584889717e-02    6,458939910e-01   -4,667252898e-01    0,000000000e+00    0,000000000e+00    0,000000000e+00    0,000000000e+00
      254000000   -6,331271678e-02    1,689200103e-02    2,756159306e-01   -7,424037457e-01    0,000000000e+00    0,000000000e+00    0,000000000e+00    0,000000000e+00
      268000000   -2,386807278e-02    2,869583480e-02   -1,778000742e-01   -7,639704943e-01    0,000000000e+00    0,000000000e+00    0,000000000e+00    0,000000000e+00
      282000000    4,065539688e-03    1,204983238e-02   -5,617701411e-01   -5,356142521e-01    0,000000000e+00    0,000000000e+00    0,000000000e+00    0,000000000e+00
      296000000    9,831520729e-03   -7,675229106e-03   -7,595301867e-01   -1,393722147e-01    0,000000000e+00    0,000000000e+00    0,000000000e+00    0,000000000e+00
      310000000    1,147711743e-02   -1,613841020e-02   -7,116377354e-01    2,989140153e-01    0,000000000e+00    0,000000000e+00    0,000000000e+00    0,000000000e+00
      324000000    2,000610344e-02   -2,648463286e-02   -4,274024367e-01    6,371877193e-01    0,000000000e+00    0,000000000e+00    0,000000000e+00    0,000000000e+00
      338000000    2,564071678e-02   -5,237839371e-02   -1,023034845e-02    7,598546147e-01    0,000000000e+00    0,000000000e+00    0,000000000e+00    0,000000000e+00
      352000000    7,468710188e-03   -8,483490348e-02    4,065653682e-01    6,396243572e-01    0,000000000e+00    0,000000000e+00    0,000000000e+00    0,000000000e+00
      366000000   -3,450183943e-02   -9,559011459e-02    6,896936297e-01    3,110702932e-01    0,000000000e+00    0,000000000e+00    0,000000000e+00    0,000000000e+00
      380000000   -7,045400143e-02   -7,101639360e-02    7,473980784e-01   -1,253149360e-01    0,000000000e+00    0,000000000e+00    0,000000000e+00    0,000000000e+00
      394000000   -7,192125171e-02   -3,261180222e-02    5,447508097e-01   -5,202835202e-01    0,000000000e+00    0,000000000e+00    0,000000000e+00    0,000000000e+00
      408000000   -4,608586431e-02   -1,648584381e-02    1,623336822e-01   -7,326127291e-01    0,000000000e+00    0,000000000e+00    0,000000000e+00    0,000000000e+00
      422000000   -2,799341269e-02   -3,216032684e-02   -2,669093013e-01   -6,956540346e-01    0,000000000e+00    0,000000000e+00    0,000000000e+00    0,000000000e+00
      436000000   -4,061156139e-02   -5,173308030e-02   -6,031295657e-01   -4,318549037e-01    0,000000000e+00    0,000000000e+00    0,000000000e+00    0,000000000e+00
      450000000   -6,695399433e-02   -4,361390695e-02   -7,393041253e-01   -2,188386954e-02    0,000000000e+00    0,000000000e+00    0,000000000e+00    0,000000000e+00
      464000000   -7,309503853e-02   -1,174683031e-02   -6,188213229e-01    3,964865208e-01    0,000000000e+00    0,000000000e+00    0,000000000e+00    0,000000000e+00
      478000000   -4,745126888e-02    1,172883343e-02   -2,828070819e-01    6,669954062e-01    0,000000000e+00    0,000000000e+00    0,000000000e+00    0,000000000e+00
      492000000   -1,573972404e-02    5,695341155e-03    1,373028755e-01    7,012978196e-01    0,000000000e+00    0,000000000e+00    0,000000000e+00    0,000000000e+00
      506000000   -2,987833461e-03   -1,568423398e-02    4,974280596e-01    5,031542778e-01    0,000000000e+00    0,000000000e+00    0,000000000e+00    0,000000000e+00
      520000000   -5,269888788e-03   -3,135103360e-02    6,867219806e-01    1,410106421e-01    0,000000000e+00    0,000000000e+00    0,000000000e+00    0,000000000e+00
      534000000   -3,856948111e-03   -3,822523355e-02    6,429348588e-01   -2,622708380e-01    0,000000000e+00    0,000000000e+00    0,000000000e+00    0,000000000e+00
      548000000    6,180359051e-03   -5,423945934e-02    3,812771738e-01   -5,667874217e-01    0,000000000e+00    0,000000000e+00    0,000000000e+00    0,000000000e+00
      562000000    3,339801216e-03   -8,904722333e-02    3,946912941e-03   -6,708247066e-01    0,000000000e+00    0,000000000e+00    0,000000000e+00    0,000000000e+00
      576000000   -3,381549194e-02   -1,242830157e-01   -3,681577444e-01   -5,568977594e-01    0,000000000e+00    0,000000000e+00    0,000000000e+00    0,000000000e+00
      590000000   -9,572948515e-02   -1,227609590e-01   -6,192271709e-01   -2,620436847e-01    0,000000000e+00    0,000000000e+00    0,000000000e+00    0,000000000e+00
      604000000   -1,386771053e-01   -7,240023464e-02   -6,637039185e-01    1,367560327e-01    0,000000000e+00    0,000000000e+00    0,000000000e+00    0,000000000e+00
      618000000   -1,297319680e-01   -1,024454925e-02   -4,641954601e-01    4,929512441e-01    0,000000000e+00    0,000000000e+00    0,000000000e+00    0,000000000e+00
      632000000   -8,382324129e-02    1,611244492e-02   -1,003576815e-01    6,627809405e-01    0,000000000e+00    0,000000000e+00    0,000000000e+00    0,000000000e+00
      646000000   -5,156095698e-02    1,005815924e-03    2,853807509e-01    5,948146582e-01    0,000000000e+00    0,000000000e+00    0,000000000e+00    0,000000000e+00
      660000000   -5,386359245e-02   -2,036166005e-02    5,649118423e-01    3,234534860e-01    0,000000000e+00    0,000000000e+00    0,000000000e+00    0,000000000e+00
      674000000   -6,920569390e-02   -1,702368632e-02    6,406366229e-01   -6,327771395e-02    0,000000000e+00    0,000000000e+00    0,000000000e+00    0,000000000e+00
      688000000   -6,755727530e-02    9,501478635e-03    4,712235630e-01   -4,232212007e-01    0,000000000e+00    0,000000000e+00    0,000000000e+00    0,000000000e+00
      702000000   -3,577045351e-02    2,678449638e-02    1,204926744e-01   -6,119719148e-01    0,000000000e+00    0,000000000e+00    0,000000000e+00    0,000000000e+00
      716000000    3,486519214e-03    1,684588939e-02   -2,591316104e-01   -5,448226929e-01    0,000000000e+00    0,000000000e+00    0,000000000e+00    0,000000000e+00
      730000000    3,627401590e-02   -1,375981513e-02   -5,220375061e-01   -2,713049352e-01    0,000000000e+00    0,000000000e+00    0,000000000e+00    0,000000000e+00
      744000000    6,284977496e-02   -6,461264193e-02   -5,600869060e-01    9,890688211e-02    0,000000000e+00    0,000000000e+00    0,000000000e+00    0,000000000e+00
      758000000    6,075605750e-02   -1,511666030e-01   -3,655582368e-01    4,000035524e-01    0,000000000e+00    0,000000000e+00    0,000000000e+00    0,000000000e+00
      772000000   -1,720559783e-02   -2,563297451e-01   -4,554335028e-02    5,097438097e-01    0,000000000e+00    0,000000000e+00    0,000000000e+00    0,000000000e+00
      786000000   -2,035027295e-01   -2,913607061e-01    2,595520616e-01    3,989790976e-01    0,000000000e+00    0,000000000e+00    0,000000000e+00    0,000000000e+00
      800000000   -4,082078636e-01   -1,273664683e-01    4,072043896e-01    1,186063290e-01    0,000000000e+00    0,000000000e+00    0,000000000e+00    0,000000000e+00
      814000000   -3,765740097e-01    2,030388713e-01    2,959912419e-01   -1,511184126e-01    0,000000000e+00    0,000000000e+00    0,000000000e+00    0,000000000e+00
      828000000   -6,156387553e-02    3,466385007e-01    8,259422332e-02   -1,906860173e-01    0,000000000e+00    0,000000000e+00    0,000000000e+00    0,000000000e+00
      842000000    2,119202167e-01    1,852604747e-01   -3,108910983e-03   -9,298414737e-02    0,000000000e+00    0,000000000e+00    0,000000000e+00    0,000000000e+00
      856000000    2,658925056e-01   -1,064055935e-01    3,622643277e-02   -3,728412464e-02    0,000000000e+00    0,000000000e+00    0,000000000e+00    0,000000000e+00
      870000000    8,204494417e-02   -3,507683277e-01    8,862518519e-02   -9,771713614e-02    0,000000000e+00    0,000000000e+00    0,000000000e+00    0,000000000e+00
      884000000   -2,684059739e-01   -3,552388847e-01    1,133805234e-02   -2,277177125e-01    0,000000000e+00    0,000000000e+00    0,000000000e+00    0,000000000e+00
      898000000   -4,577494264e-01   -1,285805646e-02   -2,156420052e-01   -2,093985081e-01    0,000000000e+00    0,000000000e+00    0,000000000e+00    0,000000000e+00
      912000000   -2,344475091e-01    2,787066102e-01   -3,417134583e-01    7,100225985e-02    0,000000000e+00    0,000000000e+00    0,000000000e+00    0,000000000e+00
      926000000    5,499576032e-02    2,624171674e-01   -2,102364153e-01    2,640259266e-01    0,000000000e+00    0,000000000e+00    0,000000000e+00    0,000000000e+00
      940000000    2,093398124e-01    8,312994242e-02   -3,191762045e-02    3,246035874e-01    0,000000000e+00    0,000000000e+00    0,000000000e+00    0,000000000e+00
      954000000    2,197023630e-01   -1,212515458e-01    1,318956912e-01    3,017887771e-01    0,000000000e+00    0,000000000e+00    0,000000000e+00    0,000000000e+00
      968000000    1,153080612e-01   -2,954935431e-01    2,690889239e-01    2,138380110e-01    0,000000000e+00    0,000000000e+00    0,000000000e+00    0,000000000e+00
      982000000   -7,632686198e-02   -3,820833266e-01    3,622474968e-01    6,332024932e-02    0,000000000e+00    0,000000000e+00    0,000000000e+00    0,000000000e+00
      996000000   -3,098601401e-01   -3,338902593e-01    3,622105420e-01   -1,413371116e-01    0,000000000e+00    0,000000000e+00    0,000000000e+00    0,000000000e+00
     1010000000   -4,568206668e-01   -1,178079471e-01    2,195461094e-01   -3,334315419e-01    0,000000000e+00    0,000000000e+00    0,000000000e+00    0,000000000e+00
     1024000000   -4,120840728e-01    1,462521255e-01   -3,147894517e-02   -3,847759962e-01    0,000000000e+00    0,000000000e+00    0,000000000e+00    0,000000000e+00
     1038000000   -2,238641679e-01    2,920296192e-01   -2,418065816e-01   -2,576161027e-01    0,000000000e+00    0,000000000e+00    0,000000000e+00    0,000000000e+00
     1052000000   -1,082973648e-02    2,802854180e-01   -3,120440245e-01   -4,653368890e-02    0,000000000e+00    0,000000000e+00    0,000000000e+00    0,000000000e+00
     1066000000    1,332828104e-01    1,706442088e-01   -2,506149709e-01    1,374918073e-01    0,000000000e+00    0,000000000e+00    0,000000000e+00    0,000000000e+00
     1080000000    1,964367479e-01    5,891590845e-03   -1,175957918e-01    2,549976408e-01    0,000000000e+00    0,000000000e+00    0,000000000e+00    0,000000000e+00
     1094000000    1,612854153e-01   -1,601553410e-01    6,010940671e-02    2,896592617e-01    0,000000000e+00    0,000000000e+00    0,000000000e+00    0,000000000e+00
     1108000000    1,454354264e-02   -2,953163385e-01    2,618548274e-01    2,320874780e-01    0,000000000e+00    0,000000000e+00    0,000000000e+00    0,000000000e+00
     1122000000   -2,178058028e-01   -2,826294601e-01    4,418088794e-01    2,601984888e-02    0,000000000e+00    0,000000000e+00    0,000000000e+00    0,000000000e+00
     1136000000   -3,220824897e-01   -2,561167814e-02    3,981518447e-01   -3,470168412e-01    0,000000000e+00    0,000000000e+00    0,000000000e+00    0,000000000e+00
     1150000000   -1,080257967e-01    1,429128051e-01    4,926342145e-02   -5,297144055e-01    0,000000000e+00    0,000000000e+00    0,000000000e+00    0,000000000e+00
     1164000000    8,169773966e-02   -2,009439841e-02   -2,534103990e-01   -4,003694057e-01    0,000000000e+00    0,000000000e+00    0,000000000e+00    0,000000000e+00
     1178000000    2,620774135e-02   -2,522439957e-01   -3,692577481e-01   -1,778282672e-01    0,000000000e+00    0,000000000e+00    0,000000000e+00    0,000000000e+00
     1192000000   -2,196344435e-01   -3,481323719e-01   -3,373397291e-01    4,008710384e-02    0,000000000e+00    0,000000000e+00    0,000000000e+00    0,000000000e+00
     1206000000   -4,866339564e-01   -1,832406223e-01   -1,926939040e-01    1,822085381e-01    0,000000000e+00    0,000000000e+00    0,000000000e+00    0,000000000e+00
     1220000000   -4,967492521e-01    1,363923550e-01   -1,147427317e-02    1,767830998e-01    0,000000000e+00    0,000000000e+00    0,000000000e+00    0,000000000e+00
     1234000000   -2,972060442e-01    3,429646194e-01    7,682030648e-02    7,887976617e-02    0,000000000e+00    0,000000000e+00    0,000000000e+00    0,000000000e+00
     1248000000   -6,054345146e-02    3,543143272e-01    6,414486468e-02   -2,969335066e-03    0,000000000e+00    0,000000000e+00    0,000000000e+00    0,000000000e+00
     1262000000    1,123403162e-01    2,570795417e-01    3,254699707e-02   -2,324354090e-02    0,000000000e+00    0,000000000e+00    0,000000000e+00    0,000000000e+00
     1276000000    1,988700330e-01    1,037545279e-01    4,321404267e-03   -7,328889333e-03    0,000000000e+00    0,000000000e+00    0,000000000e+00    0,000000000e+00
     1290000000    2,206521481e-01   -6,264733523e-02    7,299626246e-03    2,847710624e-02    0,000000000e+00    0,000000000e+00    0,000000000e+00    0,000000000e+00
     1304000000    1,646708995e-01   -2,319374084e-01    5,741552636e-02    5,924949422e-02    0,000000000e+00    0,000000000e+00    0,000000000e+00    0,000000000e+00
     1318000000    2,219827659e-02   -3,659246564e-01    1,677019447e-01    1,552050654e-02    0,000000000e+00    0,000000000e+00    0,000000000e+00    0,000000000e+00
     1332000000   -1,475750804e-01   -3,929063678e-01    9,824579209e-02   -1,744707972e-01    0,000000000e+00    0,000000000e+00    0,000000000e+00    0,000000000e+00
     1346000000   -3,592865169e-01   -3,935416341e-01   -5,640550330e-02   -3,121863492e-02    0,000000000e+00    0,000000000e+00    0,000000000e+00    0,000000000e+00
     1360000000   -5,912153125e-01   -2,027073652e-01    5,720543489e-02    8,366899937e-02    0,000000000e+00    0,000000000e+00    0,000000000e+00    0,000000000e+00
     1374000000   -6,310396791e-01    1,001934856e-01    1,705686301e-01    5,418321118e-02    0,000000000e+00    0,000000000e+00    0,000000000e+00    0,000000000e+00
     1388000000   -4,815218151e-01    3,507570326e-01    2,239874154e-01   -2,410858683e-02    0,000000000e+00    0,000000000e+00    0,000000000e+00    0,000000000e+00
     1402000000   -2,441641688e-01    4,458101094e-01    2,039544880e-01   -8,303561062e-02    0,000000000e+00    0,000000000e+00    0,000000000e+00    0,000000000e+00
     1416000000   -3,682911769e-02    4,054302275e-01    1,846256256e-01   -1,093624830e-01    0,000000000e+00    0,000000000e+00    0,000000000e+00    0,000000000e+00
     1430000000    1,184406951e-01    3,069400191e-01    1,892543435e-01   -9,611948580e-02    0,000000000e+00    0,000000000e+00    0,000000000e+00    0,000000000e+00
     1444000000    1,994227171e-01    1,592695564e-01    1,604222059e-01   -1,196965948e-01    0,000000000e+00    0,000000000e+00    0,000000000e+00    0,000000000e+00
     1458000000    2,309955060e-01   -1,235949341e-02    1,437989324e-01   -8,503235132e-02    0,000000000e+00    0,000000000e+00    0,000000000e+00    0,000000000e+00
     1472000000    1,833488643e-01   -1,948765069e-01    1,372563690e-01   -4,548564926e-02    0,000000000e+00    0,000000000e+00    0,000000000e+00    0,000000000e+00
     1486000000    6,776076555e-02   -3,705656230e-01    1,668064892e-01    1,299927570e-02    0,000000000e+00    0,000000000e+00    0,000000000e+00    0,000000000e+00
     1500000000   -1,587775648e-01   -4,874915183e-01    2,499263138e-01    7,910303026e-02    0,000000000e+00    0,000000000e+00    0,000000000e+00    0,000000000e+00
