! NanoVNA-App
! Date: 2025-09-25 15:43:39
! Start: 100MHz Stop: 1,5GHz Points: 101
! S-Parameter data: F S11 S21 S12 S22
# Hz S RI R 50
!     Frequency           S11_Real           S11_Imag           S21_Real           S21_Imag           S12_Real           S12_Imag           S22_Real           S22_Imag
      100000000   -2,874201350e-02   -4,253349733e-03    3,739213347e-01   -7,215534449e-01    0,000000000e+00    0,000000000e+00    0,000000000e+00    0,000000000e+00
      114000000   -1,650966518e-02    1,145662926e-02   -8,916655928e-02   -8,052989244e-01    0,000000000e+00    0,000000000e+00    0,000000000e+00    0,000000000e+00
      128000000    3,421701957e-03    1,071591768e-02   -5,145737529e-01   -6,204311848e-01    0,000000000e+00    0,000000000e+00    0,000000000e+00    0,000000000e+00
      142000000    1,463375706e-02   -2,657056553e-03   -7,670880556e-01   -2,364358306e-01    0,000000000e+00    0,000000000e+00    0,000000000e+00    0,000000000e+00
      156000000    1,551721431e-02   -1,441095769e-02   -7,672262192e-01    2,226458192e-01    0,000000000e+00    0,000000000e+00    0,000000000e+00    0,000000000e+00
      170000000    1,714033261e-02   -2,246941812e-02   -5,180215836e-01    6,043723822e-01    0,000000000e+00    0,000000000e+00    0,000000000e+00    0,000000000e+00
      184000000    2,135078050e-02   -3,716086596e-02   -1,013093516e-01    7,856643796e-01    0,000000000e+00    0,000000000e+00    0,000000000e+00    0,000000000e+00
      198000000    1,322379056e-02   -6,255087256e-02    3,431344032e-01    7,123613954e-01    0,000000000e+00    0,000000000e+00    0,000000000e+00    0,000000000e+00
      212000000   -1,842202432e-02   -8,125295490e-02    6,779955029e-01    4,098624289e-01    0,000000000e+00    0,000000000e+00    0,000000000e+00    0,000000000e+00
      226000000   -6,138210371e-02   -6,917887926e-02    7,954335213e-01   -3,058693931e-02    0,000000000e+00    0,000000000e+00    0,000000000e+00    0,000000000e+00
      240000000   -8,224636316e-02   -2,580875158e-02    6,459693313e-01   -4,669373333e-01    0,000000000e+00    0,000000000e+00    0,000000000e+00    0,000000000e+00
      254000000   -6,338471919e-02    1,689958200e-02    2,761617899e-01   -7,428833842e-01    0,000000000e+00    0,000000000e+00    0,000000000e+00    0,000000000e+00
      268000000   -2,402106300e-02    2,871741541e-02   -1,781389564e-01   -7,642561793e-01    0,000000000e+00    0,000000000e+00    0,000000000e+00    0,000000000e+00
      282000000    4,083809908e-03    1,201760117e-02   -5,615062118e-01   -5,354162455e-01    0,000000000e+00    0,000000000e+00    0,000000000e+00    0,000000000e+00
      296000000    9,773147292e-03   -7,536270656e-03   -7,593855262e-01   -1,395835727e-01    0,000000000e+00    0,000000000e+00    0,000000000e+00    0,000000000e+00
      310000000    1,155221928e-02   -1,610098407e-02   -7,109331489e-01    2,982799113e-01    0,000000000e+00    0,000000000e+00    0,000000000e+00    0,000000000e+00
      324000000    1,970820315e-02   -2,646561153e-02   -4,269396365e-01    6,377192140e-01    0,000000000e+00    0,000000000e+00    0,000000000e+00    0,000000000e+00
      338000000    2,588284388e-02   -5,242870376e-02   -9,011453018e-03    7,610018253e-01    0,000000000e+00    0,000000000e+00    0,000000000e+00    0,000000000e+00
      352000000    7,479300722e-03   -8,492674679e-02    4,061947763e-01    6,393256187e-01    0,000000000e+00    0,000000000e+00    0,000000000e+00    0,000000000e+00
      366000000   -3,458155692e-02   -9,536224604e-02    6,897934675e-01    3,117191792e-01    0,000000000e+00    0,000000000e+00    0,000000000e+00    0,000000000e+00
      380000000   -7,055849582e-02   -7,100636512e-02    7,469507456e-01   -1,252429187e-01    0,000000000e+00    0,000000000e+00    0,000000000e+00    0,000000000e+00
      394000000   -7,206092775e-02   -3,263874352e-02    5,471828580e-01   -5,199729800e-01    0,000000000e+00    0,000000000e+00    0,000000000e+00    0,000000000e+00
      408000000   -4,635218158e-02   -1,662492938e-02    1,621780843e-01   -7,317190170e-01    0,000000000e+00    0,000000000e+00    0,000000000e+00    0,000000000e+00
      422000000   -2,829685993e-02   -3,224387020e-02   -2,665659189e-01   -6,953807473e-01    0,000000000e+00    0,000000000e+00    0,000000000e+00    0,000000000e+00
      436000000   -4,046374932e-02   -5,151608586e-02   -6,037745476e-01   -4,319460094e-01    0,000000000e+00    0,000000000e+00    0,000000000e+00    0,000000000e+00
      450000000   -6,715094298e-02   -4,387106746e-02   -7,397884130e-01   -2,153788134e-02    0,000000000e+00    0,000000000e+00    0,000000000e+00    0,000000000e+00
      464000000   -7,300689816e-02   -1,145776734e-02   -6,183108091e-01    3,964275718e-01    0,000000000e+00    0,000000000e+00    0,000000000e+00    0,000000000e+00
      478000000   -4,741045088e-02    1,113523543e-02   -2,837938368e-01    6,668904424e-01    0,000000000e+00    0,000000000e+00    0,000000000e+00    0,000000000e+00
      492000000   -1,544406265e-02    5,622841883e-03    1,379781812e-01    7,009625435e-01    0,000000000e+00    0,000000000e+00    0,000000000e+00    0,000000000e+00
      506000000   -2,686385997e-03   -1,583553106e-02    4,978183210e-01    5,020658970e-01    0,000000000e+00    0,000000000e+00    0,000000000e+00    0,000000000e+00
      520000000   -5,182192195e-03   -3,123668395e-02    6,881420016e-01    1,406445950e-01    0,000000000e+00    0,000000000e+00    0,000000000e+00    0,000000000e+00
      534000000   -3,168546129e-03   -3,801755607e-02    6,430081725e-01   -2,614947557e-01    0,000000000e+00    0,000000000e+00    0,000000000e+00    0,000000000e+00
      548000000    6,195051596e-03   -5,416470021e-02    3,811632097e-01   -5,668441057e-01    0,000000000e+00    0,000000000e+00    0,000000000e+00    0,000000000e+00
      562000000    3,433383070e-03   -8,965786546e-02    2,215296961e-03   -6,721012592e-01    0,000000000e+00    0,000000000e+00    0,000000000e+00    0,000000000e+00
      576000000   -3,419962898e-02   -1,240178719e-01   -3,678344190e-01   -5,575783849e-01    0,000000000e+00    0,000000000e+00    0,000000000e+00    0,000000000e+00
      590000000   -9,564089775e-02   -1,226676181e-01   -6,184331179e-01   -2,653681934e-01    0,000000000e+00    0,000000000e+00    0,000000000e+00    0,000000000e+00
      604000000   -1,385987699e-01   -7,228013128e-02   -6,635085344e-01    1,370096654e-01    0,000000000e+00    0,000000000e+00    0,000000000e+00    0,000000000e+00
      618000000   -1,296671778e-01   -1,017071307e-02   -4,637795985e-01    4,935257435e-01    0,000000000e+00    0,000000000e+00    0,000000000e+00    0,000000000e+00
      632000000   -8,419963717e-02    1,548881456e-02   -9,981226921e-02    6,616344452e-01    0,000000000e+00    0,000000000e+00    0,000000000e+00    0,000000000e+00
      646000000   -5,151976645e-02    5,053919158e-04    2,853254378e-01    5,932164788e-01    0,000000000e+00    0,000000000e+00    0,000000000e+00    0,000000000e+00
      660000000   -5,314964801e-02   -2,033146285e-02    5,645609498e-01    3,231596053e-01    0,000000000e+00    0,000000000e+00    0,000000000e+00    0,000000000e+00
      674000000   -6,904925406e-02   -1,643228531e-02    6,409947872e-01   -6,297639012e-02    0,000000000e+00    0,000000000e+00    0,000000000e+00    0,000000000e+00
      688000000   -6,705872715e-02    8,445925079e-03    4,711182714e-01   -4,243040085e-01    0,000000000e+00    0,000000000e+00    0,000000000e+00    0,000000000e+00
      702000000   -3,629115224e-02    2,632150240e-02    1,195980385e-01   -6,061890721e-01    0,000000000e+00    0,000000000e+00    0,000000000e+00    0,000000000e+00
      716000000    4,164353944e-03    1,639618911e-02   -2,590136826e-01   -5,441184044e-01    0,000000000e+00    0,000000000e+00    0,000000000e+00    0,000000000e+00
      730000000    3,682292625e-02   -1,331061777e-02   -5,216674805e-01   -2,711379826e-01    0,000000000e+00    0,000000000e+00    0,000000000e+00    0,000000000e+00
      744000000    6,306691468e-02   -6,494040787e-02   -5,605090261e-01    9,824851900e-02    0,000000000e+00    0,000000000e+00    0,000000000e+00    0,000000000e+00
      758000000    6,140608713e-02   -1,515613049e-01   -3,663631976e-01    4,000087678e-01    0,000000000e+00    0,000000000e+00    0,000000000e+00    0,000000000e+00
      772000000   -1,740720682e-02   -2,563607395e-01   -4,598584771e-02    5,087864399e-01    0,000000000e+00    0,000000000e+00    0,000000000e+00    0,000000000e+00
      786000000   -2,019468993e-01   -2,913064957e-01    2,590919733e-01    3,991874158e-01    0,000000000e+00    0,000000000e+00    0,000000000e+00    0,000000000e+00
      800000000   -4,069848657e-01   -1,270443350e-01    4,072390497e-01    1,187410653e-01    0,000000000e+00    0,000000000e+00    0,000000000e+00    0,000000000e+00
      814000000   -3,773412108e-01    2,011097670e-01    2,972084880e-01   -1,509051323e-01    0,000000000e+00    0,000000000e+00    0,000000000e+00    0,000000000e+00
      828000000   -6,280087680e-02    3,485939205e-01    8,196847141e-02   -1,906800717e-01    0,000000000e+00    0,000000000e+00    0,000000000e+00    0,000000000e+00
      842000000    2,116121799e-01    1,856066734e-01   -3,661890281e-03   -9,346975386e-02    0,000000000e+00    0,000000000e+00    0,000000000e+00    0,000000000e+00
      856000000    2,659119666e-01   -1,058558375e-01    3,576895967e-02   -3,734655306e-02    0,000000000e+00    0,000000000e+00    0,000000000e+00    0,000000000e+00
      870000000    8,181128651e-02   -3,508076668e-01    8,818935603e-02   -9,683793038e-02    0,000000000e+00    0,000000000e+00    0,000000000e+00    0,000000000e+00
      884000000   -2,681019008e-01   -3,566743731e-01    1,167607401e-02   -2,278420925e-01    0,000000000e+00    0,000000000e+00    0,000000000e+00    0,000000000e+00
      898000000   -4,584315419e-01   -1,339721680e-02   -2,157006264e-01   -2,088590860e-01    0,000000000e+00    0,000000000e+00    0,000000000e+00    0,000000000e+00
      912000000   -2,369809151e-01    2,780395448e-01   -3,275137544e-01    7,794989645e-02    0,000000000e+00    0,000000000e+00    0,000000000e+00    0,000000000e+00
      926000000    5,571780354e-02    2,606299818e-01   -2,098619491e-01    2,613214850e-01    0,000000000e+00    0,000000000e+00    0,000000000e+00    0,000000000e+00
      940000000    2,088111192e-01    8,602780849e-02   -3,181952611e-02    3,252249062e-01    0,000000000e+00    0,000000000e+00    0,000000000e+00    0,000000000e+00
      954000000    2,226583213e-01   -1,212430745e-01    1,319603175e-01    3,008693159e-01    0,000000000e+00    0,000000000e+00    0,000000000e+00    0,000000000e+00
      968000000    1,177119538e-01   -2,974716425e-01    2,683108449e-01    2,163606733e-01    0,000000000e+00    0,000000000e+00    0,000000000e+00    0,000000000e+00
      982000000   -7,848685980e-02   -3,832908869e-01    3,605064154e-01    6,282346696e-02    0,000000000e+00    0,000000000e+00    0,000000000e+00    0,000000000e+00
      996000000   -3,081990480e-01   -3,304722905e-01    3,621218801e-01   -1,434634477e-01    0,000000000e+00    0,000000000e+00    0,000000000e+00    0,000000000e+00
     1010000000   -4,603596926e-01   -1,142079905e-01    2,182927281e-01   -3,365692794e-01    0,000000000e+00    0,000000000e+00    0,000000000e+00    0,000000000e+00
     1024000000   -4,130427539e-01    1,424597800e-01   -3,152575716e-02   -3,870513439e-01    0,000000000e+00    0,000000000e+00    0,000000000e+00    0,000000000e+00
     1038000000   -2,207288295e-01    2,904445529e-01   -2,422575653e-01   -2,571681142e-01    0,000000000e+00    0,000000000e+00    0,000000000e+00    0,000000000e+00
     1052000000   -1,541298069e-02    2,767266035e-01   -3,117986917e-01   -4,734882340e-02    0,000000000e+00    0,000000000e+00    0,000000000e+00    0,000000000e+00
     1066000000    1,329716593e-01    1,666363478e-01   -2,510516942e-01    1,403602213e-01    0,000000000e+00    0,000000000e+00    0,000000000e+00    0,000000000e+00
     1080000000    1,904599816e-01    7,324215025e-03   -1,146463454e-01    2,542589307e-01    0,000000000e+00    0,000000000e+00    0,000000000e+00    0,000000000e+00
     1094000000    1,621279120e-01   -1,618594974e-01    5,875147879e-02    2,889096737e-01    0,000000000e+00    0,000000000e+00    0,000000000e+00    0,000000000e+00
     1108000000    1,923757605e-02   -2,999249399e-01    2,600993812e-01    2,333861291e-01    0,000000000e+00    0,000000000e+00    0,000000000e+00    0,000000000e+00
     1122000000   -2,109370977e-01   -2,850953639e-01    4,408811331e-01    2,439923584e-02    0,000000000e+00    0,000000000e+00    0,000000000e+00    0,000000000e+00
     1136000000   -3,221434355e-01   -3,003599495e-02    3,969089687e-01   -3,438428640e-01    0,000000000e+00    0,000000000e+00    0,000000000e+00    0,000000000e+00
     1150000000   -1,051378921e-01    1,423477978e-01    4,841490090e-02   -5,334329009e-01    0,000000000e+00    0,000000000e+00    0,000000000e+00    0,000000000e+00
     1164000000    8,278996497e-02   -1,833748259e-02   -2,523218393e-01   -4,061516523e-01    0,000000000e+00    0,000000000e+00    0,000000000e+00    0,000000000e+00
     1178000000    2,921927162e-02   -2,479482144e-01   -3,708227575e-01   -1,771679819e-01    0,000000000e+00    0,000000000e+00    0,000000000e+00    0,000000000e+00
     1192000000   -2,225510329e-01   -3,461168408e-01   -3,407963514e-01    4,057426006e-02    0,000000000e+00    0,000000000e+00    0,000000000e+00    0,000000000e+00
     1206000000   -4,774525166e-01   -1,771008372e-01   -1,885250360e-01    1,866437793e-01    0,000000000e+00    0,000000000e+00    0,000000000e+00    0,000000000e+00
     1220000000   -5,006067753e-01    1,330217421e-01   -1,214962266e-02    1,763173491e-01    0,000000000e+00    0,000000000e+00    0,000000000e+00    0,000000000e+00
     1234000000   -2,967459857e-01    3,399087191e-01    7,932266593e-02    8,056770265e-02    0,000000000e+00    0,000000000e+00    0,000000000e+00    0,000000000e+00
     1248000000   -5,967560410e-02    3,646037579e-01    6,898048520e-02    1,984803006e-03    0,000000000e+00    0,000000000e+00    0,000000000e+00    0,000000000e+00
     1262000000    1,082593426e-01    2,620330751e-01    2,887758799e-02   -2,308752015e-02    0,000000000e+00    0,000000000e+00    0,000000000e+00    0,000000000e+00
     1276000000    1,976764500e-01    1,077927873e-01    7,120000082e-04   -6,782083306e-03    0,000000000e+00    0,000000000e+00    0,000000000e+00    0,000000000e+00
     1290000000    2,204237878e-01   -6,235269830e-02    1,385345776e-02    2,482464723e-02    0,000000000e+00    0,000000000e+00    0,000000000e+00    0,000000000e+00
     1304000000    1,668504775e-01   -2,336479723e-01    6,397898495e-02    5,377162248e-02    0,000000000e+00    0,000000000e+00    0,000000000e+00    0,000000000e+00
     1318000000    2,757361904e-02   -3,635747731e-01    1,728158593e-01    2,458808199e-02    0,000000000e+00    0,000000000e+00    0,000000000e+00    0,000000000e+00
     1332000000   -1,490361392e-01   -3,988683820e-01    1,035655439e-01   -1,834293008e-01    0,000000000e+00    0,000000000e+00    0,000000000e+00    0,000000000e+00
     1346000000   -3,555903435e-01   -3,918396533e-01   -5,333575234e-02   -1,284568012e-02    0,000000000e+00    0,000000000e+00    0,000000000e+00    0,000000000e+00
     1360000000   -5,847776532e-01   -2,069708109e-01    6,247394532e-02    8,271026611e-02    0,000000000e+00    0,000000000e+00    0,000000000e+00    0,000000000e+00
     1374000000   -6,163420677e-01    1,011379957e-01    1,878929883e-01    4,831349105e-02    0,000000000e+00    0,000000000e+00    0,000000000e+00    0,000000000e+00
     1388000000   -4,756824374e-01    3,555379808e-01    2,278439552e-01   -1,497567166e-02    0,000000000e+00    0,000000000e+00    0,000000000e+00    0,000000000e+00
     1402000000   -2,391947508e-01    4,474247396e-01    2,142110020e-01   -7,518058270e-02    0,000000000e+00    0,000000000e+00    0,000000000e+00    0,000000000e+00
     1416000000   -3,755414858e-02    4,058487117e-01    1,992195994e-01   -1,056965664e-01    0,000000000e+00    0,000000000e+00    0,000000000e+00    0,000000000e+00
     1430000000    1,146790087e-01    3,133895397e-01    1,764141172e-01   -1,078428999e-01    0,000000000e+00    0,000000000e+00    0,000000000e+00    0,000000000e+00
     1444000000    1,978467107e-01    1,597323865e-01    1,643166542e-01   -1,049859151e-01    0,000000000e+00    0,000000000e+00    0,000000000e+00    0,000000000e+00
     1458000000    2,363350242e-01   -1,479544770e-02    1,519395560e-01   -8,777216822e-02    0,000000000e+00    0,000000000e+00    0,000000000e+00    0,000000000e+00
     1472000000    1,866083443e-01   -1,940460652e-01    1,426339746e-01   -4,978228360e-02    0,000000000e+00    0,000000000e+00    0,000000000e+00    0,000000000e+00
     1486000000    6,868218631e-02   -3,653838933e-01    1,718231738e-01    1,694386825e-02    0,000000000e+00    0,000000000e+00    0,000000000e+00    0,000000000e+00
     1500000000   -1,627984494e-01   -4,813823998e-01    2,307731807e-01    1,055692658e-01    0,000000000e+00    0,000000000e+00    0,000000000e+00    0,000000000e+00
