! NanoVNA-App
! Date: 2025-09-25 15:40:25
! Start: 100MHz Stop: 1,5GHz Points: 101
! S-Parameter data: F S11 S21 S12 S22
# Hz S RI R 50
!     Frequency           S11_Real           S11_Imag           S21_Real           S21_Imag           S12_Real           S12_Imag           S22_Real           S22_Imag
      100000000   -2,865860797e-02   -4,222929012e-03    3,738584518e-01   -7,214654684e-01    0,000000000e+00    0,000000000e+00    0,000000000e+00    0,000000000e+00
      114000000   -1,642608829e-02    1,149408706e-02   -8,925633878e-02   -8,050597310e-01    0,000000000e+00    0,000000000e+00    0,000000000e+00    0,000000000e+00
      128000000    3,434973303e-03    1,072380971e-02   -5,143496394e-01   -6,200559139e-01    0,000000000e+00    0,000000000e+00    0,000000000e+00    0,000000000e+00
      142000000    1,472828444e-02   -2,639069920e-03   -7,667415738e-01   -2,363441586e-01    0,000000000e+00    0,000000000e+00    0,000000000e+00    0,000000000e+00
      156000000    1,495060977e-02   -1,453366131e-02   -7,640121579e-01    2,202005386e-01    0,000000000e+00    0,000000000e+00    0,000000000e+00    0,000000000e+00
      170000000    1,723429374e-02   -2,248437889e-02   -5,177862048e-01    6,043061614e-01    0,000000000e+00    0,000000000e+00    0,000000000e+00    0,000000000e+00
      184000000    2,140459418e-02   -3,721059486e-02   -1,016129255e-01    7,855197787e-01    0,000000000e+00    0,000000000e+00    0,000000000e+00    0,000000000e+00
      198000000    1,331239101e-02   -6,254449487e-02    3,429945707e-01    7,119171619e-01    0,000000000e+00    0,000000000e+00    0,000000000e+00    0,000000000e+00
      212000000   -1,837442257e-02   -8,126396686e-02    6,776715517e-01    4,095782042e-01    0,000000000e+00    0,000000000e+00    0,000000000e+00    0,000000000e+00
      226000000   -6,128636375e-02   -6,923770905e-02    7,953681350e-01   -3,049976751e-02    0,000000000e+00    0,000000000e+00    0,000000000e+00    0,000000000e+00
      240000000   -8,215609938e-02   -2,586837299e-02    6,458594203e-01   -4,666491449e-01    0,000000000e+00    0,000000000e+00    0,000000000e+00    0,000000000e+00
      254000000   -6,324844062e-02    1,693098620e-02    2,757485211e-01   -7,429144382e-01    0,000000000e+00    0,000000000e+00    0,000000000e+00    0,000000000e+00
      268000000   -2,392044477e-02    2,865904570e-02   -1,778444052e-01   -7,636004090e-01    0,000000000e+00    0,000000000e+00    0,000000000e+00    0,000000000e+00
      282000000    4,115305375e-03    1,197879668e-02   -5,614883900e-01   -5,354313254e-01    0,000000000e+00    0,000000000e+00    0,000000000e+00    0,000000000e+00
      296000000    9,903566912e-03   -7,562582381e-03   -7,591716051e-01   -1,396311671e-01    0,000000000e+00    0,000000000e+00    0,000000000e+00    0,000000000e+00
      310000000    1,162225846e-02   -1,615302451e-02   -7,121484876e-01    2,988770008e-01    0,000000000e+00    0,000000000e+00    0,000000000e+00    0,000000000e+00
      324000000    2,017386444e-02   -2,689224482e-02   -4,269367158e-01    6,367210746e-01    0,000000000e+00    0,000000000e+00    0,000000000e+00    0,000000000e+00
      338000000    2,576085739e-02   -5,251821503e-02   -5,514430348e-03    7,603546977e-01    0,000000000e+00    0,000000000e+00    0,000000000e+00    0,000000000e+00
      352000000    7,367642131e-03   -8,495491743e-02    4,059469104e-01    6,387382150e-01    0,000000000e+00    0,000000000e+00    0,000000000e+00    0,000000000e+00
      366000000   -3,436447307e-02   -9,517107159e-02    6,898258328e-01    3,115223646e-01    0,000000000e+00    0,000000000e+00    0,000000000e+00    0,000000000e+00
      380000000   -7,040355355e-02   -7,144988328e-02    7,468257546e-01   -1,258469373e-01    0,000000000e+00    0,000000000e+00    0,000000000e+00    0,000000000e+00
      394000000   -7,213298976e-02   -3,266113251e-02    5,459305048e-01   -5,200588107e-01    0,000000000e+00    0,000000000e+00    0,000000000e+00    0,000000000e+00
      408000000   -4,645132273e-02   -1,641303301e-02    1,620340347e-01   -7,304640412e-01    0,000000000e+00    0,000000000e+00    0,000000000e+00    0,000000000e+00
      422000000   -2,826891653e-02   -3,213018924e-02   -2,668412030e-01   -6,950663924e-01    0,000000000e+00    0,000000000e+00    0,000000000e+00    0,000000000e+00
      436000000   -4,055787995e-02   -5,210613832e-02   -6,034655571e-01   -4,315541089e-01    0,000000000e+00    0,000000000e+00    0,000000000e+00    0,000000000e+00
      450000000   -6,687446684e-02   -4,418798909e-02   -7,397460938e-01   -2,173115686e-02    0,000000000e+00    0,000000000e+00    0,000000000e+00    0,000000000e+00
      464000000   -7,269060612e-02   -1,197460294e-02   -6,179047227e-01    3,968640566e-01    0,000000000e+00    0,000000000e+00    0,000000000e+00    0,000000000e+00
      478000000   -4,751566425e-02    1,109042484e-02   -2,822269201e-01    6,667481661e-01    0,000000000e+00    0,000000000e+00    0,000000000e+00    0,000000000e+00
      492000000   -1,579908654e-02    5,225752480e-03    1,378188431e-01    7,012510896e-01    0,000000000e+00    0,000000000e+00    0,000000000e+00    0,000000000e+00
      506000000   -2,371758688e-03   -1,571599394e-02    4,982997775e-01    5,023116469e-01    0,000000000e+00    0,000000000e+00    0,000000000e+00    0,000000000e+00
      520000000   -5,008761305e-03   -3,119409084e-02    6,862249970e-01    1,417866200e-01    0,000000000e+00    0,000000000e+00    0,000000000e+00    0,000000000e+00
      534000000   -3,593450179e-03   -3,851785138e-02    6,426303983e-01   -2,619586885e-01    0,000000000e+00    0,000000000e+00    0,000000000e+00    0,000000000e+00
      548000000    5,993042141e-03   -5,390793458e-02    3,814122379e-01   -5,660805106e-01    0,000000000e+00    0,000000000e+00    0,000000000e+00    0,000000000e+00
      562000000    2,965232125e-03   -8,979132771e-02    2,770591760e-03   -6,718406081e-01    0,000000000e+00    0,000000000e+00    0,000000000e+00    0,000000000e+00
      576000000   -3,389765695e-02   -1,246076822e-01   -3,679282963e-01   -5,577732325e-01    0,000000000e+00    0,000000000e+00    0,000000000e+00    0,000000000e+00
      590000000   -9,595852345e-02   -1,225269586e-01   -6,199271679e-01   -2,625331581e-01    0,000000000e+00    0,000000000e+00    0,000000000e+00    0,000000000e+00
      604000000   -1,391121000e-01   -7,211379707e-02   -6,641482115e-01    1,368522942e-01    0,000000000e+00    0,000000000e+00    0,000000000e+00    0,000000000e+00
      618000000   -1,295004636e-01   -1,006165892e-02   -4,641410708e-01    4,932241440e-01    0,000000000e+00    0,000000000e+00    0,000000000e+00    0,000000000e+00
      632000000   -8,414585143e-02    1,632221416e-02   -1,004498824e-01    6,612511277e-01    0,000000000e+00    0,000000000e+00    0,000000000e+00    0,000000000e+00
      646000000   -5,186259001e-02   -1,031089851e-04    2,855149806e-01    5,949648619e-01    0,000000000e+00    0,000000000e+00    0,000000000e+00    0,000000000e+00
      660000000   -5,420199409e-02   -2,059738897e-02    5,639641285e-01    3,230146468e-01    0,000000000e+00    0,000000000e+00    0,000000000e+00    0,000000000e+00
      674000000   -6,936796755e-02   -1,615189575e-02    6,406788230e-01   -6,341118366e-02    0,000000000e+00    0,000000000e+00    0,000000000e+00    0,000000000e+00
      688000000   -6,704591215e-02    9,630274028e-03    4,704160690e-01   -4,231204093e-01    0,000000000e+00    0,000000000e+00    0,000000000e+00    0,000000000e+00
      702000000   -3,648505732e-02    2,575803921e-02    1,213383824e-01   -6,028944850e-01    0,000000000e+00    0,000000000e+00    0,000000000e+00    0,000000000e+00
      716000000    4,076380283e-03    1,640891284e-02   -2,593922019e-01   -5,451844931e-01    0,000000000e+00    0,000000000e+00    0,000000000e+00    0,000000000e+00
      730000000    3,715497255e-02   -1,330393460e-02   -5,222421885e-01   -2,706942260e-01    0,000000000e+00    0,000000000e+00    0,000000000e+00    0,000000000e+00
      744000000    6,308730692e-02   -6,572695822e-02   -5,601633191e-01    9,886080772e-02    0,000000000e+00    0,000000000e+00    0,000000000e+00    0,000000000e+00
      758000000    6,183455884e-02   -1,524049640e-01   -3,660170436e-01    4,003648162e-01    0,000000000e+00    0,000000000e+00    0,000000000e+00    0,000000000e+00
      772000000   -1,728929952e-02   -2,560628653e-01   -4,534137994e-02    5,081918836e-01    0,000000000e+00    0,000000000e+00    0,000000000e+00    0,000000000e+00
      786000000   -2,026564330e-01   -2,918018997e-01    2,596184015e-01    3,990365267e-01    0,000000000e+00    0,000000000e+00    0,000000000e+00    0,000000000e+00
      800000000   -4,083987474e-01   -1,259906739e-01    4,065375030e-01    1,181859002e-01    0,000000000e+00    0,000000000e+00    0,000000000e+00    0,000000000e+00
      814000000   -3,771443069e-01    2,020148337e-01    2,962213159e-01   -1,508904546e-01    0,000000000e+00    0,000000000e+00    0,000000000e+00    0,000000000e+00
      828000000   -6,136444956e-02    3,469479382e-01    8,244816959e-02   -1,896182895e-01    0,000000000e+00    0,000000000e+00    0,000000000e+00    0,000000000e+00
      842000000    2,116059363e-01    1,848420203e-01   -3,222399158e-03   -9,278696030e-02    0,000000000e+00    0,000000000e+00    0,000000000e+00    0,000000000e+00
      856000000    2,656075656e-01   -1,064576060e-01    3,601622954e-02   -3,703517467e-02    0,000000000e+00    0,000000000e+00    0,000000000e+00    0,000000000e+00
      870000000    8,228970319e-02   -3,518826067e-01    8,907874674e-02   -9,755029529e-02    0,000000000e+00    0,000000000e+00    0,000000000e+00    0,000000000e+00
      884000000   -2,680482268e-01   -3,555139899e-01    1,087962557e-02   -2,284024060e-01    0,000000000e+00    0,000000000e+00    0,000000000e+00    0,000000000e+00
      898000000   -4,582402408e-01   -1,274447422e-02   -2,161570638e-01   -2,095491439e-01    0,000000000e+00    0,000000000e+00    0,000000000e+00    0,000000000e+00
      912000000   -2,349768132e-01    2,777386606e-01   -3,309947848e-01    6,306241453e-02    0,000000000e+00    0,000000000e+00    0,000000000e+00    0,000000000e+00
      926000000    5,693463236e-02    2,612101734e-01   -2,071381360e-01    2,625061870e-01    0,000000000e+00    0,000000000e+00    0,000000000e+00    0,000000000e+00
      940000000    2,079430670e-01    8,320889622e-02   -3,053154796e-02    3,252654970e-01    0,000000000e+00    0,000000000e+00    0,000000000e+00    0,000000000e+00
      954000000    2,217638195e-01   -1,191537604e-01    1,321237385e-01    3,012902141e-01    0,000000000e+00    0,000000000e+00    0,000000000e+00    0,000000000e+00
      968000000    1,146771684e-01   -2,934631705e-01    2,692319751e-01    2,142116576e-01    0,000000000e+00    0,000000000e+00    0,000000000e+00    0,000000000e+00
      982000000   -7,847278565e-02   -3,869212866e-01    3,628754616e-01    6,190982461e-02    0,000000000e+00    0,000000000e+00    0,000000000e+00    0,000000000e+00
      996000000   -3,115541041e-01   -3,337001204e-01    3,623407781e-01   -1,423149705e-01    0,000000000e+00    0,000000000e+00    0,000000000e+00    0,000000000e+00
     1010000000   -4,584081769e-01   -1,194435507e-01    2,197565436e-01   -3,364037871e-01    0,000000000e+00    0,000000000e+00    0,000000000e+00    0,000000000e+00
     1024000000   -4,133253396e-01    1,401675344e-01   -3,019250557e-02   -3,854351938e-01    0,000000000e+00    0,000000000e+00    0,000000000e+00    0,000000000e+00
     1038000000   -2,263088971e-01    2,882026136e-01   -2,415967733e-01   -2,574360669e-01    0,000000000e+00    0,000000000e+00    0,000000000e+00    0,000000000e+00
     1052000000   -1,520995889e-02    2,785273194e-01   -3,095835447e-01   -4,760540277e-02    0,000000000e+00    0,000000000e+00    0,000000000e+00    0,000000000e+00
     1066000000    1,316815168e-01    1,658843756e-01   -2,524383068e-01    1,423117518e-01    0,000000000e+00    0,000000000e+00    0,000000000e+00    0,000000000e+00
     1080000000    1,922972500e-01    1,175170951e-02   -1,165833175e-01    2,550187111e-01    0,000000000e+00    0,000000000e+00    0,000000000e+00    0,000000000e+00
     1094000000    1,578580290e-01   -1,610888690e-01    5,985792726e-02    2,933431864e-01    0,000000000e+00    0,000000000e+00    0,000000000e+00    0,000000000e+00
     1108000000    1,688938029e-02   -2,978989184e-01    2,614928484e-01    2,367014587e-01    0,000000000e+00    0,000000000e+00    0,000000000e+00    0,000000000e+00
     1122000000   -2,138116509e-01   -2,785110772e-01    4,409587979e-01    2,193640172e-02    0,000000000e+00    0,000000000e+00    0,000000000e+00    0,000000000e+00
     1136000000   -3,219875395e-01   -3,310966492e-02    3,990625739e-01   -3,458568752e-01    0,000000000e+00    0,000000000e+00    0,000000000e+00    0,000000000e+00
     1150000000   -1,095886305e-01    1,391673982e-01    4,825384542e-02   -5,292857289e-01    0,000000000e+00    0,000000000e+00    0,000000000e+00    0,000000000e+00
     1164000000    8,092884719e-02   -1,768554002e-02   -2,541217506e-01   -4,023977816e-01    0,000000000e+00    0,000000000e+00    0,000000000e+00    0,000000000e+00
     1178000000    2,504415065e-02   -2,545163929e-01   -3,708720803e-01   -1,806586087e-01    0,000000000e+00    0,000000000e+00    0,000000000e+00    0,000000000e+00
     1192000000   -2,220924199e-01   -3,442888260e-01   -3,392967880e-01    4,282879829e-02    0,000000000e+00    0,000000000e+00    0,000000000e+00    0,000000000e+00
     1206000000   -4,826776087e-01   -1,800087690e-01   -1,919428557e-01    1,804834604e-01    0,000000000e+00    0,000000000e+00    0,000000000e+00    0,000000000e+00
     1220000000   -5,025032759e-01    1,348086596e-01   -8,873082697e-03    1,748439074e-01    0,000000000e+00    0,000000000e+00    0,000000000e+00    0,000000000e+00
     1234000000   -2,941763103e-01    3,387841284e-01    7,499909401e-02    7,453577965e-02    0,000000000e+00    0,000000000e+00    0,000000000e+00    0,000000000e+00
     1248000000   -5,945051834e-02    3,576591909e-01    6,906900555e-02    7,318654563e-03    0,000000000e+00    0,000000000e+00    0,000000000e+00    0,000000000e+00
     1262000000    1,069980264e-01    2,543871403e-01    3,431986272e-02   -2,680755407e-02    0,000000000e+00    0,000000000e+00    0,000000000e+00    0,000000000e+00
     1276000000    2,024435997e-01    1,074716449e-01    7,925438695e-03   -3,985875286e-03    0,000000000e+00    0,000000000e+00    0,000000000e+00    0,000000000e+00
     1290000000    2,215647399e-01   -6,160308421e-02    8,369940333e-03    2,902117744e-02    0,000000000e+00    0,000000000e+00    0,000000000e+00    0,000000000e+00
     1304000000    1,666839421e-01   -2,318820953e-01    6,290248781e-02    5,718532205e-02    0,000000000e+00    0,000000000e+00    0,000000000e+00    0,000000000e+00
     1318000000    2,547570504e-02   -3,660358787e-01    1,692784429e-01    9,849679656e-03    0,000000000e+00    0,000000000e+00    0,000000000e+00    0,000000000e+00
     1332000000   -1,542994976e-01   -4,019870758e-01    9,686448425e-02   -1,880025417e-01    0,000000000e+00    0,000000000e+00    0,000000000e+00    0,000000000e+00
     1346000000   -3,627696931e-01   -3,870377839e-01   -5,988621339e-02   -2,319715731e-02    0,000000000e+00    0,000000000e+00    0,000000000e+00    0,000000000e+00
     1360000000   -5,898367763e-01   -2,027973384e-01    4,965804145e-02    9,035224468e-02    0,000000000e+00    0,000000000e+00    0,000000000e+00    0,000000000e+00
     1374000000   -6,235411167e-01    9,980449080e-02    1,751762331e-01    4,488706961e-02    0,000000000e+00    0,000000000e+00    0,000000000e+00    0,000000000e+00
     1388000000   -4,749400616e-01    3,497552574e-01    2,220052630e-01   -2,866187505e-02    0,000000000e+00    0,000000000e+00    0,000000000e+00    0,000000000e+00
     1402000000   -2,546710968e-01    4,466223121e-01    1,978502870e-01   -8,285998553e-02    0,000000000e+00    0,000000000e+00    0,000000000e+00    0,000000000e+00
     1416000000   -4,235786572e-02    4,066138864e-01    1,916650236e-01   -1,055057570e-01    0,000000000e+00    0,000000000e+00    0,000000000e+00    0,000000000e+00
     1430000000    1,262373030e-01    3,082682192e-01    1,874857992e-01   -1,362245381e-01    0,000000000e+00    0,000000000e+00    0,000000000e+00    0,000000000e+00
     1444000000    2,074395269e-01    1,542907506e-01    1,692457497e-01   -1,170699745e-01    0,000000000e+00    0,000000000e+00    0,000000000e+00    0,000000000e+00
     1458000000    2,295448333e-01   -1,162910368e-02    1,556103826e-01   -8,350223303e-02    0,000000000e+00    0,000000000e+00    0,000000000e+00    0,000000000e+00
     1472000000    1,902893931e-01   -1,983048916e-01    1,452862173e-01   -5,442859605e-02    0,000000000e+00    0,000000000e+00    0,000000000e+00    0,000000000e+00
     1486000000    6,594758481e-02   -3,646913171e-01    1,565496325e-01    1,498429850e-02    0,000000000e+00    0,000000000e+00    0,000000000e+00    0,000000000e+00
     1500000000   -1,539839506e-01   -4,775274992e-01    2,395612001e-01    9,438789636e-02    0,000000000e+00    0,000000000e+00    0,000000000e+00    0,000000000e+00
