! NanoVNA-App
! Date: 2025-09-25 15:38:30
! Start: 100MHz Stop: 1,5GHz Points: 101
! S-Parameter data: F S11 S21 S12 S22
# Hz S RI R 50
!     Frequency           S11_Real           S11_Imag           S21_Real           S21_Imag           S12_Real           S12_Imag           S22_Real           S22_Imag
      100000000   -2,849132940e-02   -4,159979988e-03    3,736141920e-01   -7,213843465e-01    0,000000000e+00    0,000000000e+00    0,000000000e+00    0,000000000e+00
      114000000   -1,626151055e-02    1,155435480e-02   -8,927927166e-02   -8,049680591e-01    0,000000000e+00    0,000000000e+00    0,000000000e+00    0,000000000e+00
      128000000    3,688798985e-03    1,073987316e-02   -5,144109130e-01   -6,199099422e-01    0,000000000e+00    0,000000000e+00    0,000000000e+00    0,000000000e+00
      142000000    1,491860580e-02   -2,607804490e-03   -7,666566968e-01   -2,363734096e-01    0,000000000e+00    0,000000000e+00    0,000000000e+00    0,000000000e+00
      156000000    1,573109813e-02   -1,475863345e-02   -7,685325146e-01    2,197655439e-01    0,000000000e+00    0,000000000e+00    0,000000000e+00    0,000000000e+00
      170000000    1,742105559e-02   -2,248434722e-02   -5,174163580e-01    6,043522954e-01    0,000000000e+00    0,000000000e+00    0,000000000e+00    0,000000000e+00
      184000000    2,161924168e-02   -3,719203919e-02   -1,012206823e-01    7,858396173e-01    0,000000000e+00    0,000000000e+00    0,000000000e+00    0,000000000e+00
      198000000    1,347527653e-02   -6,253064424e-02    3,432314694e-01    7,118998170e-01    0,000000000e+00    0,000000000e+00    0,000000000e+00    0,000000000e+00
      212000000   -1,815390773e-02   -8,127873391e-02    6,777900457e-01    4,093778431e-01    0,000000000e+00    0,000000000e+00    0,000000000e+00    0,000000000e+00
      226000000   -6,105342880e-02   -6,915301085e-02    7,950172424e-01   -3,067554720e-02    0,000000000e+00    0,000000000e+00    0,000000000e+00    0,000000000e+00
      240000000   -8,188186586e-02   -2,588131838e-02    6,453675628e-01   -4,667018652e-01    0,000000000e+00    0,000000000e+00    0,000000000e+00    0,000000000e+00
      254000000   -6,304502487e-02    1,678025536e-02    2,759427726e-01   -7,426761985e-01    0,000000000e+00    0,000000000e+00    0,000000000e+00    0,000000000e+00
      268000000   -2,370516211e-02    2,860934474e-02   -1,780449599e-01   -7,632440925e-01    0,000000000e+00    0,000000000e+00    0,000000000e+00    0,000000000e+00
      282000000    4,250083119e-03    1,188699342e-02   -5,610298514e-01   -5,354725122e-01    0,000000000e+00    0,000000000e+00    0,000000000e+00    0,000000000e+00
      296000000    1,014447026e-02   -7,563765161e-03   -7,590773702e-01   -1,393523067e-01    0,000000000e+00    0,000000000e+00    0,000000000e+00    0,000000000e+00
      310000000    1,178682595e-02   -1,616617478e-02   -7,110263705e-01    2,971471250e-01    0,000000000e+00    0,000000000e+00    0,000000000e+00    0,000000000e+00
      324000000    2,044982836e-02   -2,693161182e-02   -4,270629585e-01    6,362694502e-01    0,000000000e+00    0,000000000e+00    0,000000000e+00    0,000000000e+00
      338000000    2,580842189e-02   -5,238893628e-02   -6,095227785e-03    7,613739371e-01    0,000000000e+00    0,000000000e+00    0,000000000e+00    0,000000000e+00
      352000000    7,312129252e-03   -8,488203585e-02    4,062429368e-01    6,389234662e-01    0,000000000e+00    0,000000000e+00    0,000000000e+00    0,000000000e+00
      366000000   -3,420692310e-02   -9,562435746e-02    6,897449493e-01    3,105363250e-01    0,000000000e+00    0,000000000e+00    0,000000000e+00    0,000000000e+00
      380000000   -7,026640326e-02   -7,105810195e-02    7,465046048e-01   -1,253888905e-01    0,000000000e+00    0,000000000e+00    0,000000000e+00    0,000000000e+00
      394000000   -7,172437012e-02   -3,280563653e-02    5,459676981e-01   -5,219573975e-01    0,000000000e+00    0,000000000e+00    0,000000000e+00    0,000000000e+00
      408000000   -4,638473317e-02   -1,680088975e-02    1,613759845e-01   -7,309041023e-01    0,000000000e+00    0,000000000e+00    0,000000000e+00    0,000000000e+00
      422000000   -2,820835076e-02   -3,221243247e-02   -2,675093710e-01   -6,942192912e-01    0,000000000e+00    0,000000000e+00    0,000000000e+00    0,000000000e+00
      436000000   -4,038599879e-02   -5,195384845e-02   -6,031647921e-01   -4,307969213e-01    0,000000000e+00    0,000000000e+00    0,000000000e+00    0,000000000e+00
      450000000   -6,719861180e-02   -4,396843165e-02   -7,397940159e-01   -2,174045518e-02    0,000000000e+00    0,000000000e+00    0,000000000e+00    0,000000000e+00
      464000000   -7,296822220e-02   -1,221089903e-02   -6,178428531e-01    3,963215947e-01    0,000000000e+00    0,000000000e+00    0,000000000e+00    0,000000000e+00
      478000000   -4,754927754e-02    1,098163705e-02   -2,826694250e-01    6,665132046e-01    0,000000000e+00    0,000000000e+00    0,000000000e+00    0,000000000e+00
      492000000   -1,573930308e-02    5,654436536e-03    1,366984695e-01    7,008737326e-01    0,000000000e+00    0,000000000e+00    0,000000000e+00    0,000000000e+00
      506000000   -2,797517227e-03   -1,591856964e-02    4,970230460e-01    5,023520589e-01    0,000000000e+00    0,000000000e+00    0,000000000e+00    0,000000000e+00
      520000000   -4,841144662e-03   -3,170557320e-02    6,879577041e-01    1,421178728e-01    0,000000000e+00    0,000000000e+00    0,000000000e+00    0,000000000e+00
      534000000   -3,458316205e-03   -3,812902048e-02    6,427885890e-01   -2,613042295e-01    0,000000000e+00    0,000000000e+00    0,000000000e+00    0,000000000e+00
      548000000    6,559400819e-03   -5,395917222e-02    3,810815513e-01   -5,661952496e-01    0,000000000e+00    0,000000000e+00    0,000000000e+00    0,000000000e+00
      562000000    3,582703881e-03   -8,976498991e-02    2,618887229e-03   -6,713224649e-01    0,000000000e+00    0,000000000e+00    0,000000000e+00    0,000000000e+00
      576000000   -3,341129795e-02   -1,240652800e-01   -3,682832122e-01   -5,569163561e-01    0,000000000e+00    0,000000000e+00    0,000000000e+00    0,000000000e+00
      590000000   -9,557243437e-02   -1,229643673e-01   -6,198612452e-01   -2,614950836e-01    0,000000000e+00    0,000000000e+00    0,000000000e+00    0,000000000e+00
      604000000   -1,384108067e-01   -7,235496491e-02   -6,633040905e-01    1,365075260e-01    0,000000000e+00    0,000000000e+00    0,000000000e+00    0,000000000e+00
      618000000   -1,286518276e-01   -1,044968795e-02   -4,638137221e-01    4,926726520e-01    0,000000000e+00    0,000000000e+00    0,000000000e+00    0,000000000e+00
      632000000   -8,406475931e-02    1,560468785e-02   -9,890878201e-02    6,626387239e-01    0,000000000e+00    0,000000000e+00    0,000000000e+00    0,000000000e+00
      646000000   -5,230962485e-02   -8,211415843e-05    2,857611477e-01    5,937794447e-01    0,000000000e+00    0,000000000e+00    0,000000000e+00    0,000000000e+00
      660000000   -5,371870473e-02   -2,179452404e-02    5,646223426e-01    3,226915300e-01    0,000000000e+00    0,000000000e+00    0,000000000e+00    0,000000000e+00
      674000000   -7,034526020e-02   -1,654352807e-02    6,405109763e-01   -6,307581812e-02    0,000000000e+00    0,000000000e+00    0,000000000e+00    0,000000000e+00
      688000000   -6,641690433e-02    8,826888166e-03    4,706347883e-01   -4,239171445e-01    0,000000000e+00    0,000000000e+00    0,000000000e+00    0,000000000e+00
      702000000   -3,505566716e-02    2,628458105e-02    1,204460636e-01   -6,033581495e-01    0,000000000e+00    0,000000000e+00    0,000000000e+00    0,000000000e+00
      716000000    3,472599667e-03    1,537113730e-02   -2,594840229e-01   -5,450111628e-01    0,000000000e+00    0,000000000e+00    0,000000000e+00    0,000000000e+00
      730000000    3,730075806e-02   -1,423089858e-02   -5,218310952e-01   -2,709227800e-01    0,000000000e+00    0,000000000e+00    0,000000000e+00    0,000000000e+00
      744000000    6,285509467e-02   -6,479936093e-02   -5,599160194e-01    9,882904589e-02    0,000000000e+00    0,000000000e+00    0,000000000e+00    0,000000000e+00
      758000000    6,109016761e-02   -1,526883543e-01   -3,659178913e-01    4,004156590e-01    0,000000000e+00    0,000000000e+00    0,000000000e+00    0,000000000e+00
      772000000   -1,674463041e-02   -2,566107213e-01   -4,527615011e-02    5,082517862e-01    0,000000000e+00    0,000000000e+00    0,000000000e+00    0,000000000e+00
      786000000   -2,019152045e-01   -2,912358940e-01    2,601145506e-01    3,976515830e-01    0,000000000e+00    0,000000000e+00    0,000000000e+00    0,000000000e+00
      800000000   -4,077645242e-01   -1,258414090e-01    4,067354798e-01    1,179564074e-01    0,000000000e+00    0,000000000e+00    0,000000000e+00    0,000000000e+00
      814000000   -3,749320507e-01    2,016791254e-01    2,950820327e-01   -1,511072218e-01    0,000000000e+00    0,000000000e+00    0,000000000e+00    0,000000000e+00
      828000000   -6,161014736e-02    3,472833931e-01    8,249393106e-02   -1,899143606e-01    0,000000000e+00    0,000000000e+00    0,000000000e+00    0,000000000e+00
      842000000    2,116932720e-01    1,845438480e-01   -2,864157781e-03   -9,250774235e-02    0,000000000e+00    0,000000000e+00    0,000000000e+00    0,000000000e+00
      856000000    2,657890618e-01   -1,065979004e-01    3,693340346e-02   -3,693598136e-02    0,000000000e+00    0,000000000e+00    0,000000000e+00    0,000000000e+00
      870000000    8,143766224e-02   -3,508726358e-01    8,908351511e-02   -9,744042903e-02    0,000000000e+00    0,000000000e+00    0,000000000e+00    0,000000000e+00
      884000000   -2,678395808e-01   -3,548039496e-01    1,201588567e-02   -2,285417616e-01    0,000000000e+00    0,000000000e+00    0,000000000e+00    0,000000000e+00
      898000000   -4,574422240e-01   -1,389733609e-02   -2,163349986e-01   -2,099502087e-01    0,000000000e+00    0,000000000e+00    0,000000000e+00    0,000000000e+00
      912000000   -2,344395518e-01    2,797142863e-01   -3,321271539e-01    6,256277114e-02    0,000000000e+00    0,000000000e+00    0,000000000e+00    0,000000000e+00
      926000000    5,610607192e-02    2,605663240e-01   -2,081272155e-01    2,620960474e-01    0,000000000e+00    0,000000000e+00    0,000000000e+00    0,000000000e+00
      940000000    2,112140208e-01    8,494864404e-02   -3,050755523e-02    3,254741728e-01    0,000000000e+00    0,000000000e+00    0,000000000e+00    0,000000000e+00
      954000000    2,193843275e-01   -1,238951907e-01    1,315907091e-01    3,007297218e-01    0,000000000e+00    0,000000000e+00    0,000000000e+00    0,000000000e+00
      968000000    1,159422770e-01   -2,951038182e-01    2,668754756e-01    2,135890126e-01    0,000000000e+00    0,000000000e+00    0,000000000e+00    0,000000000e+00
      982000000   -7,775644958e-02   -3,870260119e-01    3,611069918e-01    6,228996068e-02    0,000000000e+00    0,000000000e+00    0,000000000e+00    0,000000000e+00
      996000000   -3,108240068e-01   -3,339712918e-01    3,634721935e-01   -1,426991820e-01    0,000000000e+00    0,000000000e+00    0,000000000e+00    0,000000000e+00
     1010000000   -4,626568556e-01   -1,143582538e-01    2,192056626e-01   -3,347337544e-01    0,000000000e+00    0,000000000e+00    0,000000000e+00    0,000000000e+00
     1024000000   -4,119277000e-01    1,443613917e-01   -3,358497843e-02   -3,853068948e-01    0,000000000e+00    0,000000000e+00    0,000000000e+00    0,000000000e+00
     1038000000   -2,256161422e-01    2,871742845e-01   -2,412711382e-01   -2,578862906e-01    0,000000000e+00    0,000000000e+00    0,000000000e+00    0,000000000e+00
     1052000000   -1,651941054e-02    2,793137431e-01   -3,101581931e-01   -4,684582353e-02    0,000000000e+00    0,000000000e+00    0,000000000e+00    0,000000000e+00
     1066000000    1,310472786e-01    1,716413498e-01   -2,546681464e-01    1,387021244e-01    0,000000000e+00    0,000000000e+00    0,000000000e+00    0,000000000e+00
     1080000000    1,930460781e-01    5,575519521e-03   -1,156719178e-01    2,550698221e-01    0,000000000e+00    0,000000000e+00    0,000000000e+00    0,000000000e+00
     1094000000    1,569192410e-01   -1,648224145e-01    6,048893556e-02    2,917436063e-01    0,000000000e+00    0,000000000e+00    0,000000000e+00    0,000000000e+00
     1108000000    1,794603467e-02   -2,926651239e-01    2,598540187e-01    2,334889621e-01    0,000000000e+00    0,000000000e+00    0,000000000e+00    0,000000000e+00
     1122000000   -2,188078463e-01   -2,796905935e-01    4,420953691e-01    2,390944213e-02    0,000000000e+00    0,000000000e+00    0,000000000e+00    0,000000000e+00
     1136000000   -3,210018575e-01   -2,653572708e-02    3,984428942e-01   -3,437440991e-01    0,000000000e+00    0,000000000e+00    0,000000000e+00    0,000000000e+00
     1150000000   -1,065806821e-01    1,420300156e-01    4,652319103e-02   -5,291785598e-01    0,000000000e+00    0,000000000e+00    0,000000000e+00    0,000000000e+00
     1164000000    8,143357933e-02   -1,753726788e-02   -2,505778670e-01   -4,010520279e-01    0,000000000e+00    0,000000000e+00    0,000000000e+00    0,000000000e+00
     1178000000    2,773369290e-02   -2,505424917e-01   -3,667469025e-01   -1,773175150e-01    0,000000000e+00    0,000000000e+00    0,000000000e+00    0,000000000e+00
     1192000000   -2,238764763e-01   -3,502700329e-01   -3,430950642e-01    4,036787525e-02    0,000000000e+00    0,000000000e+00    0,000000000e+00    0,000000000e+00
     1206000000   -4,759105742e-01   -1,834149957e-01   -1,875724643e-01    1,801635027e-01    0,000000000e+00    0,000000000e+00    0,000000000e+00    0,000000000e+00
     1220000000   -4,984493256e-01    1,390623748e-01   -1,096709445e-02    1,776595712e-01    0,000000000e+00    0,000000000e+00    0,000000000e+00    0,000000000e+00
     1234000000   -3,035641015e-01    3,366415799e-01    7,084199041e-02    7,579695433e-02    0,000000000e+00    0,000000000e+00    0,000000000e+00    0,000000000e+00
     1248000000   -6,158971414e-02    3,549100757e-01    6,609363854e-02   -1,008911291e-03    0,000000000e+00    0,000000000e+00    0,000000000e+00    0,000000000e+00
     1262000000    1,041282937e-01    2,588718534e-01    3,163617849e-02   -2,080292813e-02    0,000000000e+00    0,000000000e+00    0,000000000e+00    0,000000000e+00
     1276000000    2,036907971e-01    1,079518124e-01    6,980097387e-03   -5,650406238e-03    0,000000000e+00    0,000000000e+00    0,000000000e+00    0,000000000e+00
     1290000000    2,181932181e-01   -6,100770086e-02    9,495915845e-03    3,038976155e-02    0,000000000e+00    0,000000000e+00    0,000000000e+00    0,000000000e+00
     1304000000    1,643281281e-01   -2,310176045e-01    5,938310549e-02    5,851391330e-02    0,000000000e+00    0,000000000e+00    0,000000000e+00    0,000000000e+00
     1318000000    2,598524652e-02   -3,632015288e-01    1,736509055e-01    1,826134324e-02    0,000000000e+00    0,000000000e+00    0,000000000e+00    0,000000000e+00
     1332000000   -1,505182534e-01   -3,959614038e-01    9,589092433e-02   -1,783356071e-01    0,000000000e+00    0,000000000e+00    0,000000000e+00    0,000000000e+00
     1346000000   -3,619337976e-01   -3,925585151e-01   -6,162691116e-02   -1,765264198e-02    0,000000000e+00    0,000000000e+00    0,000000000e+00    0,000000000e+00
     1360000000   -5,893579721e-01   -2,095959187e-01    5,674815550e-02    8,105456829e-02    0,000000000e+00    0,000000000e+00    0,000000000e+00    0,000000000e+00
     1374000000   -6,291100979e-01    1,119872034e-01    1,776211262e-01    6,155603006e-02    0,000000000e+00    0,000000000e+00    0,000000000e+00    0,000000000e+00
     1388000000   -4,682018757e-01    3,492013812e-01    2,213925123e-01   -3,319500759e-02    0,000000000e+00    0,000000000e+00    0,000000000e+00    0,000000000e+00
     1402000000   -2,508135140e-01    4,473763108e-01    2,016952187e-01   -7,774673402e-02    0,000000000e+00    0,000000000e+00    0,000000000e+00    0,000000000e+00
     1416000000   -4,178889841e-02    4,131857753e-01    1,911615729e-01   -1,149246395e-01    0,000000000e+00    0,000000000e+00    0,000000000e+00    0,000000000e+00
     1430000000    1,142306700e-01    3,057891130e-01    1,665251851e-01   -1,038818136e-01    0,000000000e+00    0,000000000e+00    0,000000000e+00    0,000000000e+00
     1444000000    2,039439678e-01    1,533934623e-01    1,669365466e-01   -1,106818020e-01    0,000000000e+00    0,000000000e+00    0,000000000e+00    0,000000000e+00
     1458000000    2,294618040e-01   -1,334490441e-02    1,389343590e-01   -1,002152041e-01    0,000000000e+00    0,000000000e+00    0,000000000e+00    0,000000000e+00
     1472000000    1,910246164e-01   -1,920306087e-01    1,476598531e-01   -4,364585131e-02    0,000000000e+00    0,000000000e+00    0,000000000e+00    0,000000000e+00
     1486000000    6,908547133e-02   -3,608355820e-01    1,700611562e-01    3,095500357e-02    0,000000000e+00    0,000000000e+00    0,000000000e+00    0,000000000e+00
     1500000000   -1,546840221e-01   -5,031493306e-01    2,448042333e-01    8,006489277e-02    0,000000000e+00    0,000000000e+00    0,000000000e+00    0,000000000e+00
