! NanoVNA-App
! Date: 2025-09-25 15:41:51
! Start: 100MHz Stop: 1,5GHz Points: 101
! S-Parameter data: F S11 S21 S12 S22
# Hz S RI R 50
!     Frequency           S11_Real           S11_Imag           S21_Real           S21_Imag           S12_Real           S12_Imag           S22_Real           S22_Imag
      100000000   -2,874005027e-02   -4,247960169e-03    3,740176260e-01   -7,215633392e-01    0,000000000e+00    0,000000000e+00    0,000000000e+00    0,000000000e+00
      114000000   -1,651284471e-02    1,150574628e-02   -8,913589269e-02   -8,051980734e-01    0,000000000e+00    0,000000000e+00    0,000000000e+00    0,000000000e+00
      128000000    3,375733970e-03    1,064877398e-02   -5,145039558e-01   -6,203060150e-01    0,000000000e+00    0,000000000e+00    0,000000000e+00    0,000000000e+00
      142000000    1,466638222e-02   -2,644712804e-03   -7,668760419e-01   -2,365260273e-01    0,000000000e+00    0,000000000e+00    0,000000000e+00    0,000000000e+00
      156000000    1,587073691e-02   -1,468249969e-02   -7,711868286e-01    2,217317969e-01    0,000000000e+00    0,000000000e+00    0,000000000e+00    0,000000000e+00
      170000000    1,715604402e-02   -2,247163653e-02   -5,177059174e-01    6,044165492e-01    0,000000000e+00    0,000000000e+00    0,000000000e+00    0,000000000e+00
      184000000    2,138661593e-02   -3,714357689e-02   -1,012526378e-01    7,859236002e-01    0,000000000e+00    0,000000000e+00    0,000000000e+00    0,000000000e+00
      198000000    1,328976639e-02   -6,254055351e-02    3,429857194e-01    7,118681073e-01    0,000000000e+00    0,000000000e+00    0,000000000e+00    0,000000000e+00
      212000000   -1,843777299e-02   -8,127897233e-02    6,778249145e-01    4,097191691e-01    0,000000000e+00    0,000000000e+00    0,000000000e+00    0,000000000e+00
      226000000   -6,138181314e-02   -6,923218817e-02    7,954609990e-01   -3,049353138e-02    0,000000000e+00    0,000000000e+00    0,000000000e+00    0,000000000e+00
      240000000   -8,222813159e-02   -2,580525354e-02    6,460692286e-01   -4,668778181e-01    0,000000000e+00    0,000000000e+00    0,000000000e+00    0,000000000e+00
      254000000   -6,337529421e-02    1,695600711e-02    2,761612833e-01   -7,427675128e-01    0,000000000e+00    0,000000000e+00    0,000000000e+00    0,000000000e+00
      268000000   -2,393887565e-02    2,873403020e-02   -1,779376566e-01   -7,639549375e-01    0,000000000e+00    0,000000000e+00    0,000000000e+00    0,000000000e+00
      282000000    4,075509496e-03    1,208858378e-02   -5,615116358e-01   -5,354610682e-01    0,000000000e+00    0,000000000e+00    0,000000000e+00    0,000000000e+00
      296000000    9,779439308e-03   -7,463336922e-03   -7,593887448e-01   -1,396942586e-01    0,000000000e+00    0,000000000e+00    0,000000000e+00    0,000000000e+00
      310000000    1,149085071e-02   -1,604859345e-02   -7,131257057e-01    2,984714806e-01    0,000000000e+00    0,000000000e+00    0,000000000e+00    0,000000000e+00
      324000000    1,992223039e-02   -2,663765475e-02   -4,274375737e-01    6,368714571e-01    0,000000000e+00    0,000000000e+00    0,000000000e+00    0,000000000e+00
      338000000    2,572245151e-02   -5,231314152e-02   -8,676086552e-03    7,629542947e-01    0,000000000e+00    0,000000000e+00    0,000000000e+00    0,000000000e+00
      352000000    7,395424880e-03   -8,484327793e-02    4,061773121e-01    6,389724016e-01    0,000000000e+00    0,000000000e+00    0,000000000e+00    0,000000000e+00
      366000000   -3,439217433e-02   -9,564956278e-02    6,902646422e-01    3,106459379e-01    0,000000000e+00    0,000000000e+00    0,000000000e+00    0,000000000e+00
      380000000   -7,053305209e-02   -7,093615830e-02    7,468369007e-01   -1,253933012e-01    0,000000000e+00    0,000000000e+00    0,000000000e+00    0,000000000e+00
      394000000   -7,239979506e-02   -3,249870613e-02    5,448229313e-01   -5,209766626e-01    0,000000000e+00    0,000000000e+00    0,000000000e+00    0,000000000e+00
      408000000   -4,633270577e-02   -1,635518484e-02    1,595736593e-01   -7,313890457e-01    0,000000000e+00    0,000000000e+00    0,000000000e+00    0,000000000e+00
      422000000   -2,844219096e-02   -3,201839328e-02   -2,674788237e-01   -6,941756606e-01    0,000000000e+00    0,000000000e+00    0,000000000e+00    0,000000000e+00
      436000000   -4,074835032e-02   -5,192551017e-02   -6,035355926e-01   -4,324154556e-01    0,000000000e+00    0,000000000e+00    0,000000000e+00    0,000000000e+00
      450000000   -6,683728844e-02   -4,364321753e-02   -7,397610545e-01   -2,145794593e-02    0,000000000e+00    0,000000000e+00    0,000000000e+00    0,000000000e+00
      464000000   -7,300481200e-02   -1,198933274e-02   -6,183789968e-01    3,964734375e-01    0,000000000e+00    0,000000000e+00    0,000000000e+00    0,000000000e+00
      478000000   -4,762641713e-02    1,149726100e-02   -2,823082805e-01    6,669448018e-01    0,000000000e+00    0,000000000e+00    0,000000000e+00    0,000000000e+00
      492000000   -1,605505124e-02    5,553773604e-03    1,374616325e-01    7,015094757e-01    0,000000000e+00    0,000000000e+00    0,000000000e+00    0,000000000e+00
      506000000   -2,777669113e-03   -1,596459001e-02    4,977231026e-01    5,021133423e-01    0,000000000e+00    0,000000000e+00    0,000000000e+00    0,000000000e+00
      520000000   -4,788133316e-03   -3,176961839e-02    6,872767210e-01    1,404694021e-01    0,000000000e+00    0,000000000e+00    0,000000000e+00    0,000000000e+00
      534000000   -3,889069660e-03   -3,801073506e-02    6,430390477e-01   -2,619920671e-01    0,000000000e+00    0,000000000e+00    0,000000000e+00    0,000000000e+00
      548000000    6,172467023e-03   -5,408347398e-02    3,817054331e-01   -5,666701198e-01    0,000000000e+00    0,000000000e+00    0,000000000e+00    0,000000000e+00
      562000000    3,419174114e-03   -8,919582516e-02    2,979136305e-03   -6,709124446e-01    0,000000000e+00    0,000000000e+00    0,000000000e+00    0,000000000e+00
      576000000   -3,389443085e-02   -1,244527251e-01   -3,674627244e-01   -5,579409599e-01    0,000000000e+00    0,000000000e+00    0,000000000e+00    0,000000000e+00
      590000000   -9,581953287e-02   -1,224363148e-01   -6,200252771e-01   -2,654905319e-01    0,000000000e+00    0,000000000e+00    0,000000000e+00    0,000000000e+00
      604000000   -1,386567801e-01   -7,241184264e-02   -6,637543440e-01    1,362738013e-01    0,000000000e+00    0,000000000e+00    0,000000000e+00    0,000000000e+00
      618000000   -1,297483891e-01   -1,024228334e-02   -4,642892480e-01    4,922522604e-01    0,000000000e+00    0,000000000e+00    0,000000000e+00    0,000000000e+00
      632000000   -8,485444635e-02    1,552488469e-02   -9,923122078e-02    6,620602608e-01    0,000000000e+00    0,000000000e+00    0,000000000e+00    0,000000000e+00
      646000000   -5,179993436e-02   -1,605679136e-04    2,851648331e-01    5,936152339e-01    0,000000000e+00    0,000000000e+00    0,000000000e+00    0,000000000e+00
      660000000   -5,405037105e-02   -2,094831318e-02    5,642364621e-01    3,222059906e-01    0,000000000e+00    0,000000000e+00    0,000000000e+00    0,000000000e+00
      674000000   -6,958241016e-02   -1,609930955e-02    6,406468749e-01   -6,316215545e-02    0,000000000e+00    0,000000000e+00    0,000000000e+00    0,000000000e+00
      688000000   -6,753201783e-02    9,502893314e-03    4,709011614e-01   -4,238371849e-01    0,000000000e+00    0,000000000e+00    0,000000000e+00    0,000000000e+00
      702000000   -3,636546433e-02    2,583031356e-02    1,193295866e-01   -6,031556726e-01    0,000000000e+00    0,000000000e+00    0,000000000e+00    0,000000000e+00
      716000000    4,068594426e-03    1,702873036e-02   -2,597476840e-01   -5,448359251e-01    0,000000000e+00    0,000000000e+00    0,000000000e+00    0,000000000e+00
      730000000    3,703099489e-02   -1,430070307e-02   -5,219746232e-01   -2,712156773e-01    0,000000000e+00    0,000000000e+00    0,000000000e+00    0,000000000e+00
      744000000    6,201166287e-02   -6,494817883e-02   -5,598258972e-01    9,833656251e-02    0,000000000e+00    0,000000000e+00    0,000000000e+00    0,000000000e+00
      758000000    6,071483716e-02   -1,524904966e-01   -3,670218885e-01    4,007086456e-01    0,000000000e+00    0,000000000e+00    0,000000000e+00    0,000000000e+00
      772000000   -1,722821221e-02   -2,557727098e-01   -4,645514116e-02    5,090635419e-01    0,000000000e+00    0,000000000e+00    0,000000000e+00    0,000000000e+00
      786000000   -2,026741505e-01   -2,906556726e-01    2,598346174e-01    3,988646865e-01    0,000000000e+00    0,000000000e+00    0,000000000e+00    0,000000000e+00
      800000000   -4,084468782e-01   -1,270747483e-01    4,071473181e-01    1,184250563e-01    0,000000000e+00    0,000000000e+00    0,000000000e+00    0,000000000e+00
      814000000   -3,773317039e-01    2,013174742e-01    2,963897884e-01   -1,511193365e-01    0,000000000e+00    0,000000000e+00    0,000000000e+00    0,000000000e+00
      828000000   -6,252142042e-02    3,478387892e-01    8,211771399e-02   -1,898938417e-01    0,000000000e+00    0,000000000e+00    0,000000000e+00    0,000000000e+00
      842000000    2,116018385e-01    1,856088489e-01   -3,588002175e-03   -9,290074557e-02    0,000000000e+00    0,000000000e+00    0,000000000e+00    0,000000000e+00
      856000000    2,659820020e-01   -1,058578417e-01    3,633041307e-02   -3,662907705e-02    0,000000000e+00    0,000000000e+00    0,000000000e+00    0,000000000e+00
      870000000    8,266804367e-02   -3,513005674e-01    8,924633265e-02   -9,729937464e-02    0,000000000e+00    0,000000000e+00    0,000000000e+00    0,000000000e+00
      884000000   -2,674766183e-01   -3,558470905e-01    1,147240680e-02   -2,279130369e-01    0,000000000e+00    0,000000000e+00    0,000000000e+00    0,000000000e+00
      898000000   -4,572047293e-01   -1,302060485e-02   -2,147689909e-01   -2,091708183e-01    0,000000000e+00    0,000000000e+00    0,000000000e+00    0,000000000e+00
      912000000   -2,347652018e-01    2,780487537e-01   -3,425872922e-01    7,405633479e-02    0,000000000e+00    0,000000000e+00    0,000000000e+00    0,000000000e+00
      926000000    5,405204743e-02    2,609961927e-01   -2,105606347e-01    2,619278431e-01    0,000000000e+00    0,000000000e+00    0,000000000e+00    0,000000000e+00
      940000000    2,093724459e-01    8,313212544e-02   -3,027828038e-02    3,247450590e-01    0,000000000e+00    0,000000000e+00    0,000000000e+00    0,000000000e+00
      954000000    2,219944298e-01   -1,225828752e-01    1,319208890e-01    3,006973267e-01    0,000000000e+00    0,000000000e+00    0,000000000e+00    0,000000000e+00
      968000000    1,203755289e-01   -2,937575579e-01    2,675141990e-01    2,134699225e-01    0,000000000e+00    0,000000000e+00    0,000000000e+00    0,000000000e+00
      982000000   -7,761748135e-02   -3,825091124e-01    3,599355519e-01    6,213457510e-02    0,000000000e+00    0,000000000e+00    0,000000000e+00    0,000000000e+00
      996000000   -3,138548732e-01   -3,303896785e-01    3,629684150e-01   -1,434391439e-01    0,000000000e+00    0,000000000e+00    0,000000000e+00    0,000000000e+00
     1010000000   -4,583973885e-01   -1,142821833e-01    2,209252268e-01   -3,337159455e-01    0,000000000e+00    0,000000000e+00    0,000000000e+00    0,000000000e+00
     1024000000   -4,131708145e-01    1,430114657e-01   -3,150025010e-02   -3,846618831e-01    0,000000000e+00    0,000000000e+00    0,000000000e+00    0,000000000e+00
     1038000000   -2,254698575e-01    2,856674790e-01   -2,375455499e-01   -2,572995722e-01    0,000000000e+00    0,000000000e+00    0,000000000e+00    0,000000000e+00
     1052000000   -1,335382648e-02    2,770288885e-01   -3,098812103e-01   -4,622230679e-02    0,000000000e+00    0,000000000e+00    0,000000000e+00    0,000000000e+00
     1066000000    1,306265891e-01    1,712653786e-01   -2,495470643e-01    1,411440074e-01    0,000000000e+00    0,000000000e+00    0,000000000e+00    0,000000000e+00
     1080000000    1,908052862e-01    8,169464767e-03   -1,151596978e-01    2,561607361e-01    0,000000000e+00    0,000000000e+00    0,000000000e+00    0,000000000e+00
     1094000000    1,621942520e-01   -1,613927782e-01    5,994287878e-02    2,915793061e-01    0,000000000e+00    0,000000000e+00    0,000000000e+00    0,000000000e+00
     1108000000    1,618870720e-02   -2,924374044e-01    2,610776424e-01    2,326474935e-01    0,000000000e+00    0,000000000e+00    0,000000000e+00    0,000000000e+00
     1122000000   -2,091971487e-01   -2,835224271e-01    4,384489059e-01    2,554171905e-02    0,000000000e+00    0,000000000e+00    0,000000000e+00    0,000000000e+00
     1136000000   -3,253075182e-01   -2,601357177e-02    3,998359740e-01   -3,495855927e-01    0,000000000e+00    0,000000000e+00    0,000000000e+00    0,000000000e+00
     1150000000   -1,071296111e-01    1,426355243e-01    4,800226912e-02   -5,309300423e-01    0,000000000e+00    0,000000000e+00    0,000000000e+00    0,000000000e+00
     1164000000    8,349890262e-02   -1,860840991e-02   -2,519900501e-01   -4,038257897e-01    0,000000000e+00    0,000000000e+00    0,000000000e+00    0,000000000e+00
     1178000000    2,826099098e-02   -2,494908720e-01   -3,715073466e-01   -1,781428605e-01    0,000000000e+00    0,000000000e+00    0,000000000e+00    0,000000000e+00
     1192000000   -2,248828262e-01   -3,463355303e-01   -3,435469270e-01    4,196837544e-02    0,000000000e+00    0,000000000e+00    0,000000000e+00    0,000000000e+00
     1206000000   -4,822698534e-01   -1,849341393e-01   -1,896074712e-01    1,806295365e-01    0,000000000e+00    0,000000000e+00    0,000000000e+00    0,000000000e+00
     1220000000   -5,009812713e-01    1,338060498e-01   -3,300542710e-03    1,763935536e-01    0,000000000e+00    0,000000000e+00    0,000000000e+00    0,000000000e+00
     1234000000   -3,044776320e-01    3,396016657e-01    7,161401957e-02    7,649239898e-02    0,000000000e+00    0,000000000e+00    0,000000000e+00    0,000000000e+00
     1248000000   -6,560887396e-02    3,562086523e-01    6,336157024e-02    1,190041192e-03    0,000000000e+00    0,000000000e+00    0,000000000e+00    0,000000000e+00
     1262000000    1,145740971e-01    2,552308440e-01    3,144159541e-02   -2,578341961e-02    0,000000000e+00    0,000000000e+00    0,000000000e+00    0,000000000e+00
     1276000000    1,995068938e-01    1,057539955e-01    1,829643152e-03   -1,065246575e-02    0,000000000e+00    0,000000000e+00    0,000000000e+00    0,000000000e+00
     1290000000    2,194239050e-01   -6,459587812e-02    1,100903656e-02    2,066114917e-02    0,000000000e+00    0,000000000e+00    0,000000000e+00    0,000000000e+00
     1304000000    1,662997752e-01   -2,346908152e-01    6,698268652e-02    5,399043113e-02    0,000000000e+00    0,000000000e+00    0,000000000e+00    0,000000000e+00
     1318000000    2,762612142e-02   -3,628838360e-01    1,751051396e-01    1,620511524e-02    0,000000000e+00    0,000000000e+00    0,000000000e+00    0,000000000e+00
     1332000000   -1,506862342e-01   -3,967894018e-01    9,923867136e-02   -1,809617877e-01    0,000000000e+00    0,000000000e+00    0,000000000e+00    0,000000000e+00
     1346000000   -3,600598872e-01   -3,861046433e-01   -5,858452991e-02   -1,798974164e-02    0,000000000e+00    0,000000000e+00    0,000000000e+00    0,000000000e+00
     1360000000   -5,829730034e-01   -2,103906572e-01    6,858716160e-02    9,088194370e-02    0,000000000e+00    0,000000000e+00    0,000000000e+00    0,000000000e+00
     1374000000   -6,317006350e-01    1,028845385e-01    1,783631891e-01    4,370606318e-02    0,000000000e+00    0,000000000e+00    0,000000000e+00    0,000000000e+00
     1388000000   -4,774218202e-01    3,503808677e-01    2,199032903e-01   -3,547809646e-02    0,000000000e+00    0,000000000e+00    0,000000000e+00    0,000000000e+00
     1402000000   -2,467086613e-01    4,425215125e-01    2,048733830e-01   -7,807371020e-02    0,000000000e+00    0,000000000e+00    0,000000000e+00    0,000000000e+00
     1416000000   -3,804073855e-02    4,108963013e-01    1,913862675e-01   -1,084642410e-01    0,000000000e+00    0,000000000e+00    0,000000000e+00    0,000000000e+00
     1430000000    1,068217158e-01    3,004724383e-01    1,884031147e-01   -1,077465415e-01    0,000000000e+00    0,000000000e+00    0,000000000e+00    0,000000000e+00
     1444000000    1,981938779e-01    1,545305103e-01    1,626512408e-01   -1,058847830e-01    0,000000000e+00    0,000000000e+00    0,000000000e+00    0,000000000e+00
     1458000000    2,296075821e-01   -1,207845472e-02    1,541509032e-01   -8,216217160e-02    0,000000000e+00    0,000000000e+00    0,000000000e+00    0,000000000e+00
     1472000000    1,938987374e-01   -1,910323799e-01    1,498313844e-01   -5,213891715e-02    0,000000000e+00    0,000000000e+00    0,000000000e+00    0,000000000e+00
     1486000000    6,916395575e-02   -3,618380427e-01    1,706834435e-01    3,117288463e-02    0,000000000e+00    0,000000000e+00    0,000000000e+00    0,000000000e+00
     1500000000   -1,648017317e-01   -4,833795428e-01    2,364922762e-01    1,021587178e-01    0,000000000e+00    0,000000000e+00    0,000000000e+00    0,000000000e+00
