! NanoVNA-App
! Date: 2025-09-25 15:44:28
! Start: 100MHz Stop: 1,5GHz Points: 101
! S-Parameter data: F S11 S21 S12 S22
# Hz S RI R 50
!     Frequency           S11_Real           S11_Imag           S21_Real           S21_Imag           S12_Real           S12_Imag           S22_Real           S22_Imag
      100000000   -2,875915542e-02   -4,269428086e-03    3,739313781e-01   -7,215286493e-01    0,000000000e+00    0,000000000e+00    0,000000000e+00    0,000000000e+00
      114000000   -1,654364914e-02    1,149510406e-02   -8,919940144e-02   -8,052324653e-01    0,000000000e+00    0,000000000e+00    0,000000000e+00    0,000000000e+00
      128000000    3,442167770e-03    1,067741495e-02   -5,142635703e-01   -6,202574968e-01    0,000000000e+00    0,000000000e+00    0,000000000e+00    0,000000000e+00
      142000000    1,463103760e-02   -2,644463442e-03   -7,668926716e-01   -2,363466322e-01    0,000000000e+00    0,000000000e+00    0,000000000e+00    0,000000000e+00
      156000000    1,512672752e-02   -1,458028238e-02   -7,654879689e-01    2,214842439e-01    0,000000000e+00    0,000000000e+00    0,000000000e+00    0,000000000e+00
      170000000    1,711563580e-02   -2,247896791e-02   -5,179240704e-01    6,044498086e-01    0,000000000e+00    0,000000000e+00    0,000000000e+00    0,000000000e+00
      184000000    2,128538303e-02   -3,712854162e-02   -1,012717187e-01    7,859663367e-01    0,000000000e+00    0,000000000e+00    0,000000000e+00    0,000000000e+00
      198000000    1,324014086e-02   -6,253268570e-02    3,429464102e-01    7,123976350e-01    0,000000000e+00    0,000000000e+00    0,000000000e+00    0,000000000e+00
      212000000   -1,844295114e-02   -8,129610866e-02    6,778606772e-01    4,098698497e-01    0,000000000e+00    0,000000000e+00    0,000000000e+00    0,000000000e+00
      226000000   -6,145422161e-02   -6,916847825e-02    7,953978777e-01   -3,045677766e-02    0,000000000e+00    0,000000000e+00    0,000000000e+00    0,000000000e+00
      240000000   -8,226075023e-02   -2,580395713e-02    6,459690332e-01   -4,667406380e-01    0,000000000e+00    0,000000000e+00    0,000000000e+00    0,000000000e+00
      254000000   -6,341709197e-02    1,697004028e-02    2,761941850e-01   -7,428901196e-01    0,000000000e+00    0,000000000e+00    0,000000000e+00    0,000000000e+00
      268000000   -2,397983149e-02    2,874197625e-02   -1,775207222e-01   -7,639955878e-01    0,000000000e+00    0,000000000e+00    0,000000000e+00    0,000000000e+00
      282000000    4,075068515e-03    1,208697073e-02   -5,616716743e-01   -5,355170965e-01    0,000000000e+00    0,000000000e+00    0,000000000e+00    0,000000000e+00
      296000000    9,881982580e-03   -7,602906320e-03   -7,593733668e-01   -1,394678354e-01    0,000000000e+00    0,000000000e+00    0,000000000e+00    0,000000000e+00
      310000000    1,143315528e-02   -1,603999175e-02   -7,112225294e-01    2,984874249e-01    0,000000000e+00    0,000000000e+00    0,000000000e+00    0,000000000e+00
      324000000    1,989951730e-02   -2,673202753e-02   -4,277290106e-01    6,372929215e-01    0,000000000e+00    0,000000000e+00    0,000000000e+00    0,000000000e+00
      338000000    2,563387901e-02   -5,255774409e-02   -1,103858836e-02    7,619175911e-01    0,000000000e+00    0,000000000e+00    0,000000000e+00    0,000000000e+00
      352000000    7,484559901e-03   -8,462129533e-02    4,067787230e-01    6,384502649e-01    0,000000000e+00    0,000000000e+00    0,000000000e+00    0,000000000e+00
      366000000   -3,470156714e-02   -9,537766874e-02    6,897588968e-01    3,117865324e-01    0,000000000e+00    0,000000000e+00    0,000000000e+00    0,000000000e+00
      380000000   -7,023095340e-02   -7,100734115e-02    7,474314570e-01   -1,253011525e-01    0,000000000e+00    0,000000000e+00    0,000000000e+00    0,000000000e+00
      394000000   -7,198986411e-02   -3,271523491e-02    5,460695624e-01   -5,216943622e-01    0,000000000e+00    0,000000000e+00    0,000000000e+00    0,000000000e+00
      408000000   -4,639728367e-02   -1,634528488e-02    1,612956524e-01   -7,314701080e-01    0,000000000e+00    0,000000000e+00    0,000000000e+00    0,000000000e+00
      422000000   -2,815332264e-02   -3,206478432e-02   -2,662729621e-01   -6,943348646e-01    0,000000000e+00    0,000000000e+00    0,000000000e+00    0,000000000e+00
      436000000   -4,036025330e-02   -5,152250454e-02   -6,040214896e-01   -4,314194024e-01    0,000000000e+00    0,000000000e+00    0,000000000e+00    0,000000000e+00
      450000000   -6,684163958e-02   -4,384527355e-02   -7,394074798e-01   -2,230952494e-02    0,000000000e+00    0,000000000e+00    0,000000000e+00    0,000000000e+00
      464000000   -7,309043407e-02   -1,207597833e-02   -6,188045740e-01    3,964819014e-01    0,000000000e+00    0,000000000e+00    0,000000000e+00    0,000000000e+00
      478000000   -4,762237892e-02    1,113502681e-02   -2,832671702e-01    6,671274304e-01    0,000000000e+00    0,000000000e+00    0,000000000e+00    0,000000000e+00
      492000000   -1,604846679e-02    5,874164402e-03    1,377999634e-01    7,010680437e-01    0,000000000e+00    0,000000000e+00    0,000000000e+00    0,000000000e+00
      506000000   -2,754526678e-03   -1,544943545e-02    4,976432621e-01    5,027146339e-01    0,000000000e+00    0,000000000e+00    0,000000000e+00    0,000000000e+00
      520000000   -5,010071211e-03   -3,151669353e-02    6,881976724e-01    1,412529200e-01    0,000000000e+00    0,000000000e+00    0,000000000e+00    0,000000000e+00
      534000000   -3,377294401e-03   -3,806792200e-02    6,438181996e-01   -2,618964612e-01    0,000000000e+00    0,000000000e+00    0,000000000e+00    0,000000000e+00
      548000000    6,706538610e-03   -5,382832140e-02    3,816399574e-01   -5,660023689e-01    0,000000000e+00    0,000000000e+00    0,000000000e+00    0,000000000e+00
      562000000    3,303015837e-03   -8,959937096e-02    2,822934184e-03   -6,716554165e-01    0,000000000e+00    0,000000000e+00    0,000000000e+00    0,000000000e+00
      576000000   -3,368837759e-02   -1,243547946e-01   -3,676129282e-01   -5,580548048e-01    0,000000000e+00    0,000000000e+00    0,000000000e+00    0,000000000e+00
      590000000   -9,561681002e-02   -1,226537526e-01   -6,205922961e-01   -2,629653215e-01    0,000000000e+00    0,000000000e+00    0,000000000e+00    0,000000000e+00
      604000000   -1,389230341e-01   -7,213890553e-02   -6,635687351e-01    1,368935555e-01    0,000000000e+00    0,000000000e+00    0,000000000e+00    0,000000000e+00
      618000000   -1,294723451e-01   -1,000196021e-02   -4,642859101e-01    4,921298921e-01    0,000000000e+00    0,000000000e+00    0,000000000e+00    0,000000000e+00
      632000000   -8,495137095e-02    1,565530524e-02   -1,003227532e-01    6,618216038e-01    0,000000000e+00    0,000000000e+00    0,000000000e+00    0,000000000e+00
      646000000   -5,209772289e-02    1,169321011e-03    2,856882811e-01    5,935848951e-01    0,000000000e+00    0,000000000e+00    0,000000000e+00    0,000000000e+00
      660000000   -5,302824825e-02   -2,082477324e-02    5,652109981e-01    3,232845962e-01    0,000000000e+00    0,000000000e+00    0,000000000e+00    0,000000000e+00
      674000000   -6,898149848e-02   -1,668311097e-02    6,411325336e-01   -6,329505891e-02    0,000000000e+00    0,000000000e+00    0,000000000e+00    0,000000000e+00
      688000000   -6,740054488e-02    9,023262188e-03    4,710426331e-01   -4,236965775e-01    0,000000000e+00    0,000000000e+00    0,000000000e+00    0,000000000e+00
      702000000   -3,600394726e-02    2,670355141e-02    1,212155968e-01   -6,101742983e-01    0,000000000e+00    0,000000000e+00    0,000000000e+00    0,000000000e+00
      716000000    4,106567707e-03    1,594573446e-02   -2,594360709e-01   -5,447251201e-01    0,000000000e+00    0,000000000e+00    0,000000000e+00    0,000000000e+00
      730000000    3,744221851e-02   -1,347126719e-02   -5,223407745e-01   -2,715223134e-01    0,000000000e+00    0,000000000e+00    0,000000000e+00    0,000000000e+00
      744000000    6,248733029e-02   -6,446201354e-02   -5,607356429e-01    9,862737358e-02    0,000000000e+00    0,000000000e+00    0,000000000e+00    0,000000000e+00
      758000000    6,164789945e-02   -1,518954635e-01   -3,671526015e-01    4,002216160e-01    0,000000000e+00    0,000000000e+00    0,000000000e+00    0,000000000e+00
      772000000   -1,771566086e-02   -2,559896708e-01   -4,483912140e-02    5,095005631e-01    0,000000000e+00    0,000000000e+00    0,000000000e+00    0,000000000e+00
      786000000   -2,019538581e-01   -2,909754813e-01    2,594595253e-01    3,993103802e-01    0,000000000e+00    0,000000000e+00    0,000000000e+00    0,000000000e+00
      800000000   -4,069683254e-01   -1,278430372e-01    4,073013961e-01    1,192379519e-01    0,000000000e+00    0,000000000e+00    0,000000000e+00    0,000000000e+00
      814000000   -3,759511113e-01    2,008371353e-01    2,972858846e-01   -1,513114125e-01    0,000000000e+00    0,000000000e+00    0,000000000e+00    0,000000000e+00
      828000000   -6,276169419e-02    3,476264477e-01    8,263909072e-02   -1,909606010e-01    0,000000000e+00    0,000000000e+00    0,000000000e+00    0,000000000e+00
      842000000    2,111411542e-01    1,857096255e-01   -3,550295718e-03   -9,381473809e-02    0,000000000e+00    0,000000000e+00    0,000000000e+00    0,000000000e+00
      856000000    2,660633624e-01   -1,054329425e-01    3,505333140e-02   -3,691555560e-02    0,000000000e+00    0,000000000e+00    0,000000000e+00    0,000000000e+00
      870000000    8,360069990e-02   -3,512960672e-01    8,846391737e-02   -9,702736884e-02    0,000000000e+00    0,000000000e+00    0,000000000e+00    0,000000000e+00
      884000000   -2,684593201e-01   -3,560943604e-01    1,184166130e-02   -2,270908058e-01    0,000000000e+00    0,000000000e+00    0,000000000e+00    0,000000000e+00
      898000000   -4,579568505e-01   -1,492938958e-02   -2,150277793e-01   -2,095734626e-01    0,000000000e+00    0,000000000e+00    0,000000000e+00    0,000000000e+00
      912000000   -2,360112965e-01    2,790192068e-01   -3,391940892e-01    7,790119946e-02    0,000000000e+00    0,000000000e+00    0,000000000e+00    0,000000000e+00
      926000000    5,365702510e-02    2,634799182e-01   -2,120193243e-01    2,615182400e-01    0,000000000e+00    0,000000000e+00    0,000000000e+00    0,000000000e+00
      940000000    2,092448324e-01    8,386820555e-02   -3,124100529e-02    3,258690536e-01    0,000000000e+00    0,000000000e+00    0,000000000e+00    0,000000000e+00
      954000000    2,203094065e-01   -1,193926707e-01    1,305812597e-01    3,012138307e-01    0,000000000e+00    0,000000000e+00    0,000000000e+00    0,000000000e+00
      968000000    1,155530140e-01   -2,948901653e-01    2,683704197e-01    2,145153731e-01    0,000000000e+00    0,000000000e+00    0,000000000e+00    0,000000000e+00
      982000000   -7,788049430e-02   -3,864665627e-01    3,607913852e-01    6,135016307e-02    0,000000000e+00    0,000000000e+00    0,000000000e+00    0,000000000e+00
      996000000   -3,085209131e-01   -3,326699436e-01    3,624999821e-01   -1,419927776e-01    0,000000000e+00    0,000000000e+00    0,000000000e+00    0,000000000e+00
     1010000000   -4,577181339e-01   -1,141328514e-01    2,193378657e-01   -3,346902728e-01    0,000000000e+00    0,000000000e+00    0,000000000e+00    0,000000000e+00
     1024000000   -4,156278670e-01    1,404125094e-01   -3,020658903e-02   -3,850356042e-01    0,000000000e+00    0,000000000e+00    0,000000000e+00    0,000000000e+00
     1038000000   -2,207870036e-01    2,885250747e-01   -2,417551577e-01   -2,578308582e-01    0,000000000e+00    0,000000000e+00    0,000000000e+00    0,000000000e+00
     1052000000   -1,425524149e-02    2,775680423e-01   -3,100527227e-01   -4,741885141e-02    0,000000000e+00    0,000000000e+00    0,000000000e+00    0,000000000e+00
     1066000000    1,328702122e-01    1,666266769e-01   -2,515302598e-01    1,373517364e-01    0,000000000e+00    0,000000000e+00    0,000000000e+00    0,000000000e+00
     1080000000    1,955846250e-01    8,198308758e-03   -1,166109443e-01    2,537255287e-01    0,000000000e+00    0,000000000e+00    0,000000000e+00    0,000000000e+00
     1094000000    1,610772014e-01   -1,606507301e-01    6,109493226e-02    2,921812832e-01    0,000000000e+00    0,000000000e+00    0,000000000e+00    0,000000000e+00
     1108000000    1,441399660e-02   -2,960086763e-01    2,626013160e-01    2,319881171e-01    0,000000000e+00    0,000000000e+00    0,000000000e+00    0,000000000e+00
     1122000000   -2,110059410e-01   -2,797184289e-01    4,398145676e-01    2,531505562e-02    0,000000000e+00    0,000000000e+00    0,000000000e+00    0,000000000e+00
     1136000000   -3,269766867e-01   -2,498219721e-02    3,997931778e-01   -3,442622125e-01    0,000000000e+00    0,000000000e+00    0,000000000e+00    0,000000000e+00
     1150000000   -1,036438867e-01    1,355551928e-01    5,186948180e-02   -5,295848250e-01    0,000000000e+00    0,000000000e+00    0,000000000e+00    0,000000000e+00
     1164000000    8,547068387e-02   -1,446557324e-02   -2,511383891e-01   -4,029486775e-01    0,000000000e+00    0,000000000e+00    0,000000000e+00    0,000000000e+00
     1178000000    2,569045313e-02   -2,487039268e-01   -3,705766499e-01   -1,785169393e-01    0,000000000e+00    0,000000000e+00    0,000000000e+00    0,000000000e+00
     1192000000   -2,186828256e-01   -3,466318846e-01   -3,422469795e-01    4,090699181e-02    0,000000000e+00    0,000000000e+00    0,000000000e+00    0,000000000e+00
     1206000000   -4,830280542e-01   -1,846501827e-01   -1,938362271e-01    1,810039729e-01    0,000000000e+00    0,000000000e+00    0,000000000e+00    0,000000000e+00
     1220000000   -5,047826767e-01    1,437768042e-01   -1,297523361e-02    1,747174114e-01    0,000000000e+00    0,000000000e+00    0,000000000e+00    0,000000000e+00
     1234000000   -2,954869866e-01    3,411029279e-01    7,779482007e-02    7,771444321e-02    0,000000000e+00    0,000000000e+00    0,000000000e+00    0,000000000e+00
     1248000000   -5,990680680e-02    3,623974025e-01    6,619560719e-02    1,485099085e-03    0,000000000e+00    0,000000000e+00    0,000000000e+00    0,000000000e+00
     1262000000    1,096965000e-01    2,540783584e-01    3,214691207e-02   -2,685022913e-02    0,000000000e+00    0,000000000e+00    0,000000000e+00    0,000000000e+00
     1276000000    2,042172551e-01    1,101113856e-01    4,165967461e-03   -5,003687460e-03    0,000000000e+00    0,000000000e+00    0,000000000e+00    0,000000000e+00
     1290000000    2,218491882e-01   -6,412662566e-02    1,323150937e-02    2,377297543e-02    0,000000000e+00    0,000000000e+00    0,000000000e+00    0,000000000e+00
     1304000000    1,664634943e-01   -2,304671854e-01    6,034129485e-02    6,409689784e-02    0,000000000e+00    0,000000000e+00    0,000000000e+00    0,000000000e+00
     1318000000    2,868455648e-02   -3,614677787e-01    1,779780090e-01    1,635217294e-02    0,000000000e+00    0,000000000e+00    0,000000000e+00    0,000000000e+00
     1332000000   -1,504571736e-01   -3,921809494e-01    1,002188921e-01   -1,776375622e-01    0,000000000e+00    0,000000000e+00    0,000000000e+00    0,000000000e+00
     1346000000   -3,675104678e-01   -3,914202750e-01   -6,629483402e-02   -2,169596776e-02    0,000000000e+00    0,000000000e+00    0,000000000e+00    0,000000000e+00
     1360000000   -5,822400451e-01   -2,044181377e-01    6,600178778e-02    9,399731457e-02    0,000000000e+00    0,000000000e+00    0,000000000e+00    0,000000000e+00
     1374000000   -6,199414134e-01    9,847266972e-02    1,837434918e-01    4,724160582e-02    0,000000000e+00    0,000000000e+00    0,000000000e+00    0,000000000e+00
     1388000000   -4,839881957e-01    3,493069410e-01    2,075039148e-01   -2,488261461e-02    0,000000000e+00    0,000000000e+00    0,000000000e+00    0,000000000e+00
     1402000000   -2,447370291e-01    4,463313222e-01    2,156113237e-01   -7,592747360e-02    0,000000000e+00    0,000000000e+00    0,000000000e+00    0,000000000e+00
     1416000000   -4,053188488e-02    4,115225077e-01    1,907820851e-01   -9,892003983e-02    0,000000000e+00    0,000000000e+00    0,000000000e+00    0,000000000e+00
     1430000000    1,110415384e-01    3,063079715e-01    1,735989898e-01   -1,109413952e-01    0,000000000e+00    0,000000000e+00    0,000000000e+00    0,000000000e+00
     1444000000    2,049796432e-01    1,593907028e-01    1,634202003e-01   -1,055717394e-01    0,000000000e+00    0,000000000e+00    0,000000000e+00    0,000000000e+00
     1458000000    2,241495997e-01   -8,540987037e-03    1,445363313e-01   -8,676609397e-02    0,000000000e+00    0,000000000e+00    0,000000000e+00    0,000000000e+00
     1472000000    1,878602207e-01   -1,927932352e-01    1,432124972e-01   -5,047759041e-02    0,000000000e+00    0,000000000e+00    0,000000000e+00    0,000000000e+00
     1486000000    7,384191453e-02   -3,702392876e-01    1,746557653e-01    1,136709843e-02    0,000000000e+00    0,000000000e+00    0,000000000e+00    0,000000000e+00
     1500000000   -1,495686769e-01   -4,863768816e-01    2,311691493e-01    9,526072443e-02    0,000000000e+00    0,000000000e+00    0,000000000e+00    0,000000000e+00
