! NanoVNA-App
! Date: 2025-09-25 15:38:58
! Start: 100MHz Stop: 1,5GHz Points: 101
! S-Parameter data: F S11 S21 S12 S22
# Hz S RI R 50
!     Frequency           S11_Real           S11_Imag           S21_Real           S21_Imag           S12_Real           S12_Imag           S22_Real           S22_Imag
      100000000   -2,863495611e-02   -4,225341603e-03    3,738160729e-01   -7,214715481e-01    0,000000000e+00    0,000000000e+00    0,000000000e+00    0,000000000e+00
      114000000   -1,643437892e-02    1,147342008e-02   -8,902511001e-02   -8,052235246e-01    0,000000000e+00    0,000000000e+00    0,000000000e+00    0,000000000e+00
      128000000    3,487789538e-03    1,069326419e-02   -5,143647790e-01   -6,199700236e-01    0,000000000e+00    0,000000000e+00    0,000000000e+00    0,000000000e+00
      142000000    1,472959016e-02   -2,631941345e-03   -7,667228580e-01   -2,363726795e-01    0,000000000e+00    0,000000000e+00    0,000000000e+00    0,000000000e+00
      156000000    1,487281919e-02   -1,460761763e-02   -7,641708255e-01    2,181573063e-01    0,000000000e+00    0,000000000e+00    0,000000000e+00    0,000000000e+00
      170000000    1,726656221e-02   -2,247938886e-02   -5,179936886e-01    6,045247316e-01    0,000000000e+00    0,000000000e+00    0,000000000e+00    0,000000000e+00
      184000000    2,142326161e-02   -3,724510223e-02   -1,011166573e-01    7,855003476e-01    0,000000000e+00    0,000000000e+00    0,000000000e+00    0,000000000e+00
      198000000    1,327974349e-02   -6,261297315e-02    3,432753682e-01    7,123000622e-01    0,000000000e+00    0,000000000e+00    0,000000000e+00    0,000000000e+00
      212000000   -1,835565455e-02   -8,128071576e-02    6,777381897e-01    4,096544087e-01    0,000000000e+00    0,000000000e+00    0,000000000e+00    0,000000000e+00
      226000000   -6,128633767e-02   -6,917181611e-02    7,952476144e-01   -3,064185940e-02    0,000000000e+00    0,000000000e+00    0,000000000e+00    0,000000000e+00
      240000000   -8,203250170e-02   -2,586360276e-02    6,453940868e-01   -4,666864276e-01    0,000000000e+00    0,000000000e+00    0,000000000e+00    0,000000000e+00
      254000000   -6,325560063e-02    1,685551554e-02    2,759654522e-01   -7,428864241e-01    0,000000000e+00    0,000000000e+00    0,000000000e+00    0,000000000e+00
      268000000   -2,385295369e-02    2,867356874e-02   -1,778141260e-01   -7,636808753e-01    0,000000000e+00    0,000000000e+00    0,000000000e+00    0,000000000e+00
      282000000    4,112535156e-03    1,204941794e-02   -5,611666441e-01   -5,350583792e-01    0,000000000e+00    0,000000000e+00    0,000000000e+00    0,000000000e+00
      296000000    9,985974059e-03   -7,619048469e-03   -7,591777444e-01   -1,395016760e-01    0,000000000e+00    0,000000000e+00    0,000000000e+00    0,000000000e+00
      310000000    1,150023565e-02   -1,604012772e-02   -7,126862407e-01    2,987736464e-01    0,000000000e+00    0,000000000e+00    0,000000000e+00    0,000000000e+00
      324000000    2,029345930e-02   -2,655049786e-02   -4,276897907e-01    6,368686557e-01    0,000000000e+00    0,000000000e+00    0,000000000e+00    0,000000000e+00
      338000000    2,579241432e-02   -5,241046473e-02   -5,918983370e-03    7,638466954e-01    0,000000000e+00    0,000000000e+00    0,000000000e+00    0,000000000e+00
      352000000    7,461808156e-03   -8,504775912e-02    4,062213302e-01    6,382016540e-01    0,000000000e+00    0,000000000e+00    0,000000000e+00    0,000000000e+00
      366000000   -3,453575820e-02   -9,539751709e-02    6,894586682e-01    3,101086318e-01    0,000000000e+00    0,000000000e+00    0,000000000e+00    0,000000000e+00
      380000000   -7,023497671e-02   -7,105095685e-02    7,474855185e-01   -1,258128881e-01    0,000000000e+00    0,000000000e+00    0,000000000e+00    0,000000000e+00
      394000000   -7,212714106e-02   -3,284516931e-02    5,463836193e-01   -5,203784704e-01    0,000000000e+00    0,000000000e+00    0,000000000e+00    0,000000000e+00
      408000000   -4,656533897e-02   -1,648661122e-02    1,608877033e-01   -7,302995920e-01    0,000000000e+00    0,000000000e+00    0,000000000e+00    0,000000000e+00
      422000000   -2,837178484e-02   -3,252149001e-02   -2,678772211e-01   -6,944640875e-01    0,000000000e+00    0,000000000e+00    0,000000000e+00    0,000000000e+00
      436000000   -4,047300667e-02   -5,178853869e-02   -6,036358476e-01   -4,313074052e-01    0,000000000e+00    0,000000000e+00    0,000000000e+00    0,000000000e+00
      450000000   -6,736960262e-02   -4,375498742e-02   -7,397943139e-01   -2,145735174e-02    0,000000000e+00    0,000000000e+00    0,000000000e+00    0,000000000e+00
      464000000   -7,274863124e-02   -1,185970102e-02   -6,178362370e-01    3,965802491e-01    0,000000000e+00    0,000000000e+00    0,000000000e+00    0,000000000e+00
      478000000   -4,722296074e-02    1,090105623e-02   -2,826955020e-01    6,662211418e-01    0,000000000e+00    0,000000000e+00    0,000000000e+00    0,000000000e+00
      492000000   -1,594616286e-02    5,633032415e-03    1,368210018e-01    7,014307976e-01    0,000000000e+00    0,000000000e+00    0,000000000e+00    0,000000000e+00
      506000000   -2,695983509e-03   -1,581166312e-02    4,977699816e-01    5,021340847e-01    0,000000000e+00    0,000000000e+00    0,000000000e+00    0,000000000e+00
      520000000   -5,024302285e-03   -3,176967427e-02    6,873169541e-01    1,406820118e-01    0,000000000e+00    0,000000000e+00    0,000000000e+00    0,000000000e+00
      534000000   -3,471756587e-03   -3,828501701e-02    6,431073546e-01   -2,624595761e-01    0,000000000e+00    0,000000000e+00    0,000000000e+00    0,000000000e+00
      548000000    6,089872681e-03   -5,426013842e-02    3,809321225e-01   -5,656054020e-01    0,000000000e+00    0,000000000e+00    0,000000000e+00    0,000000000e+00
      562000000    3,439876484e-03   -8,985380828e-02    2,429857384e-03   -6,717267632e-01    0,000000000e+00    0,000000000e+00    0,000000000e+00    0,000000000e+00
      576000000   -3,378042951e-02   -1,244926751e-01   -3,688222170e-01   -5,568325520e-01    0,000000000e+00    0,000000000e+00    0,000000000e+00    0,000000000e+00
      590000000   -9,571722150e-02   -1,228733212e-01   -6,183897853e-01   -2,633349299e-01    0,000000000e+00    0,000000000e+00    0,000000000e+00    0,000000000e+00
      604000000   -1,385126561e-01   -7,226246595e-02   -6,634484529e-01    1,374606192e-01    0,000000000e+00    0,000000000e+00    0,000000000e+00    0,000000000e+00
      618000000   -1,291411370e-01   -9,632620029e-03   -4,632346034e-01    4,933546782e-01    0,000000000e+00    0,000000000e+00    0,000000000e+00    0,000000000e+00
      632000000   -8,467854559e-02    1,594158821e-02   -1,008891910e-01    6,618484259e-01    0,000000000e+00    0,000000000e+00    0,000000000e+00    0,000000000e+00
      646000000   -5,142820626e-02   -2,579842476e-05    2,853562236e-01    5,940568447e-01    0,000000000e+00    0,000000000e+00    0,000000000e+00    0,000000000e+00
      660000000   -5,416444317e-02   -2,115361951e-02    5,651338100e-01    3,235339224e-01    0,000000000e+00    0,000000000e+00    0,000000000e+00    0,000000000e+00
      674000000   -6,935576349e-02   -1,721592434e-02    6,407541633e-01   -6,333617866e-02    0,000000000e+00    0,000000000e+00    0,000000000e+00    0,000000000e+00
      688000000   -6,641323864e-02    9,093377739e-03    4,706693590e-01   -4,239866138e-01    0,000000000e+00    0,000000000e+00    0,000000000e+00    0,000000000e+00
      702000000   -3,592983261e-02    2,525084838e-02    1,216115952e-01   -6,027260423e-01    0,000000000e+00    0,000000000e+00    0,000000000e+00    0,000000000e+00
      716000000    3,426006995e-03    1,665974222e-02   -2,593188584e-01   -5,443302393e-01    0,000000000e+00    0,000000000e+00    0,000000000e+00    0,000000000e+00
      730000000    3,747989610e-02   -1,407597587e-02   -5,219954252e-01   -2,710039914e-01    0,000000000e+00    0,000000000e+00    0,000000000e+00    0,000000000e+00
      744000000    6,304714829e-02   -6,483723968e-02   -5,598059893e-01    9,864425659e-02    0,000000000e+00    0,000000000e+00    0,000000000e+00    0,000000000e+00
      758000000    6,083681807e-02   -1,516552418e-01   -3,657504022e-01    4,007906616e-01    0,000000000e+00    0,000000000e+00    0,000000000e+00    0,000000000e+00
      772000000   -1,806259900e-02   -2,561652064e-01   -4,574837163e-02    5,093044639e-01    0,000000000e+00    0,000000000e+00    0,000000000e+00    0,000000000e+00
      786000000   -2,029799521e-01   -2,910080850e-01    2,600923181e-01    3,979876041e-01    0,000000000e+00    0,000000000e+00    0,000000000e+00    0,000000000e+00
      800000000   -4,076368213e-01   -1,273533702e-01    4,063921273e-01    1,181386039e-01    0,000000000e+00    0,000000000e+00    0,000000000e+00    0,000000000e+00
      814000000   -3,751742542e-01    2,024503350e-01    2,955758572e-01   -1,505372673e-01    0,000000000e+00    0,000000000e+00    0,000000000e+00    0,000000000e+00
      828000000   -6,214028224e-02    3,470380604e-01    8,211193979e-02   -1,898972541e-01    0,000000000e+00    0,000000000e+00    0,000000000e+00    0,000000000e+00
      842000000    2,115534544e-01    1,848523021e-01   -2,816609805e-03   -9,197575599e-02    0,000000000e+00    0,000000000e+00    0,000000000e+00    0,000000000e+00
      856000000    2,653995752e-01   -1,064576730e-01    3,637202084e-02   -3,709939495e-02    0,000000000e+00    0,000000000e+00    0,000000000e+00    0,000000000e+00
      870000000    8,136173338e-02   -3,513891101e-01    8,926879615e-02   -9,787064791e-02    0,000000000e+00    0,000000000e+00    0,000000000e+00    0,000000000e+00
      884000000   -2,680438757e-01   -3,551905155e-01    1,080745086e-02   -2,286791354e-01    0,000000000e+00    0,000000000e+00    0,000000000e+00    0,000000000e+00
      898000000   -4,567333758e-01   -1,238196436e-02   -2,155812979e-01   -2,093232721e-01    0,000000000e+00    0,000000000e+00    0,000000000e+00    0,000000000e+00
      912000000   -2,348434627e-01    2,789324820e-01   -3,339844048e-01    6,320621818e-02    0,000000000e+00    0,000000000e+00    0,000000000e+00    0,000000000e+00
      926000000    5,584652722e-02    2,599090040e-01   -2,076179534e-01    2,610478699e-01    0,000000000e+00    0,000000000e+00    0,000000000e+00    0,000000000e+00
      940000000    2,108968198e-01    8,441477269e-02   -3,026981279e-02    3,244995773e-01    0,000000000e+00    0,000000000e+00    0,000000000e+00    0,000000000e+00
      954000000    2,199295759e-01   -1,242766380e-01    1,308019608e-01    3,009778857e-01    0,000000000e+00    0,000000000e+00    0,000000000e+00    0,000000000e+00
      968000000    1,157392040e-01   -2,914865017e-01    2,673584521e-01    2,135016024e-01    0,000000000e+00    0,000000000e+00    0,000000000e+00    0,000000000e+00
      982000000   -7,965129614e-02   -3,842857182e-01    3,606685400e-01    6,219330058e-02    0,000000000e+00    0,000000000e+00    0,000000000e+00    0,000000000e+00
      996000000   -3,094706237e-01   -3,334345818e-01    3,629021347e-01   -1,419695169e-01    0,000000000e+00    0,000000000e+00    0,000000000e+00    0,000000000e+00
     1010000000   -4,567234218e-01   -1,170074120e-01    2,168855071e-01   -3,344188333e-01    0,000000000e+00    0,000000000e+00    0,000000000e+00    0,000000000e+00
     1024000000   -4,130213261e-01    1,459041089e-01   -3,299896792e-02   -3,855474591e-01    0,000000000e+00    0,000000000e+00    0,000000000e+00    0,000000000e+00
     1038000000   -2,219840139e-01    2,929151952e-01   -2,422329485e-01   -2,567246258e-01    0,000000000e+00    0,000000000e+00    0,000000000e+00    0,000000000e+00
     1052000000   -1,529963035e-02    2,826217413e-01   -3,123423457e-01   -4,789709300e-02    0,000000000e+00    0,000000000e+00    0,000000000e+00    0,000000000e+00
     1066000000    1,346535087e-01    1,681786925e-01   -2,523311377e-01    1,382642090e-01    0,000000000e+00    0,000000000e+00    0,000000000e+00    0,000000000e+00
     1080000000    1,944030523e-01    1,046964526e-02   -1,161750630e-01    2,516772449e-01    0,000000000e+00    0,000000000e+00    0,000000000e+00    0,000000000e+00
     1094000000    1,597755104e-01   -1,665904820e-01    5,986240134e-02    2,913084626e-01    0,000000000e+00    0,000000000e+00    0,000000000e+00    0,000000000e+00
     1108000000    2,161448263e-02   -2,976526022e-01    2,604309320e-01    2,367084771e-01    0,000000000e+00    0,000000000e+00    0,000000000e+00    0,000000000e+00
     1122000000   -2,128518969e-01   -2,798940539e-01    4,374597669e-01    2,323854528e-02    0,000000000e+00    0,000000000e+00    0,000000000e+00    0,000000000e+00
     1136000000   -3,266185522e-01   -3,397605568e-02    4,009718299e-01   -3,477355540e-01    0,000000000e+00    0,000000000e+00    0,000000000e+00    0,000000000e+00
     1150000000   -1,016893238e-01    1,380704045e-01    4,933707416e-02   -5,304637551e-01    0,000000000e+00    0,000000000e+00    0,000000000e+00    0,000000000e+00
     1164000000    8,303505927e-02   -2,041521668e-02   -2,523942292e-01   -4,029466212e-01    0,000000000e+00    0,000000000e+00    0,000000000e+00    0,000000000e+00
     1178000000    2,797130868e-02   -2,549975216e-01   -3,685505092e-01   -1,805337816e-01    0,000000000e+00    0,000000000e+00    0,000000000e+00    0,000000000e+00
     1192000000   -2,192143798e-01   -3,475331068e-01   -3,395879865e-01    4,000064358e-02    0,000000000e+00    0,000000000e+00    0,000000000e+00    0,000000000e+00
     1206000000   -4,839877188e-01   -1,841743886e-01   -1,873943061e-01    1,801880300e-01    0,000000000e+00    0,000000000e+00    0,000000000e+00    0,000000000e+00
     1220000000   -4,994558990e-01    1,370417476e-01   -1,148074120e-02    1,753442883e-01    0,000000000e+00    0,000000000e+00    0,000000000e+00    0,000000000e+00
     1234000000   -2,939132452e-01    3,419297040e-01    7,623193413e-02    7,344952971e-02    0,000000000e+00    0,000000000e+00    0,000000000e+00    0,000000000e+00
     1248000000   -6,071888655e-02    3,637795150e-01    6,761825830e-02    1,289263484e-03    0,000000000e+00    0,000000000e+00    0,000000000e+00    0,000000000e+00
     1262000000    1,079675704e-01    2,593321204e-01    2,782736532e-02   -2,578710578e-02    0,000000000e+00    0,000000000e+00    0,000000000e+00    0,000000000e+00
     1276000000    2,031007856e-01    1,101693511e-01    7,998687215e-03   -5,093655083e-03    0,000000000e+00    0,000000000e+00    0,000000000e+00    0,000000000e+00
     1290000000    2,223591805e-01   -6,671534479e-02    1,089657750e-02    2,649280801e-02    0,000000000e+00    0,000000000e+00    0,000000000e+00    0,000000000e+00
     1304000000    1,691892147e-01   -2,347302437e-01    6,568195671e-02    5,956340954e-02    0,000000000e+00    0,000000000e+00    0,000000000e+00    0,000000000e+00
     1318000000    2,615091205e-02   -3,612895012e-01    1,686630249e-01    1,994937658e-02    0,000000000e+00    0,000000000e+00    0,000000000e+00    0,000000000e+00
     1332000000   -1,493910551e-01   -3,936569095e-01    1,020111740e-01   -1,807570010e-01    0,000000000e+00    0,000000000e+00    0,000000000e+00    0,000000000e+00
     1346000000   -3,588315547e-01   -3,944721818e-01   -6,844011694e-02   -2,755452879e-02    0,000000000e+00    0,000000000e+00    0,000000000e+00    0,000000000e+00
     1360000000   -5,925977826e-01   -1,933325082e-01    5,508904532e-02    8,628366888e-02    0,000000000e+00    0,000000000e+00    0,000000000e+00    0,000000000e+00
     1374000000   -6,267435551e-01    1,114932224e-01    1,846980602e-01    5,631532893e-02    0,000000000e+00    0,000000000e+00    0,000000000e+00    0,000000000e+00
     1388000000   -4,757330120e-01    3,578519523e-01    2,214515805e-01   -1,542477682e-02    0,000000000e+00    0,000000000e+00    0,000000000e+00    0,000000000e+00
     1402000000   -2,492921501e-01    4,443621039e-01    2,065458596e-01   -7,048755884e-02    0,000000000e+00    0,000000000e+00    0,000000000e+00    0,000000000e+00
     1416000000   -3,643342480e-02    4,095178246e-01    1,964202672e-01   -9,563129395e-02    0,000000000e+00    0,000000000e+00    0,000000000e+00    0,000000000e+00
     1430000000    1,097677350e-01    3,014888465e-01    1,712118834e-01   -1,256595403e-01    0,000000000e+00    0,000000000e+00    0,000000000e+00    0,000000000e+00
     1444000000    1,985546499e-01    1,587484330e-01    1,604214162e-01   -9,734041244e-02    0,000000000e+00    0,000000000e+00    0,000000000e+00    0,000000000e+00
     1458000000    2,282608151e-01   -8,215499111e-03    1,322991848e-01   -8,619423956e-02    0,000000000e+00    0,000000000e+00    0,000000000e+00    0,000000000e+00
     1472000000    1,910163760e-01   -1,908151060e-01    1,453436613e-01   -3,342064843e-02    0,000000000e+00    0,000000000e+00    0,000000000e+00    0,000000000e+00
     1486000000    7,400443405e-02   -3,684553504e-01    1,757276505e-01    2,476357110e-02    0,000000000e+00    0,000000000e+00    0,000000000e+00    0,000000000e+00
     1500000000   -1,685306132e-01   -4,901189208e-01    2,306615263e-01    7,760260999e-02    0,000000000e+00    0,000000000e+00    0,000000000e+00    0,000000000e+00
