! NanoVNA-App
! Date: 2025-09-25 15:43:30
! Start: 100MHz Stop: 1,5GHz Points: 101
! S-Parameter data: F S11 S21 S12 S22
# Hz S RI R 50
!     Frequency           S11_Real           S11_Imag           S21_Real           S21_Imag           S12_Real           S12_Imag           S22_Real           S22_Imag
      100000000   -2,873286232e-02   -4,253950436e-03    3,739199042e-01   -7,215635180e-01    0,000000000e+00    0,000000000e+00    0,000000000e+00    0,000000000e+00
      114000000   -1,653367653e-02    1,150091644e-02   -8,915451169e-02   -8,052700162e-01    0,000000000e+00    0,000000000e+00    0,000000000e+00    0,000000000e+00
      128000000    3,450074699e-03    1,068005711e-02   -5,144879818e-01   -6,202967763e-01    0,000000000e+00    0,000000000e+00    0,000000000e+00    0,000000000e+00
      142000000    1,464635320e-02   -2,662112238e-03   -7,666299343e-01   -2,362488806e-01    0,000000000e+00    0,000000000e+00    0,000000000e+00    0,000000000e+00
      156000000    1,561496314e-02   -1,444391627e-02   -7,671645880e-01    2,227145582e-01    0,000000000e+00    0,000000000e+00    0,000000000e+00    0,000000000e+00
      170000000    1,715559885e-02   -2,247749083e-02   -5,179353952e-01    6,046332717e-01    0,000000000e+00    0,000000000e+00    0,000000000e+00    0,000000000e+00
      184000000    2,135219611e-02   -3,718061745e-02   -1,012183651e-01    7,856087089e-01    0,000000000e+00    0,000000000e+00    0,000000000e+00    0,000000000e+00
      198000000    1,324242447e-02   -6,254383922e-02    3,431201875e-01    7,123492956e-01    0,000000000e+00    0,000000000e+00    0,000000000e+00    0,000000000e+00
      212000000   -1,844885014e-02   -8,128690720e-02    6,779390574e-01    4,099562168e-01    0,000000000e+00    0,000000000e+00    0,000000000e+00    0,000000000e+00
      226000000   -6,135328487e-02   -6,920038909e-02    7,954168320e-01   -3,054748848e-02    0,000000000e+00    0,000000000e+00    0,000000000e+00    0,000000000e+00
      240000000   -8,220541477e-02   -2,578401752e-02    6,456397176e-01   -4,666657746e-01    0,000000000e+00    0,000000000e+00    0,000000000e+00    0,000000000e+00
      254000000   -6,336886436e-02    1,696692780e-02    2,758395374e-01   -7,426713109e-01    0,000000000e+00    0,000000000e+00    0,000000000e+00    0,000000000e+00
      268000000   -2,397347242e-02    2,875307761e-02   -1,781236827e-01   -7,638304830e-01    0,000000000e+00    0,000000000e+00    0,000000000e+00    0,000000000e+00
      282000000    4,146128427e-03    1,201820932e-02   -5,613313913e-01   -5,355318189e-01    0,000000000e+00    0,000000000e+00    0,000000000e+00    0,000000000e+00
      296000000    9,892495349e-03   -7,588291541e-03   -7,593241334e-01   -1,395245194e-01    0,000000000e+00    0,000000000e+00    0,000000000e+00    0,000000000e+00
      310000000    1,162535511e-02   -1,606289670e-02   -7,129632235e-01    2,988213897e-01    0,000000000e+00    0,000000000e+00    0,000000000e+00    0,000000000e+00
      324000000    1,998317987e-02   -2,664186247e-02   -4,267637730e-01    6,367182136e-01    0,000000000e+00    0,000000000e+00    0,000000000e+00    0,000000000e+00
      338000000    2,540587820e-02   -5,248638242e-02   -7,215677295e-03    7,634518743e-01    0,000000000e+00    0,000000000e+00    0,000000000e+00    0,000000000e+00
      352000000    7,625279017e-03   -8,494280279e-02    4,060496986e-01    6,384408474e-01    0,000000000e+00    0,000000000e+00    0,000000000e+00    0,000000000e+00
      366000000   -3,455641121e-02   -9,541231394e-02    6,898017526e-01    3,111382425e-01    0,000000000e+00    0,000000000e+00    0,000000000e+00    0,000000000e+00
      380000000   -7,031879574e-02   -7,106905431e-02    7,472547889e-01   -1,252734512e-01    0,000000000e+00    0,000000000e+00    0,000000000e+00    0,000000000e+00
      394000000   -7,210895419e-02   -3,255655989e-02    5,454723835e-01   -5,216779113e-01    0,000000000e+00    0,000000000e+00    0,000000000e+00    0,000000000e+00
      408000000   -4,652520642e-02   -1,634940878e-02    1,621012390e-01   -7,323398590e-01    0,000000000e+00    0,000000000e+00    0,000000000e+00    0,000000000e+00
      422000000   -2,833791822e-02   -3,217616677e-02   -2,670233548e-01   -6,946765780e-01    0,000000000e+00    0,000000000e+00    0,000000000e+00    0,000000000e+00
      436000000   -4,033311829e-02   -5,183684081e-02   -6,031651497e-01   -4,315261841e-01    0,000000000e+00    0,000000000e+00    0,000000000e+00    0,000000000e+00
      450000000   -6,736641377e-02   -4,400017858e-02   -7,399566770e-01   -2,227379940e-02    0,000000000e+00    0,000000000e+00    0,000000000e+00    0,000000000e+00
      464000000   -7,316121459e-02   -1,177002490e-02   -6,184398532e-01    3,965465426e-01    0,000000000e+00    0,000000000e+00    0,000000000e+00    0,000000000e+00
      478000000   -4,725716263e-02    1,135272812e-02   -2,828720212e-01    6,664978266e-01    0,000000000e+00    0,000000000e+00    0,000000000e+00    0,000000000e+00
      492000000   -1,564056240e-02    5,795951467e-03    1,377573460e-01    7,013104558e-01    0,000000000e+00    0,000000000e+00    0,000000000e+00    0,000000000e+00
      506000000   -2,999944612e-03   -1,592601091e-02    4,975043833e-01    5,027400851e-01    0,000000000e+00    0,000000000e+00    0,000000000e+00    0,000000000e+00
      520000000   -4,722805228e-03   -3,114157729e-02    6,874021888e-01    1,422258168e-01    0,000000000e+00    0,000000000e+00    0,000000000e+00    0,000000000e+00
      534000000   -3,515198361e-03   -3,850482404e-02    6,427530050e-01   -2,620131969e-01    0,000000000e+00    0,000000000e+00    0,000000000e+00    0,000000000e+00
      548000000    6,360373925e-03   -5,369200185e-02    3,807950914e-01   -5,662160516e-01    0,000000000e+00    0,000000000e+00    0,000000000e+00    0,000000000e+00
      562000000    3,162630135e-03   -8,947423846e-02    2,331730910e-03   -6,716588736e-01    0,000000000e+00    0,000000000e+00    0,000000000e+00    0,000000000e+00
      576000000   -3,431038186e-02   -1,243953481e-01   -3,686297834e-01   -5,576571822e-01    0,000000000e+00    0,000000000e+00    0,000000000e+00    0,000000000e+00
      590000000   -9,567853808e-02   -1,226824746e-01   -6,197065711e-01   -2,659437358e-01    0,000000000e+00    0,000000000e+00    0,000000000e+00    0,000000000e+00
      604000000   -1,387408227e-01   -7,277911901e-02   -6,639264226e-01    1,365901381e-01    0,000000000e+00    0,000000000e+00    0,000000000e+00    0,000000000e+00
      618000000   -1,288726330e-01   -1,030138880e-02   -4,641341567e-01    4,926515818e-01    0,000000000e+00    0,000000000e+00    0,000000000e+00    0,000000000e+00
      632000000   -8,405797929e-02    1,589315385e-02   -1,001852825e-01    6,620843410e-01    0,000000000e+00    0,000000000e+00    0,000000000e+00    0,000000000e+00
      646000000   -5,241655558e-02    1,524097024e-04    2,853682637e-01    5,945057273e-01    0,000000000e+00    0,000000000e+00    0,000000000e+00    0,000000000e+00
      660000000   -5,333465710e-02   -2,021082118e-02    5,652720928e-01    3,236490786e-01    0,000000000e+00    0,000000000e+00    0,000000000e+00    0,000000000e+00
      674000000   -7,008986920e-02   -1,629742980e-02    6,405946016e-01   -6,336214393e-02    0,000000000e+00    0,000000000e+00    0,000000000e+00    0,000000000e+00
      688000000   -6,759680808e-02    9,028058499e-03    4,711393416e-01   -4,243414700e-01    0,000000000e+00    0,000000000e+00    0,000000000e+00    0,000000000e+00
      702000000   -3,568639979e-02    2,597850189e-02    1,198020652e-01   -6,032623053e-01    0,000000000e+00    0,000000000e+00    0,000000000e+00    0,000000000e+00
      716000000    3,374405904e-03    1,546833105e-02   -2,595055401e-01   -5,438466072e-01    0,000000000e+00    0,000000000e+00    0,000000000e+00    0,000000000e+00
      730000000    3,600775078e-02   -1,353323553e-02   -5,217180252e-01   -2,716229260e-01    0,000000000e+00    0,000000000e+00    0,000000000e+00    0,000000000e+00
      744000000    6,172109023e-02   -6,530984491e-02   -5,604147315e-01    9,833116084e-02    0,000000000e+00    0,000000000e+00    0,000000000e+00    0,000000000e+00
      758000000    6,130025163e-02   -1,511388868e-01   -3,658524752e-01    4,004049003e-01    0,000000000e+00    0,000000000e+00    0,000000000e+00    0,000000000e+00
      772000000   -1,666945592e-02   -2,560325265e-01   -4,573238641e-02    5,096178651e-01    0,000000000e+00    0,000000000e+00    0,000000000e+00    0,000000000e+00
      786000000   -2,018470913e-01   -2,912645340e-01    2,591227591e-01    3,996453881e-01    0,000000000e+00    0,000000000e+00    0,000000000e+00    0,000000000e+00
      800000000   -4,068664014e-01   -1,269029975e-01    4,071907401e-01    1,187306195e-01    0,000000000e+00    0,000000000e+00    0,000000000e+00    0,000000000e+00
      814000000   -3,766435683e-01    2,005354166e-01    2,962037325e-01   -1,508363634e-01    0,000000000e+00    0,000000000e+00    0,000000000e+00    0,000000000e+00
      828000000   -6,187922880e-02    3,468669951e-01    8,215598762e-02   -1,905885339e-01    0,000000000e+00    0,000000000e+00    0,000000000e+00    0,000000000e+00
      842000000    2,116463184e-01    1,862367690e-01   -3,727404634e-03   -9,334807098e-02    0,000000000e+00    0,000000000e+00    0,000000000e+00    0,000000000e+00
      856000000    2,661317885e-01   -1,060728878e-01    3,548110649e-02   -3,693142906e-02    0,000000000e+00    0,000000000e+00    0,000000000e+00    0,000000000e+00
      870000000    8,224794269e-02   -3,515905142e-01    8,893632144e-02   -9,749355167e-02    0,000000000e+00    0,000000000e+00    0,000000000e+00    0,000000000e+00
      884000000   -2,681352198e-01   -3,560918868e-01    1,180534717e-02   -2,279541492e-01    0,000000000e+00    0,000000000e+00    0,000000000e+00    0,000000000e+00
      898000000   -4,576274455e-01   -1,486859564e-02   -2,151622623e-01   -2,100470066e-01    0,000000000e+00    0,000000000e+00    0,000000000e+00    0,000000000e+00
      912000000   -2,352693379e-01    2,785673440e-01   -3,293842077e-01    7,878320664e-02    0,000000000e+00    0,000000000e+00    0,000000000e+00    0,000000000e+00
      926000000    5,620127171e-02    2,606787682e-01   -2,097283453e-01    2,610207200e-01    0,000000000e+00    0,000000000e+00    0,000000000e+00    0,000000000e+00
      940000000    2,070096135e-01    8,472513407e-02   -3,308840096e-02    3,254843950e-01    0,000000000e+00    0,000000000e+00    0,000000000e+00    0,000000000e+00
      954000000    2,232002765e-01   -1,203356460e-01    1,309199929e-01    3,003916144e-01    0,000000000e+00    0,000000000e+00    0,000000000e+00    0,000000000e+00
      968000000    1,171698272e-01   -2,933414578e-01    2,689359486e-01    2,136184871e-01    0,000000000e+00    0,000000000e+00    0,000000000e+00    0,000000000e+00
      982000000   -7,940419018e-02   -3,831536770e-01    3,617010117e-01    6,147182733e-02    0,000000000e+00    0,000000000e+00    0,000000000e+00    0,000000000e+00
      996000000   -3,084983528e-01   -3,303893805e-01    3,638856709e-01   -1,446517110e-01    0,000000000e+00    0,000000000e+00    0,000000000e+00    0,000000000e+00
     1010000000   -4,615963399e-01   -1,134638637e-01    2,186422199e-01   -3,349726200e-01    0,000000000e+00    0,000000000e+00    0,000000000e+00    0,000000000e+00
     1024000000   -4,176897407e-01    1,460853815e-01   -3,101699799e-02   -3,855126798e-01    0,000000000e+00    0,000000000e+00    0,000000000e+00    0,000000000e+00
     1038000000   -2,197696269e-01    2,914966643e-01   -2,436741740e-01   -2,579101622e-01    0,000000000e+00    0,000000000e+00    0,000000000e+00    0,000000000e+00
     1052000000   -1,454168838e-02    2,782878876e-01   -3,100172281e-01   -4,564330727e-02    0,000000000e+00    0,000000000e+00    0,000000000e+00    0,000000000e+00
     1066000000    1,313826442e-01    1,705361456e-01   -2,524173856e-01    1,365396231e-01    0,000000000e+00    0,000000000e+00    0,000000000e+00    0,000000000e+00
     1080000000    1,956421137e-01    8,738378063e-03   -1,162912324e-01    2,542923093e-01    0,000000000e+00    0,000000000e+00    0,000000000e+00    0,000000000e+00
     1094000000    1,600328088e-01   -1,652198285e-01    6,028552353e-02    2,931475937e-01    0,000000000e+00    0,000000000e+00    0,000000000e+00    0,000000000e+00
     1108000000    1,571065933e-02   -2,926467061e-01    2,609224916e-01    2,350519747e-01    0,000000000e+00    0,000000000e+00    0,000000000e+00    0,000000000e+00
     1122000000   -2,112622559e-01   -2,805216312e-01    4,396719337e-01    2,265026979e-02    0,000000000e+00    0,000000000e+00    0,000000000e+00    0,000000000e+00
     1136000000   -3,262256682e-01   -3,596606106e-02    4,012766480e-01   -3,459319472e-01    0,000000000e+00    0,000000000e+00    0,000000000e+00    0,000000000e+00
     1150000000   -1,075952128e-01    1,415413916e-01    4,784082994e-02   -5,302066207e-01    0,000000000e+00    0,000000000e+00    0,000000000e+00    0,000000000e+00
     1164000000    8,048975468e-02   -1,704205573e-02   -2,529670000e-01   -4,019961357e-01    0,000000000e+00    0,000000000e+00    0,000000000e+00    0,000000000e+00
     1178000000    2,965844423e-02   -2,494139373e-01   -3,699613214e-01   -1,763709337e-01    0,000000000e+00    0,000000000e+00    0,000000000e+00    0,000000000e+00
     1192000000   -2,196130604e-01   -3,515292406e-01   -3,427950442e-01    3,868540004e-02    0,000000000e+00    0,000000000e+00    0,000000000e+00    0,000000000e+00
     1206000000   -4,845266938e-01   -1,827061474e-01   -1,925865859e-01    1,839435399e-01    0,000000000e+00    0,000000000e+00    0,000000000e+00    0,000000000e+00
     1220000000   -5,063798428e-01    1,376078576e-01   -1,178333908e-02    1,739946902e-01    0,000000000e+00    0,000000000e+00    0,000000000e+00    0,000000000e+00
     1234000000   -2,982502580e-01    3,377520442e-01    7,056024671e-02    7,645761222e-02    0,000000000e+00    0,000000000e+00    0,000000000e+00    0,000000000e+00
     1248000000   -5,902635306e-02    3,562060893e-01    7,028863579e-02   -3,726877621e-04    0,000000000e+00    0,000000000e+00    0,000000000e+00    0,000000000e+00
     1262000000    1,131421700e-01    2,615616620e-01    3,498159721e-02   -2,490535378e-02    0,000000000e+00    0,000000000e+00    0,000000000e+00    0,000000000e+00
     1276000000    2,009976506e-01    1,111228764e-01    4,410821479e-03   -5,043323617e-03    0,000000000e+00    0,000000000e+00    0,000000000e+00    0,000000000e+00
     1290000000    2,212929577e-01   -6,181339175e-02    1,194229815e-02    3,101528995e-02    0,000000000e+00    0,000000000e+00    0,000000000e+00    0,000000000e+00
     1304000000    1,661997288e-01   -2,330066860e-01    6,119794399e-02    5,920630321e-02    0,000000000e+00    0,000000000e+00    0,000000000e+00    0,000000000e+00
     1318000000    2,847305685e-02   -3,607628047e-01    1,732819974e-01    1,667427644e-02    0,000000000e+00    0,000000000e+00    0,000000000e+00    0,000000000e+00
     1332000000   -1,522761583e-01   -3,955827057e-01    9,835534543e-02   -1,738070399e-01    0,000000000e+00    0,000000000e+00    0,000000000e+00    0,000000000e+00
     1346000000   -3,655852377e-01   -3,878905475e-01   -6,365874410e-02   -2,408555336e-02    0,000000000e+00    0,000000000e+00    0,000000000e+00    0,000000000e+00
     1360000000   -5,908377767e-01   -2,045217752e-01    5,617509782e-02    8,523379266e-02    0,000000000e+00    0,000000000e+00    0,000000000e+00    0,000000000e+00
     1374000000   -6,245614886e-01    1,076109931e-01    1,814819872e-01    6,276690215e-02    0,000000000e+00    0,000000000e+00    0,000000000e+00    0,000000000e+00
     1388000000   -4,764924943e-01    3,521641493e-01    2,306317985e-01   -2,058663219e-02    0,000000000e+00    0,000000000e+00    0,000000000e+00    0,000000000e+00
     1402000000   -2,458738983e-01    4,438507557e-01    2,052000612e-01   -7,910812646e-02    0,000000000e+00    0,000000000e+00    0,000000000e+00    0,000000000e+00
     1416000000   -3,679924458e-02    4,154087305e-01    1,870519221e-01   -9,863667935e-02    0,000000000e+00    0,000000000e+00    0,000000000e+00    0,000000000e+00
     1430000000    1,053657755e-01    2,977468967e-01    1,731564403e-01   -1,026775017e-01    0,000000000e+00    0,000000000e+00    0,000000000e+00    0,000000000e+00
     1444000000    1,989288479e-01    1,535048932e-01    1,603780836e-01   -1,146925762e-01    0,000000000e+00    0,000000000e+00    0,000000000e+00    0,000000000e+00
     1458000000    2,296779305e-01   -9,704466909e-03    1,496577114e-01   -9,007067978e-02    0,000000000e+00    0,000000000e+00    0,000000000e+00    0,000000000e+00
     1472000000    1,922958493e-01   -1,961698234e-01    1,384564340e-01   -4,625494778e-02    0,000000000e+00    0,000000000e+00    0,000000000e+00    0,000000000e+00
     1486000000    7,159277797e-02   -3,642867506e-01    1,705360860e-01    1,607255451e-02    0,000000000e+00    0,000000000e+00    0,000000000e+00    0,000000000e+00
     1500000000   -1,625118703e-01   -4,974217117e-01    2,318388671e-01    6,836684793e-02    0,000000000e+00    0,000000000e+00    0,000000000e+00    0,000000000e+00
