! NanoVNA-App
! Date: 2025-09-25 15:40:06
! Start: 100MHz Stop: 1,5GHz Points: 101
! S-Parameter data: F S11 S21 S12 S22
# Hz S RI R 50
!     Frequency           S11_Real           S11_Imag           S21_Real           S21_Imag           S12_Real           S12_Imag           S22_Real           S22_Imag
      100000000   -2,860363200e-02   -4,218119197e-03    3,737708628e-01   -7,214698792e-01    0,000000000e+00    0,000000000e+00    0,000000000e+00    0,000000000e+00
      114000000   -1,638482511e-02    1,151847187e-02   -8,921862394e-02   -8,051181436e-01    0,000000000e+00    0,000000000e+00    0,000000000e+00    0,000000000e+00
      128000000    3,559224540e-03    1,065050904e-02   -5,145571828e-01   -6,203277707e-01    0,000000000e+00    0,000000000e+00    0,000000000e+00    0,000000000e+00
      142000000    1,478080172e-02   -2,646915847e-03   -7,667151690e-01   -2,364732921e-01    0,000000000e+00    0,000000000e+00    0,000000000e+00    0,000000000e+00
      156000000    1,486334484e-02   -1,458253711e-02   -7,634509206e-01    2,187927663e-01    0,000000000e+00    0,000000000e+00    0,000000000e+00    0,000000000e+00
      170000000    1,722908206e-02   -2,248269506e-02   -5,178107619e-01    6,046383381e-01    0,000000000e+00    0,000000000e+00    0,000000000e+00    0,000000000e+00
      184000000    2,144015208e-02   -3,720858321e-02   -1,012611836e-01    7,859120965e-01    0,000000000e+00    0,000000000e+00    0,000000000e+00    0,000000000e+00
      198000000    1,338238269e-02   -6,252197921e-02    3,429582417e-01    7,117394805e-01    0,000000000e+00    0,000000000e+00    0,000000000e+00    0,000000000e+00
      212000000   -1,835961826e-02   -8,129554987e-02    6,777308583e-01    4,094074070e-01    0,000000000e+00    0,000000000e+00    0,000000000e+00    0,000000000e+00
      226000000   -6,123654917e-02   -6,923174858e-02    7,952280641e-01   -3,058375604e-02    0,000000000e+00    0,000000000e+00    0,000000000e+00    0,000000000e+00
      240000000   -8,207771927e-02   -2,587944269e-02    6,457769275e-01   -4,666045606e-01    0,000000000e+00    0,000000000e+00    0,000000000e+00    0,000000000e+00
      254000000   -6,324371696e-02    1,680063456e-02    2,757812142e-01   -7,427669764e-01    0,000000000e+00    0,000000000e+00    0,000000000e+00    0,000000000e+00
      268000000   -2,384571172e-02    2,868524939e-02   -1,774720848e-01   -7,637745142e-01    0,000000000e+00    0,000000000e+00    0,000000000e+00    0,000000000e+00
      282000000    4,181271419e-03    1,200438291e-02   -5,616313219e-01   -5,354233980e-01    0,000000000e+00    0,000000000e+00    0,000000000e+00    0,000000000e+00
      296000000    9,891023859e-03   -7,612297311e-03   -7,592715621e-01   -1,394836158e-01    0,000000000e+00    0,000000000e+00    0,000000000e+00    0,000000000e+00
      310000000    1,151539665e-02   -1,584958099e-02   -7,125652432e-01    2,986507416e-01    0,000000000e+00    0,000000000e+00    0,000000000e+00    0,000000000e+00
      324000000    2,004165947e-02   -2,689003013e-02   -4,270380139e-01    6,373027563e-01    0,000000000e+00    0,000000000e+00    0,000000000e+00    0,000000000e+00
      338000000    2,605560608e-02   -5,227541924e-02   -7,933588699e-03    7,624158859e-01    0,000000000e+00    0,000000000e+00    0,000000000e+00    0,000000000e+00
      352000000    7,712280843e-03   -8,493255824e-02    4,062134326e-01    6,397652626e-01    0,000000000e+00    0,000000000e+00    0,000000000e+00    0,000000000e+00
      366000000   -3,436315805e-02   -9,566563368e-02    6,899995208e-01    3,105279207e-01    0,000000000e+00    0,000000000e+00    0,000000000e+00    0,000000000e+00
      380000000   -7,013502717e-02   -7,109975815e-02    7,464275956e-01   -1,253549755e-01    0,000000000e+00    0,000000000e+00    0,000000000e+00    0,000000000e+00
      394000000   -7,190626115e-02   -3,278589994e-02    5,459918976e-01   -5,212304592e-01    0,000000000e+00    0,000000000e+00    0,000000000e+00    0,000000000e+00
      408000000   -4,625778645e-02   -1,666127518e-02    1,606435329e-01   -7,317447662e-01    0,000000000e+00    0,000000000e+00    0,000000000e+00    0,000000000e+00
      422000000   -2,848570608e-02   -3,245800734e-02   -2,672961056e-01   -6,935750246e-01    0,000000000e+00    0,000000000e+00    0,000000000e+00    0,000000000e+00
      436000000   -4,063113034e-02   -5,204911157e-02   -6,036419272e-01   -4,319300056e-01    0,000000000e+00    0,000000000e+00    0,000000000e+00    0,000000000e+00
      450000000   -6,700036675e-02   -4,372305796e-02   -7,396435738e-01   -2,140038274e-02    0,000000000e+00    0,000000000e+00    0,000000000e+00    0,000000000e+00
      464000000   -7,265772671e-02   -1,206028089e-02   -6,179243922e-01    3,966074586e-01    0,000000000e+00    0,000000000e+00    0,000000000e+00    0,000000000e+00
      478000000   -4,763777554e-02    1,129689906e-02   -2,826861739e-01    6,668158174e-01    0,000000000e+00    0,000000000e+00    0,000000000e+00    0,000000000e+00
      492000000   -1,547938865e-02    5,512949545e-03    1,373809576e-01    7,017749548e-01    0,000000000e+00    0,000000000e+00    0,000000000e+00    0,000000000e+00
      506000000   -2,414606977e-03   -1,588054001e-02    4,977780581e-01    5,023197532e-01    0,000000000e+00    0,000000000e+00    0,000000000e+00    0,000000000e+00
      520000000   -5,092784762e-03   -3,152376786e-02    6,876599789e-01    1,415248066e-01    0,000000000e+00    0,000000000e+00    0,000000000e+00    0,000000000e+00
      534000000   -3,731929231e-03   -3,820753843e-02    6,426338553e-01   -2,618046999e-01    0,000000000e+00    0,000000000e+00    0,000000000e+00    0,000000000e+00
      548000000    6,557048298e-03   -5,367059261e-02    3,808184862e-01   -5,665643215e-01    0,000000000e+00    0,000000000e+00    0,000000000e+00    0,000000000e+00
      562000000    3,188923700e-03   -8,952622861e-02    3,346842248e-03   -6,713842750e-01    0,000000000e+00    0,000000000e+00    0,000000000e+00    0,000000000e+00
      576000000   -3,376000747e-02   -1,240341663e-01   -3,678802252e-01   -5,564606786e-01    0,000000000e+00    0,000000000e+00    0,000000000e+00    0,000000000e+00
      590000000   -9,567756951e-02   -1,229349151e-01   -6,206505299e-01   -2,655521333e-01    0,000000000e+00    0,000000000e+00    0,000000000e+00    0,000000000e+00
      604000000   -1,390469670e-01   -7,217229903e-02   -6,640266180e-01    1,372007728e-01    0,000000000e+00    0,000000000e+00    0,000000000e+00    0,000000000e+00
      618000000   -1,295048296e-01   -1,015647408e-02   -4,639193714e-01    4,923440814e-01    0,000000000e+00    0,000000000e+00    0,000000000e+00    0,000000000e+00
      632000000   -8,421755582e-02    1,638359949e-02   -9,922029823e-02    6,616240740e-01    0,000000000e+00    0,000000000e+00    0,000000000e+00    0,000000000e+00
      646000000   -5,164390802e-02   -1,158430896e-04    2,862266600e-01    5,940970778e-01    0,000000000e+00    0,000000000e+00    0,000000000e+00    0,000000000e+00
      660000000   -5,413474888e-02   -2,061754651e-02    5,655487776e-01    3,233570755e-01    0,000000000e+00    0,000000000e+00    0,000000000e+00    0,000000000e+00
      674000000   -7,028465718e-02   -1,659510843e-02    6,407786012e-01   -6,306846440e-02    0,000000000e+00    0,000000000e+00    0,000000000e+00    0,000000000e+00
      688000000   -6,668730080e-02    9,460669942e-03    4,708856344e-01   -4,237096012e-01    0,000000000e+00    0,000000000e+00    0,000000000e+00    0,000000000e+00
      702000000   -3,630682081e-02    2,590799890e-02    1,204634458e-01   -6,058828235e-01    0,000000000e+00    0,000000000e+00    0,000000000e+00    0,000000000e+00
      716000000    2,912513446e-03    1,568440162e-02   -2,593011856e-01   -5,453324914e-01    0,000000000e+00    0,000000000e+00    0,000000000e+00    0,000000000e+00
      730000000    3,671631962e-02   -1,458286215e-02   -5,216476321e-01   -2,710402608e-01    0,000000000e+00    0,000000000e+00    0,000000000e+00    0,000000000e+00
      744000000    6,332523376e-02   -6,524556875e-02   -5,604624152e-01    9,884244949e-02    0,000000000e+00    0,000000000e+00    0,000000000e+00    0,000000000e+00
      758000000    6,145720556e-02   -1,514989585e-01   -3,665587902e-01    4,003733099e-01    0,000000000e+00    0,000000000e+00    0,000000000e+00    0,000000000e+00
      772000000   -1,722661592e-02   -2,563890517e-01   -4,638127610e-02    5,093181729e-01    0,000000000e+00    0,000000000e+00    0,000000000e+00    0,000000000e+00
      786000000   -2,021087706e-01   -2,912149131e-01    2,593257427e-01    3,988210857e-01    0,000000000e+00    0,000000000e+00    0,000000000e+00    0,000000000e+00
      800000000   -4,082307220e-01   -1,275366694e-01    4,066040814e-01    1,182844415e-01    0,000000000e+00    0,000000000e+00    0,000000000e+00    0,000000000e+00
      814000000   -3,770211935e-01    2,025370300e-01    2,956223786e-01   -1,506564766e-01    0,000000000e+00    0,000000000e+00    0,000000000e+00    0,000000000e+00
      828000000   -6,147797406e-02    3,471113741e-01    8,215324581e-02   -1,899622530e-01    0,000000000e+00    0,000000000e+00    0,000000000e+00    0,000000000e+00
      842000000    2,120463550e-01    1,849321425e-01   -3,168447874e-03   -9,276784956e-02    0,000000000e+00    0,000000000e+00    0,000000000e+00    0,000000000e+00
      856000000    2,659492195e-01   -1,064511463e-01    3,686410189e-02   -3,743014112e-02    0,000000000e+00    0,000000000e+00    0,000000000e+00    0,000000000e+00
      870000000    8,163065463e-02   -3,510142565e-01    8,912736177e-02   -9,775665402e-02    0,000000000e+00    0,000000000e+00    0,000000000e+00    0,000000000e+00
      884000000   -2,673630118e-01   -3,554506600e-01    1,128945593e-02   -2,278337777e-01    0,000000000e+00    0,000000000e+00    0,000000000e+00    0,000000000e+00
      898000000   -4,578251541e-01   -1,295820065e-02   -2,160041034e-01   -2,096167058e-01    0,000000000e+00    0,000000000e+00    0,000000000e+00    0,000000000e+00
      912000000   -2,349509895e-01    2,779286206e-01   -3,270105124e-01    6,513107568e-02    0,000000000e+00    0,000000000e+00    0,000000000e+00    0,000000000e+00
      926000000    5,660373718e-02    2,624233365e-01   -2,085242271e-01    2,642298937e-01    0,000000000e+00    0,000000000e+00    0,000000000e+00    0,000000000e+00
      940000000    2,098567933e-01    8,325007558e-02   -3,125216812e-02    3,241719306e-01    0,000000000e+00    0,000000000e+00    0,000000000e+00    0,000000000e+00
      954000000    2,230001390e-01   -1,223386899e-01    1,331683844e-01    3,019700944e-01    0,000000000e+00    0,000000000e+00    0,000000000e+00    0,000000000e+00
      968000000    1,191328093e-01   -2,928215563e-01    2,680903971e-01    2,144267410e-01    0,000000000e+00    0,000000000e+00    0,000000000e+00    0,000000000e+00
      982000000   -7,628078759e-02   -3,859292269e-01    3,616808653e-01    6,366731226e-02    0,000000000e+00    0,000000000e+00    0,000000000e+00    0,000000000e+00
      996000000   -3,138597906e-01   -3,311566412e-01    3,615770638e-01   -1,426322609e-01    0,000000000e+00    0,000000000e+00    0,000000000e+00    0,000000000e+00
     1010000000   -4,600061774e-01   -1,128592789e-01    2,185461074e-01   -3,348898888e-01    0,000000000e+00    0,000000000e+00    0,000000000e+00    0,000000000e+00
     1024000000   -4,150922298e-01    1,404068470e-01   -3,139363229e-02   -3,845387995e-01    0,000000000e+00    0,000000000e+00    0,000000000e+00    0,000000000e+00
     1038000000   -2,195943296e-01    2,902909517e-01   -2,427996099e-01   -2,561101019e-01    0,000000000e+00    0,000000000e+00    0,000000000e+00    0,000000000e+00
     1052000000   -1,721393876e-02    2,792767584e-01   -3,107984662e-01   -4,613102227e-02    0,000000000e+00    0,000000000e+00    0,000000000e+00    0,000000000e+00
     1066000000    1,308597922e-01    1,661862135e-01   -2,470195293e-01    1,378296912e-01    0,000000000e+00    0,000000000e+00    0,000000000e+00    0,000000000e+00
     1080000000    1,922390759e-01    1,073737349e-02   -1,166826785e-01    2,520641983e-01    0,000000000e+00    0,000000000e+00    0,000000000e+00    0,000000000e+00
     1094000000    1,610005796e-01   -1,610258967e-01    6,053755432e-02    2,912375927e-01    0,000000000e+00    0,000000000e+00    0,000000000e+00    0,000000000e+00
     1108000000    1,674181409e-02   -2,985561490e-01    2,623415887e-01    2,356253266e-01    0,000000000e+00    0,000000000e+00    0,000000000e+00    0,000000000e+00
     1122000000   -2,117864639e-01   -2,863917053e-01    4,396426380e-01    2,423599549e-02    0,000000000e+00    0,000000000e+00    0,000000000e+00    0,000000000e+00
     1136000000   -3,198298216e-01   -2,711704001e-02    3,991329074e-01   -3,427788913e-01    0,000000000e+00    0,000000000e+00    0,000000000e+00    0,000000000e+00
     1150000000   -1,091472805e-01    1,366085708e-01    4,480691254e-02   -5,316391587e-01    0,000000000e+00    0,000000000e+00    0,000000000e+00    0,000000000e+00
     1164000000    8,639165759e-02   -1,549639646e-02   -2,513611317e-01   -4,012774229e-01    0,000000000e+00    0,000000000e+00    0,000000000e+00    0,000000000e+00
     1178000000    3,131626919e-02   -2,531535923e-01   -3,685941994e-01   -1,811598390e-01    0,000000000e+00    0,000000000e+00    0,000000000e+00    0,000000000e+00
     1192000000   -2,254182845e-01   -3,498252034e-01   -3,398386538e-01    3,933505714e-02    0,000000000e+00    0,000000000e+00    0,000000000e+00    0,000000000e+00
     1206000000   -4,782790840e-01   -1,863137186e-01   -1,894757599e-01    1,816781312e-01    0,000000000e+00    0,000000000e+00    0,000000000e+00    0,000000000e+00
     1220000000   -5,089989901e-01    1,402907819e-01   -1,324977539e-02    1,742737144e-01    0,000000000e+00    0,000000000e+00    0,000000000e+00    0,000000000e+00
     1234000000   -3,004244268e-01    3,411839902e-01    7,537019998e-02    7,517553866e-02    0,000000000e+00    0,000000000e+00    0,000000000e+00    0,000000000e+00
     1248000000   -6,364718825e-02    3,615371585e-01    6,997317821e-02    3,076633438e-03    0,000000000e+00    0,000000000e+00    0,000000000e+00    0,000000000e+00
     1262000000    1,084991693e-01    2,554756403e-01    2,711666003e-02   -2,582652681e-02    0,000000000e+00    0,000000000e+00    0,000000000e+00    0,000000000e+00
     1276000000    2,017365396e-01    1,105737910e-01    8,000930771e-03   -6,839102134e-03    0,000000000e+00    0,000000000e+00    0,000000000e+00    0,000000000e+00
     1290000000    2,230873108e-01   -6,326371431e-02    1,368839759e-02    2,302773856e-02    0,000000000e+00    0,000000000e+00    0,000000000e+00    0,000000000e+00
     1304000000    1,677799225e-01   -2,311302722e-01    6,599234790e-02    5,843071267e-02    0,000000000e+00    0,000000000e+00    0,000000000e+00    0,000000000e+00
     1318000000    2,450172603e-02   -3,652892709e-01    1,743535995e-01    9,735628963e-03    0,000000000e+00    0,000000000e+00    0,000000000e+00    0,000000000e+00
     1332000000   -1,533608735e-01   -3,950533867e-01    9,324607998e-02   -1,783003509e-01    0,000000000e+00    0,000000000e+00    0,000000000e+00    0,000000000e+00
     1346000000   -3,616850078e-01   -3,859323263e-01   -5,286657438e-02   -2,096167393e-02    0,000000000e+00    0,000000000e+00    0,000000000e+00    0,000000000e+00
     1360000000   -5,849400163e-01   -1,971150637e-01    6,469386816e-02    9,117183089e-02    0,000000000e+00    0,000000000e+00    0,000000000e+00    0,000000000e+00
     1374000000   -6,322387457e-01    1,093676835e-01    1,702444702e-01    5,068471655e-02    0,000000000e+00    0,000000000e+00    0,000000000e+00    0,000000000e+00
     1388000000   -4,700862169e-01    3,427352607e-01    2,169836760e-01   -3,251302987e-02    0,000000000e+00    0,000000000e+00    0,000000000e+00    0,000000000e+00
     1402000000   -2,487884909e-01    4,447723627e-01    2,012049556e-01   -7,750660181e-02    0,000000000e+00    0,000000000e+00    0,000000000e+00    0,000000000e+00
     1416000000   -3,969856352e-02    4,053820670e-01    1,919851601e-01   -1,102387980e-01    0,000000000e+00    0,000000000e+00    0,000000000e+00    0,000000000e+00
     1430000000    1,164552644e-01    3,000241220e-01    1,707725078e-01   -1,261849552e-01    0,000000000e+00    0,000000000e+00    0,000000000e+00    0,000000000e+00
     1444000000    2,040770799e-01    1,582394093e-01    1,648821682e-01   -1,053012684e-01    0,000000000e+00    0,000000000e+00    0,000000000e+00    0,000000000e+00
     1458000000    2,306654453e-01   -1,260760706e-02    1,432321668e-01   -8,137252182e-02    0,000000000e+00    0,000000000e+00    0,000000000e+00    0,000000000e+00
     1472000000    1,904653609e-01   -1,947897077e-01    1,559744328e-01   -4,456932470e-02    0,000000000e+00    0,000000000e+00    0,000000000e+00    0,000000000e+00
     1486000000    7,087361068e-02   -3,700127900e-01    1,662411690e-01    1,002560556e-02    0,000000000e+00    0,000000000e+00    0,000000000e+00    0,000000000e+00
     1500000000   -1,599744409e-01   -4,820289314e-01    2,195847034e-01    8,976946771e-02    0,000000000e+00    0,000000000e+00    0,000000000e+00    0,000000000e+00
