! NanoVNA-App
! Date: 2025-09-25 15:44:42
! Start: 100MHz Stop: 1,5GHz Points: 101
! S-Parameter data: F S11 S21 S12 S22
# Hz S RI R 50
!     Frequency           S11_Real           S11_Imag           S21_Real           S21_Imag           S12_Real           S12_Imag           S22_Real           S22_Imag
      100000000   -2,875617519e-02   -4,252607934e-03    3,739797175e-01   -7,215677500e-01    0,000000000e+00    0,000000000e+00    0,000000000e+00    0,000000000e+00
      114000000   -1,651629247e-02    1,151412446e-02   -8,905142546e-02   -8,050239682e-01    0,000000000e+00    0,000000000e+00    0,000000000e+00    0,000000000e+00
      128000000    3,445378505e-03    1,069689821e-02   -5,143530965e-01   -6,202334166e-01    0,000000000e+00    0,000000000e+00    0,000000000e+00    0,000000000e+00
      142000000    1,467808988e-02   -2,666785149e-03   -7,667601705e-01   -2,366040647e-01    0,000000000e+00    0,000000000e+00    0,000000000e+00    0,000000000e+00
      156000000    1,594944857e-02   -1,425797306e-02   -7,686094642e-01    2,235714793e-01    0,000000000e+00    0,000000000e+00    0,000000000e+00    0,000000000e+00
      170000000    1,711016707e-02   -2,245990001e-02   -5,181707144e-01    6,042280793e-01    0,000000000e+00    0,000000000e+00    0,000000000e+00    0,000000000e+00
      184000000    2,135787718e-02   -3,717463091e-02   -1,015238017e-01    7,858082652e-01    0,000000000e+00    0,000000000e+00    0,000000000e+00    0,000000000e+00
      198000000    1,327245217e-02   -6,253226846e-02    3,429778814e-01    7,121009827e-01    0,000000000e+00    0,000000000e+00    0,000000000e+00    0,000000000e+00
      212000000   -1,840581372e-02   -8,129321039e-02    6,777842641e-01    4,098297060e-01    0,000000000e+00    0,000000000e+00    0,000000000e+00    0,000000000e+00
      226000000   -6,133465096e-02   -6,920839101e-02    7,953739762e-01   -3,055033088e-02    0,000000000e+00    0,000000000e+00    0,000000000e+00    0,000000000e+00
      240000000   -8,227203786e-02   -2,580418438e-02    6,460642815e-01   -4,665822983e-01    0,000000000e+00    0,000000000e+00    0,000000000e+00    0,000000000e+00
      254000000   -6,342022121e-02    1,695501618e-02    2,761924863e-01   -7,430781126e-01    0,000000000e+00    0,000000000e+00    0,000000000e+00    0,000000000e+00
      268000000   -2,396871522e-02    2,878149413e-02   -1,780417264e-01   -7,641642690e-01    0,000000000e+00    0,000000000e+00    0,000000000e+00    0,000000000e+00
      282000000    4,101357888e-03    1,202504523e-02   -5,616044998e-01   -5,355811715e-01    0,000000000e+00    0,000000000e+00    0,000000000e+00    0,000000000e+00
      296000000    9,968212806e-03   -7,668746635e-03   -7,594589591e-01   -1,395116597e-01    0,000000000e+00    0,000000000e+00    0,000000000e+00    0,000000000e+00
      310000000    1,150135323e-02   -1,613643765e-02   -7,119919062e-01    2,972804904e-01    0,000000000e+00    0,000000000e+00    0,000000000e+00    0,000000000e+00
      324000000    1,995229907e-02   -2,676151320e-02   -4,273355603e-01    6,382613778e-01    0,000000000e+00    0,000000000e+00    0,000000000e+00    0,000000000e+00
      338000000    2,581764758e-02   -5,231213570e-02   -7,122385316e-03    7,618348002e-01    0,000000000e+00    0,000000000e+00    0,000000000e+00    0,000000000e+00
      352000000    7,555637509e-03   -8,500508964e-02    4,064866602e-01    6,392778754e-01    0,000000000e+00    0,000000000e+00    0,000000000e+00    0,000000000e+00
      366000000   -3,425252810e-02   -9,521593153e-02    6,901704669e-01    3,114757836e-01    0,000000000e+00    0,000000000e+00    0,000000000e+00    0,000000000e+00
      380000000   -7,047121227e-02   -7,111755759e-02    7,467566133e-01   -1,252132207e-01    0,000000000e+00    0,000000000e+00    0,000000000e+00    0,000000000e+00
      394000000   -7,232646644e-02   -3,239673004e-02    5,467330813e-01   -5,217210650e-01    0,000000000e+00    0,000000000e+00    0,000000000e+00    0,000000000e+00
      408000000   -4,611460119e-02   -1,622363366e-02    1,605850458e-01   -7,329640388e-01    0,000000000e+00    0,000000000e+00    0,000000000e+00    0,000000000e+00
      422000000   -2,822915092e-02   -3,233740851e-02   -2,663672864e-01   -6,950713992e-01    0,000000000e+00    0,000000000e+00    0,000000000e+00    0,000000000e+00
      436000000   -4,040439054e-02   -5,158836767e-02   -6,031632423e-01   -4,318965375e-01    0,000000000e+00    0,000000000e+00    0,000000000e+00    0,000000000e+00
      450000000   -6,708399206e-02   -4,385646433e-02   -7,396969795e-01   -2,174661122e-02    0,000000000e+00    0,000000000e+00    0,000000000e+00    0,000000000e+00
      464000000   -7,342033833e-02   -1,195395365e-02   -6,182053089e-01    3,971748352e-01    0,000000000e+00    0,000000000e+00    0,000000000e+00    0,000000000e+00
      478000000   -4,752518609e-02    1,158831920e-02   -2,829239964e-01    6,667438745e-01    0,000000000e+00    0,000000000e+00    0,000000000e+00    0,000000000e+00
      492000000   -1,573808677e-02    5,913756788e-03    1,378269941e-01    7,015804052e-01    0,000000000e+00    0,000000000e+00    0,000000000e+00    0,000000000e+00
      506000000   -2,743107267e-03   -1,586093754e-02    4,976139963e-01    5,026214123e-01    0,000000000e+00    0,000000000e+00    0,000000000e+00    0,000000000e+00
      520000000   -4,699957091e-03   -3,152752295e-02    6,868168116e-01    1,420489550e-01    0,000000000e+00    0,000000000e+00    0,000000000e+00    0,000000000e+00
      534000000   -3,734055208e-03   -3,798764944e-02    6,429739594e-01   -2,615953386e-01    0,000000000e+00    0,000000000e+00    0,000000000e+00    0,000000000e+00
      548000000    6,639529485e-03   -5,405225232e-02    3,823958039e-01   -5,662804842e-01    0,000000000e+00    0,000000000e+00    0,000000000e+00    0,000000000e+00
      562000000    3,911844455e-03   -8,941593021e-02    2,436089097e-03   -6,716449857e-01    0,000000000e+00    0,000000000e+00    0,000000000e+00    0,000000000e+00
      576000000   -3,374978155e-02   -1,242045686e-01   -3,672696352e-01   -5,572047234e-01    0,000000000e+00    0,000000000e+00    0,000000000e+00    0,000000000e+00
      590000000   -9,574100375e-02   -1,231724620e-01   -6,208351254e-01   -2,633780539e-01    0,000000000e+00    0,000000000e+00    0,000000000e+00    0,000000000e+00
      604000000   -1,389926821e-01   -7,255630940e-02   -6,642702222e-01    1,364708245e-01    0,000000000e+00    0,000000000e+00    0,000000000e+00    0,000000000e+00
      618000000   -1,290190071e-01   -9,556299075e-03   -4,647503495e-01    4,932952821e-01    0,000000000e+00    0,000000000e+00    0,000000000e+00    0,000000000e+00
      632000000   -8,474321663e-02    1,546584070e-02   -9,861361235e-02    6,631864905e-01    0,000000000e+00    0,000000000e+00    0,000000000e+00    0,000000000e+00
      646000000   -5,155156925e-02    2,702882630e-04    2,859740555e-01    5,949198008e-01    0,000000000e+00    0,000000000e+00    0,000000000e+00    0,000000000e+00
      660000000   -5,277533457e-02   -2,077657916e-02    5,650388598e-01    3,233547807e-01    0,000000000e+00    0,000000000e+00    0,000000000e+00    0,000000000e+00
      674000000   -6,997351348e-02   -1,703670062e-02    6,407826543e-01   -6,286025792e-02    0,000000000e+00    0,000000000e+00    0,000000000e+00    0,000000000e+00
      688000000   -6,675129384e-02    9,747408330e-03    4,711675346e-01   -4,244185686e-01    0,000000000e+00    0,000000000e+00    0,000000000e+00    0,000000000e+00
      702000000   -3,615507856e-02    2,695186809e-02    1,186157838e-01   -6,084272265e-01    0,000000000e+00    0,000000000e+00    0,000000000e+00    0,000000000e+00
      716000000    2,824042225e-03    1,650059223e-02   -2,586942315e-01   -5,454848409e-01    0,000000000e+00    0,000000000e+00    0,000000000e+00    0,000000000e+00
      730000000    3,731934354e-02   -1,338838972e-02   -5,215895176e-01   -2,712300420e-01    0,000000000e+00    0,000000000e+00    0,000000000e+00    0,000000000e+00
      744000000    6,212106347e-02   -6,566368043e-02   -5,605870485e-01    9,865410626e-02    0,000000000e+00    0,000000000e+00    0,000000000e+00    0,000000000e+00
      758000000    6,067730114e-02   -1,512848437e-01   -3,667294383e-01    4,005466700e-01    0,000000000e+00    0,000000000e+00    0,000000000e+00    0,000000000e+00
      772000000   -1,772287674e-02   -2,558212280e-01   -4,568170756e-02    5,099039078e-01    0,000000000e+00    0,000000000e+00    0,000000000e+00    0,000000000e+00
      786000000   -2,016278058e-01   -2,907429934e-01    2,601103187e-01    3,993082345e-01    0,000000000e+00    0,000000000e+00    0,000000000e+00    0,000000000e+00
      800000000   -4,071833193e-01   -1,282914430e-01    4,076222777e-01    1,191438660e-01    0,000000000e+00    0,000000000e+00    0,000000000e+00    0,000000000e+00
      814000000   -3,756873608e-01    2,010195404e-01    2,971116006e-01   -1,510361284e-01    0,000000000e+00    0,000000000e+00    0,000000000e+00    0,000000000e+00
      828000000   -6,262090057e-02    3,465029001e-01    8,261899650e-02   -1,910299510e-01    0,000000000e+00    0,000000000e+00    0,000000000e+00    0,000000000e+00
      842000000    2,111852765e-01    1,858494729e-01   -3,942931537e-03   -9,379108250e-02    0,000000000e+00    0,000000000e+00    0,000000000e+00    0,000000000e+00
      856000000    2,659434974e-01   -1,055413336e-01    3,547447175e-02   -3,729864210e-02    0,000000000e+00    0,000000000e+00    0,000000000e+00    0,000000000e+00
      870000000    8,217038214e-02   -3,518593311e-01    8,809909970e-02   -9,711749852e-02    0,000000000e+00    0,000000000e+00    0,000000000e+00    0,000000000e+00
      884000000   -2,677565217e-01   -3,558503985e-01    1,159950905e-02   -2,267704457e-01    0,000000000e+00    0,000000000e+00    0,000000000e+00    0,000000000e+00
      898000000   -4,586140513e-01   -1,418655738e-02   -2,158024758e-01   -2,096995860e-01    0,000000000e+00    0,000000000e+00    0,000000000e+00    0,000000000e+00
      912000000   -2,350655049e-01    2,781081200e-01   -3,369788229e-01    6,218560785e-02    0,000000000e+00    0,000000000e+00    0,000000000e+00    0,000000000e+00
      926000000    5,480014160e-02    2,622511983e-01   -2,106170654e-01    2,631850839e-01    0,000000000e+00    0,000000000e+00    0,000000000e+00    0,000000000e+00
      940000000    2,105457634e-01    8,640439063e-02   -3,179036826e-02    3,255068362e-01    0,000000000e+00    0,000000000e+00    0,000000000e+00    0,000000000e+00
      954000000    2,207576483e-01   -1,186233610e-01    1,311343163e-01    3,007044792e-01    0,000000000e+00    0,000000000e+00    0,000000000e+00    0,000000000e+00
      968000000    1,154864356e-01   -2,946100533e-01    2,673476040e-01    2,142371535e-01    0,000000000e+00    0,000000000e+00    0,000000000e+00    0,000000000e+00
      982000000   -7,849081606e-02   -3,872372508e-01    3,595091999e-01    6,294034421e-02    0,000000000e+00    0,000000000e+00    0,000000000e+00    0,000000000e+00
      996000000   -3,115125000e-01   -3,289313614e-01    3,642940223e-01   -1,422572136e-01    0,000000000e+00    0,000000000e+00    0,000000000e+00    0,000000000e+00
     1010000000   -4,588333070e-01   -1,174224392e-01    2,199844718e-01   -3,356389105e-01    0,000000000e+00    0,000000000e+00    0,000000000e+00    0,000000000e+00
     1024000000   -4,181173444e-01    1,406062543e-01   -2,850290574e-02   -3,853008449e-01    0,000000000e+00    0,000000000e+00    0,000000000e+00    0,000000000e+00
     1038000000   -2,226412296e-01    2,855997086e-01   -2,414813340e-01   -2,577127814e-01    0,000000000e+00    0,000000000e+00    0,000000000e+00    0,000000000e+00
     1052000000   -1,493051648e-02    2,803972363e-01   -3,115800917e-01   -4,706313834e-02    0,000000000e+00    0,000000000e+00    0,000000000e+00    0,000000000e+00
     1066000000    1,338319480e-01    1,686822623e-01   -2,504954636e-01    1,362574846e-01    0,000000000e+00    0,000000000e+00    0,000000000e+00    0,000000000e+00
     1080000000    1,933238059e-01    9,002998471e-03   -1,176474616e-01    2,542671561e-01    0,000000000e+00    0,000000000e+00    0,000000000e+00    0,000000000e+00
     1094000000    1,625013798e-01   -1,650442332e-01    5,956126750e-02    2,930951416e-01    0,000000000e+00    0,000000000e+00    0,000000000e+00    0,000000000e+00
     1108000000    2,150768600e-02   -2,939496934e-01    2,600195408e-01    2,353674769e-01    0,000000000e+00    0,000000000e+00    0,000000000e+00    0,000000000e+00
     1122000000   -2,163463235e-01   -2,871817946e-01    4,410621822e-01    2,323662303e-02    0,000000000e+00    0,000000000e+00    0,000000000e+00    0,000000000e+00
     1136000000   -3,231239915e-01   -3,274996579e-02    4,002589583e-01   -3,409635723e-01    0,000000000e+00    0,000000000e+00    0,000000000e+00    0,000000000e+00
     1150000000   -1,110633612e-01    1,396012753e-01    4,952266812e-02   -5,336980820e-01    0,000000000e+00    0,000000000e+00    0,000000000e+00    0,000000000e+00
     1164000000    8,239008486e-02   -1,953363977e-02   -2,510607541e-01   -4,029684961e-01    0,000000000e+00    0,000000000e+00    0,000000000e+00    0,000000000e+00
     1178000000    2,630189806e-02   -2,491943836e-01   -3,706433475e-01   -1,786590815e-01    0,000000000e+00    0,000000000e+00    0,000000000e+00    0,000000000e+00
     1192000000   -2,241754085e-01   -3,484055698e-01   -3,438178599e-01    3,957847878e-02    0,000000000e+00    0,000000000e+00    0,000000000e+00    0,000000000e+00
     1206000000   -4,759264588e-01   -1,848147959e-01   -1,906901598e-01    1,819434464e-01    0,000000000e+00    0,000000000e+00    0,000000000e+00    0,000000000e+00
     1220000000   -5,065405369e-01    1,395564973e-01   -1,242322288e-02    1,765759438e-01    0,000000000e+00    0,000000000e+00    0,000000000e+00    0,000000000e+00
     1234000000   -2,959453762e-01    3,433032632e-01    7,606535405e-02    8,147691190e-02    0,000000000e+00    0,000000000e+00    0,000000000e+00    0,000000000e+00
     1248000000   -6,167750806e-02    3,566705287e-01    7,200401276e-02    3,750555683e-03    0,000000000e+00    0,000000000e+00    0,000000000e+00    0,000000000e+00
     1262000000    1,079914570e-01    2,593915164e-01    3,097784705e-02   -2,380293421e-02    0,000000000e+00    0,000000000e+00    0,000000000e+00    0,000000000e+00
     1276000000    2,040469497e-01    1,098057851e-01    7,782910485e-03   -8,592536673e-03    0,000000000e+00    0,000000000e+00    0,000000000e+00    0,000000000e+00
     1290000000    2,224792987e-01   -6,573645771e-02    1,050401572e-02    2,260951325e-02    0,000000000e+00    0,000000000e+00    0,000000000e+00    0,000000000e+00
     1304000000    1,669635326e-01   -2,344160229e-01    6,386165321e-02    5,689193308e-02    0,000000000e+00    0,000000000e+00    0,000000000e+00    0,000000000e+00
     1318000000    2,568866313e-02   -3,638808131e-01    1,655697674e-01    1,667256840e-02    0,000000000e+00    0,000000000e+00    0,000000000e+00    0,000000000e+00
     1332000000   -1,478610933e-01   -3,928200006e-01    1,016257554e-01   -1,762817353e-01    0,000000000e+00    0,000000000e+00    0,000000000e+00    0,000000000e+00
     1346000000   -3,632991314e-01   -3,893051445e-01   -6,233552843e-02   -1,648542099e-02    0,000000000e+00    0,000000000e+00    0,000000000e+00    0,000000000e+00
     1360000000   -5,911877155e-01   -1,998705119e-01    5,331663042e-02    8,712214231e-02    0,000000000e+00    0,000000000e+00    0,000000000e+00    0,000000000e+00
     1374000000   -6,230421066e-01    1,017801091e-01    1,822012514e-01    5,713440850e-02    0,000000000e+00    0,000000000e+00    0,000000000e+00    0,000000000e+00
     1388000000   -4,725910425e-01    3,572504222e-01    2,191813141e-01   -1,607759111e-02    0,000000000e+00    0,000000000e+00    0,000000000e+00    0,000000000e+00
     1402000000   -2,475603074e-01    4,447216690e-01    2,182626277e-01   -7,841393352e-02    0,000000000e+00    0,000000000e+00    0,000000000e+00    0,000000000e+00
     1416000000   -3,608873859e-02    4,109969139e-01    2,066653520e-01   -9,873983264e-02    0,000000000e+00    0,000000000e+00    0,000000000e+00    0,000000000e+00
     1430000000    1,242550611e-01    2,976841033e-01    1,730840951e-01   -1,394081712e-01    0,000000000e+00    0,000000000e+00    0,000000000e+00    0,000000000e+00
     1444000000    2,028250396e-01    1,573495418e-01    1,498088092e-01   -1,076655537e-01    0,000000000e+00    0,000000000e+00    0,000000000e+00    0,000000000e+00
     1458000000    2,290081084e-01   -1,530686859e-02    1,426378042e-01   -9,369105846e-02    0,000000000e+00    0,000000000e+00    0,000000000e+00    0,000000000e+00
     1472000000    1,857188791e-01   -1,884396523e-01    1,432037652e-01   -3,639722615e-02    0,000000000e+00    0,000000000e+00    0,000000000e+00    0,000000000e+00
     1486000000    6,876818836e-02   -3,671810329e-01    1,748382002e-01    2,425646782e-02    0,000000000e+00    0,000000000e+00    0,000000000e+00    0,000000000e+00
     1500000000   -1,622755826e-01   -4,886928499e-01    2,311926484e-01    7,021568716e-02    0,000000000e+00    0,000000000e+00    0,000000000e+00    0,000000000e+00
