! NanoVNA-App
! Date: 2025-09-25 15:41:57
! Start: 100MHz Stop: 1,5GHz Points: 101
! S-Parameter data: F S11 S21 S12 S22
# Hz S RI R 50
!     Frequency           S11_Real           S11_Imag           S21_Real           S21_Imag           S12_Real           S12_Imag           S22_Real           S22_Imag
      100000000   -2,872467972e-02   -4,244181793e-03    3,739320040e-01   -7,215632796e-01    0,000000000e+00    0,000000000e+00    0,000000000e+00    0,000000000e+00
      114000000   -1,651500538e-02    1,149962470e-02   -8,894558251e-02   -8,052909970e-01    0,000000000e+00    0,000000000e+00    0,000000000e+00    0,000000000e+00
      128000000    3,417374101e-03    1,068822760e-02   -5,143912435e-01   -6,201271415e-01    0,000000000e+00    0,000000000e+00    0,000000000e+00    0,000000000e+00
      142000000    1,466995478e-02   -2,633019350e-03   -7,668687105e-01   -2,364796847e-01    0,000000000e+00    0,000000000e+00    0,000000000e+00    0,000000000e+00
      156000000    1,473219600e-02   -1,461493783e-02   -7,643712759e-01    2,180896848e-01    0,000000000e+00    0,000000000e+00    0,000000000e+00    0,000000000e+00
      170000000    1,714408025e-02   -2,248475142e-02   -5,180419683e-01    6,042491198e-01    0,000000000e+00    0,000000000e+00    0,000000000e+00    0,000000000e+00
      184000000    2,136964723e-02   -3,714442998e-02   -1,014491320e-01    7,854831815e-01    0,000000000e+00    0,000000000e+00    0,000000000e+00    0,000000000e+00
      198000000    1,326571777e-02   -6,256749481e-02    3,430859745e-01    7,121555805e-01    0,000000000e+00    0,000000000e+00    0,000000000e+00    0,000000000e+00
      212000000   -1,843466051e-02   -8,125266433e-02    6,777639389e-01    4,098981023e-01    0,000000000e+00    0,000000000e+00    0,000000000e+00    0,000000000e+00
      226000000   -6,137911603e-02   -6,921607256e-02    7,953872681e-01   -3,048808686e-02    0,000000000e+00    0,000000000e+00    0,000000000e+00    0,000000000e+00
      240000000   -8,221551031e-02   -2,583189681e-02    6,460293531e-01   -4,668311477e-01    0,000000000e+00    0,000000000e+00    0,000000000e+00    0,000000000e+00
      254000000   -6,337676942e-02    1,691558957e-02    2,760083377e-01   -7,429018021e-01    0,000000000e+00    0,000000000e+00    0,000000000e+00    0,000000000e+00
      268000000   -2,394367754e-02    2,877070382e-02   -1,778426468e-01   -7,637154460e-01    0,000000000e+00    0,000000000e+00    0,000000000e+00    0,000000000e+00
      282000000    4,082122818e-03    1,206789725e-02   -5,617634654e-01   -5,354186893e-01    0,000000000e+00    0,000000000e+00    0,000000000e+00    0,000000000e+00
      296000000    9,954297915e-03   -7,589654531e-03   -7,595124841e-01   -1,396353990e-01    0,000000000e+00    0,000000000e+00    0,000000000e+00    0,000000000e+00
      310000000    1,164505072e-02   -1,614497975e-02   -7,127592564e-01    2,986720204e-01    0,000000000e+00    0,000000000e+00    0,000000000e+00    0,000000000e+00
      324000000    2,007811703e-02   -2,664568648e-02   -4,265077114e-01    6,371484399e-01    0,000000000e+00    0,000000000e+00    0,000000000e+00    0,000000000e+00
      338000000    2,560639195e-02   -5,234135315e-02   -1,069953106e-02    7,595196962e-01    0,000000000e+00    0,000000000e+00    0,000000000e+00    0,000000000e+00
      352000000    7,609274238e-03   -8,463925868e-02    4,062344432e-01    6,403482556e-01    0,000000000e+00    0,000000000e+00    0,000000000e+00    0,000000000e+00
      366000000   -3,446977958e-02   -9,559792280e-02    6,898359060e-01    3,112690151e-01    0,000000000e+00    0,000000000e+00    0,000000000e+00    0,000000000e+00
      380000000   -7,079192251e-02   -7,128874958e-02    7,466887832e-01   -1,256592125e-01    0,000000000e+00    0,000000000e+00    0,000000000e+00    0,000000000e+00
      394000000   -7,206031680e-02   -3,260049224e-02    5,475014448e-01   -5,209035277e-01    0,000000000e+00    0,000000000e+00    0,000000000e+00    0,000000000e+00
      408000000   -4,619055241e-02   -1,656311937e-02    1,612430513e-01   -7,322096825e-01    0,000000000e+00    0,000000000e+00    0,000000000e+00    0,000000000e+00
      422000000   -2,836154215e-02   -3,195574507e-02   -2,667132318e-01   -6,944499016e-01    0,000000000e+00    0,000000000e+00    0,000000000e+00    0,000000000e+00
      436000000   -4,051785171e-02   -5,191237107e-02   -6,031247973e-01   -4,322649240e-01    0,000000000e+00    0,000000000e+00    0,000000000e+00    0,000000000e+00
      450000000   -6,691331416e-02   -4,380793497e-02   -7,396826744e-01   -2,130676992e-02    0,000000000e+00    0,000000000e+00    0,000000000e+00    0,000000000e+00
      464000000   -7,282771915e-02   -1,162263472e-02   -6,183060408e-01    3,966320455e-01    0,000000000e+00    0,000000000e+00    0,000000000e+00    0,000000000e+00
      478000000   -4,773437977e-02    1,129673980e-02   -2,825158536e-01    6,663013697e-01    0,000000000e+00    0,000000000e+00    0,000000000e+00    0,000000000e+00
      492000000   -1,617099717e-02    5,636134185e-03    1,367167234e-01    7,011459470e-01    0,000000000e+00    0,000000000e+00    0,000000000e+00    0,000000000e+00
      506000000   -2,739324700e-03   -1,602138765e-02    4,976432621e-01    5,020983219e-01    0,000000000e+00    0,000000000e+00    0,000000000e+00    0,000000000e+00
      520000000   -5,110791884e-03   -3,159941360e-02    6,874825954e-01    1,416778862e-01    0,000000000e+00    0,000000000e+00    0,000000000e+00    0,000000000e+00
      534000000   -3,573108464e-03   -3,814767301e-02    6,429251432e-01   -2,617017329e-01    0,000000000e+00    0,000000000e+00    0,000000000e+00    0,000000000e+00
      548000000    6,618476938e-03   -5,380832776e-02    3,809370100e-01   -5,668274760e-01    0,000000000e+00    0,000000000e+00    0,000000000e+00    0,000000000e+00
      562000000    3,256664379e-03   -8,921322972e-02    3,043713281e-03   -6,713755727e-01    0,000000000e+00    0,000000000e+00    0,000000000e+00    0,000000000e+00
      576000000   -3,352216259e-02   -1,242498830e-01   -3,675468564e-01   -5,568448901e-01    0,000000000e+00    0,000000000e+00    0,000000000e+00    0,000000000e+00
      590000000   -9,583967924e-02   -1,225745752e-01   -6,184195876e-01   -2,632058859e-01    0,000000000e+00    0,000000000e+00    0,000000000e+00    0,000000000e+00
      604000000   -1,388857365e-01   -7,215088606e-02   -6,637012362e-01    1,369239390e-01    0,000000000e+00    0,000000000e+00    0,000000000e+00    0,000000000e+00
      618000000   -1,288649589e-01   -1,054531801e-02   -4,641436636e-01    4,924918115e-01    0,000000000e+00    0,000000000e+00    0,000000000e+00    0,000000000e+00
      632000000   -8,480753750e-02    1,610911265e-02   -9,925013036e-02    6,625477076e-01    0,000000000e+00    0,000000000e+00    0,000000000e+00    0,000000000e+00
      646000000   -5,152944475e-02    8,118984406e-04    2,856729031e-01    5,948626399e-01    0,000000000e+00    0,000000000e+00    0,000000000e+00    0,000000000e+00
      660000000   -5,360116437e-02   -2,137549408e-02    5,648326278e-01    3,225409985e-01    0,000000000e+00    0,000000000e+00    0,000000000e+00    0,000000000e+00
      674000000   -6,901652366e-02   -1,674276032e-02    6,405370235e-01   -6,366565824e-02    0,000000000e+00    0,000000000e+00    0,000000000e+00    0,000000000e+00
      688000000   -6,760364026e-02    9,340576828e-03    4,711124897e-01   -4,245415628e-01    0,000000000e+00    0,000000000e+00    0,000000000e+00    0,000000000e+00
      702000000   -3,659735247e-02    2,516271919e-02    1,246732473e-01   -6,056225300e-01    0,000000000e+00    0,000000000e+00    0,000000000e+00    0,000000000e+00
      716000000    3,514890326e-03    1,529422589e-02   -2,593512535e-01   -5,454351902e-01    0,000000000e+00    0,000000000e+00    0,000000000e+00    0,000000000e+00
      730000000    3,703707084e-02   -1,427075919e-02   -5,224682093e-01   -2,713312209e-01    0,000000000e+00    0,000000000e+00    0,000000000e+00    0,000000000e+00
      744000000    6,207418442e-02   -6,555359066e-02   -5,602094531e-01    9,845297039e-02    0,000000000e+00    0,000000000e+00    0,000000000e+00    0,000000000e+00
      758000000    6,142641976e-02   -1,524840891e-01   -3,665074706e-01    4,003679752e-01    0,000000000e+00    0,000000000e+00    0,000000000e+00    0,000000000e+00
      772000000   -1,641193405e-02   -2,558929920e-01   -4,602766037e-02    5,087258220e-01    0,000000000e+00    0,000000000e+00    0,000000000e+00    0,000000000e+00
      786000000   -2,028191686e-01   -2,904238105e-01    2,587311864e-01    3,986338973e-01    0,000000000e+00    0,000000000e+00    0,000000000e+00    0,000000000e+00
      800000000   -4,079686999e-01   -1,263071895e-01    4,068756402e-01    1,180553660e-01    0,000000000e+00    0,000000000e+00    0,000000000e+00    0,000000000e+00
      814000000   -3,777849376e-01    2,014048398e-01    2,961839139e-01   -1,501760036e-01    0,000000000e+00    0,000000000e+00    0,000000000e+00    0,000000000e+00
      828000000   -6,148698926e-02    3,473046124e-01    8,201999217e-02   -1,909531802e-01    0,000000000e+00    0,000000000e+00    0,000000000e+00    0,000000000e+00
      842000000    2,117709666e-01    1,854077429e-01   -3,300223267e-03   -9,310902655e-02    0,000000000e+00    0,000000000e+00    0,000000000e+00    0,000000000e+00
      856000000    2,662157118e-01   -1,059600711e-01    3,619297966e-02   -3,703926131e-02    0,000000000e+00    0,000000000e+00    0,000000000e+00    0,000000000e+00
      870000000    8,250199258e-02   -3,516232669e-01    8,857678622e-02   -9,721778333e-02    0,000000000e+00    0,000000000e+00    0,000000000e+00    0,000000000e+00
      884000000   -2,681204975e-01   -3,559294343e-01    1,146089099e-02   -2,275425643e-01    0,000000000e+00    0,000000000e+00    0,000000000e+00    0,000000000e+00
      898000000   -4,569253027e-01   -1,306785922e-02   -2,143369019e-01   -2,095215768e-01    0,000000000e+00    0,000000000e+00    0,000000000e+00    0,000000000e+00
      912000000   -2,346774936e-01    2,781051695e-01   -3,417225182e-01    6,794155389e-02    0,000000000e+00    0,000000000e+00    0,000000000e+00    0,000000000e+00
      926000000    5,489778519e-02    2,630741298e-01   -2,106129080e-01    2,643474042e-01    0,000000000e+00    0,000000000e+00    0,000000000e+00    0,000000000e+00
      940000000    2,106000930e-01    8,259978145e-02   -3,038534895e-02    3,255260587e-01    0,000000000e+00    0,000000000e+00    0,000000000e+00    0,000000000e+00
      954000000    2,195482254e-01   -1,216526926e-01    1,322733611e-01    3,007014692e-01    0,000000000e+00    0,000000000e+00    0,000000000e+00    0,000000000e+00
      968000000    1,170933172e-01   -2,954251468e-01    2,681944668e-01    2,121377289e-01    0,000000000e+00    0,000000000e+00    0,000000000e+00    0,000000000e+00
      982000000   -7,741266489e-02   -3,866390884e-01    3,616718054e-01    6,306474656e-02    0,000000000e+00    0,000000000e+00    0,000000000e+00    0,000000000e+00
      996000000   -3,132997751e-01   -3,285776377e-01    3,616384566e-01   -1,428624243e-01    0,000000000e+00    0,000000000e+00    0,000000000e+00    0,000000000e+00
     1010000000   -4,579512775e-01   -1,153481752e-01    2,195271850e-01   -3,351218998e-01    0,000000000e+00    0,000000000e+00    0,000000000e+00    0,000000000e+00
     1024000000   -4,150949419e-01    1,467954963e-01   -3,214111552e-02   -3,861896396e-01    0,000000000e+00    0,000000000e+00    0,000000000e+00    0,000000000e+00
     1038000000   -2,260296196e-01    2,900655568e-01   -2,407711446e-01   -2,560108900e-01    0,000000000e+00    0,000000000e+00    0,000000000e+00    0,000000000e+00
     1052000000   -1,721316203e-02    2,800809741e-01   -3,091296554e-01   -4,822057486e-02    0,000000000e+00    0,000000000e+00    0,000000000e+00    0,000000000e+00
     1066000000    1,292973161e-01    1,663488746e-01   -2,502993941e-01    1,382150948e-01    0,000000000e+00    0,000000000e+00    0,000000000e+00    0,000000000e+00
     1080000000    1,926992536e-01    1,134339161e-02   -1,155845076e-01    2,533954084e-01    0,000000000e+00    0,000000000e+00    0,000000000e+00    0,000000000e+00
     1094000000    1,566782445e-01   -1,619282216e-01    6,294368953e-02    2,922322154e-01    0,000000000e+00    0,000000000e+00    0,000000000e+00    0,000000000e+00
     1108000000    2,029968612e-02   -2,931390107e-01    2,598325908e-01    2,350126505e-01    0,000000000e+00    0,000000000e+00    0,000000000e+00    0,000000000e+00
     1122000000   -2,142627388e-01   -2,859480977e-01    4,389147460e-01    2,253813297e-02    0,000000000e+00    0,000000000e+00    0,000000000e+00    0,000000000e+00
     1136000000   -3,300941885e-01   -2,657617070e-02    4,016582370e-01   -3,476627469e-01    0,000000000e+00    0,000000000e+00    0,000000000e+00    0,000000000e+00
     1150000000   -1,026807278e-01    1,383568347e-01    4,755332321e-02   -5,291584134e-01    0,000000000e+00    0,000000000e+00    0,000000000e+00    0,000000000e+00
     1164000000    8,715443313e-02   -1,772920415e-02   -2,529251575e-01   -4,028827548e-01    0,000000000e+00    0,000000000e+00    0,000000000e+00    0,000000000e+00
     1178000000    2,587786317e-02   -2,557970583e-01   -3,704625368e-01   -1,811648905e-01    0,000000000e+00    0,000000000e+00    0,000000000e+00    0,000000000e+00
     1192000000   -2,197592258e-01   -3,439887762e-01   -3,399067819e-01    4,113953188e-02    0,000000000e+00    0,000000000e+00    0,000000000e+00    0,000000000e+00
     1206000000   -4,812252223e-01   -1,781896651e-01   -1,885384619e-01    1,849238127e-01    0,000000000e+00    0,000000000e+00    0,000000000e+00    0,000000000e+00
     1220000000   -5,070776939e-01    1,396515965e-01   -9,503942914e-03    1,761586666e-01    0,000000000e+00    0,000000000e+00    0,000000000e+00    0,000000000e+00
     1234000000   -3,037116230e-01    3,434638679e-01    7,059352845e-02    7,735533267e-02    0,000000000e+00    0,000000000e+00    0,000000000e+00    0,000000000e+00
     1248000000   -5,840183794e-02    3,636696935e-01    7,386650890e-02   -3,486009082e-04    0,000000000e+00    0,000000000e+00    0,000000000e+00    0,000000000e+00
     1262000000    1,077667028e-01    2,619003952e-01    2,916613221e-02   -2,404294163e-02    0,000000000e+00    0,000000000e+00    0,000000000e+00    0,000000000e+00
     1276000000    2,025198936e-01    1,050179005e-01    9,812181816e-03   -1,035656128e-02    0,000000000e+00    0,000000000e+00    0,000000000e+00    0,000000000e+00
     1290000000    2,174833566e-01   -6,341392547e-02    6,613045000e-03    2,609620616e-02    0,000000000e+00    0,000000000e+00    0,000000000e+00    0,000000000e+00
     1304000000    1,616670489e-01   -2,336813062e-01    6,154688448e-02    5,384080485e-02    0,000000000e+00    0,000000000e+00    0,000000000e+00    0,000000000e+00
     1318000000    2,895676903e-02   -3,648926020e-01    1,766861230e-01    1,853092015e-02    0,000000000e+00    0,000000000e+00    0,000000000e+00    0,000000000e+00
     1332000000   -1,527363658e-01   -3,975027800e-01    9,967976809e-02   -1,811492443e-01    0,000000000e+00    0,000000000e+00    0,000000000e+00    0,000000000e+00
     1346000000   -3,632677794e-01   -3,917316496e-01   -6,672136486e-02   -1,521916129e-02    0,000000000e+00    0,000000000e+00    0,000000000e+00    0,000000000e+00
     1360000000   -5,934899449e-01   -2,136851400e-01    5,658009648e-02    8,802144229e-02    0,000000000e+00    0,000000000e+00    0,000000000e+00    0,000000000e+00
     1374000000   -6,274866462e-01    1,056866273e-01    1,830847859e-01    4,981879890e-02    0,000000000e+00    0,000000000e+00    0,000000000e+00    0,000000000e+00
     1388000000   -4,757485390e-01    3,491035402e-01    2,106250376e-01   -1,778732613e-02    0,000000000e+00    0,000000000e+00    0,000000000e+00    0,000000000e+00
     1402000000   -2,525600791e-01    4,450671971e-01    2,119995356e-01   -8,601909131e-02    0,000000000e+00    0,000000000e+00    0,000000000e+00    0,000000000e+00
     1416000000   -3,622820228e-02    4,148454368e-01    2,031367123e-01   -1,064349040e-01    0,000000000e+00    0,000000000e+00    0,000000000e+00    0,000000000e+00
     1430000000    1,110497788e-01    2,986476719e-01    1,661968827e-01   -1,053117737e-01    0,000000000e+00    0,000000000e+00    0,000000000e+00    0,000000000e+00
     1444000000    2,029638886e-01    1,580949724e-01    1,577508748e-01   -1,016360149e-01    0,000000000e+00    0,000000000e+00    0,000000000e+00    0,000000000e+00
     1458000000    2,335967422e-01   -1,083175745e-02    1,408552378e-01   -8,699733019e-02    0,000000000e+00    0,000000000e+00    0,000000000e+00    0,000000000e+00
     1472000000    1,866845787e-01   -1,919807941e-01    1,353716999e-01   -4,879179969e-02    0,000000000e+00    0,000000000e+00    0,000000000e+00    0,000000000e+00
     1486000000    6,191354245e-02   -3,632894158e-01    1,546158344e-01    1,746464521e-02    0,000000000e+00    0,000000000e+00    0,000000000e+00    0,000000000e+00
     1500000000   -1,660303473e-01   -4,887521565e-01    2,091832012e-01    8,879445493e-02    0,000000000e+00    0,000000000e+00    0,000000000e+00    0,000000000e+00
