! NanoVNA-App
! Date: 2025-09-25 15:45:34
! Start: 100MHz Stop: 1,5GHz Points: 101
! S-Parameter data: F S11 S21 S12 S22
# Hz S RI R 50
!     Frequency           S11_Real           S11_Imag           S21_Real           S21_Imag           S12_Real           S12_Imag           S22_Real           S22_Imag
      100000000   -2,878247388e-02   -4,253029823e-03    3,739620447e-01   -7,215430737e-01    0,000000000e+00    0,000000000e+00    0,000000000e+00    0,000000000e+00
      114000000   -1,655185036e-02    1,148437150e-02   -8,892731369e-02   -8,051798344e-01    0,000000000e+00    0,000000000e+00    0,000000000e+00    0,000000000e+00
      128000000    3,418224864e-03    1,070768386e-02   -5,145654678e-01   -6,205149889e-01    0,000000000e+00    0,000000000e+00    0,000000000e+00    0,000000000e+00
      142000000    1,463914104e-02   -2,656036988e-03   -7,668635249e-01   -2,364273816e-01    0,000000000e+00    0,000000000e+00    0,000000000e+00    0,000000000e+00
      156000000    1,631345600e-02   -1,417224947e-02   -7,699272037e-01    2,241829187e-01    0,000000000e+00    0,000000000e+00    0,000000000e+00    0,000000000e+00
      170000000    1,707126200e-02   -2,249654010e-02   -5,179191828e-01    6,044400930e-01    0,000000000e+00    0,000000000e+00    0,000000000e+00    0,000000000e+00
      184000000    2,129994519e-02   -3,715595230e-02   -1,014018580e-01    7,855638862e-01    0,000000000e+00    0,000000000e+00    0,000000000e+00    0,000000000e+00
      198000000    1,324256416e-02   -6,252764910e-02    3,431333005e-01    7,121848464e-01    0,000000000e+00    0,000000000e+00    0,000000000e+00    0,000000000e+00
      212000000   -1,845210604e-02   -8,128388226e-02    6,779850125e-01    4,097822607e-01    0,000000000e+00    0,000000000e+00    0,000000000e+00    0,000000000e+00
      226000000   -6,139343977e-02   -6,925445795e-02    7,955046296e-01   -3,041026369e-02    0,000000000e+00    0,000000000e+00    0,000000000e+00    0,000000000e+00
      240000000   -8,232873678e-02   -2,574780025e-02    6,458894610e-01   -4,669588208e-01    0,000000000e+00    0,000000000e+00    0,000000000e+00    0,000000000e+00
      254000000   -6,343355030e-02    1,698615029e-02    2,760415971e-01   -7,428875566e-01    0,000000000e+00    0,000000000e+00    0,000000000e+00    0,000000000e+00
      268000000   -2,394159697e-02    2,885554545e-02   -1,778302789e-01   -7,644279003e-01    0,000000000e+00    0,000000000e+00    0,000000000e+00    0,000000000e+00
      282000000    4,077991005e-03    1,211411506e-02   -5,615718365e-01   -5,356082320e-01    0,000000000e+00    0,000000000e+00    0,000000000e+00    0,000000000e+00
      296000000    9,920075536e-03   -7,635645103e-03   -7,595250607e-01   -1,396254599e-01    0,000000000e+00    0,000000000e+00    0,000000000e+00    0,000000000e+00
      310000000    1,152462140e-02   -1,610564068e-02   -7,109891176e-01    2,983607948e-01    0,000000000e+00    0,000000000e+00    0,000000000e+00    0,000000000e+00
      324000000    1,992938109e-02   -2,666085400e-02   -4,270342588e-01    6,374288201e-01    0,000000000e+00    0,000000000e+00    0,000000000e+00    0,000000000e+00
      338000000    2,569073252e-02   -5,214535072e-02   -9,815397672e-03    7,619245648e-01    0,000000000e+00    0,000000000e+00    0,000000000e+00    0,000000000e+00
      352000000    7,394294720e-03   -8,455844223e-02    4,057715535e-01    6,393505335e-01    0,000000000e+00    0,000000000e+00    0,000000000e+00    0,000000000e+00
      366000000   -3,446923196e-02   -9,539696574e-02    6,898604631e-01    3,112703860e-01    0,000000000e+00    0,000000000e+00    0,000000000e+00    0,000000000e+00
      380000000   -7,021360099e-02   -7,094852626e-02    7,476161122e-01   -1,257633716e-01    0,000000000e+00    0,000000000e+00    0,000000000e+00    0,000000000e+00
      394000000   -7,226302475e-02   -3,236027434e-02    5,467295051e-01   -5,222612619e-01    0,000000000e+00    0,000000000e+00    0,000000000e+00    0,000000000e+00
      408000000   -4,648920149e-02   -1,655450091e-02    1,611252874e-01   -7,320666313e-01    0,000000000e+00    0,000000000e+00    0,000000000e+00    0,000000000e+00
      422000000   -2,817407623e-02   -3,205585852e-02   -2,669470310e-01   -6,962592006e-01    0,000000000e+00    0,000000000e+00    0,000000000e+00    0,000000000e+00
      436000000   -4,041566700e-02   -5,167219043e-02   -6,038156748e-01   -4,316284657e-01    0,000000000e+00    0,000000000e+00    0,000000000e+00    0,000000000e+00
      450000000   -6,685980409e-02   -4,407356307e-02   -7,394676208e-01   -2,203768305e-02    0,000000000e+00    0,000000000e+00    0,000000000e+00    0,000000000e+00
      464000000   -7,283615321e-02   -1,208796911e-02   -6,180322170e-01    3,965566158e-01    0,000000000e+00    0,000000000e+00    0,000000000e+00    0,000000000e+00
      478000000   -4,781461135e-02    1,126120705e-02   -2,833607793e-01    6,663194895e-01    0,000000000e+00    0,000000000e+00    0,000000000e+00    0,000000000e+00
      492000000   -1,565403119e-02    6,011165213e-03    1,373616606e-01    7,014003396e-01    0,000000000e+00    0,000000000e+00    0,000000000e+00    0,000000000e+00
      506000000   -2,745906124e-03   -1,565187424e-02    4,978511035e-01    5,023168921e-01    0,000000000e+00    0,000000000e+00    0,000000000e+00    0,000000000e+00
      520000000   -4,710554611e-03   -3,138158843e-02    6,877756119e-01    1,419074982e-01    0,000000000e+00    0,000000000e+00    0,000000000e+00    0,000000000e+00
      534000000   -3,510061186e-03   -3,799420595e-02    6,431919932e-01   -2,618039250e-01    0,000000000e+00    0,000000000e+00    0,000000000e+00    0,000000000e+00
      548000000    6,466230843e-03   -5,366468802e-02    3,814601898e-01   -5,657113791e-01    0,000000000e+00    0,000000000e+00    0,000000000e+00    0,000000000e+00
      562000000    3,631958738e-03   -8,912562579e-02    3,066801233e-03   -6,716458201e-01    0,000000000e+00    0,000000000e+00    0,000000000e+00    0,000000000e+00
      576000000   -3,374907374e-02   -1,238597929e-01   -3,680993319e-01   -5,569851995e-01    0,000000000e+00    0,000000000e+00    0,000000000e+00    0,000000000e+00
      590000000   -9,552529454e-02   -1,226426736e-01   -6,195594072e-01   -2,623685598e-01    0,000000000e+00    0,000000000e+00    0,000000000e+00    0,000000000e+00
      604000000   -1,390684396e-01   -7,191167027e-02   -6,644082069e-01    1,372542977e-01    0,000000000e+00    0,000000000e+00    0,000000000e+00    0,000000000e+00
      618000000   -1,290623844e-01   -1,029738691e-02   -4,642913640e-01    4,929117560e-01    0,000000000e+00    0,000000000e+00    0,000000000e+00    0,000000000e+00
      632000000   -8,506587893e-02    1,612418517e-02   -9,973453730e-02    6,622604132e-01    0,000000000e+00    0,000000000e+00    0,000000000e+00    0,000000000e+00
      646000000   -5,202608928e-02    1,725894399e-04    2,861142457e-01    5,945063233e-01    0,000000000e+00    0,000000000e+00    0,000000000e+00    0,000000000e+00
      660000000   -5,406797305e-02   -2,028071880e-02    5,648428202e-01    3,235869706e-01    0,000000000e+00    0,000000000e+00    0,000000000e+00    0,000000000e+00
      674000000   -6,928154826e-02   -1,651195809e-02    6,409857869e-01   -6,321131438e-02    0,000000000e+00    0,000000000e+00    0,000000000e+00    0,000000000e+00
      688000000   -6,672442704e-02    9,790938348e-03    4,711081982e-01   -4,241845310e-01    0,000000000e+00    0,000000000e+00    0,000000000e+00    0,000000000e+00
      702000000   -3,595401347e-02    2,710749395e-02    1,205425188e-01   -6,089720726e-01    0,000000000e+00    0,000000000e+00    0,000000000e+00    0,000000000e+00
      716000000    4,177039955e-03    1,594806835e-02   -2,590098679e-01   -5,456128120e-01    0,000000000e+00    0,000000000e+00    0,000000000e+00    0,000000000e+00
      730000000    3,727528825e-02   -1,359020267e-02   -5,216814280e-01   -2,718636692e-01    0,000000000e+00    0,000000000e+00    0,000000000e+00    0,000000000e+00
      744000000    6,195306033e-02   -6,566045433e-02   -5,604495406e-01    9,845096618e-02    0,000000000e+00    0,000000000e+00    0,000000000e+00    0,000000000e+00
      758000000    6,079640985e-02   -1,510161459e-01   -3,665913343e-01    4,003916383e-01    0,000000000e+00    0,000000000e+00    0,000000000e+00    0,000000000e+00
      772000000   -1,650774479e-02   -2,555566728e-01   -4,621876404e-02    5,088517070e-01    0,000000000e+00    0,000000000e+00    0,000000000e+00    0,000000000e+00
      786000000   -2,025954574e-01   -2,904416621e-01    2,604678571e-01    3,989844322e-01    0,000000000e+00    0,000000000e+00    0,000000000e+00    0,000000000e+00
      800000000   -4,074304104e-01   -1,283492297e-01    4,074576199e-01    1,195496172e-01    0,000000000e+00    0,000000000e+00    0,000000000e+00    0,000000000e+00
      814000000   -3,761422932e-01    2,010565251e-01    2,974111438e-01   -1,513369083e-01    0,000000000e+00    0,000000000e+00    0,000000000e+00    0,000000000e+00
      828000000   -6,414686143e-02    3,470519185e-01    8,255694062e-02   -1,913757324e-01    0,000000000e+00    0,000000000e+00    0,000000000e+00    0,000000000e+00
      842000000    2,111768723e-01    1,859043837e-01   -3,785567591e-03   -9,422126412e-02    0,000000000e+00    0,000000000e+00    0,000000000e+00    0,000000000e+00
      856000000    2,661276162e-01   -1,050059274e-01    3,463729471e-02   -3,716559708e-02    0,000000000e+00    0,000000000e+00    0,000000000e+00    0,000000000e+00
      870000000    8,408121020e-02   -3,508204222e-01    8,841580898e-02   -9,649004787e-02    0,000000000e+00    0,000000000e+00    0,000000000e+00    0,000000000e+00
      884000000   -2,663623989e-01   -3,558422625e-01    1,259337272e-02   -2,266140431e-01    0,000000000e+00    0,000000000e+00    0,000000000e+00    0,000000000e+00
      898000000   -4,579629302e-01   -1,375857648e-02   -2,150665522e-01   -2,092316002e-01    0,000000000e+00    0,000000000e+00    0,000000000e+00    0,000000000e+00
      912000000   -2,365863323e-01    2,779083252e-01   -3,247455359e-01    7,371469587e-02    0,000000000e+00    0,000000000e+00    0,000000000e+00    0,000000000e+00
      926000000    5,480902642e-02    2,605670094e-01   -2,096899599e-01    2,607955337e-01    0,000000000e+00    0,000000000e+00    0,000000000e+00    0,000000000e+00
      940000000    2,103469074e-01    8,420408517e-02   -3,001310863e-02    3,254436553e-01    0,000000000e+00    0,000000000e+00    0,000000000e+00    0,000000000e+00
      954000000    2,225259691e-01   -1,223414913e-01    1,309565306e-01    3,005818129e-01    0,000000000e+00    0,000000000e+00    0,000000000e+00    0,000000000e+00
      968000000    1,164038777e-01   -2,956477702e-01    2,669410110e-01    2,150533497e-01    0,000000000e+00    0,000000000e+00    0,000000000e+00    0,000000000e+00
      982000000   -7,715351880e-02   -3,826905489e-01    3,605105281e-01    6,145967171e-02    0,000000000e+00    0,000000000e+00    0,000000000e+00    0,000000000e+00
      996000000   -3,090012372e-01   -3,325742185e-01    3,624513149e-01   -1,437052041e-01    0,000000000e+00    0,000000000e+00    0,000000000e+00    0,000000000e+00
     1010000000   -4,577819407e-01   -1,151713356e-01    2,191201448e-01   -3,337831199e-01    0,000000000e+00    0,000000000e+00    0,000000000e+00    0,000000000e+00
     1024000000   -4,190251231e-01    1,403120011e-01   -3,041128628e-02   -3,832046688e-01    0,000000000e+00    0,000000000e+00    0,000000000e+00    0,000000000e+00
     1038000000   -2,246083915e-01    2,849855721e-01   -2,416426837e-01   -2,561812401e-01    0,000000000e+00    0,000000000e+00    0,000000000e+00    0,000000000e+00
     1052000000   -1,139806025e-02    2,785676122e-01   -3,090687692e-01   -4,596728459e-02    0,000000000e+00    0,000000000e+00    0,000000000e+00    0,000000000e+00
     1066000000    1,301659793e-01    1,685572714e-01   -2,520052791e-01    1,425250322e-01    0,000000000e+00    0,000000000e+00    0,000000000e+00    0,000000000e+00
     1080000000    1,920244098e-01    7,148717064e-03   -1,184362918e-01    2,533388734e-01    0,000000000e+00    0,000000000e+00    0,000000000e+00    0,000000000e+00
     1094000000    1,617542356e-01   -1,658632904e-01    5,880522355e-02    2,915154397e-01    0,000000000e+00    0,000000000e+00    0,000000000e+00    0,000000000e+00
     1108000000    2,262173034e-02   -2,951221764e-01    2,579269707e-01    2,338486165e-01    0,000000000e+00    0,000000000e+00    0,000000000e+00    0,000000000e+00
     1122000000   -2,109747529e-01   -2,831261456e-01    4,371027052e-01    2,509961836e-02    0,000000000e+00    0,000000000e+00    0,000000000e+00    0,000000000e+00
     1136000000   -3,273677230e-01   -2,766030468e-02    4,015873671e-01   -3,433272839e-01    0,000000000e+00    0,000000000e+00    0,000000000e+00    0,000000000e+00
     1150000000   -1,101040021e-01    1,405530125e-01    5,101650953e-02   -5,315697193e-01    0,000000000e+00    0,000000000e+00    0,000000000e+00    0,000000000e+00
     1164000000    8,246409893e-02   -1,697972976e-02   -2,532416582e-01   -4,049080908e-01    0,000000000e+00    0,000000000e+00    0,000000000e+00    0,000000000e+00
     1178000000    3,015970625e-02   -2,498272955e-01   -3,726356030e-01   -1,764481068e-01    0,000000000e+00    0,000000000e+00    0,000000000e+00    0,000000000e+00
     1192000000   -2,183185816e-01   -3,486668169e-01   -3,394756317e-01    4,299204051e-02    0,000000000e+00    0,000000000e+00    0,000000000e+00    0,000000000e+00
     1206000000   -4,809880853e-01   -1,825436205e-01   -1,916801631e-01    1,819297075e-01    0,000000000e+00    0,000000000e+00    0,000000000e+00    0,000000000e+00
     1220000000   -5,056644678e-01    1,338531226e-01   -7,949369960e-03    1,756213605e-01    0,000000000e+00    0,000000000e+00    0,000000000e+00    0,000000000e+00
     1234000000   -2,971691191e-01    3,350698948e-01    7,404425740e-02    7,967631519e-02    0,000000000e+00    0,000000000e+00    0,000000000e+00    0,000000000e+00
     1248000000   -5,820905045e-02    3,584363461e-01    6,949578226e-02    3,821424209e-03    0,000000000e+00    0,000000000e+00    0,000000000e+00    0,000000000e+00
     1262000000    1,087435484e-01    2,555568516e-01    2,887414582e-02   -2,459306642e-02    0,000000000e+00    0,000000000e+00    0,000000000e+00    0,000000000e+00
     1276000000    1,997605711e-01    1,107670516e-01    6,490498316e-03   -7,728306577e-03    0,000000000e+00    0,000000000e+00    0,000000000e+00    0,000000000e+00
     1290000000    2,173903435e-01   -6,552927941e-02    8,408452384e-03    2,523810416e-02    0,000000000e+00    0,000000000e+00    0,000000000e+00    0,000000000e+00
     1304000000    1,651794016e-01   -2,352859229e-01    6,072996929e-02    5,604078993e-02    0,000000000e+00    0,000000000e+00    0,000000000e+00    0,000000000e+00
     1318000000    2,521469444e-02   -3,628058434e-01    1,647894233e-01    1,971365698e-02    0,000000000e+00    0,000000000e+00    0,000000000e+00    0,000000000e+00
     1332000000   -1,471500099e-01   -3,933032751e-01    1,077571288e-01   -1,764124483e-01    0,000000000e+00    0,000000000e+00    0,000000000e+00    0,000000000e+00
     1346000000   -3,583603203e-01   -3,908196986e-01   -6,079865247e-02   -1,807695627e-02    0,000000000e+00    0,000000000e+00    0,000000000e+00    0,000000000e+00
     1360000000   -5,910643935e-01   -1,984763294e-01    4,999807104e-02    9,170451015e-02    0,000000000e+00    0,000000000e+00    0,000000000e+00    0,000000000e+00
     1374000000   -6,283578873e-01    1,038350165e-01    1,836582422e-01    5,859351903e-02    0,000000000e+00    0,000000000e+00    0,000000000e+00    0,000000000e+00
     1388000000   -4,772835076e-01    3,444201052e-01    2,227102667e-01   -3,173451126e-02    0,000000000e+00    0,000000000e+00    0,000000000e+00    0,000000000e+00
     1402000000   -2,479356229e-01    4,436090589e-01    2,190083563e-01   -7,982965559e-02    0,000000000e+00    0,000000000e+00    0,000000000e+00    0,000000000e+00
     1416000000   -3,713075072e-02    4,122252166e-01    1,995250732e-01   -1,043094769e-01    0,000000000e+00    0,000000000e+00    0,000000000e+00    0,000000000e+00
     1430000000    1,135997772e-01    2,988930047e-01    1,700719893e-01   -1,302856207e-01    0,000000000e+00    0,000000000e+00    0,000000000e+00    0,000000000e+00
     1444000000    2,015154213e-01    1,564309150e-01    1,617684960e-01   -1,046548411e-01    0,000000000e+00    0,000000000e+00    0,000000000e+00    0,000000000e+00
     1458000000    2,314828187e-01   -1,420191769e-02    1,399385482e-01   -8,647286147e-02    0,000000000e+00    0,000000000e+00    0,000000000e+00    0,000000000e+00
     1472000000    1,909885257e-01   -1,940394789e-01    1,439459771e-01   -4,836830869e-02    0,000000000e+00    0,000000000e+00    0,000000000e+00    0,000000000e+00
     1486000000    6,856085360e-02   -3,662391901e-01    1,758444160e-01    1,366098039e-02    0,000000000e+00    0,000000000e+00    0,000000000e+00    0,000000000e+00
     1500000000   -1,580943018e-01   -4,838985205e-01    2,427786589e-01    9,020558745e-02    0,000000000e+00    0,000000000e+00    0,000000000e+00    0,000000000e+00
