! NanoVNA-App
! Date: 2025-09-25 15:45:21
! Start: 100MHz Stop: 1,5GHz Points: 101
! S-Parameter data: F S11 S21 S12 S22
# Hz S RI R 50
!     Frequency           S11_Real           S11_Imag           S21_Real           S21_Imag           S12_Real           S12_Imag           S22_Real           S22_Imag
      100000000   -2,877803706e-02   -4,244450480e-03    3,739855289e-01   -7,215697765e-01    0,000000000e+00    0,000000000e+00    0,000000000e+00    0,000000000e+00
      114000000   -1,655847579e-02    1,149057690e-02   -8,892025054e-02   -8,051355481e-01    0,000000000e+00    0,000000000e+00    0,000000000e+00    0,000000000e+00
      128000000    3,406147473e-03    1,068310440e-02   -5,144259930e-01   -6,201584339e-01    0,000000000e+00    0,000000000e+00    0,000000000e+00    0,000000000e+00
      142000000    1,465681102e-02   -2,678222721e-03   -7,669046521e-01   -2,365270555e-01    0,000000000e+00    0,000000000e+00    0,000000000e+00    0,000000000e+00
      156000000    1,509799715e-02   -1,452990063e-02   -7,656716108e-01    2,215152234e-01    0,000000000e+00    0,000000000e+00    0,000000000e+00    0,000000000e+00
      170000000    1,710038632e-02   -2,244122513e-02   -5,181484222e-01    6,045165658e-01    0,000000000e+00    0,000000000e+00    0,000000000e+00    0,000000000e+00
      184000000    2,125591040e-02   -3,715502098e-02   -1,015313193e-01    7,853679657e-01    0,000000000e+00    0,000000000e+00    0,000000000e+00    0,000000000e+00
      198000000    1,321619097e-02   -6,253238767e-02    3,432655931e-01    7,119404078e-01    0,000000000e+00    0,000000000e+00    0,000000000e+00    0,000000000e+00
      212000000   -1,846793108e-02   -8,124496043e-02    6,776021719e-01    4,097436965e-01    0,000000000e+00    0,000000000e+00    0,000000000e+00    0,000000000e+00
      226000000   -6,137689576e-02   -6,927268952e-02    7,954180837e-01   -3,041826561e-02    0,000000000e+00    0,000000000e+00    0,000000000e+00    0,000000000e+00
      240000000   -8,231953532e-02   -2,580652758e-02    6,459394097e-01   -4,666885436e-01    0,000000000e+00    0,000000000e+00    0,000000000e+00    0,000000000e+00
      254000000   -6,343864650e-02    1,699532755e-02    2,762604952e-01   -7,429184318e-01    0,000000000e+00    0,000000000e+00    0,000000000e+00    0,000000000e+00
      268000000   -2,402768843e-02    2,879679762e-02   -1,780195832e-01   -7,637827992e-01    0,000000000e+00    0,000000000e+00    0,000000000e+00    0,000000000e+00
      282000000    4,118283745e-03    1,206503436e-02   -5,616855621e-01   -5,358915925e-01    0,000000000e+00    0,000000000e+00    0,000000000e+00    0,000000000e+00
      296000000    9,836748242e-03   -7,571883965e-03   -7,594858408e-01   -1,397792697e-01    0,000000000e+00    0,000000000e+00    0,000000000e+00    0,000000000e+00
      310000000    1,135174278e-02   -1,627202332e-02   -7,130692005e-01    2,977139950e-01    0,000000000e+00    0,000000000e+00    0,000000000e+00    0,000000000e+00
      324000000    1,998917200e-02   -2,640225366e-02   -4,272041023e-01    6,378172636e-01    0,000000000e+00    0,000000000e+00    0,000000000e+00    0,000000000e+00
      338000000    2,538198046e-02   -5,201902241e-02   -1,096647978e-02    7,601500154e-01    0,000000000e+00    0,000000000e+00    0,000000000e+00    0,000000000e+00
      352000000    7,806548849e-03   -8,491630107e-02    4,064219594e-01    6,392915845e-01    0,000000000e+00    0,000000000e+00    0,000000000e+00    0,000000000e+00
      366000000   -3,436917812e-02   -9,554302692e-02    6,899475455e-01    3,109694421e-01    0,000000000e+00    0,000000000e+00    0,000000000e+00    0,000000000e+00
      380000000   -7,037358731e-02   -7,137571275e-02    7,473428249e-01   -1,259343177e-01    0,000000000e+00    0,000000000e+00    0,000000000e+00    0,000000000e+00
      394000000   -7,207151502e-02   -3,259150684e-02    5,465202332e-01   -5,228043199e-01    0,000000000e+00    0,000000000e+00    0,000000000e+00    0,000000000e+00
      408000000   -4,622679576e-02   -1,637519896e-02    1,609251350e-01   -7,327700853e-01    0,000000000e+00    0,000000000e+00    0,000000000e+00    0,000000000e+00
      422000000   -2,833380178e-02   -3,225616738e-02   -2,670850158e-01   -6,948533058e-01    0,000000000e+00    0,000000000e+00    0,000000000e+00    0,000000000e+00
      436000000   -4,052468017e-02   -5,188858882e-02   -6,034502983e-01   -4,324768186e-01    0,000000000e+00    0,000000000e+00    0,000000000e+00    0,000000000e+00
      450000000   -6,732353568e-02   -4,379092529e-02   -7,399285436e-01   -2,200844139e-02    0,000000000e+00    0,000000000e+00    0,000000000e+00    0,000000000e+00
      464000000   -7,277040929e-02   -1,199288014e-02   -6,181156635e-01    3,964312673e-01    0,000000000e+00    0,000000000e+00    0,000000000e+00    0,000000000e+00
      478000000   -4,765326530e-02    1,142220106e-02   -2,823482752e-01    6,670675278e-01    0,000000000e+00    0,000000000e+00    0,000000000e+00    0,000000000e+00
      492000000   -1,590110548e-02    6,002503447e-03    1,370411068e-01    7,011950016e-01    0,000000000e+00    0,000000000e+00    0,000000000e+00    0,000000000e+00
      506000000   -2,426374936e-03   -1,570062526e-02    4,975348711e-01    5,028293133e-01    0,000000000e+00    0,000000000e+00    0,000000000e+00    0,000000000e+00
      520000000   -5,084869452e-03   -3,120356984e-02    6,886097789e-01    1,438168734e-01    0,000000000e+00    0,000000000e+00    0,000000000e+00    0,000000000e+00
      534000000   -3,498846199e-03   -3,837924823e-02    6,432416439e-01   -2,614498734e-01    0,000000000e+00    0,000000000e+00    0,000000000e+00    0,000000000e+00
      548000000    6,634638179e-03   -5,380408838e-02    3,818025887e-01   -5,664854646e-01    0,000000000e+00    0,000000000e+00    0,000000000e+00    0,000000000e+00
      562000000    3,341083182e-03   -8,977700025e-02    3,548193723e-03   -6,718821526e-01    0,000000000e+00    0,000000000e+00    0,000000000e+00    0,000000000e+00
      576000000   -3,431859985e-02   -1,242468208e-01   -3,679528236e-01   -5,574682355e-01    0,000000000e+00    0,000000000e+00    0,000000000e+00    0,000000000e+00
      590000000   -9,560869634e-02   -1,226294786e-01   -6,198561192e-01   -2,628093660e-01    0,000000000e+00    0,000000000e+00    0,000000000e+00    0,000000000e+00
      604000000   -1,387917250e-01   -7,228152454e-02   -6,637895703e-01    1,364938617e-01    0,000000000e+00    0,000000000e+00    0,000000000e+00    0,000000000e+00
      618000000   -1,298837513e-01   -1,019007899e-02   -4,652008414e-01    4,934889376e-01    0,000000000e+00    0,000000000e+00    0,000000000e+00    0,000000000e+00
      632000000   -8,421728760e-02    1,639569737e-02   -9,963151813e-02    6,632083654e-01    0,000000000e+00    0,000000000e+00    0,000000000e+00    0,000000000e+00
      646000000   -5,213931948e-02    1,097363303e-03    2,850786448e-01    5,946253538e-01    0,000000000e+00    0,000000000e+00    0,000000000e+00    0,000000000e+00
      660000000   -5,399592221e-02   -2,041134238e-02    5,646309853e-01    3,233034909e-01    0,000000000e+00    0,000000000e+00    0,000000000e+00    0,000000000e+00
      674000000   -6,948924065e-02   -1,594992727e-02    6,411426663e-01   -6,283022463e-02    0,000000000e+00    0,000000000e+00    0,000000000e+00    0,000000000e+00
      688000000   -6,675460190e-02    8,574795909e-03    4,714085758e-01   -4,250616133e-01    0,000000000e+00    0,000000000e+00    0,000000000e+00    0,000000000e+00
      702000000   -3,518912941e-02    2,536552586e-02    1,221919507e-01   -6,048306227e-01    0,000000000e+00    0,000000000e+00    0,000000000e+00    0,000000000e+00
      716000000    4,146488849e-03    1,629032381e-02   -2,599202693e-01   -5,453347564e-01    0,000000000e+00    0,000000000e+00    0,000000000e+00    0,000000000e+00
      730000000    3,645765409e-02   -1,433608215e-02   -5,220110416e-01   -2,712415457e-01    0,000000000e+00    0,000000000e+00    0,000000000e+00    0,000000000e+00
      744000000    6,262457371e-02   -6,557212025e-02   -5,607772470e-01    9,845141321e-02    0,000000000e+00    0,000000000e+00    0,000000000e+00    0,000000000e+00
      758000000    6,057973206e-02   -1,518196613e-01   -3,669703603e-01    4,006439447e-01    0,000000000e+00    0,000000000e+00    0,000000000e+00    0,000000000e+00
      772000000   -1,701645926e-02   -2,554225922e-01   -4,584773257e-02    5,100181699e-01    0,000000000e+00    0,000000000e+00    0,000000000e+00    0,000000000e+00
      786000000   -2,024897188e-01   -2,903803885e-01    2,586432695e-01    3,985967934e-01    0,000000000e+00    0,000000000e+00    0,000000000e+00    0,000000000e+00
      800000000   -4,066826701e-01   -1,271464527e-01    4,074310958e-01    1,186486408e-01    0,000000000e+00    0,000000000e+00    0,000000000e+00    0,000000000e+00
      814000000   -3,766775429e-01    2,021882236e-01    2,971431315e-01   -1,516899616e-01    0,000000000e+00    0,000000000e+00    0,000000000e+00    0,000000000e+00
      828000000   -6,224576756e-02    3,474338949e-01    8,275506645e-02   -1,909775138e-01    0,000000000e+00    0,000000000e+00    0,000000000e+00    0,000000000e+00
      842000000    2,111132443e-01    1,865081042e-01   -4,164468963e-03   -9,409057349e-02    0,000000000e+00    0,000000000e+00    0,000000000e+00    0,000000000e+00
      856000000    2,662526965e-01   -1,052567512e-01    3,550451249e-02   -3,688954562e-02    0,000000000e+00    0,000000000e+00    0,000000000e+00    0,000000000e+00
      870000000    8,414236456e-02   -3,515264690e-01    8,832647651e-02   -9,732401371e-02    0,000000000e+00    0,000000000e+00    0,000000000e+00    0,000000000e+00
      884000000   -2,665631473e-01   -3,563120961e-01    1,182274707e-02   -2,264806926e-01    0,000000000e+00    0,000000000e+00    0,000000000e+00    0,000000000e+00
      898000000   -4,572574198e-01   -1,336942241e-02   -2,146198004e-01   -2,093296796e-01    0,000000000e+00    0,000000000e+00    0,000000000e+00    0,000000000e+00
      912000000   -2,342161387e-01    2,802803218e-01   -3,258950710e-01    7,482126355e-02    0,000000000e+00    0,000000000e+00    0,000000000e+00    0,000000000e+00
      926000000    5,361245573e-02    2,630873024e-01   -2,105204165e-01    2,624903321e-01    0,000000000e+00    0,000000000e+00    0,000000000e+00    0,000000000e+00
      940000000    2,073992193e-01    8,481176198e-02   -3,182476759e-02    3,244000971e-01    0,000000000e+00    0,000000000e+00    0,000000000e+00    0,000000000e+00
      954000000    2,226330638e-01   -1,197629347e-01    1,315276772e-01    3,001294136e-01    0,000000000e+00    0,000000000e+00    0,000000000e+00    0,000000000e+00
      968000000    1,191256866e-01   -2,971924841e-01    2,678921223e-01    2,137617171e-01    0,000000000e+00    0,000000000e+00    0,000000000e+00    0,000000000e+00
      982000000   -8,115240932e-02   -3,828828633e-01    3,605080247e-01    6,224368513e-02    0,000000000e+00    0,000000000e+00    0,000000000e+00    0,000000000e+00
      996000000   -3,142624497e-01   -3,302184939e-01    3,635743260e-01   -1,438061297e-01    0,000000000e+00    0,000000000e+00    0,000000000e+00    0,000000000e+00
     1010000000   -4,635108709e-01   -1,171664596e-01    2,202638090e-01   -3,335238397e-01    0,000000000e+00    0,000000000e+00    0,000000000e+00    0,000000000e+00
     1024000000   -4,162240326e-01    1,407233775e-01   -2,992334962e-02   -3,822733164e-01    0,000000000e+00    0,000000000e+00    0,000000000e+00    0,000000000e+00
     1038000000   -2,242755294e-01    2,917984724e-01   -2,404298782e-01   -2,550635636e-01    0,000000000e+00    0,000000000e+00    0,000000000e+00    0,000000000e+00
     1052000000   -1,072370354e-02    2,788327932e-01   -3,121808171e-01   -4,674435779e-02    0,000000000e+00    0,000000000e+00    0,000000000e+00    0,000000000e+00
     1066000000    1,338262111e-01    1,685226560e-01   -2,519400716e-01    1,372171193e-01    0,000000000e+00    0,000000000e+00    0,000000000e+00    0,000000000e+00
     1080000000    1,958541423e-01    9,023192339e-03   -1,167138740e-01    2,539733052e-01    0,000000000e+00    0,000000000e+00    0,000000000e+00    0,000000000e+00
     1094000000    1,604846120e-01   -1,657003313e-01    6,010586023e-02    2,913196683e-01    0,000000000e+00    0,000000000e+00    0,000000000e+00    0,000000000e+00
     1108000000    2,284522727e-02   -2,968409657e-01    2,582560182e-01    2,348603010e-01    0,000000000e+00    0,000000000e+00    0,000000000e+00    0,000000000e+00
     1122000000   -2,166167498e-01   -2,864307463e-01    4,377436936e-01    2,425215952e-02    0,000000000e+00    0,000000000e+00    0,000000000e+00    0,000000000e+00
     1136000000   -3,263496459e-01   -2,540794760e-02    3,984798193e-01   -3,432947695e-01    0,000000000e+00    0,000000000e+00    0,000000000e+00    0,000000000e+00
     1150000000   -1,024675146e-01    1,387570202e-01    5,077263713e-02   -5,328511596e-01    0,000000000e+00    0,000000000e+00    0,000000000e+00    0,000000000e+00
     1164000000    8,283766359e-02   -1,727085188e-02   -2,515966594e-01   -4,044553339e-01    0,000000000e+00    0,000000000e+00    0,000000000e+00    0,000000000e+00
     1178000000    2,941820584e-02   -2,533371150e-01   -3,718051314e-01   -1,799170971e-01    0,000000000e+00    0,000000000e+00    0,000000000e+00    0,000000000e+00
     1192000000   -2,250145376e-01   -3,465500772e-01   -3,408492506e-01    4,115897045e-02    0,000000000e+00    0,000000000e+00    0,000000000e+00    0,000000000e+00
     1206000000   -4,811317325e-01   -1,817568243e-01   -1,915026158e-01    1,830408424e-01    0,000000000e+00    0,000000000e+00    0,000000000e+00    0,000000000e+00
     1220000000   -5,021896958e-01    1,440615654e-01   -6,802157033e-03    1,774719357e-01    0,000000000e+00    0,000000000e+00    0,000000000e+00    0,000000000e+00
     1234000000   -2,996839583e-01    3,397101760e-01    7,745532691e-02    7,962970436e-02    0,000000000e+00    0,000000000e+00    0,000000000e+00    0,000000000e+00
     1248000000   -5,842098221e-02    3,636453152e-01    6,970178336e-02   -1,039169911e-05    0,000000000e+00    0,000000000e+00    0,000000000e+00    0,000000000e+00
     1262000000    1,109694541e-01    2,628142536e-01    3,412696719e-02   -2,055549622e-02    0,000000000e+00    0,000000000e+00    0,000000000e+00    0,000000000e+00
     1276000000    2,024931163e-01    1,053741649e-01    8,396248333e-03   -1,117195748e-02    0,000000000e+00    0,000000000e+00    0,000000000e+00    0,000000000e+00
     1290000000    2,178892195e-01   -6,047125906e-02    8,987074718e-03    2,728152834e-02    0,000000000e+00    0,000000000e+00    0,000000000e+00    0,000000000e+00
     1304000000    1,667927355e-01   -2,343364954e-01    5,928932130e-02    5,428273231e-02    0,000000000e+00    0,000000000e+00    0,000000000e+00    0,000000000e+00
     1318000000    2,613315359e-02   -3,620080352e-01    1,639217138e-01    1,900016889e-02    0,000000000e+00    0,000000000e+00    0,000000000e+00    0,000000000e+00
     1332000000   -1,545074731e-01   -3,973904848e-01    1,007220075e-01   -1,789313406e-01    0,000000000e+00    0,000000000e+00    0,000000000e+00    0,000000000e+00
     1346000000   -3,608975708e-01   -3,890276551e-01   -5,451670289e-02   -2,087521553e-02    0,000000000e+00    0,000000000e+00    0,000000000e+00    0,000000000e+00
     1360000000   -5,800009966e-01   -2,032911777e-01    6,790076941e-02    8,185519278e-02    0,000000000e+00    0,000000000e+00    0,000000000e+00    0,000000000e+00
     1374000000   -6,250517964e-01    1,049366221e-01    1,879760921e-01    5,627310649e-02    0,000000000e+00    0,000000000e+00    0,000000000e+00    0,000000000e+00
     1388000000   -4,798034430e-01    3,459488153e-01    2,176799327e-01   -3,101275302e-02    0,000000000e+00    0,000000000e+00    0,000000000e+00    0,000000000e+00
     1402000000   -2,482167929e-01    4,482120574e-01    2,004444897e-01   -7,460241765e-02    0,000000000e+00    0,000000000e+00    0,000000000e+00    0,000000000e+00
     1416000000   -3,845189512e-02    4,091838598e-01    1,876680255e-01   -1,073236018e-01    0,000000000e+00    0,000000000e+00    0,000000000e+00    0,000000000e+00
     1430000000    1,127072573e-01    3,017591536e-01    1,790719181e-01   -8,132106066e-02    0,000000000e+00    0,000000000e+00    0,000000000e+00    0,000000000e+00
     1444000000    1,998950094e-01    1,581747234e-01    1,581512690e-01   -9,864789993e-02    0,000000000e+00    0,000000000e+00    0,000000000e+00    0,000000000e+00
     1458000000    2,313139290e-01   -1,471633371e-02    1,381587982e-01   -8,565225452e-02    0,000000000e+00    0,000000000e+00    0,000000000e+00    0,000000000e+00
     1472000000    1,920377463e-01   -1,898317635e-01    1,514293849e-01   -3,567282483e-02    0,000000000e+00    0,000000000e+00    0,000000000e+00    0,000000000e+00
     1486000000    6,545647979e-02   -3,631569445e-01    1,521940082e-01    2,468571439e-02    0,000000000e+00    0,000000000e+00    0,000000000e+00    0,000000000e+00
     1500000000   -1,568618268e-01   -4,925587475e-01    2,427872419e-01    8,264025301e-02    0,000000000e+00    0,000000000e+00    0,000000000e+00    0,000000000e+00
