! NanoVNA-App
! Date: 2025-09-25 15:44:27
! Start: 100MHz Stop: 1,5GHz Points: 101
! S-Parameter data: F S11 S21 S12 S22
# Hz S RI R 50
!     Frequency           S11_Real           S11_Imag           S21_Real           S21_Imag           S12_Real           S12_Imag           S22_Real           S22_Imag
      100000000   -2,875932679e-02   -4,256305750e-03    3,739719689e-01   -7,215471268e-01    0,000000000e+00    0,000000000e+00    0,000000000e+00    0,000000000e+00
      114000000   -1,655152440e-02    1,150708646e-02   -8,914241195e-02   -8,052566648e-01    0,000000000e+00    0,000000000e+00    0,000000000e+00    0,000000000e+00
      128000000    3,406925360e-03    1,074483991e-02   -5,144826174e-01   -6,201969981e-01    0,000000000e+00    0,000000000e+00    0,000000000e+00    0,000000000e+00
      142000000    1,462189201e-02   -2,660110127e-03   -7,670276165e-01   -2,364285886e-01    0,000000000e+00    0,000000000e+00    0,000000000e+00    0,000000000e+00
      156000000    1,504374668e-02   -1,459598355e-02   -7,654733062e-01    2,215566784e-01    0,000000000e+00    0,000000000e+00    0,000000000e+00    0,000000000e+00
      170000000    1,709866524e-02   -2,246713452e-02   -5,181523561e-01    6,045188308e-01    0,000000000e+00    0,000000000e+00    0,000000000e+00    0,000000000e+00
      184000000    2,129780501e-02   -3,718506172e-02   -1,013892367e-01    7,856864929e-01    0,000000000e+00    0,000000000e+00    0,000000000e+00    0,000000000e+00
      198000000    1,318541635e-02   -6,253536791e-02    3,431443274e-01    7,120987177e-01    0,000000000e+00    0,000000000e+00    0,000000000e+00    0,000000000e+00
      212000000   -1,844730787e-02   -8,125869930e-02    6,778410077e-01    4,099141657e-01    0,000000000e+00    0,000000000e+00    0,000000000e+00    0,000000000e+00
      226000000   -6,140037999e-02   -6,924213469e-02    7,954166532e-01   -3,051334433e-02    0,000000000e+00    0,000000000e+00    0,000000000e+00    0,000000000e+00
      240000000   -8,227241784e-02   -2,581749670e-02    6,458145976e-01   -4,666819274e-01    0,000000000e+00    0,000000000e+00    0,000000000e+00    0,000000000e+00
      254000000   -6,343203783e-02    1,697374508e-02    2,759886980e-01   -7,426165342e-01    0,000000000e+00    0,000000000e+00    0,000000000e+00    0,000000000e+00
      268000000   -2,396140061e-02    2,874953113e-02   -1,777103096e-01   -7,639227509e-01    0,000000000e+00    0,000000000e+00    0,000000000e+00    0,000000000e+00
      282000000    4,048420116e-03    1,206375286e-02   -5,617437363e-01   -5,352844000e-01    0,000000000e+00    0,000000000e+00    0,000000000e+00    0,000000000e+00
      296000000    9,953573346e-03   -7,575216237e-03   -7,594761252e-01   -1,395274550e-01    0,000000000e+00    0,000000000e+00    0,000000000e+00    0,000000000e+00
      310000000    1,138520893e-02   -1,603323780e-02   -7,123063207e-01    2,988767624e-01    0,000000000e+00    0,000000000e+00    0,000000000e+00    0,000000000e+00
      324000000    1,996813901e-02   -2,664691955e-02   -4,276179671e-01    6,377137899e-01    0,000000000e+00    0,000000000e+00    0,000000000e+00    0,000000000e+00
      338000000    2,571635693e-02   -5,218407512e-02   -9,790644981e-03    7,611368299e-01    0,000000000e+00    0,000000000e+00    0,000000000e+00    0,000000000e+00
      352000000    7,561743259e-03   -8,457513154e-02    4,067116380e-01    6,401705146e-01    0,000000000e+00    0,000000000e+00    0,000000000e+00    0,000000000e+00
      366000000   -3,456953540e-02   -9,561114758e-02    6,904817820e-01    3,111653030e-01    0,000000000e+00    0,000000000e+00    0,000000000e+00    0,000000000e+00
      380000000   -7,048914582e-02   -7,103667408e-02    7,469739318e-01   -1,254377663e-01    0,000000000e+00    0,000000000e+00    0,000000000e+00    0,000000000e+00
      394000000   -7,225423306e-02   -3,263449669e-02    5,475801229e-01   -5,213047266e-01    0,000000000e+00    0,000000000e+00    0,000000000e+00    0,000000000e+00
      408000000   -4,608115554e-02   -1,640642993e-02    1,614228338e-01   -7,321791649e-01    0,000000000e+00    0,000000000e+00    0,000000000e+00    0,000000000e+00
      422000000   -2,843388543e-02   -3,229208663e-02   -2,672737539e-01   -6,939257383e-01    0,000000000e+00    0,000000000e+00    0,000000000e+00    0,000000000e+00
      436000000   -4,035954550e-02   -5,160890892e-02   -6,033751965e-01   -4,315507114e-01    0,000000000e+00    0,000000000e+00    0,000000000e+00    0,000000000e+00
      450000000   -6,691367924e-02   -4,395642504e-02   -7,394131422e-01   -2,185737342e-02    0,000000000e+00    0,000000000e+00    0,000000000e+00    0,000000000e+00
      464000000   -7,289954275e-02   -1,174614020e-02   -6,176859736e-01    3,973725140e-01    0,000000000e+00    0,000000000e+00    0,000000000e+00    0,000000000e+00
      478000000   -4,755456001e-02    1,164475642e-02   -2,820446193e-01    6,667529345e-01    0,000000000e+00    0,000000000e+00    0,000000000e+00    0,000000000e+00
      492000000   -1,612549834e-02    5,812484771e-03    1,362589598e-01    7,013966441e-01    0,000000000e+00    0,000000000e+00    0,000000000e+00    0,000000000e+00
      506000000   -2,418947406e-03   -1,558202319e-02    4,983003438e-01    5,028582811e-01    0,000000000e+00    0,000000000e+00    0,000000000e+00    0,000000000e+00
      520000000   -4,846189637e-03   -3,099808656e-02    6,863907576e-01    1,422132850e-01    0,000000000e+00    0,000000000e+00    0,000000000e+00    0,000000000e+00
      534000000   -3,843945218e-03   -3,788429499e-02    6,430057287e-01   -2,618407309e-01    0,000000000e+00    0,000000000e+00    0,000000000e+00    0,000000000e+00
      548000000    6,557912566e-03   -5,393640697e-02    3,817166984e-01   -5,663720369e-01    0,000000000e+00    0,000000000e+00    0,000000000e+00    0,000000000e+00
      562000000    3,477555001e-03   -8,915084600e-02    2,571420511e-03   -6,708096862e-01    0,000000000e+00    0,000000000e+00    0,000000000e+00    0,000000000e+00
      576000000   -3,437497839e-02   -1,242821142e-01   -3,684280515e-01   -5,564681888e-01    0,000000000e+00    0,000000000e+00    0,000000000e+00    0,000000000e+00
      590000000   -9,578303248e-02   -1,229151711e-01   -6,213622689e-01   -2,643604279e-01    0,000000000e+00    0,000000000e+00    0,000000000e+00    0,000000000e+00
      604000000   -1,390554011e-01   -7,241647691e-02   -6,643734574e-01    1,364794523e-01    0,000000000e+00    0,000000000e+00    0,000000000e+00    0,000000000e+00
      618000000   -1,290168464e-01   -1,035280060e-02   -4,644407928e-01    4,923024178e-01    0,000000000e+00    0,000000000e+00    0,000000000e+00    0,000000000e+00
      632000000   -8,390648663e-02    1,597087644e-02   -1,000775173e-01    6,631119251e-01    0,000000000e+00    0,000000000e+00    0,000000000e+00    0,000000000e+00
      646000000   -5,120293051e-02    7,878480828e-04    2,859511971e-01    5,948916078e-01    0,000000000e+00    0,000000000e+00    0,000000000e+00    0,000000000e+00
      660000000   -5,397895351e-02   -2,093294635e-02    5,655270815e-01    3,238984048e-01    0,000000000e+00    0,000000000e+00    0,000000000e+00    0,000000000e+00
      674000000   -6,980265677e-02   -1,585039869e-02    6,410421133e-01   -6,311040372e-02    0,000000000e+00    0,000000000e+00    0,000000000e+00    0,000000000e+00
      688000000   -6,768172234e-02    9,258569218e-03    4,710130394e-01   -4,237225950e-01    0,000000000e+00    0,000000000e+00    0,000000000e+00    0,000000000e+00
      702000000   -3,675813973e-02    2,556638606e-02    1,216886044e-01   -6,029942036e-01    0,000000000e+00    0,000000000e+00    0,000000000e+00    0,000000000e+00
      716000000    3,618567251e-03    1,695920713e-02   -2,593454421e-01   -5,450339317e-01    0,000000000e+00    0,000000000e+00    0,000000000e+00    0,000000000e+00
      730000000    3,747077659e-02   -1,421677228e-02   -5,218429565e-01   -2,717101574e-01    0,000000000e+00    0,000000000e+00    0,000000000e+00    0,000000000e+00
      744000000    6,199724972e-02   -6,557399035e-02   -5,602332354e-01    9,848040342e-02    0,000000000e+00    0,000000000e+00    0,000000000e+00    0,000000000e+00
      758000000    6,122506410e-02   -1,522479206e-01   -3,661026359e-01    4,005020857e-01    0,000000000e+00    0,000000000e+00    0,000000000e+00    0,000000000e+00
      772000000   -1,714627445e-02   -2,552446723e-01   -4,563705623e-02    5,094543695e-01    0,000000000e+00    0,000000000e+00    0,000000000e+00    0,000000000e+00
      786000000   -2,023324072e-01   -2,914471626e-01    2,593871057e-01    3,996273577e-01    0,000000000e+00    0,000000000e+00    0,000000000e+00    0,000000000e+00
      800000000   -4,082606733e-01   -1,268934608e-01    4,076215327e-01    1,188208684e-01    0,000000000e+00    0,000000000e+00    0,000000000e+00    0,000000000e+00
      814000000   -3,759947419e-01    2,019593120e-01    2,971891761e-01   -1,512014121e-01    0,000000000e+00    0,000000000e+00    0,000000000e+00    0,000000000e+00
      828000000   -6,333966553e-02    3,459610045e-01    8,279505372e-02   -1,910064369e-01    0,000000000e+00    0,000000000e+00    0,000000000e+00    0,000000000e+00
      842000000    2,116633356e-01    1,859958917e-01   -3,358390415e-03   -9,347435832e-02    0,000000000e+00    0,000000000e+00    0,000000000e+00    0,000000000e+00
      856000000    2,657068968e-01   -1,055396050e-01    3,496729955e-02   -3,727103397e-02    0,000000000e+00    0,000000000e+00    0,000000000e+00    0,000000000e+00
      870000000    8,335234225e-02   -3,508998752e-01    8,840242773e-02   -9,720187634e-02    0,000000000e+00    0,000000000e+00    0,000000000e+00    0,000000000e+00
      884000000   -2,663168013e-01   -3,554550707e-01    1,196486875e-02   -2,273231447e-01    0,000000000e+00    0,000000000e+00    0,000000000e+00    0,000000000e+00
      898000000   -4,581542313e-01   -1,346683223e-02   -2,144999504e-01   -2,095157206e-01    0,000000000e+00    0,000000000e+00    0,000000000e+00    0,000000000e+00
      912000000   -2,354097068e-01    2,776170671e-01   -3,255884349e-01    6,974507123e-02    0,000000000e+00    0,000000000e+00    0,000000000e+00    0,000000000e+00
      926000000    5,493625626e-02    2,608626187e-01   -2,098864913e-01    2,600494325e-01    0,000000000e+00    0,000000000e+00    0,000000000e+00    0,000000000e+00
      940000000    2,098187208e-01    8,310132474e-02   -3,041566350e-02    3,245193064e-01    0,000000000e+00    0,000000000e+00    0,000000000e+00    0,000000000e+00
      954000000    2,227063179e-01   -1,190969646e-01    1,314004660e-01    3,012155592e-01    0,000000000e+00    0,000000000e+00    0,000000000e+00    0,000000000e+00
      968000000    1,174215749e-01   -2,969299853e-01    2,690559626e-01    2,124022096e-01    0,000000000e+00    0,000000000e+00    0,000000000e+00    0,000000000e+00
      982000000   -7,578133792e-02   -3,878244460e-01    3,618391454e-01    6,333483756e-02    0,000000000e+00    0,000000000e+00    0,000000000e+00    0,000000000e+00
      996000000   -3,134953976e-01   -3,329877853e-01    3,620602489e-01   -1,432502568e-01    0,000000000e+00    0,000000000e+00    0,000000000e+00    0,000000000e+00
     1010000000   -4,606147408e-01   -1,197752655e-01    2,218642533e-01   -3,355346620e-01    0,000000000e+00    0,000000000e+00    0,000000000e+00    0,000000000e+00
     1024000000   -4,185918570e-01    1,450620741e-01   -3,097554296e-02   -3,863141835e-01    0,000000000e+00    0,000000000e+00    0,000000000e+00    0,000000000e+00
     1038000000   -2,199804485e-01    2,916322649e-01   -2,420724481e-01   -2,577949762e-01    0,000000000e+00    0,000000000e+00    0,000000000e+00    0,000000000e+00
     1052000000   -1,444858499e-02    2,823747396e-01   -3,104253709e-01   -4,551805556e-02    0,000000000e+00    0,000000000e+00    0,000000000e+00    0,000000000e+00
     1066000000    1,297626197e-01    1,681539714e-01   -2,499593645e-01    1,368171424e-01    0,000000000e+00    0,000000000e+00    0,000000000e+00    0,000000000e+00
     1080000000    1,933911443e-01    9,834722616e-03   -1,139031947e-01    2,530199587e-01    0,000000000e+00    0,000000000e+00    0,000000000e+00    0,000000000e+00
     1094000000    1,614129692e-01   -1,647507399e-01    6,098414212e-02    2,916075289e-01    0,000000000e+00    0,000000000e+00    0,000000000e+00    0,000000000e+00
     1108000000    2,152226865e-02   -2,937188148e-01    2,597524226e-01    2,346129417e-01    0,000000000e+00    0,000000000e+00    0,000000000e+00    0,000000000e+00
     1122000000   -2,144312710e-01   -2,868220210e-01    4,390679896e-01    2,612057887e-02    0,000000000e+00    0,000000000e+00    0,000000000e+00    0,000000000e+00
     1136000000   -3,287293613e-01   -2,664004266e-02    4,003933370e-01   -3,456660509e-01    0,000000000e+00    0,000000000e+00    0,000000000e+00    0,000000000e+00
     1150000000   -1,116593555e-01    1,356417984e-01    4,454165697e-02   -5,297408104e-01    0,000000000e+00    0,000000000e+00    0,000000000e+00    0,000000000e+00
     1164000000    8,677805215e-02   -1,348467171e-02   -2,519431114e-01   -4,022290707e-01    0,000000000e+00    0,000000000e+00    0,000000000e+00    0,000000000e+00
     1178000000    2,879479900e-02   -2,534803450e-01   -3,691161871e-01   -1,766698509e-01    0,000000000e+00    0,000000000e+00    0,000000000e+00    0,000000000e+00
     1192000000   -2,180789411e-01   -3,478609622e-01   -3,403057158e-01    4,112146422e-02    0,000000000e+00    0,000000000e+00    0,000000000e+00    0,000000000e+00
     1206000000   -4,827021658e-01   -1,865855753e-01   -1,926444918e-01    1,860927790e-01    0,000000000e+00    0,000000000e+00    0,000000000e+00    0,000000000e+00
     1220000000   -5,034030080e-01    1,322414577e-01   -9,860464372e-03    1,733925343e-01    0,000000000e+00    0,000000000e+00    0,000000000e+00    0,000000000e+00
     1234000000   -2,971937060e-01    3,419955969e-01    7,675400376e-02    7,920151204e-02    0,000000000e+00    0,000000000e+00    0,000000000e+00    0,000000000e+00
     1248000000   -6,564016640e-02    3,577440381e-01    6,922172010e-02   -4,451676272e-03    0,000000000e+00    0,000000000e+00    0,000000000e+00    0,000000000e+00
     1262000000    1,123438701e-01    2,550472021e-01    2,967449091e-02   -2,382304706e-02    0,000000000e+00    0,000000000e+00    0,000000000e+00    0,000000000e+00
     1276000000    1,974098980e-01    1,063482165e-01    7,237500045e-03   -1,123145968e-02    0,000000000e+00    0,000000000e+00    0,000000000e+00    0,000000000e+00
     1290000000    2,191625983e-01   -6,240302324e-02    1,105194818e-02    3,245171160e-02    0,000000000e+00    0,000000000e+00    0,000000000e+00    0,000000000e+00
     1304000000    1,696348637e-01   -2,331103534e-01    6,676965207e-02    5,780202895e-02    0,000000000e+00    0,000000000e+00    0,000000000e+00    0,000000000e+00
     1318000000    2,584378794e-02   -3,624374568e-01    1,621623337e-01    1,946644671e-02    0,000000000e+00    0,000000000e+00    0,000000000e+00    0,000000000e+00
     1332000000   -1,518539190e-01   -3,951389194e-01    1,007117108e-01   -1,876058131e-01    0,000000000e+00    0,000000000e+00    0,000000000e+00    0,000000000e+00
     1346000000   -3,583765924e-01   -3,969274759e-01   -5,185390264e-02   -2,963269316e-02    0,000000000e+00    0,000000000e+00    0,000000000e+00    0,000000000e+00
     1360000000   -5,897723436e-01   -2,033133507e-01    5,659950897e-02    8,705072850e-02    0,000000000e+00    0,000000000e+00    0,000000000e+00    0,000000000e+00
     1374000000   -6,284365058e-01    1,023863703e-01    1,796824336e-01    4,698183388e-02    0,000000000e+00    0,000000000e+00    0,000000000e+00    0,000000000e+00
     1388000000   -4,729576409e-01    3,505120575e-01    2,222840935e-01   -2,959712967e-02    0,000000000e+00    0,000000000e+00    0,000000000e+00    0,000000000e+00
     1402000000   -2,372017652e-01    4,418997765e-01    2,125864625e-01   -7,197147608e-02    0,000000000e+00    0,000000000e+00    0,000000000e+00    0,000000000e+00
     1416000000   -3,754853085e-02    4,108140767e-01    2,031876892e-01   -1,060543880e-01    0,000000000e+00    0,000000000e+00    0,000000000e+00    0,000000000e+00
     1430000000    1,043727696e-01    3,070751131e-01    1,913789511e-01   -9,859912843e-02    0,000000000e+00    0,000000000e+00    0,000000000e+00    0,000000000e+00
     1444000000    1,991493702e-01    1,548707187e-01    1,634437442e-01   -1,062641144e-01    0,000000000e+00    0,000000000e+00    0,000000000e+00    0,000000000e+00
     1458000000    2,284036875e-01   -1,185909845e-02    1,468357146e-01   -7,625693828e-02    0,000000000e+00    0,000000000e+00    0,000000000e+00    0,000000000e+00
     1472000000    1,964820325e-01   -1,926114708e-01    1,504224688e-01   -3,856327385e-02    0,000000000e+00    0,000000000e+00    0,000000000e+00    0,000000000e+00
     1486000000    7,054927200e-02   -3,664447963e-01    1,733874083e-01    9,101977572e-03    0,000000000e+00    0,000000000e+00    0,000000000e+00    0,000000000e+00
     1500000000   -1,558845490e-01   -4,932538867e-01    2,391643971e-01    8,151847869e-02    0,000000000e+00    0,000000000e+00    0,000000000e+00    0,000000000e+00
