! NanoVNA-App
! Date: 2025-09-25 15:39:37
! Start: 100MHz Stop: 1,5GHz Points: 101
! S-Parameter data: F S11 S21 S12 S22
# Hz S RI R 50
!     Frequency           S11_Real           S11_Imag           S21_Real           S21_Imag           S12_Real           S12_Imag           S22_Real           S22_Imag
      100000000   -2,857907675e-02   -4,213528708e-03    3,737384677e-01   -7,213695645e-01    0,000000000e+00    0,000000000e+00    0,000000000e+00    0,000000000e+00
      114000000   -1,636266708e-02    1,149562746e-02   -8,905501664e-02   -8,048156500e-01    0,000000000e+00    0,000000000e+00    0,000000000e+00    0,000000000e+00
      128000000    3,578385571e-03    1,070341747e-02   -5,142745972e-01   -6,200919151e-01    0,000000000e+00    0,000000000e+00    0,000000000e+00    0,000000000e+00
      142000000    1,487719733e-02   -2,624031389e-03   -7,666885853e-01   -2,362692356e-01    0,000000000e+00    0,000000000e+00    0,000000000e+00    0,000000000e+00
      156000000    1,507462747e-02   -1,457340736e-02   -7,641081214e-01    2,181213796e-01    0,000000000e+00    0,000000000e+00    0,000000000e+00    0,000000000e+00
      170000000    1,734222285e-02   -2,254340984e-02   -5,177214146e-01    6,044318676e-01    0,000000000e+00    0,000000000e+00    0,000000000e+00    0,000000000e+00
      184000000    2,158732899e-02   -3,718169779e-02   -1,011314765e-01    7,857573032e-01    0,000000000e+00    0,000000000e+00    0,000000000e+00    0,000000000e+00
      198000000    1,339659281e-02   -6,256525964e-02    3,429491222e-01    7,119405866e-01    0,000000000e+00    0,000000000e+00    0,000000000e+00    0,000000000e+00
      212000000   -1,832768135e-02   -8,129275590e-02    6,775743961e-01    4,096361399e-01    0,000000000e+00    0,000000000e+00    0,000000000e+00    0,000000000e+00
      226000000   -6,110377982e-02   -6,919536740e-02    7,950277328e-01   -3,065379523e-02    0,000000000e+00    0,000000000e+00    0,000000000e+00    0,000000000e+00
      240000000   -8,188288659e-02   -2,588828653e-02    6,454197764e-01   -4,665871263e-01    0,000000000e+00    0,000000000e+00    0,000000000e+00    0,000000000e+00
      254000000   -6,304195523e-02    1,679918543e-02    2,759528160e-01   -7,424139380e-01    0,000000000e+00    0,000000000e+00    0,000000000e+00    0,000000000e+00
      268000000   -2,370212041e-02    2,863846906e-02   -1,777034253e-01   -7,634802461e-01    0,000000000e+00    0,000000000e+00    0,000000000e+00    0,000000000e+00
      282000000    4,264906980e-03    1,198352035e-02   -5,615262985e-01   -5,351296067e-01    0,000000000e+00    0,000000000e+00    0,000000000e+00    0,000000000e+00
      296000000    9,985997342e-03   -7,554523181e-03   -7,592803836e-01   -1,394193321e-01    0,000000000e+00    0,000000000e+00    0,000000000e+00    0,000000000e+00
      310000000    1,187139098e-02   -1,637431607e-02   -7,120546699e-01    2,973526120e-01    0,000000000e+00    0,000000000e+00    0,000000000e+00    0,000000000e+00
      324000000    2,016806230e-02   -2,688136324e-02   -4,273001254e-01    6,369823813e-01    0,000000000e+00    0,000000000e+00    0,000000000e+00    0,000000000e+00
      338000000    2,568867244e-02   -5,256444588e-02   -7,134878542e-03    7,643178701e-01    0,000000000e+00    0,000000000e+00    0,000000000e+00    0,000000000e+00
      352000000    7,355327718e-03   -8,491090685e-02    4,064869285e-01    6,396536231e-01    0,000000000e+00    0,000000000e+00    0,000000000e+00    0,000000000e+00
      366000000   -3,431075811e-02   -9,564097226e-02    6,901305318e-01    3,106155097e-01    0,000000000e+00    0,000000000e+00    0,000000000e+00    0,000000000e+00
      380000000   -7,008763403e-02   -7,132463902e-02    7,472976446e-01   -1,257009804e-01    0,000000000e+00    0,000000000e+00    0,000000000e+00    0,000000000e+00
      394000000   -7,214152813e-02   -3,287534416e-02    5,453360081e-01   -5,202749372e-01    0,000000000e+00    0,000000000e+00    0,000000000e+00    0,000000000e+00
      408000000   -4,616611451e-02   -1,649886742e-02    1,609451175e-01   -7,306318283e-01    0,000000000e+00    0,000000000e+00    0,000000000e+00    0,000000000e+00
      422000000   -2,819524705e-02   -3,234936297e-02   -2,678661346e-01   -6,943539977e-01    0,000000000e+00    0,000000000e+00    0,000000000e+00    0,000000000e+00
      436000000   -4,045355693e-02   -5,205993354e-02   -6,033826470e-01   -4,321079850e-01    0,000000000e+00    0,000000000e+00    0,000000000e+00    0,000000000e+00
      450000000   -6,720034778e-02   -4,372086003e-02   -7,398109436e-01   -2,164599486e-02    0,000000000e+00    0,000000000e+00    0,000000000e+00    0,000000000e+00
      464000000   -7,256019115e-02   -1,217329223e-02   -6,183304787e-01    3,965214193e-01    0,000000000e+00    0,000000000e+00    0,000000000e+00    0,000000000e+00
      478000000   -4,694743827e-02    1,112619881e-02   -2,824038267e-01    6,669793129e-01    0,000000000e+00    0,000000000e+00    0,000000000e+00    0,000000000e+00
      492000000   -1,577489264e-02    5,363599863e-03    1,372035444e-01    7,004341483e-01    0,000000000e+00    0,000000000e+00    0,000000000e+00    0,000000000e+00
      506000000   -2,385982079e-03   -1,576946862e-02    4,978523552e-01    5,032376051e-01    0,000000000e+00    0,000000000e+00    0,000000000e+00    0,000000000e+00
      520000000   -5,142433569e-03   -3,110555559e-02    6,867284775e-01    1,433545202e-01    0,000000000e+00    0,000000000e+00    0,000000000e+00    0,000000000e+00
      534000000   -3,512738040e-03   -3,832288459e-02    6,427545547e-01   -2,619109452e-01    0,000000000e+00    0,000000000e+00    0,000000000e+00    0,000000000e+00
      548000000    6,346534006e-03   -5,409794301e-02    3,809248507e-01   -5,664298534e-01    0,000000000e+00    0,000000000e+00    0,000000000e+00    0,000000000e+00
      562000000    3,295897041e-03   -8,985507488e-02    2,757587936e-03   -6,715456247e-01    0,000000000e+00    0,000000000e+00    0,000000000e+00    0,000000000e+00
      576000000   -3,366092592e-02   -1,247487590e-01   -3,676986694e-01   -5,570724010e-01    0,000000000e+00    0,000000000e+00    0,000000000e+00    0,000000000e+00
      590000000   -9,552316368e-02   -1,226148456e-01   -6,183684468e-01   -2,626578510e-01    0,000000000e+00    0,000000000e+00    0,000000000e+00    0,000000000e+00
      604000000   -1,388460696e-01   -7,190126181e-02   -6,638735533e-01    1,369323134e-01    0,000000000e+00    0,000000000e+00    0,000000000e+00    0,000000000e+00
      618000000   -1,289207041e-01   -1,052899100e-02   -4,646822810e-01    4,937129319e-01    0,000000000e+00    0,000000000e+00    0,000000000e+00    0,000000000e+00
      632000000   -8,474701643e-02    1,559665985e-02   -9,910573065e-02    6,622039676e-01    0,000000000e+00    0,000000000e+00    0,000000000e+00    0,000000000e+00
      646000000   -5,173026398e-02    7,483108784e-04    2,852566540e-01    5,942704082e-01    0,000000000e+00    0,000000000e+00    0,000000000e+00    0,000000000e+00
      660000000   -5,409211293e-02   -2,047831751e-02    5,640596747e-01    3,233983815e-01    0,000000000e+00    0,000000000e+00    0,000000000e+00    0,000000000e+00
      674000000   -6,918796152e-02   -1,660352759e-02    6,408520341e-01   -6,330049038e-02    0,000000000e+00    0,000000000e+00    0,000000000e+00    0,000000000e+00
      688000000   -6,711662561e-02    9,577956982e-03    4,702004492e-01   -4,241044521e-01    0,000000000e+00    0,000000000e+00    0,000000000e+00    0,000000000e+00
      702000000   -3,628088534e-02    2,569290809e-02    1,204148605e-01   -6,056280136e-01    0,000000000e+00    0,000000000e+00    0,000000000e+00    0,000000000e+00
      716000000    2,771695144e-03    1,594035141e-02   -2,598198950e-01   -5,439220667e-01    0,000000000e+00    0,000000000e+00    0,000000000e+00    0,000000000e+00
      730000000    3,712749854e-02   -1,323518436e-02   -5,217994452e-01   -2,707748711e-01    0,000000000e+00    0,000000000e+00    0,000000000e+00    0,000000000e+00
      744000000    6,206558272e-02   -6,506295502e-02   -5,598486066e-01    9,895634651e-02    0,000000000e+00    0,000000000e+00    0,000000000e+00    0,000000000e+00
      758000000    6,146771088e-02   -1,517846584e-01   -3,659215868e-01    3,997470737e-01    0,000000000e+00    0,000000000e+00    0,000000000e+00    0,000000000e+00
      772000000   -1,799509861e-02   -2,557206452e-01   -4,456479847e-02    5,076229572e-01    0,000000000e+00    0,000000000e+00    0,000000000e+00    0,000000000e+00
      786000000   -2,035811692e-01   -2,915075719e-01    2,602220476e-01    3,986006081e-01    0,000000000e+00    0,000000000e+00    0,000000000e+00    0,000000000e+00
      800000000   -4,075425863e-01   -1,255619079e-01    4,067198038e-01    1,180593967e-01    0,000000000e+00    0,000000000e+00    0,000000000e+00    0,000000000e+00
      814000000   -3,761120737e-01    2,017734498e-01    2,958094180e-01   -1,505920738e-01    0,000000000e+00    0,000000000e+00    0,000000000e+00    0,000000000e+00
      828000000   -6,146994606e-02    3,475036919e-01    8,239467442e-02   -1,899506599e-01    0,000000000e+00    0,000000000e+00    0,000000000e+00    0,000000000e+00
      842000000    2,117358595e-01    1,855214536e-01   -2,968550893e-03   -9,214214236e-02    0,000000000e+00    0,000000000e+00    0,000000000e+00    0,000000000e+00
      856000000    2,654926777e-01   -1,064561829e-01    3,629510477e-02   -3,684486821e-02    0,000000000e+00    0,000000000e+00    0,000000000e+00    0,000000000e+00
      870000000    8,195802569e-02   -3,517178893e-01    8,929847181e-02   -9,767296165e-02    0,000000000e+00    0,000000000e+00    0,000000000e+00    0,000000000e+00
      884000000   -2,676635981e-01   -3,558431268e-01    1,137970574e-02   -2,287462354e-01    0,000000000e+00    0,000000000e+00    0,000000000e+00    0,000000000e+00
      898000000   -4,574499130e-01   -1,250355691e-02   -2,163343281e-01   -2,097132355e-01    0,000000000e+00    0,000000000e+00    0,000000000e+00    0,000000000e+00
      912000000   -2,346916646e-01    2,779296041e-01   -3,308483064e-01    8,143551648e-02    0,000000000e+00    0,000000000e+00    0,000000000e+00    0,000000000e+00
      926000000    5,594717339e-02    2,614834607e-01   -2,088087052e-01    2,615486979e-01    0,000000000e+00    0,000000000e+00    0,000000000e+00    0,000000000e+00
      940000000    2,074431926e-01    8,474470675e-02   -3,149125353e-02    3,252944648e-01    0,000000000e+00    0,000000000e+00    0,000000000e+00    0,000000000e+00
      954000000    2,208880037e-01   -1,192316487e-01    1,325425804e-01    3,018903136e-01    0,000000000e+00    0,000000000e+00    0,000000000e+00    0,000000000e+00
      968000000    1,187170371e-01   -2,962492406e-01    2,681760788e-01    2,141677141e-01    0,000000000e+00    0,000000000e+00    0,000000000e+00    0,000000000e+00
      982000000   -8,041982353e-02   -3,851434886e-01    3,613257706e-01    6,305571645e-02    0,000000000e+00    0,000000000e+00    0,000000000e+00    0,000000000e+00
      996000000   -3,136209249e-01   -3,319009244e-01    3,633898199e-01   -1,451454759e-01    0,000000000e+00    0,000000000e+00    0,000000000e+00    0,000000000e+00
     1010000000   -4,587397575e-01   -1,142135859e-01    2,194524258e-01   -3,354583085e-01    0,000000000e+00    0,000000000e+00    0,000000000e+00    0,000000000e+00
     1024000000   -4,147415459e-01    1,403174400e-01   -3,285742551e-02   -3,846376240e-01    0,000000000e+00    0,000000000e+00    0,000000000e+00    0,000000000e+00
     1038000000   -2,209234834e-01    2,867160141e-01   -2,422506958e-01   -2,549564242e-01    0,000000000e+00    0,000000000e+00    0,000000000e+00    0,000000000e+00
     1052000000   -1,844891347e-02    2,796024978e-01   -3,112218678e-01   -4,750962928e-02    0,000000000e+00    0,000000000e+00    0,000000000e+00    0,000000000e+00
     1066000000    1,301099956e-01    1,663300395e-01   -2,515752316e-01    1,394908428e-01    0,000000000e+00    0,000000000e+00    0,000000000e+00    0,000000000e+00
     1080000000    1,897907555e-01    7,818817161e-03   -1,150118634e-01    2,547734976e-01    0,000000000e+00    0,000000000e+00    0,000000000e+00    0,000000000e+00
     1094000000    1,612426043e-01   -1,619396210e-01    6,187916175e-02    2,908771634e-01    0,000000000e+00    0,000000000e+00    0,000000000e+00    0,000000000e+00
     1108000000    1,873412356e-02   -2,966141999e-01    2,604871392e-01    2,341820151e-01    0,000000000e+00    0,000000000e+00    0,000000000e+00    0,000000000e+00
     1122000000   -2,117312700e-01   -2,802219987e-01    4,388005435e-01    2,250942960e-02    0,000000000e+00    0,000000000e+00    0,000000000e+00    0,000000000e+00
     1136000000   -3,294453621e-01   -3,295173869e-02    3,958559036e-01   -3,454126120e-01    0,000000000e+00    0,000000000e+00    0,000000000e+00    0,000000000e+00
     1150000000   -1,059906930e-01    1,423988938e-01    4,896876216e-02   -5,280247331e-01    0,000000000e+00    0,000000000e+00    0,000000000e+00    0,000000000e+00
     1164000000    8,783237636e-02   -2,088395134e-02   -2,535248995e-01   -4,039254487e-01    0,000000000e+00    0,000000000e+00    0,000000000e+00    0,000000000e+00
     1178000000    2,583465353e-02   -2,558653355e-01   -3,723421991e-01   -1,775338501e-01    0,000000000e+00    0,000000000e+00    0,000000000e+00    0,000000000e+00
     1192000000   -2,199863791e-01   -3,474419415e-01   -3,386107087e-01    3,952445462e-02    0,000000000e+00    0,000000000e+00    0,000000000e+00    0,000000000e+00
     1206000000   -4,776326418e-01   -1,802198738e-01   -1,913412958e-01    1,819027364e-01    0,000000000e+00    0,000000000e+00    0,000000000e+00    0,000000000e+00
     1220000000   -5,021645427e-01    1,362124681e-01   -8,908327669e-03    1,731063426e-01    0,000000000e+00    0,000000000e+00    0,000000000e+00    0,000000000e+00
     1234000000   -3,012665808e-01    3,473549783e-01    7,404141128e-02    8,149757981e-02    0,000000000e+00    0,000000000e+00    0,000000000e+00    0,000000000e+00
     1248000000   -6,610963494e-02    3,559658527e-01    6,694947928e-02   -7,310116198e-04    0,000000000e+00    0,000000000e+00    0,000000000e+00    0,000000000e+00
     1262000000    1,089487672e-01    2,603953481e-01    3,222299740e-02   -1,973060705e-02    0,000000000e+00    0,000000000e+00    0,000000000e+00    0,000000000e+00
     1276000000    1,983150393e-01    1,090081260e-01    3,310374683e-03   -6,925215479e-03    0,000000000e+00    0,000000000e+00    0,000000000e+00    0,000000000e+00
     1290000000    2,201336175e-01   -6,240415201e-02    1,565800421e-02    3,175561875e-02    0,000000000e+00    0,000000000e+00    0,000000000e+00    0,000000000e+00
     1304000000    1,657680422e-01   -2,344553024e-01    6,678325683e-02    5,692510679e-02    0,000000000e+00    0,000000000e+00    0,000000000e+00    0,000000000e+00
     1318000000    2,787397802e-02   -3,626219332e-01    1,681970060e-01    1,261622086e-02    0,000000000e+00    0,000000000e+00    0,000000000e+00    0,000000000e+00
     1332000000   -1,536304355e-01   -3,956316113e-01    9,988872707e-02   -1,818360239e-01    0,000000000e+00    0,000000000e+00    0,000000000e+00    0,000000000e+00
     1346000000   -3,612366021e-01   -3,991926908e-01   -5,795876309e-02   -2,598788589e-02    0,000000000e+00    0,000000000e+00    0,000000000e+00    0,000000000e+00
     1360000000   -5,877081752e-01   -1,973571628e-01    5,842957273e-02    9,073191881e-02    0,000000000e+00    0,000000000e+00    0,000000000e+00    0,000000000e+00
     1374000000   -6,287321448e-01    1,044847742e-01    1,756409705e-01    4,921850562e-02    0,000000000e+00    0,000000000e+00    0,000000000e+00    0,000000000e+00
     1388000000   -4,724470675e-01    3,579349220e-01    2,233079076e-01   -1,817445830e-02    0,000000000e+00    0,000000000e+00    0,000000000e+00    0,000000000e+00
     1402000000   -2,461852878e-01    4,510048926e-01    2,080192715e-01   -6,889244914e-02    0,000000000e+00    0,000000000e+00    0,000000000e+00    0,000000000e+00
     1416000000   -3,739392012e-02    4,102072418e-01    1,908053160e-01   -1,043685973e-01    0,000000000e+00    0,000000000e+00    0,000000000e+00    0,000000000e+00
     1430000000    1,136947870e-01    3,022032380e-01    1,614786386e-01   -1,209753826e-01    0,000000000e+00    0,000000000e+00    0,000000000e+00    0,000000000e+00
     1444000000    2,003312707e-01    1,545456499e-01    1,651623398e-01   -1,121317148e-01    0,000000000e+00    0,000000000e+00    0,000000000e+00    0,000000000e+00
     1458000000    2,271814793e-01   -1,320217177e-02    1,378763020e-01   -8,335485309e-02    0,000000000e+00    0,000000000e+00    0,000000000e+00    0,000000000e+00
     1472000000    1,875828803e-01   -1,903372407e-01    1,342336088e-01   -4,863445461e-02    0,000000000e+00    0,000000000e+00    0,000000000e+00    0,000000000e+00
     1486000000    7,319372147e-02   -3,637009263e-01    1,638435274e-01    7,238809485e-03    0,000000000e+00    0,000000000e+00    0,000000000e+00    0,000000000e+00
     1500000000   -1,534164548e-01   -4,965973198e-01    2,487583905e-01    8,933246881e-02    0,000000000e+00    0,000000000e+00    0,000000000e+00    0,000000000e+00
