! NanoVNA-App
! Date: 2025-09-25 15:43:34
! Start: 100MHz Stop: 1,5GHz Points: 101
! S-Parameter data: F S11 S21 S12 S22
# Hz S RI R 50
!     Frequency           S11_Real           S11_Imag           S21_Real           S21_Imag           S12_Real           S12_Imag           S22_Real           S22_Imag
      100000000   -2,874284424e-02   -4,247401375e-03    3,739346266e-01   -7,215512395e-01    0,000000000e+00    0,000000000e+00    0,000000000e+00    0,000000000e+00
      114000000   -1,651119813e-02    1,148068160e-02   -8,911792934e-02   -8,051227927e-01    0,000000000e+00    0,000000000e+00    0,000000000e+00    0,000000000e+00
      128000000    3,432468511e-03    1,064950880e-02   -5,145987272e-01   -6,204466820e-01    0,000000000e+00    0,000000000e+00    0,000000000e+00    0,000000000e+00
      142000000    1,465489063e-02   -2,638897626e-03   -7,668757439e-01   -2,364113629e-01    0,000000000e+00    0,000000000e+00    0,000000000e+00    0,000000000e+00
      156000000    1,633048430e-02   -1,419875864e-02   -7,695401907e-01    2,240754813e-01    0,000000000e+00    0,000000000e+00    0,000000000e+00    0,000000000e+00
      170000000    1,714985259e-02   -2,249829099e-02   -5,178327560e-01    6,045732498e-01    0,000000000e+00    0,000000000e+00    0,000000000e+00    0,000000000e+00
      184000000    2,135230042e-02   -3,718736395e-02   -1,013573557e-01    7,858020067e-01    0,000000000e+00    0,000000000e+00    0,000000000e+00    0,000000000e+00
      198000000    1,320509892e-02   -6,253981590e-02    3,432456553e-01    7,123252749e-01    0,000000000e+00    0,000000000e+00    0,000000000e+00    0,000000000e+00
      212000000   -1,839769073e-02   -8,129041642e-02    6,780191660e-01    4,097357094e-01    0,000000000e+00    0,000000000e+00    0,000000000e+00    0,000000000e+00
      226000000   -6,130751222e-02   -6,917648762e-02    7,953226566e-01   -3,057596460e-02    0,000000000e+00    0,000000000e+00    0,000000000e+00    0,000000000e+00
      240000000   -8,222483844e-02   -2,575664967e-02    6,459006071e-01   -4,669439197e-01    0,000000000e+00    0,000000000e+00    0,000000000e+00    0,000000000e+00
      254000000   -6,339555979e-02    1,692778245e-02    2,761156857e-01   -7,431104779e-01    0,000000000e+00    0,000000000e+00    0,000000000e+00    0,000000000e+00
      268000000   -2,399864234e-02    2,876817435e-02   -1,782844514e-01   -7,639904618e-01    0,000000000e+00    0,000000000e+00    0,000000000e+00    0,000000000e+00
      282000000    4,119653720e-03    1,212491188e-02   -5,617615581e-01   -5,351862311e-01    0,000000000e+00    0,000000000e+00    0,000000000e+00    0,000000000e+00
      296000000    9,854869917e-03   -7,505598944e-03   -7,593821287e-01   -1,395352483e-01    0,000000000e+00    0,000000000e+00    0,000000000e+00    0,000000000e+00
      310000000    1,127387304e-02   -1,610585302e-02   -7,107152343e-01    2,983024716e-01    0,000000000e+00    0,000000000e+00    0,000000000e+00    0,000000000e+00
      324000000    2,027197741e-02   -2,657467313e-02   -4,268416166e-01    6,371463537e-01    0,000000000e+00    0,000000000e+00    0,000000000e+00    0,000000000e+00
      338000000    2,579888329e-02   -5,236331001e-02   -7,026236504e-03    7,601301074e-01    0,000000000e+00    0,000000000e+00    0,000000000e+00    0,000000000e+00
      352000000    7,413235959e-03   -8,494374156e-02    4,058529437e-01    6,399121881e-01    0,000000000e+00    0,000000000e+00    0,000000000e+00    0,000000000e+00
      366000000   -3,443679214e-02   -9,562502056e-02    6,895989776e-01    3,111076355e-01    0,000000000e+00    0,000000000e+00    0,000000000e+00    0,000000000e+00
      380000000   -7,030954212e-02   -7,088656723e-02    7,472482324e-01   -1,253616512e-01    0,000000000e+00    0,000000000e+00    0,000000000e+00    0,000000000e+00
      394000000   -7,221026719e-02   -3,230810538e-02    5,473161936e-01   -5,206992030e-01    0,000000000e+00    0,000000000e+00    0,000000000e+00    0,000000000e+00
      408000000   -4,621566832e-02   -1,649055630e-02    1,615772545e-01   -7,313776612e-01    0,000000000e+00    0,000000000e+00    0,000000000e+00    0,000000000e+00
      422000000   -2,843796648e-02   -3,210852295e-02   -2,674529850e-01   -6,951109171e-01    0,000000000e+00    0,000000000e+00    0,000000000e+00    0,000000000e+00
      436000000   -4,061510786e-02   -5,186877027e-02   -6,038143039e-01   -4,323864877e-01    0,000000000e+00    0,000000000e+00    0,000000000e+00    0,000000000e+00
      450000000   -6,713894755e-02   -4,399836808e-02   -7,399407029e-01   -2,210614458e-02    0,000000000e+00    0,000000000e+00    0,000000000e+00    0,000000000e+00
      464000000   -7,285814732e-02   -1,201004535e-02   -6,178137064e-01    3,970666230e-01    0,000000000e+00    0,000000000e+00    0,000000000e+00    0,000000000e+00
      478000000   -4,768091813e-02    1,131321024e-02   -2,830163538e-01    6,669719219e-01    0,000000000e+00    0,000000000e+00    0,000000000e+00    0,000000000e+00
      492000000   -1,582993381e-02    5,714741070e-03    1,365213245e-01    7,009617686e-01    0,000000000e+00    0,000000000e+00    0,000000000e+00    0,000000000e+00
      506000000   -2,729605651e-03   -1,596948691e-02    4,978402555e-01    5,025100112e-01    0,000000000e+00    0,000000000e+00    0,000000000e+00    0,000000000e+00
      520000000   -4,691336304e-03   -3,145633638e-02    6,885871291e-01    1,429268271e-01    0,000000000e+00    0,000000000e+00    0,000000000e+00    0,000000000e+00
      534000000   -3,342709271e-03   -3,768107668e-02    6,431728601e-01   -2,616370916e-01    0,000000000e+00    0,000000000e+00    0,000000000e+00    0,000000000e+00
      548000000    6,497972179e-03   -5,363644287e-02    3,808452189e-01   -5,655809045e-01    0,000000000e+00    0,000000000e+00    0,000000000e+00    0,000000000e+00
      562000000    3,319893731e-03   -8,930942416e-02    2,301782835e-03   -6,714066863e-01    0,000000000e+00    0,000000000e+00    0,000000000e+00    0,000000000e+00
      576000000   -3,362772986e-02   -1,244006529e-01   -3,677106202e-01   -5,571828485e-01    0,000000000e+00    0,000000000e+00    0,000000000e+00    0,000000000e+00
      590000000   -9,586776048e-02   -1,225173250e-01   -6,179930568e-01   -2,638405859e-01    0,000000000e+00    0,000000000e+00    0,000000000e+00    0,000000000e+00
      604000000   -1,388345212e-01   -7,261338085e-02   -6,641037464e-01    1,364226043e-01    0,000000000e+00    0,000000000e+00    0,000000000e+00    0,000000000e+00
      618000000   -1,287800223e-01   -1,016622875e-02   -4,649144709e-01    4,933173656e-01    0,000000000e+00    0,000000000e+00    0,000000000e+00    0,000000000e+00
      632000000   -8,420470357e-02    1,644493081e-02   -9,994088858e-02    6,625369191e-01    0,000000000e+00    0,000000000e+00    0,000000000e+00    0,000000000e+00
      646000000   -5,204600841e-02    1,167095266e-03    2,863086164e-01    5,947189927e-01    0,000000000e+00    0,000000000e+00    0,000000000e+00    0,000000000e+00
      660000000   -5,318983644e-02   -2,066141553e-02    5,646760464e-01    3,224817216e-01    0,000000000e+00    0,000000000e+00    0,000000000e+00    0,000000000e+00
      674000000   -6,923955679e-02   -1,634759828e-02    6,405577660e-01   -6,320004165e-02    0,000000000e+00    0,000000000e+00    0,000000000e+00    0,000000000e+00
      688000000   -6,634025276e-02    9,661344811e-03    4,712191820e-01   -4,240282178e-01    0,000000000e+00    0,000000000e+00    0,000000000e+00    0,000000000e+00
      702000000   -3,663427010e-02    2,545002848e-02    1,225706935e-01   -6,118850112e-01    0,000000000e+00    0,000000000e+00    0,000000000e+00    0,000000000e+00
      716000000    3,438130254e-03    1,551591326e-02   -2,590534091e-01   -5,445711613e-01    0,000000000e+00    0,000000000e+00    0,000000000e+00    0,000000000e+00
      730000000    3,725996241e-02   -1,379848178e-02   -5,217975974e-01   -2,716035843e-01    0,000000000e+00    0,000000000e+00    0,000000000e+00    0,000000000e+00
      744000000    6,186547503e-02   -6,547082216e-02   -5,606094003e-01    9,854122251e-02    0,000000000e+00    0,000000000e+00    0,000000000e+00    0,000000000e+00
      758000000    6,143942475e-02   -1,520432979e-01   -3,664834201e-01    4,007615149e-01    0,000000000e+00    0,000000000e+00    0,000000000e+00    0,000000000e+00
      772000000   -1,655881852e-02   -2,558189929e-01   -4,502361268e-02    5,090641975e-01    0,000000000e+00    0,000000000e+00    0,000000000e+00    0,000000000e+00
      786000000   -2,028529346e-01   -2,916933298e-01    2,596231997e-01    3,989449143e-01    0,000000000e+00    0,000000000e+00    0,000000000e+00    0,000000000e+00
      800000000   -4,076976180e-01   -1,279761940e-01    4,072678089e-01    1,189330742e-01    0,000000000e+00    0,000000000e+00    0,000000000e+00    0,000000000e+00
      814000000   -3,765400946e-01    2,004891187e-01    2,961988151e-01   -1,512841433e-01    0,000000000e+00    0,000000000e+00    0,000000000e+00    0,000000000e+00
      828000000   -6,312324107e-02    3,472813666e-01    8,186966181e-02   -1,909705698e-01    0,000000000e+00    0,000000000e+00    0,000000000e+00    0,000000000e+00
      842000000    2,113306224e-01    1,856051832e-01   -4,061112180e-03   -9,337962419e-02    0,000000000e+00    0,000000000e+00    0,000000000e+00    0,000000000e+00
      856000000    2,658602893e-01   -1,057496145e-01    3,547523916e-02   -3,673281521e-02    0,000000000e+00    0,000000000e+00    0,000000000e+00    0,000000000e+00
      870000000    8,245325834e-02   -3,514955640e-01    8,841811866e-02   -9,730861336e-02    0,000000000e+00    0,000000000e+00    0,000000000e+00    0,000000000e+00
      884000000   -2,667831182e-01   -3,570597768e-01    1,195931621e-02   -2,274614125e-01    0,000000000e+00    0,000000000e+00    0,000000000e+00    0,000000000e+00
      898000000   -4,582725763e-01   -1,385564823e-02   -2,152389586e-01   -2,093998045e-01    0,000000000e+00    0,000000000e+00    0,000000000e+00    0,000000000e+00
      912000000   -2,350869477e-01    2,794677317e-01   -3,253820539e-01    7,179464400e-02    0,000000000e+00    0,000000000e+00    0,000000000e+00    0,000000000e+00
      926000000    5,378918722e-02    2,609321177e-01   -2,105178386e-01    2,595112622e-01    0,000000000e+00    0,000000000e+00    0,000000000e+00    0,000000000e+00
      940000000    2,089499533e-01    8,681516349e-02   -3,165505454e-02    3,255422413e-01    0,000000000e+00    0,000000000e+00    0,000000000e+00    0,000000000e+00
      954000000    2,188059241e-01   -1,195925698e-01    1,308441758e-01    3,001449704e-01    0,000000000e+00    0,000000000e+00    0,000000000e+00    0,000000000e+00
      968000000    1,207416579e-01   -2,937222421e-01    2,684524953e-01    2,154953182e-01    0,000000000e+00    0,000000000e+00    0,000000000e+00    0,000000000e+00
      982000000   -7,460345328e-02   -3,840887547e-01    3,599245846e-01    6,245282292e-02    0,000000000e+00    0,000000000e+00    0,000000000e+00    0,000000000e+00
      996000000   -3,102635741e-01   -3,333891332e-01    3,618145883e-01   -1,431321353e-01    0,000000000e+00    0,000000000e+00    0,000000000e+00    0,000000000e+00
     1010000000   -4,587355554e-01   -1,190351471e-01    2,196780741e-01   -3,359609544e-01    0,000000000e+00    0,000000000e+00    0,000000000e+00    0,000000000e+00
     1024000000   -4,123734534e-01    1,427655667e-01   -3,317822143e-02   -3,878274262e-01    0,000000000e+00    0,000000000e+00    0,000000000e+00    0,000000000e+00
     1038000000   -2,204704285e-01    2,911737561e-01   -2,423897237e-01   -2,566063404e-01    0,000000000e+00    0,000000000e+00    0,000000000e+00    0,000000000e+00
     1052000000   -1,487420965e-02    2,779613137e-01   -3,100473583e-01   -4,409394786e-02    0,000000000e+00    0,000000000e+00    0,000000000e+00    0,000000000e+00
     1066000000    1,299822181e-01    1,703619659e-01   -2,515273690e-01    1,391865760e-01    0,000000000e+00    0,000000000e+00    0,000000000e+00    0,000000000e+00
     1080000000    1,955370307e-01    9,562961757e-03   -1,177012324e-01    2,550987601e-01    0,000000000e+00    0,000000000e+00    0,000000000e+00    0,000000000e+00
     1094000000    1,608889103e-01   -1,597602516e-01    6,263590604e-02    2,931461632e-01    0,000000000e+00    0,000000000e+00    0,000000000e+00    0,000000000e+00
     1108000000    2,292157337e-02   -2,988398373e-01    2,598264515e-01    2,351430207e-01    0,000000000e+00    0,000000000e+00    0,000000000e+00    0,000000000e+00
     1122000000   -2,168832570e-01   -2,840546370e-01    4,421381354e-01    2,421145700e-02    0,000000000e+00    0,000000000e+00    0,000000000e+00    0,000000000e+00
     1136000000   -3,281760216e-01   -2,832718380e-02    4,003367722e-01   -3,458153903e-01    0,000000000e+00    0,000000000e+00    0,000000000e+00    0,000000000e+00
     1150000000   -1,094253957e-01    1,394713372e-01    4,884077236e-02   -5,330060124e-01    0,000000000e+00    0,000000000e+00    0,000000000e+00    0,000000000e+00
     1164000000    8,814900368e-02   -1,438215934e-02   -2,512703240e-01   -4,068913758e-01    0,000000000e+00    0,000000000e+00    0,000000000e+00    0,000000000e+00
     1178000000    2,682663500e-02   -2,543421686e-01   -3,700369298e-01   -1,803317070e-01    0,000000000e+00    0,000000000e+00    0,000000000e+00    0,000000000e+00
     1192000000   -2,178667486e-01   -3,471105099e-01   -3,407663703e-01    4,142720625e-02    0,000000000e+00    0,000000000e+00    0,000000000e+00    0,000000000e+00
     1206000000   -4,778949916e-01   -1,820605844e-01   -1,916234940e-01    1,823855937e-01    0,000000000e+00    0,000000000e+00    0,000000000e+00    0,000000000e+00
     1220000000   -5,075706840e-01    1,383975744e-01   -1,156164240e-02    1,781258136e-01    0,000000000e+00    0,000000000e+00    0,000000000e+00    0,000000000e+00
     1234000000   -2,952153981e-01    3,434568942e-01    7,559315860e-02    8,090112358e-02    0,000000000e+00    0,000000000e+00    0,000000000e+00    0,000000000e+00
     1248000000   -6,454925984e-02    3,554142118e-01    6,234740466e-02    8,282733615e-04    0,000000000e+00    0,000000000e+00    0,000000000e+00    0,000000000e+00
     1262000000    1,107890755e-01    2,587844133e-01    3,031765483e-02   -2,427079342e-02    0,000000000e+00    0,000000000e+00    0,000000000e+00    0,000000000e+00
     1276000000    2,040995210e-01    1,084533334e-01    6,377417594e-03   -3,840713529e-03    0,000000000e+00    0,000000000e+00    0,000000000e+00    0,000000000e+00
     1290000000    2,197600454e-01   -6,466067582e-02    1,223429106e-02    2,342172898e-02    0,000000000e+00    0,000000000e+00    0,000000000e+00    0,000000000e+00
     1304000000    1,664808393e-01   -2,304402441e-01    5,969578028e-02    6,012246013e-02    0,000000000e+00    0,000000000e+00    0,000000000e+00    0,000000000e+00
     1318000000    2,777046524e-02   -3,621046841e-01    1,719745398e-01    1,871843450e-02    0,000000000e+00    0,000000000e+00    0,000000000e+00    0,000000000e+00
     1332000000   -1,498437077e-01   -3,954884708e-01    9,759809077e-02   -1,854972243e-01    0,000000000e+00    0,000000000e+00    0,000000000e+00    0,000000000e+00
     1346000000   -3,603071570e-01   -3,885689378e-01   -6,220108643e-02   -2,544493601e-02    0,000000000e+00    0,000000000e+00    0,000000000e+00    0,000000000e+00
     1360000000   -5,896098614e-01   -1,991860121e-01    5,927559733e-02    9,168259054e-02    0,000000000e+00    0,000000000e+00    0,000000000e+00    0,000000000e+00
     1374000000   -6,232488751e-01    1,044131443e-01    1,861979514e-01    6,147666276e-02    0,000000000e+00    0,000000000e+00    0,000000000e+00    0,000000000e+00
     1388000000   -4,742101431e-01    3,511547744e-01    2,188366950e-01   -3,069024533e-02    0,000000000e+00    0,000000000e+00    0,000000000e+00    0,000000000e+00
     1402000000   -2,458983511e-01    4,412378967e-01    2,022096962e-01   -8,121243119e-02    0,000000000e+00    0,000000000e+00    0,000000000e+00    0,000000000e+00
     1416000000   -3,818810359e-02    4,085759819e-01    1,877929419e-01   -1,105413735e-01    0,000000000e+00    0,000000000e+00    0,000000000e+00    0,000000000e+00
     1430000000    1,055510640e-01    3,075408340e-01    1,616883725e-01   -1,037346646e-01    0,000000000e+00    0,000000000e+00    0,000000000e+00    0,000000000e+00
     1444000000    1,956038922e-01    1,528415680e-01    1,629779786e-01   -1,110044718e-01    0,000000000e+00    0,000000000e+00    0,000000000e+00    0,000000000e+00
     1458000000    2,277269214e-01   -1,370936073e-02    1,490130872e-01   -8,720330894e-02    0,000000000e+00    0,000000000e+00    0,000000000e+00    0,000000000e+00
     1472000000    1,868833154e-01   -1,951181293e-01    1,329661012e-01   -5,384099111e-02    0,000000000e+00    0,000000000e+00    0,000000000e+00    0,000000000e+00
     1486000000    6,829833239e-02   -3,622598052e-01    1,556414217e-01    2,860658802e-02    0,000000000e+00    0,000000000e+00    0,000000000e+00    0,000000000e+00
     1500000000   -1,595021486e-01   -4,892200530e-01    2,464891970e-01    8,453224599e-02    0,000000000e+00    0,000000000e+00    0,000000000e+00    0,000000000e+00
