! NanoVNA-App
! Date: 2025-09-25 15:39:57
! Start: 100MHz Stop: 1,5GHz Points: 101
! S-Parameter data: F S11 S21 S12 S22
# Hz S RI R 50
!     Frequency           S11_Real           S11_Imag           S21_Real           S21_Imag           S12_Real           S12_Imag           S22_Real           S22_Imag
      100000000   -2,859727666e-02   -4,216214642e-03    3,737735748e-01   -7,215087414e-01    0,000000000e+00    0,000000000e+00    0,000000000e+00    0,000000000e+00
      114000000   -1,635134034e-02    1,149689686e-02   -8,914630860e-02   -8,051492572e-01    0,000000000e+00    0,000000000e+00    0,000000000e+00    0,000000000e+00
      128000000    3,557727905e-03    1,071825717e-02   -5,144138336e-01   -6,201381683e-01    0,000000000e+00    0,000000000e+00    0,000000000e+00    0,000000000e+00
      142000000    1,479328144e-02   -2,649924252e-03   -7,667736411e-01   -2,363297045e-01    0,000000000e+00    0,000000000e+00    0,000000000e+00    0,000000000e+00
      156000000    1,641247794e-02   -1,407924015e-02   -7,692505717e-01    2,241872102e-01    0,000000000e+00    0,000000000e+00    0,000000000e+00    0,000000000e+00
      170000000    1,731367782e-02   -2,253331989e-02   -5,176702738e-01    6,046347618e-01    0,000000000e+00    0,000000000e+00    0,000000000e+00    0,000000000e+00
      184000000    2,145015635e-02   -3,717348352e-02   -1,012209952e-01    7,854446173e-01    0,000000000e+00    0,000000000e+00    0,000000000e+00    0,000000000e+00
      198000000    1,336928736e-02   -6,258618832e-02    3,433116078e-01    7,120767832e-01    0,000000000e+00    0,000000000e+00    0,000000000e+00    0,000000000e+00
      212000000   -1,833024994e-02   -8,131800592e-02    6,776733398e-01    4,096337557e-01    0,000000000e+00    0,000000000e+00    0,000000000e+00    0,000000000e+00
      226000000   -6,117634475e-02   -6,920982152e-02    7,952169180e-01   -3,060971014e-02    0,000000000e+00    0,000000000e+00    0,000000000e+00    0,000000000e+00
      240000000   -8,209003508e-02   -2,581118606e-02    6,456908584e-01   -4,668686688e-01    0,000000000e+00    0,000000000e+00    0,000000000e+00    0,000000000e+00
      254000000   -6,318654120e-02    1,686438918e-02    2,756894827e-01   -7,426679134e-01    0,000000000e+00    0,000000000e+00    0,000000000e+00    0,000000000e+00
      268000000   -2,384988032e-02    2,874153294e-02   -1,778569967e-01   -7,634719014e-01    0,000000000e+00    0,000000000e+00    0,000000000e+00    0,000000000e+00
      282000000    4,312111530e-03    1,195113175e-02   -5,615759492e-01   -5,353906155e-01    0,000000000e+00    0,000000000e+00    0,000000000e+00    0,000000000e+00
      296000000    1,004093140e-02   -7,562987972e-03   -7,592468262e-01   -1,395021528e-01    0,000000000e+00    0,000000000e+00    0,000000000e+00    0,000000000e+00
      310000000    1,169760805e-02   -1,613495313e-02   -7,119203806e-01    2,971844971e-01    0,000000000e+00    0,000000000e+00    0,000000000e+00    0,000000000e+00
      324000000    2,017568983e-02   -2,658806928e-02   -4,271044135e-01    6,372402310e-01    0,000000000e+00    0,000000000e+00    0,000000000e+00    0,000000000e+00
      338000000    2,586868592e-02   -5,233319476e-02   -6,947977468e-03    7,597744465e-01    0,000000000e+00    0,000000000e+00    0,000000000e+00    0,000000000e+00
      352000000    7,529128343e-03   -8,495332301e-02    4,069514573e-01    6,394703388e-01    0,000000000e+00    0,000000000e+00    0,000000000e+00    0,000000000e+00
      366000000   -3,420306742e-02   -9,559942037e-02    6,902781725e-01    3,106317818e-01    0,000000000e+00    0,000000000e+00    0,000000000e+00    0,000000000e+00
      380000000   -7,023795694e-02   -7,108443230e-02    7,467005849e-01   -1,253162622e-01    0,000000000e+00    0,000000000e+00    0,000000000e+00    0,000000000e+00
      394000000   -7,201625407e-02   -3,263517469e-02    5,464884639e-01   -5,215718746e-01    0,000000000e+00    0,000000000e+00    0,000000000e+00    0,000000000e+00
      408000000   -4,611135274e-02   -1,639258303e-02    1,610017270e-01   -7,318542004e-01    0,000000000e+00    0,000000000e+00    0,000000000e+00    0,000000000e+00
      422000000   -2,846426331e-02   -3,210588545e-02   -2,673960030e-01   -6,939590573e-01    0,000000000e+00    0,000000000e+00    0,000000000e+00    0,000000000e+00
      436000000   -4,014588147e-02   -5,170979723e-02   -6,030532122e-01   -4,309735894e-01    0,000000000e+00    0,000000000e+00    0,000000000e+00    0,000000000e+00
      450000000   -6,698547304e-02   -4,354565218e-02   -7,396685481e-01   -2,124790102e-02    0,000000000e+00    0,000000000e+00    0,000000000e+00    0,000000000e+00
      464000000   -7,269781083e-02   -1,208645850e-02   -6,177779436e-01    3,964459002e-01    0,000000000e+00    0,000000000e+00    0,000000000e+00    0,000000000e+00
      478000000   -4,761414602e-02    1,128872484e-02   -2,832565308e-01    6,662829518e-01    0,000000000e+00    0,000000000e+00    0,000000000e+00    0,000000000e+00
      492000000   -1,568113640e-02    5,336858798e-03    1,370309889e-01    7,003673911e-01    0,000000000e+00    0,000000000e+00    0,000000000e+00    0,000000000e+00
      506000000   -2,733981004e-03   -1,582370885e-02    4,976005554e-01    5,027667284e-01    0,000000000e+00    0,000000000e+00    0,000000000e+00    0,000000000e+00
      520000000   -4,544918425e-03   -3,169894218e-02    6,887785792e-01    1,420658529e-01    0,000000000e+00    0,000000000e+00    0,000000000e+00    0,000000000e+00
      534000000   -3,748810850e-03   -3,821772337e-02    6,424543262e-01   -2,619819343e-01    0,000000000e+00    0,000000000e+00    0,000000000e+00    0,000000000e+00
      548000000    6,264141295e-03   -5,380727723e-02    3,812325895e-01   -5,657916069e-01    0,000000000e+00    0,000000000e+00    0,000000000e+00    0,000000000e+00
      562000000    3,743843874e-03   -8,969973773e-02    2,802462317e-03   -6,706722975e-01    0,000000000e+00    0,000000000e+00    0,000000000e+00    0,000000000e+00
      576000000   -3,407428414e-02   -1,246636286e-01   -3,680306673e-01   -5,577227473e-01    0,000000000e+00    0,000000000e+00    0,000000000e+00    0,000000000e+00
      590000000   -9,558315575e-02   -1,227068976e-01   -6,186573505e-01   -2,650418282e-01    0,000000000e+00    0,000000000e+00    0,000000000e+00    0,000000000e+00
      604000000   -1,389990598e-01   -7,240830362e-02   -6,645565629e-01    1,364999861e-01    0,000000000e+00    0,000000000e+00    0,000000000e+00    0,000000000e+00
      618000000   -1,292483807e-01   -1,048776321e-02   -4,638027549e-01    4,919276536e-01    0,000000000e+00    0,000000000e+00    0,000000000e+00    0,000000000e+00
      632000000   -8,463054895e-02    1,612438075e-02   -9,980595112e-02    6,622288227e-01    0,000000000e+00    0,000000000e+00    0,000000000e+00    0,000000000e+00
      646000000   -5,151317641e-02   -4,560362504e-05    2,856271267e-01    5,941771865e-01    0,000000000e+00    0,000000000e+00    0,000000000e+00    0,000000000e+00
      660000000   -5,307660997e-02   -2,097417973e-02    5,642110705e-01    3,232230544e-01    0,000000000e+00    0,000000000e+00    0,000000000e+00    0,000000000e+00
      674000000   -7,041427493e-02   -1,696912944e-02    6,407061219e-01   -6,318347901e-02    0,000000000e+00    0,000000000e+00    0,000000000e+00    0,000000000e+00
      688000000   -6,730744988e-02    9,663515724e-03    4,701422453e-01   -4,247969389e-01    0,000000000e+00    0,000000000e+00    0,000000000e+00    0,000000000e+00
      702000000   -3,617229313e-02    2,607515454e-02    1,232644171e-01   -6,023424268e-01    0,000000000e+00    0,000000000e+00    0,000000000e+00    0,000000000e+00
      716000000    2,916109050e-03    1,592164673e-02   -2,591794729e-01   -5,440155864e-01    0,000000000e+00    0,000000000e+00    0,000000000e+00    0,000000000e+00
      730000000    3,688674048e-02   -1,320350729e-02   -5,212041736e-01   -2,712701857e-01    0,000000000e+00    0,000000000e+00    0,000000000e+00    0,000000000e+00
      744000000    6,196890026e-02   -6,498683989e-02   -5,600889325e-01    9,906080365e-02    0,000000000e+00    0,000000000e+00    0,000000000e+00    0,000000000e+00
      758000000    6,073971093e-02   -1,525842845e-01   -3,660578728e-01    4,008718133e-01    0,000000000e+00    0,000000000e+00    0,000000000e+00    0,000000000e+00
      772000000   -1,740485989e-02   -2,559454441e-01   -4,492880777e-02    5,091471076e-01    0,000000000e+00    0,000000000e+00    0,000000000e+00    0,000000000e+00
      786000000   -2,020633966e-01   -2,916834354e-01    2,587912381e-01    3,989863992e-01    0,000000000e+00    0,000000000e+00    0,000000000e+00    0,000000000e+00
      800000000   -4,072953463e-01   -1,261023730e-01    4,065208435e-01    1,178144068e-01    0,000000000e+00    0,000000000e+00    0,000000000e+00    0,000000000e+00
      814000000   -3,764146864e-01    2,031743079e-01    2,956801355e-01   -1,511171162e-01    0,000000000e+00    0,000000000e+00    0,000000000e+00    0,000000000e+00
      828000000   -6,065718457e-02    3,466091156e-01    8,251047134e-02   -1,901982576e-01    0,000000000e+00    0,000000000e+00    0,000000000e+00    0,000000000e+00
      842000000    2,115786970e-01    1,848098636e-01   -3,325921251e-03   -9,258572757e-02    0,000000000e+00    0,000000000e+00    0,000000000e+00    0,000000000e+00
      856000000    2,657796144e-01   -1,066027433e-01    3,682236746e-02   -3,716978431e-02    0,000000000e+00    0,000000000e+00    0,000000000e+00    0,000000000e+00
      870000000    8,212054521e-02   -3,518945277e-01    8,873850852e-02   -9,843295813e-02    0,000000000e+00    0,000000000e+00    0,000000000e+00    0,000000000e+00
      884000000   -2,670431137e-01   -3,553950489e-01    1,167636923e-02   -2,285082340e-01    0,000000000e+00    0,000000000e+00    0,000000000e+00    0,000000000e+00
      898000000   -4,563460350e-01   -1,260617096e-02   -2,156035155e-01   -2,094407082e-01    0,000000000e+00    0,000000000e+00    0,000000000e+00    0,000000000e+00
      912000000   -2,344678789e-01    2,785027623e-01   -3,320229948e-01    6,397056580e-02    0,000000000e+00    0,000000000e+00    0,000000000e+00    0,000000000e+00
      926000000    5,450574681e-02    2,621572018e-01   -2,114040703e-01    2,618981600e-01    0,000000000e+00    0,000000000e+00    0,000000000e+00    0,000000000e+00
      940000000    2,101135850e-01    8,539818227e-02   -3,099055029e-02    3,258101642e-01    0,000000000e+00    0,000000000e+00    0,000000000e+00    0,000000000e+00
      954000000    2,198587507e-01   -1,238681972e-01    1,317089945e-01    3,007528186e-01    0,000000000e+00    0,000000000e+00    0,000000000e+00    0,000000000e+00
      968000000    1,186167374e-01   -2,958338559e-01    2,698792815e-01    2,131325155e-01    0,000000000e+00    0,000000000e+00    0,000000000e+00    0,000000000e+00
      982000000   -7,904428989e-02   -3,862161934e-01    3,610298932e-01    6,282054633e-02    0,000000000e+00    0,000000000e+00    0,000000000e+00    0,000000000e+00
      996000000   -3,100556731e-01   -3,285650909e-01    3,636063635e-01   -1,436821371e-01    0,000000000e+00    0,000000000e+00    0,000000000e+00    0,000000000e+00
     1010000000   -4,625200927e-01   -1,129854694e-01    2,191463113e-01   -3,368754089e-01    0,000000000e+00    0,000000000e+00    0,000000000e+00    0,000000000e+00
     1024000000   -4,128847122e-01    1,424750537e-01   -3,209425509e-02   -3,866586983e-01    0,000000000e+00    0,000000000e+00    0,000000000e+00    0,000000000e+00
     1038000000   -2,203466743e-01    2,892575562e-01   -2,421173751e-01   -2,563197315e-01    0,000000000e+00    0,000000000e+00    0,000000000e+00    0,000000000e+00
     1052000000   -1,345270872e-02    2,830503583e-01   -3,114815056e-01   -4,797958210e-02    0,000000000e+00    0,000000000e+00    0,000000000e+00    0,000000000e+00
     1066000000    1,335019767e-01    1,669070125e-01   -2,500392497e-01    1,394583136e-01    0,000000000e+00    0,000000000e+00    0,000000000e+00    0,000000000e+00
     1080000000    1,943190992e-01    9,958381765e-03   -1,166930199e-01    2,561958432e-01    0,000000000e+00    0,000000000e+00    0,000000000e+00    0,000000000e+00
     1094000000    1,612775773e-01   -1,613055915e-01    6,033467129e-02    2,899197936e-01    0,000000000e+00    0,000000000e+00    0,000000000e+00    0,000000000e+00
     1108000000    1,685587503e-02   -2,914981246e-01    2,605803311e-01    2,337935269e-01    0,000000000e+00    0,000000000e+00    0,000000000e+00    0,000000000e+00
     1122000000   -2,108258009e-01   -2,817210853e-01    4,410036802e-01    2,584520355e-02    0,000000000e+00    0,000000000e+00    0,000000000e+00    0,000000000e+00
     1136000000   -3,261049986e-01   -3,231131285e-02    4,024525285e-01   -3,483119309e-01    0,000000000e+00    0,000000000e+00    0,000000000e+00    0,000000000e+00
     1150000000   -1,068688929e-01    1,400384456e-01    4,876741767e-02   -5,295382142e-01    0,000000000e+00    0,000000000e+00    0,000000000e+00    0,000000000e+00
     1164000000    8,694076538e-02   -1,903455146e-02   -2,511518598e-01   -4,037975669e-01    0,000000000e+00    0,000000000e+00    0,000000000e+00    0,000000000e+00
     1178000000    2,828063443e-02   -2,502550185e-01   -3,710323274e-01   -1,768601984e-01    0,000000000e+00    0,000000000e+00    0,000000000e+00    0,000000000e+00
     1192000000   -2,220224887e-01   -3,500182033e-01   -3,397029936e-01    3,903212398e-02    0,000000000e+00    0,000000000e+00    0,000000000e+00    0,000000000e+00
     1206000000   -4,769577980e-01   -1,808863878e-01   -1,846261472e-01    1,837338656e-01    0,000000000e+00    0,000000000e+00    0,000000000e+00    0,000000000e+00
     1220000000   -5,007074475e-01    1,411987692e-01   -8,183931932e-03    1,792152077e-01    0,000000000e+00    0,000000000e+00    0,000000000e+00    0,000000000e+00
     1234000000   -3,000871539e-01    3,373008966e-01    7,110273093e-02    7,803398371e-02    0,000000000e+00    0,000000000e+00    0,000000000e+00    0,000000000e+00
     1248000000   -5,828367174e-02    3,546094000e-01    6,746046990e-02    1,820462057e-03    0,000000000e+00    0,000000000e+00    0,000000000e+00    0,000000000e+00
     1262000000    1,052298322e-01    2,553721368e-01    2,554478496e-02   -2,174232714e-02    0,000000000e+00    0,000000000e+00    0,000000000e+00    0,000000000e+00
     1276000000    2,046366185e-01    1,093552187e-01    6,290299352e-03   -6,828278769e-03    0,000000000e+00    0,000000000e+00    0,000000000e+00    0,000000000e+00
     1290000000    2,206230462e-01   -6,384170800e-02    1,600845531e-02    2,257167362e-02    0,000000000e+00    0,000000000e+00    0,000000000e+00    0,000000000e+00
     1304000000    1,663514227e-01   -2,368789017e-01    5,896249041e-02    5,407614261e-02    0,000000000e+00    0,000000000e+00    0,000000000e+00    0,000000000e+00
     1318000000    2,614332922e-02   -3,642942011e-01    1,709045470e-01    9,481716901e-03    0,000000000e+00    0,000000000e+00    0,000000000e+00    0,000000000e+00
     1332000000   -1,455617845e-01   -3,958552778e-01    1,065026522e-01   -1,790644228e-01    0,000000000e+00    0,000000000e+00    0,000000000e+00    0,000000000e+00
     1346000000   -3,667657375e-01   -3,945276737e-01   -6,494973600e-02   -1,949538104e-02    0,000000000e+00    0,000000000e+00    0,000000000e+00    0,000000000e+00
     1360000000   -5,837818384e-01   -2,094788104e-01    5,974141881e-02    8,799216896e-02    0,000000000e+00    0,000000000e+00    0,000000000e+00    0,000000000e+00
     1374000000   -6,280382872e-01    1,042502970e-01    1,782902181e-01    5,132390931e-02    0,000000000e+00    0,000000000e+00    0,000000000e+00    0,000000000e+00
     1388000000   -4,762678742e-01    3,512634337e-01    2,111631483e-01   -3,030999191e-02    0,000000000e+00    0,000000000e+00    0,000000000e+00    0,000000000e+00
     1402000000   -2,404244840e-01    4,471476972e-01    2,079807073e-01   -7,512053102e-02    0,000000000e+00    0,000000000e+00    0,000000000e+00    0,000000000e+00
     1416000000   -4,355105385e-02    4,075647891e-01    1,848535091e-01   -1,026142314e-01    0,000000000e+00    0,000000000e+00    0,000000000e+00    0,000000000e+00
     1430000000    1,129783839e-01    3,040445149e-01    1,666981578e-01   -1,212818772e-01    0,000000000e+00    0,000000000e+00    0,000000000e+00    0,000000000e+00
     1444000000    2,009709030e-01    1,527235508e-01    1,683140844e-01   -1,173513532e-01    0,000000000e+00    0,000000000e+00    0,000000000e+00    0,000000000e+00
     1458000000    2,307808399e-01   -1,798637770e-02    1,366144121e-01   -9,430316091e-02    0,000000000e+00    0,000000000e+00    0,000000000e+00    0,000000000e+00
     1472000000    1,888914704e-01   -1,937225461e-01    1,391504705e-01   -3,549957275e-02    0,000000000e+00    0,000000000e+00    0,000000000e+00    0,000000000e+00
     1486000000    6,531871855e-02   -3,618009090e-01    1,615895629e-01    2,232464775e-02    0,000000000e+00    0,000000000e+00    0,000000000e+00    0,000000000e+00
     1500000000   -1,595637351e-01   -4,799193144e-01    2,446111888e-01    9,988249838e-02    0,000000000e+00    0,000000000e+00    0,000000000e+00    0,000000000e+00
