! NanoVNA-App
! Date: 2025-09-25 15:44:34
! Start: 100MHz Stop: 1,5GHz Points: 101
! S-Parameter data: F S11 S21 S12 S22
# Hz S RI R 50
!     Frequency           S11_Real           S11_Imag           S21_Real           S21_Imag           S12_Real           S12_Imag           S22_Real           S22_Imag
      100000000   -2,871257253e-02   -4,242536146e-03    3,739685118e-01   -7,215817571e-01    0,000000000e+00    0,000000000e+00    0,000000000e+00    0,000000000e+00
      114000000   -1,646182127e-02    1,149062067e-02   -8,902487159e-02   -8,052644730e-01    0,000000000e+00    0,000000000e+00    0,000000000e+00    0,000000000e+00
      128000000    3,490112955e-03    1,068346296e-02   -5,144449472e-01   -6,202507615e-01    0,000000000e+00    0,000000000e+00    0,000000000e+00    0,000000000e+00
      142000000    1,472145412e-02   -2,664491301e-03   -7,665230036e-01   -2,364138365e-01    0,000000000e+00    0,000000000e+00    0,000000000e+00    0,000000000e+00
      156000000    1,614185050e-02   -1,440609992e-02   -7,718995214e-01    2,233517021e-01    0,000000000e+00    0,000000000e+00    0,000000000e+00    0,000000000e+00
      170000000    1,707771234e-02   -2,244853228e-02   -5,178762078e-01    6,046261787e-01    0,000000000e+00    0,000000000e+00    0,000000000e+00    0,000000000e+00
      184000000    2,133108862e-02   -3,713825345e-02   -1,013909876e-01    7,858188748e-01    0,000000000e+00    0,000000000e+00    0,000000000e+00    0,000000000e+00
      198000000    1,326954737e-02   -6,257010251e-02    3,427565992e-01    7,119619250e-01    0,000000000e+00    0,000000000e+00    0,000000000e+00    0,000000000e+00
      212000000   -1,837498881e-02   -8,132123947e-02    6,775742173e-01    4,098696411e-01    0,000000000e+00    0,000000000e+00    0,000000000e+00    0,000000000e+00
      226000000   -6,128791720e-02   -6,922763586e-02    7,953770161e-01   -3,047451749e-02    0,000000000e+00    0,000000000e+00    0,000000000e+00    0,000000000e+00
      240000000   -8,222100139e-02   -2,581640147e-02    6,458684802e-01   -4,666328728e-01    0,000000000e+00    0,000000000e+00    0,000000000e+00    0,000000000e+00
      254000000   -6,340471655e-02    1,694779843e-02    2,760611475e-01   -7,427360415e-01    0,000000000e+00    0,000000000e+00    0,000000000e+00    0,000000000e+00
      268000000   -2,392959595e-02    2,873364836e-02   -1,777667254e-01   -7,638813853e-01    0,000000000e+00    0,000000000e+00    0,000000000e+00    0,000000000e+00
      282000000    4,164806567e-03    1,207640953e-02   -5,616666079e-01   -5,355847478e-01    0,000000000e+00    0,000000000e+00    0,000000000e+00    0,000000000e+00
      296000000    9,922193363e-03   -7,571915165e-03   -7,591893673e-01   -1,395857483e-01    0,000000000e+00    0,000000000e+00    0,000000000e+00    0,000000000e+00
      310000000    1,147543360e-02   -1,602757722e-02   -7,126274705e-01    2,969110906e-01    0,000000000e+00    0,000000000e+00    0,000000000e+00    0,000000000e+00
      324000000    1,995689049e-02   -2,662573755e-02   -4,273760021e-01    6,376933455e-01    0,000000000e+00    0,000000000e+00    0,000000000e+00    0,000000000e+00
      338000000    2,598848008e-02   -5,222671106e-02   -9,306782857e-03    7,606158853e-01    0,000000000e+00    0,000000000e+00    0,000000000e+00    0,000000000e+00
      352000000    7,200737484e-03   -8,490309119e-02    4,058302939e-01    6,386207342e-01    0,000000000e+00    0,000000000e+00    0,000000000e+00    0,000000000e+00
      366000000   -3,449194133e-02   -9,513857216e-02    6,897581220e-01    3,117221892e-01    0,000000000e+00    0,000000000e+00    0,000000000e+00    0,000000000e+00
      380000000   -7,043483108e-02   -7,124147564e-02    7,471294999e-01   -1,257043779e-01    0,000000000e+00    0,000000000e+00    0,000000000e+00    0,000000000e+00
      394000000   -7,208833098e-02   -3,274828196e-02    5,451412797e-01   -5,213037729e-01    0,000000000e+00    0,000000000e+00    0,000000000e+00    0,000000000e+00
      408000000   -4,632050171e-02   -1,647270098e-02    1,618414521e-01   -7,325985432e-01    0,000000000e+00    0,000000000e+00    0,000000000e+00    0,000000000e+00
      422000000   -2,838154137e-02   -3,208549321e-02   -2,665940821e-01   -6,950371265e-01    0,000000000e+00    0,000000000e+00    0,000000000e+00    0,000000000e+00
      436000000   -4,057665169e-02   -5,185734853e-02   -6,031596661e-01   -4,321732223e-01    0,000000000e+00    0,000000000e+00    0,000000000e+00    0,000000000e+00
      450000000   -6,700070947e-02   -4,405596107e-02   -7,398662567e-01   -2,190192603e-02    0,000000000e+00    0,000000000e+00    0,000000000e+00    0,000000000e+00
      464000000   -7,289665192e-02   -1,204731315e-02   -6,182359457e-01    3,961996436e-01    0,000000000e+00    0,000000000e+00    0,000000000e+00    0,000000000e+00
      478000000   -4,764705524e-02    1,139350701e-02   -2,827283144e-01    6,676146984e-01    0,000000000e+00    0,000000000e+00    0,000000000e+00    0,000000000e+00
      492000000   -1,574211009e-02    5,289068911e-03    1,370540559e-01    7,009246349e-01    0,000000000e+00    0,000000000e+00    0,000000000e+00    0,000000000e+00
      506000000   -2,707844367e-03   -1,565380581e-02    4,970313609e-01    5,027273297e-01    0,000000000e+00    0,000000000e+00    0,000000000e+00    0,000000000e+00
      520000000   -4,875522573e-03   -3,141513467e-02    6,869048476e-01    1,412368715e-01    0,000000000e+00    0,000000000e+00    0,000000000e+00    0,000000000e+00
      534000000   -3,721736837e-03   -3,823460639e-02    6,428654790e-01   -2,621511221e-01    0,000000000e+00    0,000000000e+00    0,000000000e+00    0,000000000e+00
      548000000    6,164187565e-03   -5,371595174e-02    3,810729086e-01   -5,661911964e-01    0,000000000e+00    0,000000000e+00    0,000000000e+00    0,000000000e+00
      562000000    3,147403477e-03   -8,988393843e-02    2,814899897e-03   -6,713835001e-01    0,000000000e+00    0,000000000e+00    0,000000000e+00    0,000000000e+00
      576000000   -3,420158103e-02   -1,241170615e-01   -3,679652214e-01   -5,575189590e-01    0,000000000e+00    0,000000000e+00    0,000000000e+00    0,000000000e+00
      590000000   -9,567701072e-02   -1,230134219e-01   -6,217011213e-01   -2,639442384e-01    0,000000000e+00    0,000000000e+00    0,000000000e+00    0,000000000e+00
      604000000   -1,389721930e-01   -7,255774736e-02   -6,638591886e-01    1,364289671e-01    0,000000000e+00    0,000000000e+00    0,000000000e+00    0,000000000e+00
      618000000   -1,294298172e-01   -9,585131891e-03   -4,636558294e-01    4,916060269e-01    0,000000000e+00    0,000000000e+00    0,000000000e+00    0,000000000e+00
      632000000   -8,495560288e-02    1,614725403e-02   -9,993572533e-02    6,627018452e-01    0,000000000e+00    0,000000000e+00    0,000000000e+00    0,000000000e+00
      646000000   -5,186528713e-02    1,111202175e-03    2,850985825e-01    5,932624936e-01    0,000000000e+00    0,000000000e+00    0,000000000e+00    0,000000000e+00
      660000000   -5,307658762e-02   -2,119757049e-02    5,651661754e-01    3,232667744e-01    0,000000000e+00    0,000000000e+00    0,000000000e+00    0,000000000e+00
      674000000   -7,014141232e-02   -1,668476127e-02    6,409685612e-01   -6,274597347e-02    0,000000000e+00    0,000000000e+00    0,000000000e+00    0,000000000e+00
      688000000   -6,714573503e-02    8,629752323e-03    4,702179134e-01   -4,232820570e-01    0,000000000e+00    0,000000000e+00    0,000000000e+00    0,000000000e+00
      702000000   -3,655757383e-02    2,671346813e-02    1,206272766e-01   -6,079406738e-01    0,000000000e+00    0,000000000e+00    0,000000000e+00    0,000000000e+00
      716000000    3,046633443e-03    1,661876217e-02   -2,600995600e-01   -5,446303487e-01    0,000000000e+00    0,000000000e+00    0,000000000e+00    0,000000000e+00
      730000000    3,628762811e-02   -1,463258639e-02   -5,216458440e-01   -2,713544667e-01    0,000000000e+00    0,000000000e+00    0,000000000e+00    0,000000000e+00
      744000000    6,190164387e-02   -6,477805227e-02   -5,606513619e-01    9,852660447e-02    0,000000000e+00    0,000000000e+00    0,000000000e+00    0,000000000e+00
      758000000    6,047444046e-02   -1,519785672e-01   -3,662088513e-01    4,004206955e-01    0,000000000e+00    0,000000000e+00    0,000000000e+00    0,000000000e+00
      772000000   -1,725209877e-02   -2,563685179e-01   -4,608228058e-02    5,089868307e-01    0,000000000e+00    0,000000000e+00    0,000000000e+00    0,000000000e+00
      786000000   -2,018334270e-01   -2,920431793e-01    2,593477070e-01    3,987874389e-01    0,000000000e+00    0,000000000e+00    0,000000000e+00    0,000000000e+00
      800000000   -4,066427946e-01   -1,274564713e-01    4,075521231e-01    1,187901646e-01    0,000000000e+00    0,000000000e+00    0,000000000e+00    0,000000000e+00
      814000000   -3,765426278e-01    2,025090307e-01    2,966654599e-01   -1,508604139e-01    0,000000000e+00    0,000000000e+00    0,000000000e+00    0,000000000e+00
      828000000   -6,341963261e-02    3,474718928e-01    8,239579201e-02   -1,907769591e-01    0,000000000e+00    0,000000000e+00    0,000000000e+00    0,000000000e+00
      842000000    2,114506811e-01    1,865779310e-01   -3,893545596e-03   -9,304460138e-02    0,000000000e+00    0,000000000e+00    0,000000000e+00    0,000000000e+00
      856000000    2,661655545e-01   -1,052344218e-01    3,542359173e-02   -3,674216568e-02    0,000000000e+00    0,000000000e+00    0,000000000e+00    0,000000000e+00
      870000000    8,319032192e-02   -3,513083756e-01    8,786196262e-02   -9,697490185e-02    0,000000000e+00    0,000000000e+00    0,000000000e+00    0,000000000e+00
      884000000   -2,679816186e-01   -3,560295105e-01    1,174821891e-02   -2,273035198e-01    0,000000000e+00    0,000000000e+00    0,000000000e+00    0,000000000e+00
      898000000   -4,586064517e-01   -1,484573260e-02   -2,147904336e-01   -2,097428143e-01    0,000000000e+00    0,000000000e+00    0,000000000e+00    0,000000000e+00
      912000000   -2,342331856e-01    2,783262432e-01   -3,394744694e-01    6,203806028e-02    0,000000000e+00    0,000000000e+00    0,000000000e+00    0,000000000e+00
      926000000    5,625626817e-02    2,613876760e-01   -2,063300461e-01    2,613528967e-01    0,000000000e+00    0,000000000e+00    0,000000000e+00    0,000000000e+00
      940000000    2,067182511e-01    8,332622796e-02   -3,028411232e-02    3,243217170e-01    0,000000000e+00    0,000000000e+00    0,000000000e+00    0,000000000e+00
      954000000    2,208352685e-01   -1,202066094e-01    1,314884424e-01    3,015061319e-01    0,000000000e+00    0,000000000e+00    0,000000000e+00    0,000000000e+00
      968000000    1,187006533e-01   -2,947406769e-01    2,687807381e-01    2,145142257e-01    0,000000000e+00    0,000000000e+00    0,000000000e+00    0,000000000e+00
      982000000   -7,973016053e-02   -3,854183853e-01    3,621304035e-01    6,325580925e-02    0,000000000e+00    0,000000000e+00    0,000000000e+00    0,000000000e+00
      996000000   -3,111220300e-01   -3,286146522e-01    3,626230061e-01   -1,432252675e-01    0,000000000e+00    0,000000000e+00    0,000000000e+00    0,000000000e+00
     1010000000   -4,579068422e-01   -1,181740984e-01    2,183183581e-01   -3,337104023e-01    0,000000000e+00    0,000000000e+00    0,000000000e+00    0,000000000e+00
     1024000000   -4,136795402e-01    1,449443251e-01   -3,249303252e-02   -3,866907358e-01    0,000000000e+00    0,000000000e+00    0,000000000e+00    0,000000000e+00
     1038000000   -2,238757312e-01    2,940819561e-01   -2,411003113e-01   -2,583335638e-01    0,000000000e+00    0,000000000e+00    0,000000000e+00    0,000000000e+00
     1052000000   -1,542467810e-02    2,838055789e-01   -3,092870116e-01   -4,833368957e-02    0,000000000e+00    0,000000000e+00    0,000000000e+00    0,000000000e+00
     1066000000    1,297502071e-01    1,674565077e-01   -2,518315315e-01    1,397417784e-01    0,000000000e+00    0,000000000e+00    0,000000000e+00    0,000000000e+00
     1080000000    1,919269264e-01    6,989392452e-03   -1,157877818e-01    2,537212968e-01    0,000000000e+00    0,000000000e+00    0,000000000e+00    0,000000000e+00
     1094000000    1,629004925e-01   -1,661580950e-01    6,072325259e-02    2,926098406e-01    0,000000000e+00    0,000000000e+00    0,000000000e+00    0,000000000e+00
     1108000000    2,099631727e-02   -2,930555344e-01    2,598443329e-01    2,349946350e-01    0,000000000e+00    0,000000000e+00    0,000000000e+00    0,000000000e+00
     1122000000   -2,115052342e-01   -2,851306796e-01    4,430942237e-01    2,283714525e-02    0,000000000e+00    0,000000000e+00    0,000000000e+00    0,000000000e+00
     1136000000   -3,211777508e-01   -2,924277447e-02    4,008527100e-01   -3,446037471e-01    0,000000000e+00    0,000000000e+00    0,000000000e+00    0,000000000e+00
     1150000000   -1,065064594e-01    1,403914094e-01    5,064820871e-02   -5,299240947e-01    0,000000000e+00    0,000000000e+00    0,000000000e+00    0,000000000e+00
     1164000000    8,712227643e-02   -1,771924272e-02   -2,495581210e-01   -4,037468433e-01    0,000000000e+00    0,000000000e+00    0,000000000e+00    0,000000000e+00
     1178000000    3,083132952e-02   -2,496970594e-01   -3,691045642e-01   -1,764811277e-01    0,000000000e+00    0,000000000e+00    0,000000000e+00    0,000000000e+00
     1192000000   -2,208796591e-01   -3,499317765e-01   -3,421742320e-01    3,934306279e-02    0,000000000e+00    0,000000000e+00    0,000000000e+00    0,000000000e+00
     1206000000   -4,772781134e-01   -1,835390329e-01   -1,863756329e-01    1,779667437e-01    0,000000000e+00    0,000000000e+00    0,000000000e+00    0,000000000e+00
     1220000000   -5,008060932e-01    1,396262199e-01   -8,943324909e-03    1,755541116e-01    0,000000000e+00    0,000000000e+00    0,000000000e+00    0,000000000e+00
     1234000000   -2,990880609e-01    3,458899260e-01    7,257272303e-02    7,346647233e-02    0,000000000e+00    0,000000000e+00    0,000000000e+00    0,000000000e+00
     1248000000   -5,658514798e-02    3,572030365e-01    7,296311855e-02    9,078475414e-04    0,000000000e+00    0,000000000e+00    0,000000000e+00    0,000000000e+00
     1262000000    1,120432690e-01    2,611216903e-01    3,167531639e-02   -2,388052084e-02    0,000000000e+00    0,000000000e+00    0,000000000e+00    0,000000000e+00
     1276000000    1,992700398e-01    1,111643910e-01    5,338055082e-03   -6,903283764e-03    0,000000000e+00    0,000000000e+00    0,000000000e+00    0,000000000e+00
     1290000000    2,206244469e-01   -6,238740310e-02    1,528723817e-02    2,313149348e-02    0,000000000e+00    0,000000000e+00    0,000000000e+00    0,000000000e+00
     1304000000    1,683710814e-01   -2,317808121e-01    6,202879176e-02    5,777790397e-02    0,000000000e+00    0,000000000e+00    0,000000000e+00    0,000000000e+00
     1318000000    2,751501836e-02   -3,639250100e-01    1,703931689e-01    2,089355513e-02    0,000000000e+00    0,000000000e+00    0,000000000e+00    0,000000000e+00
     1332000000   -1,538016051e-01   -4,003727138e-01    9,833434224e-02   -1,803082079e-01    0,000000000e+00    0,000000000e+00    0,000000000e+00    0,000000000e+00
     1346000000   -3,599068224e-01   -3,888498545e-01   -6,026760489e-02   -1,806933433e-02    0,000000000e+00    0,000000000e+00    0,000000000e+00    0,000000000e+00
     1360000000   -5,908090472e-01   -2,077398151e-01    6,257344782e-02    9,093586355e-02    0,000000000e+00    0,000000000e+00    0,000000000e+00    0,000000000e+00
     1374000000   -6,254401207e-01    1,110850871e-01    1,836550832e-01    5,929891393e-02    0,000000000e+00    0,000000000e+00    0,000000000e+00    0,000000000e+00
     1388000000   -4,694745541e-01    3,469855785e-01    2,249101400e-01   -2,617769875e-02    0,000000000e+00    0,000000000e+00    0,000000000e+00    0,000000000e+00
     1402000000   -2,465792000e-01    4,469571114e-01    2,173576802e-01   -7,974607497e-02    0,000000000e+00    0,000000000e+00    0,000000000e+00    0,000000000e+00
     1416000000   -3,573627025e-02    4,108051658e-01    1,953385025e-01   -1,097839102e-01    0,000000000e+00    0,000000000e+00    0,000000000e+00    0,000000000e+00
     1430000000    1,167194247e-01    3,046913445e-01    1,780187190e-01   -1,270114332e-01    0,000000000e+00    0,000000000e+00    0,000000000e+00    0,000000000e+00
     1444000000    2,012764364e-01    1,565203369e-01    1,577047557e-01   -1,137611493e-01    0,000000000e+00    0,000000000e+00    0,000000000e+00    0,000000000e+00
     1458000000    2,319864482e-01   -1,427137386e-02    1,526615769e-01   -9,637442976e-02    0,000000000e+00    0,000000000e+00    0,000000000e+00    0,000000000e+00
     1472000000    1,873243749e-01   -1,894149482e-01    1,525528580e-01   -3,559597954e-02    0,000000000e+00    0,000000000e+00    0,000000000e+00    0,000000000e+00
     1486000000    7,170904428e-02   -3,656528294e-01    1,680354923e-01    5,728189368e-03    0,000000000e+00    0,000000000e+00    0,000000000e+00    0,000000000e+00
     1500000000   -1,647537351e-01   -4,941523075e-01    2,225125581e-01    7,468176633e-02    0,000000000e+00    0,000000000e+00    0,000000000e+00    0,000000000e+00
