! NanoVNA-App
! Date: 2025-09-25 15:39:42
! Start: 100MHz Stop: 1,5GHz Points: 101
! S-Parameter data: F S11 S21 S12 S22
# Hz S RI R 50
!     Frequency           S11_Real           S11_Imag           S21_Real           S21_Imag           S12_Real           S12_Imag           S22_Real           S22_Imag
      100000000   -2,841146477e-02   -4,100199789e-03    3,735479116e-01   -7,213794589e-01    0,000000000e+00    0,000000000e+00    0,000000000e+00    0,000000000e+00
      114000000   -1,614892296e-02    1,160323992e-02   -8,916506916e-02   -8,048297167e-01    0,000000000e+00    0,000000000e+00    0,000000000e+00    0,000000000e+00
      128000000    3,776869271e-03    1,076882146e-02   -5,142204165e-01   -6,197894812e-01    0,000000000e+00    0,000000000e+00    0,000000000e+00    0,000000000e+00
      142000000    1,495309547e-02   -2,615146339e-03   -7,666025162e-01   -2,360884547e-01    0,000000000e+00    0,000000000e+00    0,000000000e+00    0,000000000e+00
      156000000    1,536435168e-02   -1,458276808e-02   -7,652007937e-01    2,215630114e-01    0,000000000e+00    0,000000000e+00    0,000000000e+00    0,000000000e+00
      170000000    1,740115322e-02   -2,250902727e-02   -5,177131295e-01    6,043911576e-01    0,000000000e+00    0,000000000e+00    0,000000000e+00    0,000000000e+00
      184000000    2,164608054e-02   -3,716400638e-02   -1,011745930e-01    7,854645252e-01    0,000000000e+00    0,000000000e+00    0,000000000e+00    0,000000000e+00
      198000000    1,353127509e-02   -6,257713586e-02    3,431502581e-01    7,116852999e-01    0,000000000e+00    0,000000000e+00    0,000000000e+00    0,000000000e+00
      212000000   -1,815279759e-02   -8,126285672e-02    6,778352857e-01    4,096089900e-01    0,000000000e+00    0,000000000e+00    0,000000000e+00    0,000000000e+00
      226000000   -6,108685955e-02   -6,924674660e-02    7,950833440e-01   -3,066376224e-02    0,000000000e+00    0,000000000e+00    0,000000000e+00    0,000000000e+00
      240000000   -8,189392835e-02   -2,585271001e-02    6,455281973e-01   -4,666830599e-01    0,000000000e+00    0,000000000e+00    0,000000000e+00    0,000000000e+00
      254000000   -6,305063516e-02    1,679786853e-02    2,756832242e-01   -7,422900200e-01    0,000000000e+00    0,000000000e+00    0,000000000e+00    0,000000000e+00
      268000000   -2,370592393e-02    2,856598794e-02   -1,779439896e-01   -7,634722590e-01    0,000000000e+00    0,000000000e+00    0,000000000e+00    0,000000000e+00
      282000000    4,376214929e-03    1,188607980e-02   -5,613862276e-01   -5,350874066e-01    0,000000000e+00    0,000000000e+00    0,000000000e+00    0,000000000e+00
      296000000    1,012017578e-02   -7,749940734e-03   -7,591435909e-01   -1,394875795e-01    0,000000000e+00    0,000000000e+00    0,000000000e+00    0,000000000e+00
      310000000    1,157146320e-02   -1,605876721e-02   -7,121155262e-01    2,979364097e-01    0,000000000e+00    0,000000000e+00    0,000000000e+00    0,000000000e+00
      324000000    2,048657462e-02   -2,696188353e-02   -4,271808565e-01    6,365776062e-01    0,000000000e+00    0,000000000e+00    0,000000000e+00    0,000000000e+00
      338000000    2,607462183e-02   -5,240503326e-02   -1,105033606e-02    7,590893507e-01    0,000000000e+00    0,000000000e+00    0,000000000e+00    0,000000000e+00
      352000000    7,732997648e-03   -8,505617827e-02    4,061770141e-01    6,383721232e-01    0,000000000e+00    0,000000000e+00    0,000000000e+00    0,000000000e+00
      366000000   -3,420788795e-02   -9,539586306e-02    6,891969442e-01    3,110857904e-01    0,000000000e+00    0,000000000e+00    0,000000000e+00    0,000000000e+00
      380000000   -7,007739693e-02   -7,108521461e-02    7,472091913e-01   -1,254676580e-01    0,000000000e+00    0,000000000e+00    0,000000000e+00    0,000000000e+00
      394000000   -7,217577845e-02   -3,280858696e-02    5,452396870e-01   -5,206639171e-01    0,000000000e+00    0,000000000e+00    0,000000000e+00    0,000000000e+00
      408000000   -4,622201622e-02   -1,637822390e-02    1,606023908e-01   -7,307907343e-01    0,000000000e+00    0,000000000e+00    0,000000000e+00    0,000000000e+00
      422000000   -2,800342627e-02   -3,216522187e-02   -2,668727934e-01   -6,942564249e-01    0,000000000e+00    0,000000000e+00    0,000000000e+00    0,000000000e+00
      436000000   -4,026624188e-02   -5,181214586e-02   -6,032328010e-01   -4,315981269e-01    0,000000000e+00    0,000000000e+00    0,000000000e+00    0,000000000e+00
      450000000   -6,659534574e-02   -4,413279518e-02   -7,395276427e-01   -2,187514491e-02    0,000000000e+00    0,000000000e+00    0,000000000e+00    0,000000000e+00
      464000000   -7,254430652e-02   -1,211052667e-02   -6,177652478e-01    3,970649540e-01    0,000000000e+00    0,000000000e+00    0,000000000e+00    0,000000000e+00
      478000000   -4,765148461e-02    1,084266976e-02   -2,827194333e-01    6,664401293e-01    0,000000000e+00    0,000000000e+00    0,000000000e+00    0,000000000e+00
      492000000   -1,576681063e-02    5,756052211e-03    1,366756260e-01    7,002992630e-01    0,000000000e+00    0,000000000e+00    0,000000000e+00    0,000000000e+00
      506000000   -2,211965155e-03   -1,614094526e-02    4,977569878e-01    5,018260479e-01    0,000000000e+00    0,000000000e+00    0,000000000e+00    0,000000000e+00
      520000000   -5,041744094e-03   -3,172342852e-02    6,887539625e-01    1,413092315e-01    0,000000000e+00    0,000000000e+00    0,000000000e+00    0,000000000e+00
      534000000   -3,641562536e-03   -3,788949922e-02    6,426739693e-01   -2,613564730e-01    0,000000000e+00    0,000000000e+00    0,000000000e+00    0,000000000e+00
      548000000    6,524997763e-03   -5,406027287e-02    3,817666173e-01   -5,659785271e-01    0,000000000e+00    0,000000000e+00    0,000000000e+00    0,000000000e+00
      562000000    3,497644095e-03   -8,946328610e-02    3,049255582e-03   -6,710590720e-01    0,000000000e+00    0,000000000e+00    0,000000000e+00    0,000000000e+00
      576000000   -3,345875442e-02   -1,247464195e-01   -3,674044907e-01   -5,580713153e-01    0,000000000e+00    0,000000000e+00    0,000000000e+00    0,000000000e+00
      590000000   -9,545396268e-02   -1,227444932e-01   -6,196808815e-01   -2,654568553e-01    0,000000000e+00    0,000000000e+00    0,000000000e+00    0,000000000e+00
      604000000   -1,385674179e-01   -7,274018228e-02   -6,632212400e-01    1,367400885e-01    0,000000000e+00    0,000000000e+00    0,000000000e+00    0,000000000e+00
      618000000   -1,294217408e-01   -1,050542574e-02   -4,649014473e-01    4,928251505e-01    0,000000000e+00    0,000000000e+00    0,000000000e+00    0,000000000e+00
      632000000   -8,405947685e-02    1,612805948e-02   -1,002652347e-01    6,619802117e-01    0,000000000e+00    0,000000000e+00    0,000000000e+00    0,000000000e+00
      646000000   -5,155478045e-02   -9,796101222e-05    2,852460146e-01    5,938476920e-01    0,000000000e+00    0,000000000e+00    0,000000000e+00    0,000000000e+00
      660000000   -5,322236940e-02   -2,142618038e-02    5,633401275e-01    3,228178322e-01    0,000000000e+00    0,000000000e+00    0,000000000e+00    0,000000000e+00
      674000000   -6,897247583e-02   -1,692184061e-02    6,403314471e-01   -6,305017322e-02    0,000000000e+00    0,000000000e+00    0,000000000e+00    0,000000000e+00
      688000000   -6,694023311e-02    9,554322809e-03    4,705661833e-01   -4,242417812e-01    0,000000000e+00    0,000000000e+00    0,000000000e+00    0,000000000e+00
      702000000   -3,485210612e-02    2,575598471e-02    1,206550226e-01   -6,071472168e-01    0,000000000e+00    0,000000000e+00    0,000000000e+00    0,000000000e+00
      716000000    2,960418118e-03    1,597997174e-02   -2,599620819e-01   -5,439819694e-01    0,000000000e+00    0,000000000e+00    0,000000000e+00    0,000000000e+00
      730000000    3,706005216e-02   -1,317151729e-02   -5,211586356e-01   -2,710541487e-01    0,000000000e+00    0,000000000e+00    0,000000000e+00    0,000000000e+00
      744000000    6,329240650e-02   -6,517004222e-02   -5,597041249e-01    9,879311174e-02    0,000000000e+00    0,000000000e+00    0,000000000e+00    0,000000000e+00
      758000000    6,059664115e-02   -1,526241153e-01   -3,653286994e-01    4,002341628e-01    0,000000000e+00    0,000000000e+00    0,000000000e+00    0,000000000e+00
      772000000   -1,748510264e-02   -2,565507293e-01   -4,489881545e-02    5,085766315e-01    0,000000000e+00    0,000000000e+00    0,000000000e+00    0,000000000e+00
      786000000   -2,032000870e-01   -2,910540104e-01    2,596712410e-01    3,983227611e-01    0,000000000e+00    0,000000000e+00    0,000000000e+00    0,000000000e+00
      800000000   -4,083999097e-01   -1,267263740e-01    4,068497121e-01    1,179141700e-01    0,000000000e+00    0,000000000e+00    0,000000000e+00    0,000000000e+00
      814000000   -3,761086464e-01    2,016931772e-01    2,955024838e-01   -1,510749161e-01    0,000000000e+00    0,000000000e+00    0,000000000e+00    0,000000000e+00
      828000000   -6,325566024e-02    3,468768597e-01    8,243192732e-02   -1,900085211e-01    0,000000000e+00    0,000000000e+00    0,000000000e+00    0,000000000e+00
      842000000    2,118284404e-01    1,848582178e-01   -2,766336547e-03   -9,222259372e-02    0,000000000e+00    0,000000000e+00    0,000000000e+00    0,000000000e+00
      856000000    2,652958632e-01   -1,063015908e-01    3,663485870e-02   -3,674419597e-02    0,000000000e+00    0,000000000e+00    0,000000000e+00    0,000000000e+00
      870000000    8,130881190e-02   -3,518937230e-01    8,897754550e-02   -9,826532006e-02    0,000000000e+00    0,000000000e+00    0,000000000e+00    0,000000000e+00
      884000000   -2,671300173e-01   -3,550238907e-01    1,130468864e-02   -2,286026031e-01    0,000000000e+00    0,000000000e+00    0,000000000e+00    0,000000000e+00
      898000000   -4,567098618e-01   -1,363103185e-02   -2,156443596e-01   -2,101154774e-01    0,000000000e+00    0,000000000e+00    0,000000000e+00    0,000000000e+00
      912000000   -2,358173728e-01    2,785260677e-01   -3,424287140e-01    6,683643907e-02    0,000000000e+00    0,000000000e+00    0,000000000e+00    0,000000000e+00
      926000000    5,479950830e-02    2,620731592e-01   -2,104547918e-01    2,629230618e-01    0,000000000e+00    0,000000000e+00    0,000000000e+00    0,000000000e+00
      940000000    2,110076696e-01    8,498723805e-02   -3,027435392e-02    3,263133168e-01    0,000000000e+00    0,000000000e+00    0,000000000e+00    0,000000000e+00
      954000000    2,216526419e-01   -1,198442653e-01    1,304323673e-01    3,008632064e-01    0,000000000e+00    0,000000000e+00    0,000000000e+00    0,000000000e+00
      968000000    1,187652126e-01   -2,966101766e-01    2,685994506e-01    2,140931338e-01    0,000000000e+00    0,000000000e+00    0,000000000e+00    0,000000000e+00
      982000000   -7,564459741e-02   -3,847294152e-01    3,596453071e-01    6,312150508e-02    0,000000000e+00    0,000000000e+00    0,000000000e+00    0,000000000e+00
      996000000   -3,110524118e-01   -3,282297552e-01    3,621757030e-01   -1,426416636e-01    0,000000000e+00    0,000000000e+00    0,000000000e+00    0,000000000e+00
     1010000000   -4,574421942e-01   -1,179755926e-01    2,205334455e-01   -3,362983763e-01    0,000000000e+00    0,000000000e+00    0,000000000e+00    0,000000000e+00
     1024000000   -4,185906053e-01    1,422431767e-01   -3,350732103e-02   -3,850736320e-01    0,000000000e+00    0,000000000e+00    0,000000000e+00    0,000000000e+00
     1038000000   -2,241149098e-01    2,853759527e-01   -2,415281236e-01   -2,551648319e-01    0,000000000e+00    0,000000000e+00    0,000000000e+00    0,000000000e+00
     1052000000   -1,333723031e-02    2,779172063e-01   -3,100224435e-01   -4,638423398e-02    0,000000000e+00    0,000000000e+00    0,000000000e+00    0,000000000e+00
     1066000000    1,351629645e-01    1,689676046e-01   -2,486698031e-01    1,380859613e-01    0,000000000e+00    0,000000000e+00    0,000000000e+00    0,000000000e+00
     1080000000    1,938102394e-01    9,011580609e-03   -1,148502082e-01    2,530297041e-01    0,000000000e+00    0,000000000e+00    0,000000000e+00    0,000000000e+00
     1094000000    1,616239250e-01   -1,641575843e-01    6,026540324e-02    2,921026051e-01    0,000000000e+00    0,000000000e+00    0,000000000e+00    0,000000000e+00
     1108000000    2,124343440e-02   -2,950234115e-01    2,588860691e-01    2,334482521e-01    0,000000000e+00    0,000000000e+00    0,000000000e+00    0,000000000e+00
     1122000000   -2,148845941e-01   -2,787529230e-01    4,389743209e-01    2,481517382e-02    0,000000000e+00    0,000000000e+00    0,000000000e+00    0,000000000e+00
     1136000000   -3,285689950e-01   -2,770014666e-02    4,010019898e-01   -3,447155058e-01    0,000000000e+00    0,000000000e+00    0,000000000e+00    0,000000000e+00
     1150000000   -1,087243333e-01    1,404209584e-01    4,802178591e-02   -5,301904678e-01    0,000000000e+00    0,000000000e+00    0,000000000e+00    0,000000000e+00
     1164000000    8,191148192e-02   -2,087457664e-02   -2,533215284e-01   -4,042931497e-01    0,000000000e+00    0,000000000e+00    0,000000000e+00    0,000000000e+00
     1178000000    2,763989940e-02   -2,506658733e-01   -3,702560663e-01   -1,792227924e-01    0,000000000e+00    0,000000000e+00    0,000000000e+00    0,000000000e+00
     1192000000   -2,217206061e-01   -3,485779762e-01   -3,385156095e-01    3,929539397e-02    0,000000000e+00    0,000000000e+00    0,000000000e+00    0,000000000e+00
     1206000000   -4,836262763e-01   -1,797672361e-01   -1,905975193e-01    1,801288426e-01    0,000000000e+00    0,000000000e+00    0,000000000e+00    0,000000000e+00
     1220000000   -4,989831746e-01    1,409615278e-01   -1,276759245e-02    1,763920337e-01    0,000000000e+00    0,000000000e+00    0,000000000e+00    0,000000000e+00
     1234000000   -3,029067218e-01    3,467095196e-01    7,240312546e-02    8,146943152e-02    0,000000000e+00    0,000000000e+00    0,000000000e+00    0,000000000e+00
     1248000000   -6,834898889e-02    3,598263562e-01    6,220918894e-02    9,325479623e-04    0,000000000e+00    0,000000000e+00    0,000000000e+00    0,000000000e+00
     1262000000    1,107335761e-01    2,549919188e-01    2,953273803e-02   -2,469517849e-02    0,000000000e+00    0,000000000e+00    0,000000000e+00    0,000000000e+00
     1276000000    2,003982663e-01    1,106237173e-01    2,188060433e-03   -2,879981184e-03    0,000000000e+00    0,000000000e+00    0,000000000e+00    0,000000000e+00
     1290000000    2,195501179e-01   -6,199195981e-02    1,358949579e-02    3,143045679e-02    0,000000000e+00    0,000000000e+00    0,000000000e+00    0,000000000e+00
     1304000000    1,623497903e-01   -2,319330126e-01    5,991331488e-02    6,108817458e-02    0,000000000e+00    0,000000000e+00    0,000000000e+00    0,000000000e+00
     1318000000    2,462513931e-02   -3,640743792e-01    1,747882366e-01    1,486537233e-02    0,000000000e+00    0,000000000e+00    0,000000000e+00    0,000000000e+00
     1332000000   -1,569998711e-01   -3,994356096e-01    9,267002344e-02   -1,809776127e-01    0,000000000e+00    0,000000000e+00    0,000000000e+00    0,000000000e+00
     1346000000   -3,638509214e-01   -3,991723657e-01   -5,893947557e-02   -2,409691922e-02    0,000000000e+00    0,000000000e+00    0,000000000e+00    0,000000000e+00
     1360000000   -5,889529586e-01   -2,050424069e-01    5,906521156e-02    8,621703833e-02    0,000000000e+00    0,000000000e+00    0,000000000e+00    0,000000000e+00
     1374000000   -6,271845102e-01    1,018378511e-01    1,731304377e-01    4,808380827e-02    0,000000000e+00    0,000000000e+00    0,000000000e+00    0,000000000e+00
     1388000000   -4,691390693e-01    3,560567796e-01    2,165243179e-01   -2,184748277e-02    0,000000000e+00    0,000000000e+00    0,000000000e+00    0,000000000e+00
     1402000000   -2,521985173e-01    4,429561496e-01    2,011907697e-01   -8,541116118e-02    0,000000000e+00    0,000000000e+00    0,000000000e+00    0,000000000e+00
     1416000000   -3,672452271e-02    4,090723097e-01    1,954028010e-01   -1,084705889e-01    0,000000000e+00    0,000000000e+00    0,000000000e+00    0,000000000e+00
     1430000000    1,106425673e-01    3,112962246e-01    1,723477840e-01   -1,009960175e-01    0,000000000e+00    0,000000000e+00    0,000000000e+00    0,000000000e+00
     1444000000    2,006956041e-01    1,567573100e-01    1,657008380e-01   -9,864179045e-02    0,000000000e+00    0,000000000e+00    0,000000000e+00    0,000000000e+00
     1458000000    2,336042523e-01   -1,529475581e-02    1,606858969e-01   -8,976435661e-02    0,000000000e+00    0,000000000e+00    0,000000000e+00    0,000000000e+00
     1472000000    1,883688122e-01   -1,912960112e-01    1,459746063e-01   -4,061773792e-02    0,000000000e+00    0,000000000e+00    0,000000000e+00    0,000000000e+00
     1486000000    5,946287513e-02   -3,670982122e-01    1,525731981e-01    2,243298478e-02    0,000000000e+00    0,000000000e+00    0,000000000e+00    0,000000000e+00
     1500000000   -1,551768333e-01   -4,800472260e-01    2,334331572e-01    9,570267051e-02    0,000000000e+00    0,000000000e+00    0,000000000e+00    0,000000000e+00
