! NanoVNA-App
! Date: 2025-09-25 15:42:50
! Start: 100MHz Stop: 1,5GHz Points: 101
! S-Parameter data: F S11 S21 S12 S22
# Hz S RI R 50
!     Frequency           S11_Real           S11_Imag           S21_Real           S21_Imag           S12_Real           S12_Imag           S22_Real           S22_Imag
      100000000   -2,876891382e-02   -4,237773363e-03    3,739660382e-01   -7,215990424e-01    0,000000000e+00    0,000000000e+00    0,000000000e+00    0,000000000e+00
      114000000   -1,653105766e-02    1,148498617e-02   -8,891294152e-02   -8,052110076e-01    0,000000000e+00    0,000000000e+00    0,000000000e+00    0,000000000e+00
      128000000    3,423824674e-03    1,069094520e-02   -5,143010616e-01   -6,202875376e-01    0,000000000e+00    0,000000000e+00    0,000000000e+00    0,000000000e+00
      142000000    1,464307308e-02   -2,647678135e-03   -7,669615149e-01   -2,366122752e-01    0,000000000e+00    0,000000000e+00    0,000000000e+00    0,000000000e+00
      156000000    1,505245268e-02   -1,469221525e-02   -7,663338184e-01    2,182280123e-01    0,000000000e+00    0,000000000e+00    0,000000000e+00    0,000000000e+00
      170000000    1,707685180e-02   -2,245251089e-02   -5,179147124e-01    6,044152379e-01    0,000000000e+00    0,000000000e+00    0,000000000e+00    0,000000000e+00
      184000000    2,130325511e-02   -3,715777397e-02   -1,014341787e-01    7,858991027e-01    0,000000000e+00    0,000000000e+00    0,000000000e+00    0,000000000e+00
      198000000    1,321861334e-02   -6,256076694e-02    3,431095779e-01    7,121188641e-01    0,000000000e+00    0,000000000e+00    0,000000000e+00    0,000000000e+00
      212000000   -1,842403971e-02   -8,130466193e-02    6,777971983e-01    4,095874131e-01    0,000000000e+00    0,000000000e+00    0,000000000e+00    0,000000000e+00
      226000000   -6,140317395e-02   -6,922374666e-02    7,955288291e-01   -3,043664061e-02    0,000000000e+00    0,000000000e+00    0,000000000e+00    0,000000000e+00
      240000000   -8,223785460e-02   -2,577432990e-02    6,459986567e-01   -4,670340121e-01    0,000000000e+00    0,000000000e+00    0,000000000e+00    0,000000000e+00
      254000000   -6,342031062e-02    1,695799828e-02    2,761203945e-01   -7,426337004e-01    0,000000000e+00    0,000000000e+00    0,000000000e+00    0,000000000e+00
      268000000   -2,395877242e-02    2,879001014e-02   -1,778224856e-01   -7,640392780e-01    0,000000000e+00    0,000000000e+00    0,000000000e+00    0,000000000e+00
      282000000    4,130045418e-03    1,207546797e-02   -5,616654754e-01   -5,355677009e-01    0,000000000e+00    0,000000000e+00    0,000000000e+00    0,000000000e+00
      296000000    9,835138917e-03   -7,454266772e-03   -7,594004869e-01   -1,396453679e-01    0,000000000e+00    0,000000000e+00    0,000000000e+00    0,000000000e+00
      310000000    1,158442069e-02   -1,624086499e-02   -7,108793855e-01    2,974306643e-01    0,000000000e+00    0,000000000e+00    0,000000000e+00    0,000000000e+00
      324000000    1,998202875e-02   -2,672943287e-02   -4,274942279e-01    6,371673346e-01    0,000000000e+00    0,000000000e+00    0,000000000e+00    0,000000000e+00
      338000000    2,580661140e-02   -5,217869952e-02   -1,029291004e-02    7,596755028e-01    0,000000000e+00    0,000000000e+00    0,000000000e+00    0,000000000e+00
      352000000    7,470266894e-03   -8,452627063e-02    4,059558809e-01    6,401086450e-01    0,000000000e+00    0,000000000e+00    0,000000000e+00    0,000000000e+00
      366000000   -3,433416784e-02   -9,540560842e-02    6,899812222e-01    3,110105395e-01    0,000000000e+00    0,000000000e+00    0,000000000e+00    0,000000000e+00
      380000000   -7,042968273e-02   -7,111552358e-02    7,469164133e-01   -1,256169528e-01    0,000000000e+00    0,000000000e+00    0,000000000e+00    0,000000000e+00
      394000000   -7,230692357e-02   -3,250703588e-02    5,460725427e-01   -5,198011994e-01    0,000000000e+00    0,000000000e+00    0,000000000e+00    0,000000000e+00
      408000000   -4,645754769e-02   -1,639734022e-02    1,613966227e-01   -7,318056226e-01    0,000000000e+00    0,000000000e+00    0,000000000e+00    0,000000000e+00
      422000000   -2,828761190e-02   -3,211227804e-02   -2,674129605e-01   -6,941948533e-01    0,000000000e+00    0,000000000e+00    0,000000000e+00    0,000000000e+00
      436000000   -4,055469111e-02   -5,174948275e-02   -6,039685607e-01   -4,316025376e-01    0,000000000e+00    0,000000000e+00    0,000000000e+00    0,000000000e+00
      450000000   -6,728877872e-02   -4,381052032e-02   -7,401978374e-01   -2,197743393e-02    0,000000000e+00    0,000000000e+00    0,000000000e+00    0,000000000e+00
      464000000   -7,294639200e-02   -1,215174235e-02   -6,183769703e-01    3,964307010e-01    0,000000000e+00    0,000000000e+00    0,000000000e+00    0,000000000e+00
      478000000   -4,747018218e-02    1,090500597e-02   -2,820974290e-01    6,672422290e-01    0,000000000e+00    0,000000000e+00    0,000000000e+00    0,000000000e+00
      492000000   -1,578095183e-02    5,622338038e-03    1,368202120e-01    7,009728551e-01    0,000000000e+00    0,000000000e+00    0,000000000e+00    0,000000000e+00
      506000000   -2,382401377e-03   -1,574232429e-02    4,977898002e-01    5,028579831e-01    0,000000000e+00    0,000000000e+00    0,000000000e+00    0,000000000e+00
      520000000   -4,829818849e-03   -3,170676157e-02    6,893022656e-01    1,422706246e-01    0,000000000e+00    0,000000000e+00    0,000000000e+00    0,000000000e+00
      534000000   -3,812236246e-03   -3,778825328e-02    6,426088214e-01   -2,616788745e-01    0,000000000e+00    0,000000000e+00    0,000000000e+00    0,000000000e+00
      548000000    6,206076592e-03   -5,387814716e-02    3,809019029e-01   -5,663626790e-01    0,000000000e+00    0,000000000e+00    0,000000000e+00    0,000000000e+00
      562000000    3,265294479e-03   -8,958162367e-02    2,521572635e-03   -6,722961664e-01    0,000000000e+00    0,000000000e+00    0,000000000e+00    0,000000000e+00
      576000000   -3,325745463e-02   -1,244965717e-01   -3,683879972e-01   -5,573310256e-01    0,000000000e+00    0,000000000e+00    0,000000000e+00    0,000000000e+00
      590000000   -9,566725045e-02   -1,226230711e-01   -6,182785034e-01   -2,629983723e-01    0,000000000e+00    0,000000000e+00    0,000000000e+00    0,000000000e+00
      604000000   -1,389084160e-01   -7,205822319e-02   -6,635212898e-01    1,369702518e-01    0,000000000e+00    0,000000000e+00    0,000000000e+00    0,000000000e+00
      618000000   -1,294165552e-01   -1,034486014e-02   -4,645191431e-01    4,926182032e-01    0,000000000e+00    0,000000000e+00    0,000000000e+00    0,000000000e+00
      632000000   -8,500892669e-02    1,621730812e-02   -1,014150381e-01    6,618772745e-01    0,000000000e+00    0,000000000e+00    0,000000000e+00    0,000000000e+00
      646000000   -5,138162524e-02    8,836630732e-04    2,861632407e-01    5,956895947e-01    0,000000000e+00    0,000000000e+00    0,000000000e+00    0,000000000e+00
      660000000   -5,378399044e-02   -2,029349096e-02    5,651324987e-01    3,243128359e-01    0,000000000e+00    0,000000000e+00    0,000000000e+00    0,000000000e+00
      674000000   -6,906347722e-02   -1,668147556e-02    6,405010223e-01   -6,324265897e-02    0,000000000e+00    0,000000000e+00    0,000000000e+00    0,000000000e+00
      688000000   -6,747899204e-02    8,940112777e-03    4,710958004e-01   -4,238479733e-01    0,000000000e+00    0,000000000e+00    0,000000000e+00    0,000000000e+00
      702000000   -3,563744947e-02    2,537160553e-02    1,196289510e-01   -6,073671579e-01    0,000000000e+00    0,000000000e+00    0,000000000e+00    0,000000000e+00
      716000000    4,112226889e-03    1,585430093e-02   -2,598485351e-01   -5,450586677e-01    0,000000000e+00    0,000000000e+00    0,000000000e+00    0,000000000e+00
      730000000    3,740816191e-02   -1,353594288e-02   -5,221341252e-01   -2,713637948e-01    0,000000000e+00    0,000000000e+00    0,000000000e+00    0,000000000e+00
      744000000    6,260458380e-02   -6,473881006e-02   -5,603935122e-01    9,861100465e-02    0,000000000e+00    0,000000000e+00    0,000000000e+00    0,000000000e+00
      758000000    6,076953933e-02   -1,511728317e-01   -3,664693236e-01    4,008493721e-01    0,000000000e+00    0,000000000e+00    0,000000000e+00    0,000000000e+00
      772000000   -1,721956022e-02   -2,560457885e-01   -4,475293308e-02    5,086150765e-01    0,000000000e+00    0,000000000e+00    0,000000000e+00    0,000000000e+00
      786000000   -2,028592229e-01   -2,910980284e-01    2,591019571e-01    3,993308544e-01    0,000000000e+00    0,000000000e+00    0,000000000e+00    0,000000000e+00
      800000000   -4,067178369e-01   -1,274797767e-01    4,071404040e-01    1,184875220e-01    0,000000000e+00    0,000000000e+00    0,000000000e+00    0,000000000e+00
      814000000   -3,758625984e-01    2,014502138e-01    2,965340018e-01   -1,510262638e-01    0,000000000e+00    0,000000000e+00    0,000000000e+00    0,000000000e+00
      828000000   -6,150628999e-02    3,473203182e-01    8,273168653e-02   -1,909085810e-01    0,000000000e+00    0,000000000e+00    0,000000000e+00    0,000000000e+00
      842000000    2,115670890e-01    1,855203807e-01   -3,825369757e-03   -9,346651286e-02    0,000000000e+00    0,000000000e+00    0,000000000e+00    0,000000000e+00
      856000000    2,663054466e-01   -1,055915728e-01    3,621134162e-02   -3,703295439e-02    0,000000000e+00    0,000000000e+00    0,000000000e+00    0,000000000e+00
      870000000    8,170130104e-02   -3,517091870e-01    8,855096251e-02   -9,715925902e-02    0,000000000e+00    0,000000000e+00    0,000000000e+00    0,000000000e+00
      884000000   -2,669953108e-01   -3,558152020e-01    1,233878918e-02   -2,281454504e-01    0,000000000e+00    0,000000000e+00    0,000000000e+00    0,000000000e+00
      898000000   -4,581762850e-01   -1,413479168e-02   -2,153650969e-01   -2,097199261e-01    0,000000000e+00    0,000000000e+00    0,000000000e+00    0,000000000e+00
      912000000   -2,360839397e-01    2,786932886e-01   -3,260457218e-01    6,832597405e-02    0,000000000e+00    0,000000000e+00    0,000000000e+00    0,000000000e+00
      926000000    5,527963862e-02    2,616074979e-01   -2,101917416e-01    2,618741691e-01    0,000000000e+00    0,000000000e+00    0,000000000e+00    0,000000000e+00
      940000000    2,096220851e-01    8,338978887e-02   -3,125099093e-02    3,239321411e-01    0,000000000e+00    0,000000000e+00    0,000000000e+00    0,000000000e+00
      954000000    2,189550549e-01   -1,213815659e-01    1,309643090e-01    3,015044630e-01    0,000000000e+00    0,000000000e+00    0,000000000e+00    0,000000000e+00
      968000000    1,194424927e-01   -2,943683863e-01    2,689902782e-01    2,148953825e-01    0,000000000e+00    0,000000000e+00    0,000000000e+00    0,000000000e+00
      982000000   -7,601455599e-02   -3,836603761e-01    3,610862494e-01    6,139611453e-02    0,000000000e+00    0,000000000e+00    0,000000000e+00    0,000000000e+00
      996000000   -3,122636676e-01   -3,340537250e-01    3,630805612e-01   -1,434278041e-01    0,000000000e+00    0,000000000e+00    0,000000000e+00    0,000000000e+00
     1010000000   -4,569865763e-01   -1,171770170e-01    2,190220356e-01   -3,354241252e-01    0,000000000e+00    0,000000000e+00    0,000000000e+00    0,000000000e+00
     1024000000   -4,132685363e-01    1,454253048e-01   -3,166068718e-02   -3,871887624e-01    0,000000000e+00    0,000000000e+00    0,000000000e+00    0,000000000e+00
     1038000000   -2,239806503e-01    2,862482965e-01   -2,418743521e-01   -2,571311295e-01    0,000000000e+00    0,000000000e+00    0,000000000e+00    0,000000000e+00
     1052000000   -1,144783385e-02    2,786570191e-01   -3,101375699e-01   -4,855534807e-02    0,000000000e+00    0,000000000e+00    0,000000000e+00    0,000000000e+00
     1066000000    1,295577288e-01    1,689545810e-01   -2,505535483e-01    1,413292289e-01    0,000000000e+00    0,000000000e+00    0,000000000e+00    0,000000000e+00
     1080000000    1,934053153e-01    1,068465691e-02   -1,161229610e-01    2,539969683e-01    0,000000000e+00    0,000000000e+00    0,000000000e+00    0,000000000e+00
     1094000000    1,585958004e-01   -1,618117094e-01    6,150067598e-02    2,911886275e-01    0,000000000e+00    0,000000000e+00    0,000000000e+00    0,000000000e+00
     1108000000    1,579848863e-02   -2,973708212e-01    2,622667253e-01    2,337354720e-01    0,000000000e+00    0,000000000e+00    0,000000000e+00    0,000000000e+00
     1122000000   -2,115738094e-01   -2,785956860e-01    4,369854033e-01    2,540119365e-02    0,000000000e+00    0,000000000e+00    0,000000000e+00    0,000000000e+00
     1136000000   -3,284678459e-01   -2,473439090e-02    4,004664719e-01   -3,435600102e-01    0,000000000e+00    0,000000000e+00    0,000000000e+00    0,000000000e+00
     1150000000   -1,090982854e-01    1,363237500e-01    4,646215215e-02   -5,360689163e-01    0,000000000e+00    0,000000000e+00    0,000000000e+00    0,000000000e+00
     1164000000    8,471506834e-02   -1,361461263e-02   -2,510653734e-01   -4,006217718e-01    0,000000000e+00    0,000000000e+00    0,000000000e+00    0,000000000e+00
     1178000000    3,130417317e-02   -2,550345659e-01   -3,682240844e-01   -1,789327413e-01    0,000000000e+00    0,000000000e+00    0,000000000e+00    0,000000000e+00
     1192000000   -2,175057679e-01   -3,447100222e-01   -3,396040797e-01    4,064422846e-02    0,000000000e+00    0,000000000e+00    0,000000000e+00    0,000000000e+00
     1206000000   -4,830237329e-01   -1,845815331e-01   -1,890040040e-01    1,839514077e-01    0,000000000e+00    0,000000000e+00    0,000000000e+00    0,000000000e+00
     1220000000   -5,009729862e-01    1,409017742e-01   -9,529845789e-03    1,789654195e-01    0,000000000e+00    0,000000000e+00    0,000000000e+00    0,000000000e+00
     1234000000   -2,949604392e-01    3,415893018e-01    7,381868362e-02    7,739992440e-02    0,000000000e+00    0,000000000e+00    0,000000000e+00    0,000000000e+00
     1248000000   -5,946584046e-02    3,614102304e-01    6,449007988e-02    1,628978178e-03    0,000000000e+00    0,000000000e+00    0,000000000e+00    0,000000000e+00
     1262000000    1,057811826e-01    2,623662055e-01    2,819082327e-02   -2,116787806e-02    0,000000000e+00    0,000000000e+00    0,000000000e+00    0,000000000e+00
     1276000000    2,051200271e-01    1,108810529e-01    9,670206346e-03   -9,878667071e-03    0,000000000e+00    0,000000000e+00    0,000000000e+00    0,000000000e+00
     1290000000    2,221592665e-01   -6,466075778e-02    1,087987330e-02    2,299944311e-02    0,000000000e+00    0,000000000e+00    0,000000000e+00    0,000000000e+00
     1304000000    1,643360555e-01   -2,298037857e-01    5,657424033e-02    6,575448066e-02    0,000000000e+00    0,000000000e+00    0,000000000e+00    0,000000000e+00
     1318000000    2,407307364e-02   -3,668252528e-01    1,698724478e-01    1,984760910e-02    0,000000000e+00    0,000000000e+00    0,000000000e+00    0,000000000e+00
     1332000000   -1,511184424e-01   -3,999135792e-01    1,036431044e-01   -1,802491248e-01    0,000000000e+00    0,000000000e+00    0,000000000e+00    0,000000000e+00
     1346000000   -3,624681234e-01   -3,847691119e-01   -6,279364228e-02   -2,111109160e-02    0,000000000e+00    0,000000000e+00    0,000000000e+00    0,000000000e+00
     1360000000   -5,893222690e-01   -2,007220536e-01    5,509850383e-02    8,600531518e-02    0,000000000e+00    0,000000000e+00    0,000000000e+00    0,000000000e+00
     1374000000   -6,236473322e-01    1,005800739e-01    1,759572178e-01    4,178551584e-02    0,000000000e+00    0,000000000e+00    0,000000000e+00    0,000000000e+00
     1388000000   -4,688758254e-01    3,474090397e-01    2,267336845e-01   -2,940624952e-02    0,000000000e+00    0,000000000e+00    0,000000000e+00    0,000000000e+00
     1402000000   -2,381268293e-01    4,488228858e-01    2,234902680e-01   -7,666359842e-02    0,000000000e+00    0,000000000e+00    0,000000000e+00    0,000000000e+00
     1416000000   -3,671342507e-02    4,127857089e-01    1,909726113e-01   -1,082958207e-01    0,000000000e+00    0,000000000e+00    0,000000000e+00    0,000000000e+00
     1430000000    1,142280102e-01    3,012017012e-01    1,850696057e-01   -8,968206495e-02    0,000000000e+00    0,000000000e+00    0,000000000e+00    0,000000000e+00
     1444000000    2,023614049e-01    1,586861163e-01    1,710911244e-01   -1,025576517e-01    0,000000000e+00    0,000000000e+00    0,000000000e+00    0,000000000e+00
     1458000000    2,320117950e-01   -1,551634911e-02    1,543464959e-01   -9,175116569e-02    0,000000000e+00    0,000000000e+00    0,000000000e+00    0,000000000e+00
     1472000000    1,938615143e-01   -1,933020502e-01    1,484621018e-01   -4,232700169e-02    0,000000000e+00    0,000000000e+00    0,000000000e+00    0,000000000e+00
     1486000000    6,431654841e-02   -3,642412722e-01    1,582331657e-01    2,939527482e-02    0,000000000e+00    0,000000000e+00    0,000000000e+00    0,000000000e+00
     1500000000   -1,549012363e-01   -4,945568740e-01    2,319220155e-01    8,704572171e-02    0,000000000e+00    0,000000000e+00    0,000000000e+00    0,000000000e+00
