! NanoVNA-App
! Date: 2025-09-25 15:42:29
! Start: 100MHz Stop: 1,5GHz Points: 101
! S-Parameter data: F S11 S21 S12 S22
# Hz S RI R 50
!     Frequency           S11_Real           S11_Imag           S21_Real           S21_Imag           S12_Real           S12_Imag           S22_Real           S22_Imag
      100000000   -2,875879779e-02   -4,254305735e-03    3,739741147e-01   -7,215566635e-01    0,000000000e+00    0,000000000e+00    0,000000000e+00    0,000000000e+00
      114000000   -1,654935069e-02    1,149835624e-02   -8,906563371e-02   -8,052449822e-01    0,000000000e+00    0,000000000e+00    0,000000000e+00    0,000000000e+00
      128000000    3,441914218e-03    1,066767052e-02   -5,144926310e-01   -6,204131246e-01    0,000000000e+00    0,000000000e+00    0,000000000e+00    0,000000000e+00
      142000000    1,463679783e-02   -2,649473259e-03   -7,669525743e-01   -2,364408672e-01    0,000000000e+00    0,000000000e+00    0,000000000e+00    0,000000000e+00
      156000000    1,477870159e-02   -1,456029620e-02   -7,643637061e-01    2,180926800e-01    0,000000000e+00    0,000000000e+00    0,000000000e+00    0,000000000e+00
      170000000    1,706826501e-02   -2,240810543e-02   -5,178680420e-01    6,043946743e-01    0,000000000e+00    0,000000000e+00    0,000000000e+00    0,000000000e+00
      184000000    2,135722153e-02   -3,718476370e-02   -1,015649363e-01    7,861280441e-01    0,000000000e+00    0,000000000e+00    0,000000000e+00    0,000000000e+00
      198000000    1,319066808e-02   -6,249569356e-02    3,432670534e-01    7,120745778e-01    0,000000000e+00    0,000000000e+00    0,000000000e+00    0,000000000e+00
      212000000   -1,846673712e-02   -8,129984885e-02    6,780034304e-01    4,098281264e-01    0,000000000e+00    0,000000000e+00    0,000000000e+00    0,000000000e+00
      226000000   -6,134309992e-02   -6,924879551e-02    7,953501940e-01   -3,039283119e-02    0,000000000e+00    0,000000000e+00    0,000000000e+00    0,000000000e+00
      240000000   -8,224353194e-02   -2,582660690e-02    6,458231807e-01   -4,667237103e-01    0,000000000e+00    0,000000000e+00    0,000000000e+00    0,000000000e+00
      254000000   -6,342141330e-02    1,696018875e-02    2,764017582e-01   -7,432708144e-01    0,000000000e+00    0,000000000e+00    0,000000000e+00    0,000000000e+00
      268000000   -2,396102250e-02    2,874252014e-02   -1,775317192e-01   -7,641432881e-01    0,000000000e+00    0,000000000e+00    0,000000000e+00    0,000000000e+00
      282000000    4,026609007e-03    1,213239692e-02   -5,619171858e-01   -5,353886485e-01    0,000000000e+00    0,000000000e+00    0,000000000e+00    0,000000000e+00
      296000000    9,905657731e-03   -7,537671365e-03   -7,595136166e-01   -1,396402866e-01    0,000000000e+00    0,000000000e+00    0,000000000e+00    0,000000000e+00
      310000000    1,158859208e-02   -1,612233557e-02   -7,123633027e-01    2,992655635e-01    0,000000000e+00    0,000000000e+00    0,000000000e+00    0,000000000e+00
      324000000    2,023071796e-02   -2,661160007e-02   -4,268956482e-01    6,368910670e-01    0,000000000e+00    0,000000000e+00    0,000000000e+00    0,000000000e+00
      338000000    2,577830851e-02   -5,224749818e-02   -7,001249120e-03    7,601806521e-01    0,000000000e+00    0,000000000e+00    0,000000000e+00    0,000000000e+00
      352000000    7,312329952e-03   -8,485212922e-02    4,061734378e-01    6,388954520e-01    0,000000000e+00    0,000000000e+00    0,000000000e+00    0,000000000e+00
      366000000   -3,454349935e-02   -9,578500688e-02    6,903179884e-01    3,111113012e-01    0,000000000e+00    0,000000000e+00    0,000000000e+00    0,000000000e+00
      380000000   -7,040200382e-02   -7,103009522e-02    7,470259666e-01   -1,258482933e-01    0,000000000e+00    0,000000000e+00    0,000000000e+00    0,000000000e+00
      394000000   -7,235965133e-02   -3,242292255e-02    5,462523103e-01   -5,219319463e-01    0,000000000e+00    0,000000000e+00    0,000000000e+00    0,000000000e+00
      408000000   -4,648578539e-02   -1,639209315e-02    1,607726216e-01   -7,317039967e-01    0,000000000e+00    0,000000000e+00    0,000000000e+00    0,000000000e+00
      422000000   -2,850387245e-02   -3,206305951e-02   -2,683283985e-01   -6,951165795e-01    0,000000000e+00    0,000000000e+00    0,000000000e+00    0,000000000e+00
      436000000   -4,054608941e-02   -5,167944729e-02   -6,034753919e-01   -4,320726693e-01    0,000000000e+00    0,000000000e+00    0,000000000e+00    0,000000000e+00
      450000000   -6,687491387e-02   -4,390069097e-02   -7,397224903e-01   -2,206461877e-02    0,000000000e+00    0,000000000e+00    0,000000000e+00    0,000000000e+00
      464000000   -7,313767821e-02   -1,197744068e-02   -6,182252765e-01    3,968055844e-01    0,000000000e+00    0,000000000e+00    0,000000000e+00    0,000000000e+00
      478000000   -4,745595157e-02    1,169069111e-02   -2,818315029e-01    6,675564051e-01    0,000000000e+00    0,000000000e+00    0,000000000e+00    0,000000000e+00
      492000000   -1,573351771e-02    5,524418782e-03    1,371413618e-01    7,014829516e-01    0,000000000e+00    0,000000000e+00    0,000000000e+00    0,000000000e+00
      506000000   -2,994447015e-03   -1,555765700e-02    4,974211156e-01    5,021061301e-01    0,000000000e+00    0,000000000e+00    0,000000000e+00    0,000000000e+00
      520000000   -5,164945032e-03   -3,155343607e-02    6,867118478e-01    1,409418136e-01    0,000000000e+00    0,000000000e+00    0,000000000e+00    0,000000000e+00
      534000000   -3,452562960e-03   -3,828148171e-02    6,435395479e-01   -2,624825537e-01    0,000000000e+00    0,000000000e+00    0,000000000e+00    0,000000000e+00
      548000000    6,087959744e-03   -5,380735546e-02    3,816066384e-01   -5,662276745e-01    0,000000000e+00    0,000000000e+00    0,000000000e+00    0,000000000e+00
      562000000    3,377906047e-03   -8,964923769e-02    2,977753058e-03   -6,709511280e-01    0,000000000e+00    0,000000000e+00    0,000000000e+00    0,000000000e+00
      576000000   -3,367868066e-02   -1,246369109e-01   -3,677126467e-01   -5,573778152e-01    0,000000000e+00    0,000000000e+00    0,000000000e+00    0,000000000e+00
      590000000   -9,582364559e-02   -1,226868778e-01   -6,203190684e-01   -2,625711262e-01    0,000000000e+00    0,000000000e+00    0,000000000e+00    0,000000000e+00
      604000000   -1,387621462e-01   -7,238879055e-02   -6,638345718e-01    1,362635791e-01    0,000000000e+00    0,000000000e+00    0,000000000e+00    0,000000000e+00
      618000000   -1,287868917e-01   -9,818556719e-03   -4,645789862e-01    4,931718409e-01    0,000000000e+00    0,000000000e+00    0,000000000e+00    0,000000000e+00
      632000000   -8,489286155e-02    1,571935974e-02   -1,002693325e-01    6,624407768e-01    0,000000000e+00    0,000000000e+00    0,000000000e+00    0,000000000e+00
      646000000   -5,224467814e-02    1,176980906e-03    2,857556343e-01    5,930888653e-01    0,000000000e+00    0,000000000e+00    0,000000000e+00    0,000000000e+00
      660000000   -5,400655046e-02   -2,066768333e-02    5,654354095e-01    3,232155740e-01    0,000000000e+00    0,000000000e+00    0,000000000e+00    0,000000000e+00
      674000000   -7,001003623e-02   -1,719317958e-02    6,409988403e-01   -6,305389106e-02    0,000000000e+00    0,000000000e+00    0,000000000e+00    0,000000000e+00
      688000000   -6,650972366e-02    8,921041153e-03    4,705184102e-01   -4,241105318e-01    0,000000000e+00    0,000000000e+00    0,000000000e+00    0,000000000e+00
      702000000   -3,739465773e-02    2,563540265e-02    1,263038218e-01   -6,077227592e-01    0,000000000e+00    0,000000000e+00    0,000000000e+00    0,000000000e+00
      716000000    3,742509754e-03    1,551847719e-02   -2,590413690e-01   -5,444788337e-01    0,000000000e+00    0,000000000e+00    0,000000000e+00    0,000000000e+00
      730000000    3,738724440e-02   -1,404265501e-02   -5,216784477e-01   -2,713611126e-01    0,000000000e+00    0,000000000e+00    0,000000000e+00    0,000000000e+00
      744000000    6,312827766e-02   -6,498525292e-02   -5,604979992e-01    9,869389981e-02    0,000000000e+00    0,000000000e+00    0,000000000e+00    0,000000000e+00
      758000000    6,129324436e-02   -1,515576094e-01   -3,667730987e-01    3,997012675e-01    0,000000000e+00    0,000000000e+00    0,000000000e+00    0,000000000e+00
      772000000   -1,724107750e-02   -2,562748194e-01   -4,603496939e-02    5,093544722e-01    0,000000000e+00    0,000000000e+00    0,000000000e+00    0,000000000e+00
      786000000   -2,019739747e-01   -2,916993201e-01    2,584823370e-01    3,990017772e-01    0,000000000e+00    0,000000000e+00    0,000000000e+00    0,000000000e+00
      800000000   -4,069691300e-01   -1,271715611e-01    4,070644975e-01    1,190001443e-01    0,000000000e+00    0,000000000e+00    0,000000000e+00    0,000000000e+00
      814000000   -3,761158884e-01    2,024727911e-01    2,961241007e-01   -1,516082138e-01    0,000000000e+00    0,000000000e+00    0,000000000e+00    0,000000000e+00
      828000000   -6,188911572e-02    3,472073972e-01    8,297721297e-02   -1,906127334e-01    0,000000000e+00    0,000000000e+00    0,000000000e+00    0,000000000e+00
      842000000    2,119199336e-01    1,856625825e-01   -3,778718878e-03   -9,326975048e-02    0,000000000e+00    0,000000000e+00    0,000000000e+00    0,000000000e+00
      856000000    2,663636804e-01   -1,059365943e-01    3,644381836e-02   -3,701696545e-02    0,000000000e+00    0,000000000e+00    0,000000000e+00    0,000000000e+00
      870000000    8,278300613e-02   -3,513700366e-01    8,910126984e-02   -9,766332060e-02    0,000000000e+00    0,000000000e+00    0,000000000e+00    0,000000000e+00
      884000000   -2,667962611e-01   -3,555783927e-01    1,215236448e-02   -2,272892743e-01    0,000000000e+00    0,000000000e+00    0,000000000e+00    0,000000000e+00
      898000000   -4,580184519e-01   -1,302834041e-02   -2,156463712e-01   -2,093229890e-01    0,000000000e+00    0,000000000e+00    0,000000000e+00    0,000000000e+00
      912000000   -2,357191443e-01    2,770283818e-01   -3,293642700e-01    7,642085850e-02    0,000000000e+00    0,000000000e+00    0,000000000e+00    0,000000000e+00
      926000000    5,592539161e-02    2,609576583e-01   -2,088859379e-01    2,597118020e-01    0,000000000e+00    0,000000000e+00    0,000000000e+00    0,000000000e+00
      940000000    2,110026479e-01    8,413875848e-02   -2,954084985e-02    3,267041445e-01    0,000000000e+00    0,000000000e+00    0,000000000e+00    0,000000000e+00
      954000000    2,198485285e-01   -1,236963943e-01    1,317375004e-01    3,020065725e-01    0,000000000e+00    0,000000000e+00    0,000000000e+00    0,000000000e+00
      968000000    1,167498380e-01   -2,934726477e-01    2,672065198e-01    2,141918689e-01    0,000000000e+00    0,000000000e+00    0,000000000e+00    0,000000000e+00
      982000000   -7,462301105e-02   -3,828123808e-01    3,607708216e-01    6,339906901e-02    0,000000000e+00    0,000000000e+00    0,000000000e+00    0,000000000e+00
      996000000   -3,133457601e-01   -3,297164738e-01    3,632250428e-01   -1,427165568e-01    0,000000000e+00    0,000000000e+00    0,000000000e+00    0,000000000e+00
     1010000000   -4,634320140e-01   -1,192035154e-01    2,208267450e-01   -3,372160196e-01    0,000000000e+00    0,000000000e+00    0,000000000e+00    0,000000000e+00
     1024000000   -4,165239632e-01    1,400914043e-01   -3,225129098e-02   -3,832922876e-01    0,000000000e+00    0,000000000e+00    0,000000000e+00    0,000000000e+00
     1038000000   -2,212305367e-01    2,871555388e-01   -2,415574938e-01   -2,562077045e-01    0,000000000e+00    0,000000000e+00    0,000000000e+00    0,000000000e+00
     1052000000   -1,147424243e-02    2,803424001e-01   -3,113535643e-01   -4,806908220e-02    0,000000000e+00    0,000000000e+00    0,000000000e+00    0,000000000e+00
     1066000000    1,304202080e-01    1,713002771e-01   -2,486265153e-01    1,370311826e-01    0,000000000e+00    0,000000000e+00    0,000000000e+00    0,000000000e+00
     1080000000    1,907788217e-01    1,095716655e-02   -1,153640971e-01    2,525867522e-01    0,000000000e+00    0,000000000e+00    0,000000000e+00    0,000000000e+00
     1094000000    1,575519145e-01   -1,639146209e-01    5,959809199e-02    2,929446101e-01    0,000000000e+00    0,000000000e+00    0,000000000e+00    0,000000000e+00
     1108000000    1,787270606e-02   -2,934709191e-01    2,610838413e-01    2,317167222e-01    0,000000000e+00    0,000000000e+00    0,000000000e+00    0,000000000e+00
     1122000000   -2,170873135e-01   -2,828027010e-01    4,402402937e-01    2,764836885e-02    0,000000000e+00    0,000000000e+00    0,000000000e+00    0,000000000e+00
     1136000000   -3,233425915e-01   -2,804049663e-02    3,984887600e-01   -3,473538160e-01    0,000000000e+00    0,000000000e+00    0,000000000e+00    0,000000000e+00
     1150000000   -1,058126166e-01    1,428209096e-01    5,218918994e-02   -5,299999118e-01    0,000000000e+00    0,000000000e+00    0,000000000e+00    0,000000000e+00
     1164000000    8,185865730e-02   -1,612320729e-02   -2,517303228e-01   -4,017451704e-01    0,000000000e+00    0,000000000e+00    0,000000000e+00    0,000000000e+00
     1178000000    2,642859332e-02   -2,507804930e-01   -3,704690635e-01   -1,765680015e-01    0,000000000e+00    0,000000000e+00    0,000000000e+00    0,000000000e+00
     1192000000   -2,184779346e-01   -3,473840952e-01   -3,417402208e-01    3,972018510e-02    0,000000000e+00    0,000000000e+00    0,000000000e+00    0,000000000e+00
     1206000000   -4,820789397e-01   -1,836098284e-01   -1,942675412e-01    1,794098467e-01    0,000000000e+00    0,000000000e+00    0,000000000e+00    0,000000000e+00
     1220000000   -5,066062212e-01    1,362711489e-01   -6,813740358e-03    1,734658629e-01    0,000000000e+00    0,000000000e+00    0,000000000e+00    0,000000000e+00
     1234000000   -2,962954342e-01    3,371249437e-01    7,623741776e-02    7,944151759e-02    0,000000000e+00    0,000000000e+00    0,000000000e+00    0,000000000e+00
     1248000000   -6,402418762e-02    3,579170406e-01    6,480973959e-02    4,392307892e-04    0,000000000e+00    0,000000000e+00    0,000000000e+00    0,000000000e+00
     1262000000    1,069554761e-01    2,569598258e-01    2,671127766e-02   -2,557382919e-02    0,000000000e+00    0,000000000e+00    0,000000000e+00    0,000000000e+00
     1276000000    2,028958946e-01    1,058555171e-01    6,472667679e-03   -1,038899831e-02    0,000000000e+00    0,000000000e+00    0,000000000e+00    0,000000000e+00
     1290000000    2,203979492e-01   -6,271810085e-02    1,146633923e-02    2,551197447e-02    0,000000000e+00    0,000000000e+00    0,000000000e+00    0,000000000e+00
     1304000000    1,652498841e-01   -2,318964154e-01    6,660998613e-02    6,555891037e-02    0,000000000e+00    0,000000000e+00    0,000000000e+00    0,000000000e+00
     1318000000    2,658976428e-02   -3,647836149e-01    1,725705266e-01    1,384697575e-02    0,000000000e+00    0,000000000e+00    0,000000000e+00    0,000000000e+00
     1332000000   -1,481668651e-01   -3,961110413e-01    1,057662591e-01   -1,778142303e-01    0,000000000e+00    0,000000000e+00    0,000000000e+00    0,000000000e+00
     1346000000   -3,634278476e-01   -3,929804862e-01   -6,683287024e-02   -2,578396723e-02    0,000000000e+00    0,000000000e+00    0,000000000e+00    0,000000000e+00
     1360000000   -5,801059008e-01   -2,107821107e-01    6,190175563e-02    7,541969419e-02    0,000000000e+00    0,000000000e+00    0,000000000e+00    0,000000000e+00
     1374000000   -6,325443387e-01    1,106726453e-01    1,731642634e-01    5,580477789e-02    0,000000000e+00    0,000000000e+00    0,000000000e+00    0,000000000e+00
     1388000000   -4,743073583e-01    3,518448770e-01    2,194202691e-01   -2,352662571e-02    0,000000000e+00    0,000000000e+00    0,000000000e+00    0,000000000e+00
     1402000000   -2,468075603e-01    4,445318580e-01    2,172407210e-01   -7,741752267e-02    0,000000000e+00    0,000000000e+00    0,000000000e+00    0,000000000e+00
     1416000000   -4,012559727e-02    4,158651829e-01    1,930367053e-01   -9,894036502e-02    0,000000000e+00    0,000000000e+00    0,000000000e+00    0,000000000e+00
     1430000000    1,159330234e-01    3,088552654e-01    2,005067617e-01   -1,235404983e-01    0,000000000e+00    0,000000000e+00    0,000000000e+00    0,000000000e+00
     1444000000    1,992301345e-01    1,530133486e-01    1,586339921e-01   -1,121452376e-01    0,000000000e+00    0,000000000e+00    0,000000000e+00    0,000000000e+00
     1458000000    2,322216183e-01   -1,243100967e-02    1,392562389e-01   -8,155126870e-02    0,000000000e+00    0,000000000e+00    0,000000000e+00    0,000000000e+00
     1472000000    1,970649660e-01   -1,917834580e-01    1,469693482e-01   -3,837299347e-02    0,000000000e+00    0,000000000e+00    0,000000000e+00    0,000000000e+00
     1486000000    6,182956696e-02   -3,618002236e-01    1,553796530e-01    2,383326925e-02    0,000000000e+00    0,000000000e+00    0,000000000e+00    0,000000000e+00
     1500000000   -1,522928029e-01   -4,837878048e-01    2,338265330e-01    9,049721807e-02    0,000000000e+00    0,000000000e+00    0,000000000e+00    0,000000000e+00
