! NanoVNA-App
! Date: 2025-09-25 15:38:59
! Start: 100MHz Stop: 1,5GHz Points: 101
! S-Parameter data: F S11 S21 S12 S22
# Hz S RI R 50
!     Frequency           S11_Real           S11_Imag           S21_Real           S21_Imag           S12_Real           S12_Imag           S22_Real           S22_Imag
      100000000   -2,864026651e-02   -4,223729018e-03    3,738004267e-01   -7,214987874e-01    0,000000000e+00    0,000000000e+00    0,000000000e+00    0,000000000e+00
      114000000   -1,644051634e-02    1,146878581e-02   -8,928237110e-02   -8,051441908e-01    0,000000000e+00    0,000000000e+00    0,000000000e+00    0,000000000e+00
      128000000    3,437903710e-03    1,071020868e-02   -5,144268274e-01   -6,202480197e-01    0,000000000e+00    0,000000000e+00    0,000000000e+00    0,000000000e+00
      142000000    1,473721862e-02   -2,612284850e-03   -7,665721178e-01   -2,362457365e-01    0,000000000e+00    0,000000000e+00    0,000000000e+00    0,000000000e+00
      156000000    1,634211652e-02   -1,415329985e-02   -7,691594362e-01    2,242053151e-01    0,000000000e+00    0,000000000e+00    0,000000000e+00    0,000000000e+00
      170000000    1,726208813e-02   -2,252726257e-02   -5,177677274e-01    6,044687033e-01    0,000000000e+00    0,000000000e+00    0,000000000e+00    0,000000000e+00
      184000000    2,143556066e-02   -3,718197346e-02   -1,012417078e-01    7,855495811e-01    0,000000000e+00    0,000000000e+00    0,000000000e+00    0,000000000e+00
      198000000    1,328213140e-02   -6,254958361e-02    3,432504237e-01    7,118847966e-01    0,000000000e+00    0,000000000e+00    0,000000000e+00    0,000000000e+00
      212000000   -1,837057993e-02   -8,130780607e-02    6,778414249e-01    4,097449481e-01    0,000000000e+00    0,000000000e+00    0,000000000e+00    0,000000000e+00
      226000000   -6,127771363e-02   -6,924125552e-02    7,952639461e-01   -3,060043044e-02    0,000000000e+00    0,000000000e+00    0,000000000e+00    0,000000000e+00
      240000000   -8,204131573e-02   -2,579765581e-02    6,454297900e-01   -4,666523039e-01    0,000000000e+00    0,000000000e+00    0,000000000e+00    0,000000000e+00
      254000000   -6,326755881e-02    1,685154811e-02    2,757849395e-01   -7,427719235e-01    0,000000000e+00    0,000000000e+00    0,000000000e+00    0,000000000e+00
      268000000   -2,389205061e-02    2,861536853e-02   -1,778915077e-01   -7,635297179e-01    0,000000000e+00    0,000000000e+00    0,000000000e+00    0,000000000e+00
      282000000    4,117968958e-03    1,197670959e-02   -5,612807274e-01   -5,352975726e-01    0,000000000e+00    0,000000000e+00    0,000000000e+00    0,000000000e+00
      296000000    9,992400184e-03   -7,579699624e-03   -7,593609095e-01   -1,394383460e-01    0,000000000e+00    0,000000000e+00    0,000000000e+00    0,000000000e+00
      310000000    1,173757389e-02   -1,610400155e-02   -7,126806974e-01    2,982414663e-01    0,000000000e+00    0,000000000e+00    0,000000000e+00    0,000000000e+00
      324000000    2,028860338e-02   -2,667682059e-02   -4,269929528e-01    6,377073526e-01    0,000000000e+00    0,000000000e+00    0,000000000e+00    0,000000000e+00
      338000000    2,569580451e-02   -5,223615095e-02   -9,446338750e-03    7,625553012e-01    0,000000000e+00    0,000000000e+00    0,000000000e+00    0,000000000e+00
      352000000    7,697345223e-03   -8,497480303e-02    4,059443772e-01    6,390610933e-01    0,000000000e+00    0,000000000e+00    0,000000000e+00    0,000000000e+00
      366000000   -3,427625820e-02   -9,558908641e-02    6,903672814e-01    3,108645082e-01    0,000000000e+00    0,000000000e+00    0,000000000e+00    0,000000000e+00
      380000000   -7,026475668e-02   -7,134397328e-02    7,468476295e-01   -1,258397996e-01    0,000000000e+00    0,000000000e+00    0,000000000e+00    0,000000000e+00
      394000000   -7,220555842e-02   -3,285976127e-02    5,457823873e-01   -5,225132704e-01    0,000000000e+00    0,000000000e+00    0,000000000e+00    0,000000000e+00
      408000000   -4,598312825e-02   -1,668943651e-02    1,604051441e-01   -7,310178280e-01    0,000000000e+00    0,000000000e+00    0,000000000e+00    0,000000000e+00
      422000000   -2,822252735e-02   -3,225775808e-02   -2,670564353e-01   -6,946269870e-01    0,000000000e+00    0,000000000e+00    0,000000000e+00    0,000000000e+00
      436000000   -4,069925472e-02   -5,166481808e-02   -6,039561033e-01   -4,316973984e-01    0,000000000e+00    0,000000000e+00    0,000000000e+00    0,000000000e+00
      450000000   -6,694859266e-02   -4,350568727e-02   -7,395425439e-01   -2,145404555e-02    0,000000000e+00    0,000000000e+00    0,000000000e+00    0,000000000e+00
      464000000   -7,289721072e-02   -1,177582797e-02   -6,177550554e-01    3,971874714e-01    0,000000000e+00    0,000000000e+00    0,000000000e+00    0,000000000e+00
      478000000   -4,766332358e-02    1,133215614e-02   -2,825770676e-01    6,672922969e-01    0,000000000e+00    0,000000000e+00    0,000000000e+00    0,000000000e+00
      492000000   -1,583317108e-02    5,579058547e-03    1,372142732e-01    7,009454370e-01    0,000000000e+00    0,000000000e+00    0,000000000e+00    0,000000000e+00
      506000000   -2,524992917e-03   -1,604185626e-02    4,980281591e-01    5,024132133e-01    0,000000000e+00    0,000000000e+00    0,000000000e+00    0,000000000e+00
      520000000   -4,745237529e-03   -3,122396208e-02    6,879941821e-01    1,425365955e-01    0,000000000e+00    0,000000000e+00    0,000000000e+00    0,000000000e+00
      534000000   -3,733455203e-03   -3,803110123e-02    6,423952579e-01   -2,620614469e-01    0,000000000e+00    0,000000000e+00    0,000000000e+00    0,000000000e+00
      548000000    6,218157709e-03   -5,424533784e-02    3,805697560e-01   -5,669054389e-01    0,000000000e+00    0,000000000e+00    0,000000000e+00    0,000000000e+00
      562000000    3,166875569e-03   -8,943616599e-02    2,400109777e-03   -6,713565588e-01    0,000000000e+00    0,000000000e+00    0,000000000e+00    0,000000000e+00
      576000000   -3,405907378e-02   -1,242126450e-01   -3,685125113e-01   -5,570878386e-01    0,000000000e+00    0,000000000e+00    0,000000000e+00    0,000000000e+00
      590000000   -9,567438066e-02   -1,227169409e-01   -6,206964254e-01   -2,623901963e-01    0,000000000e+00    0,000000000e+00    0,000000000e+00    0,000000000e+00
      604000000   -1,386110187e-01   -7,209931314e-02   -6,636746526e-01    1,371065974e-01    0,000000000e+00    0,000000000e+00    0,000000000e+00    0,000000000e+00
      618000000   -1,287854016e-01   -9,728017263e-03   -4,643238485e-01    4,929998815e-01    0,000000000e+00    0,000000000e+00    0,000000000e+00    0,000000000e+00
      632000000   -8,412834257e-02    1,512504462e-02   -9,933652729e-02    6,618615389e-01    0,000000000e+00    0,000000000e+00    0,000000000e+00    0,000000000e+00
      646000000   -5,166804790e-02    3,554270079e-04    2,860809565e-01    5,941241384e-01    0,000000000e+00    0,000000000e+00    0,000000000e+00    0,000000000e+00
      660000000   -5,375366658e-02   -2,037340589e-02    5,648291111e-01    3,232847750e-01    0,000000000e+00    0,000000000e+00    0,000000000e+00    0,000000000e+00
      674000000   -6,898555905e-02   -1,684102975e-02    6,406637430e-01   -6,352955848e-02    0,000000000e+00    0,000000000e+00    0,000000000e+00    0,000000000e+00
      688000000   -6,740541756e-02    8,847084828e-03    4,706484079e-01   -4,238808155e-01    0,000000000e+00    0,000000000e+00    0,000000000e+00    0,000000000e+00
      702000000   -3,662589937e-02    2,662845328e-02    1,229469925e-01   -6,120284796e-01    0,000000000e+00    0,000000000e+00    0,000000000e+00    0,000000000e+00
      716000000    4,262342118e-03    1,649746485e-02   -2,593868971e-01   -5,446234345e-01    0,000000000e+00    0,000000000e+00    0,000000000e+00    0,000000000e+00
      730000000    3,655858710e-02   -1,446586475e-02   -5,225245357e-01   -2,712627649e-01    0,000000000e+00    0,000000000e+00    0,000000000e+00    0,000000000e+00
      744000000    6,264851987e-02   -6,489918381e-02   -5,602056980e-01    9,917931259e-02    0,000000000e+00    0,000000000e+00    0,000000000e+00    0,000000000e+00
      758000000    6,181278825e-02   -1,516112685e-01   -3,665505350e-01    3,994267881e-01    0,000000000e+00    0,000000000e+00    0,000000000e+00    0,000000000e+00
      772000000   -1,723673753e-02   -2,557286322e-01   -4,491721466e-02    5,084584355e-01    0,000000000e+00    0,000000000e+00    0,000000000e+00    0,000000000e+00
      786000000   -2,037679404e-01   -2,912292480e-01    2,598999739e-01    3,980337679e-01    0,000000000e+00    0,000000000e+00    0,000000000e+00    0,000000000e+00
      800000000   -4,073771536e-01   -1,256579310e-01    4,064564109e-01    1,183859855e-01    0,000000000e+00    0,000000000e+00    0,000000000e+00    0,000000000e+00
      814000000   -3,757621348e-01    2,015858889e-01    2,957098782e-01   -1,509958655e-01    0,000000000e+00    0,000000000e+00    0,000000000e+00    0,000000000e+00
      828000000   -6,062679738e-02    3,467749655e-01    8,134873211e-02   -1,900090426e-01    0,000000000e+00    0,000000000e+00    0,000000000e+00    0,000000000e+00
      842000000    2,116439342e-01    1,849142164e-01   -3,349085338e-03   -9,269934148e-02    0,000000000e+00    0,000000000e+00    0,000000000e+00    0,000000000e+00
      856000000    2,658626735e-01   -1,063548848e-01    3,668084368e-02   -3,734681383e-02    0,000000000e+00    0,000000000e+00    0,000000000e+00    0,000000000e+00
      870000000    8,127973229e-02   -3,511822820e-01    8,866751194e-02   -9,806659818e-02    0,000000000e+00    0,000000000e+00    0,000000000e+00    0,000000000e+00
      884000000   -2,679572105e-01   -3,547313511e-01    1,103227213e-02   -2,277816087e-01    0,000000000e+00    0,000000000e+00    0,000000000e+00    0,000000000e+00
      898000000   -4,568142891e-01   -1,356747001e-02   -2,159651369e-01   -2,098246813e-01    0,000000000e+00    0,000000000e+00    0,000000000e+00    0,000000000e+00
      912000000   -2,351819575e-01    2,764936388e-01   -3,430692852e-01    7,632716745e-02    0,000000000e+00    0,000000000e+00    0,000000000e+00    0,000000000e+00
      926000000    5,364917964e-02    2,605558336e-01   -2,112915218e-01    2,616356611e-01    0,000000000e+00    0,000000000e+00    0,000000000e+00    0,000000000e+00
      940000000    2,106349766e-01    8,255682141e-02   -2,968649939e-02    3,240379393e-01    0,000000000e+00    0,000000000e+00    0,000000000e+00    0,000000000e+00
      954000000    2,215236425e-01   -1,235893741e-01    1,309700459e-01    2,999752760e-01    0,000000000e+00    0,000000000e+00    0,000000000e+00    0,000000000e+00
      968000000    1,149559841e-01   -2,958313227e-01    2,683884501e-01    2,142063528e-01    0,000000000e+00    0,000000000e+00    0,000000000e+00    0,000000000e+00
      982000000   -7,582410425e-02   -3,838605881e-01    3,598881066e-01    6,253530085e-02    0,000000000e+00    0,000000000e+00    0,000000000e+00    0,000000000e+00
      996000000   -3,103304505e-01   -3,334678411e-01    3,633269072e-01   -1,425017715e-01    0,000000000e+00    0,000000000e+00    0,000000000e+00    0,000000000e+00
     1010000000   -4,628329277e-01   -1,163758487e-01    2,206448019e-01   -3,340131044e-01    0,000000000e+00    0,000000000e+00    0,000000000e+00    0,000000000e+00
     1024000000   -4,163195193e-01    1,404635161e-01   -3,011533432e-02   -3,845907152e-01    0,000000000e+00    0,000000000e+00    0,000000000e+00    0,000000000e+00
     1038000000   -2,258691341e-01    2,908219397e-01   -2,395559847e-01   -2,550281584e-01    0,000000000e+00    0,000000000e+00    0,000000000e+00    0,000000000e+00
     1052000000   -1,612034254e-02    2,797795534e-01   -3,098584712e-01   -4,557890072e-02    0,000000000e+00    0,000000000e+00    0,000000000e+00    0,000000000e+00
     1066000000    1,348361224e-01    1,699336469e-01   -2,534397542e-01    1,397741735e-01    0,000000000e+00    0,000000000e+00    0,000000000e+00    0,000000000e+00
     1080000000    1,944105774e-01    4,952894058e-03   -1,142671257e-01    2,562941611e-01    0,000000000e+00    0,000000000e+00    0,000000000e+00    0,000000000e+00
     1094000000    1,627736986e-01   -1,619583666e-01    5,840778723e-02    2,908112705e-01    0,000000000e+00    0,000000000e+00    0,000000000e+00    0,000000000e+00
     1108000000    1,668573171e-02   -2,936151922e-01    2,613896728e-01    2,323109508e-01    0,000000000e+00    0,000000000e+00    0,000000000e+00    0,000000000e+00
     1122000000   -2,103315145e-01   -2,803000212e-01    4,374287426e-01    2,160708606e-02    0,000000000e+00    0,000000000e+00    0,000000000e+00    0,000000000e+00
     1136000000   -3,243989646e-01   -3,268902004e-02    4,018531144e-01   -3,474399447e-01    0,000000000e+00    0,000000000e+00    0,000000000e+00    0,000000000e+00
     1150000000   -1,004810929e-01    1,368717700e-01    4,759028554e-02   -5,349296331e-01    0,000000000e+00    0,000000000e+00    0,000000000e+00    0,000000000e+00
     1164000000    8,652179688e-02   -1,643223874e-02   -2,506548464e-01   -4,017153978e-01    0,000000000e+00    0,000000000e+00    0,000000000e+00    0,000000000e+00
     1178000000    3,052720800e-02   -2,522095740e-01   -3,673973680e-01   -1,774052083e-01    0,000000000e+00    0,000000000e+00    0,000000000e+00    0,000000000e+00
     1192000000   -2,198812366e-01   -3,474352956e-01   -3,372669518e-01    4,160441086e-02    0,000000000e+00    0,000000000e+00    0,000000000e+00    0,000000000e+00
     1206000000   -4,795940518e-01   -1,808329672e-01   -1,837500781e-01    1,814246029e-01    0,000000000e+00    0,000000000e+00    0,000000000e+00    0,000000000e+00
     1220000000   -5,036602616e-01    1,432477534e-01   -8,925972506e-03    1,758408844e-01    0,000000000e+00    0,000000000e+00    0,000000000e+00    0,000000000e+00
     1234000000   -3,034504652e-01    3,425854445e-01    7,230396569e-02    7,928665727e-02    0,000000000e+00    0,000000000e+00    0,000000000e+00    0,000000000e+00
     1248000000   -5,594002083e-02    3,575016260e-01    7,322175801e-02   -1,827778760e-03    0,000000000e+00    0,000000000e+00    0,000000000e+00    0,000000000e+00
     1262000000    1,089434773e-01    2,556617856e-01    2,958423086e-02   -2,359979413e-02    0,000000000e+00    0,000000000e+00    0,000000000e+00    0,000000000e+00
     1276000000    2,004593015e-01    1,080426127e-01    6,224401761e-03   -4,480629694e-03    0,000000000e+00    0,000000000e+00    0,000000000e+00    0,000000000e+00
     1290000000    2,203708142e-01   -6,389919668e-02    1,036533527e-02    2,420938946e-02    0,000000000e+00    0,000000000e+00    0,000000000e+00    0,000000000e+00
     1304000000    1,642121524e-01   -2,290624678e-01    5,513655394e-02    6,234924495e-02    0,000000000e+00    0,000000000e+00    0,000000000e+00    0,000000000e+00
     1318000000    2,550895512e-02   -3,626577258e-01    1,686707586e-01    1,735203527e-02    0,000000000e+00    0,000000000e+00    0,000000000e+00    0,000000000e+00
     1332000000   -1,504474282e-01   -3,952085078e-01    9,741830081e-02   -1,716731787e-01    0,000000000e+00    0,000000000e+00    0,000000000e+00    0,000000000e+00
     1346000000   -3,570441008e-01   -3,980694711e-01   -4,592476040e-02   -2,148867026e-02    0,000000000e+00    0,000000000e+00    0,000000000e+00    0,000000000e+00
     1360000000   -5,921947956e-01   -2,086861730e-01    5,787494406e-02    7,671555877e-02    0,000000000e+00    0,000000000e+00    0,000000000e+00    0,000000000e+00
     1374000000   -6,287069917e-01    1,029962674e-01    1,826159805e-01    4,353387654e-02    0,000000000e+00    0,000000000e+00    0,000000000e+00    0,000000000e+00
     1388000000   -4,743695259e-01    3,561322987e-01    2,144107521e-01   -2,587811835e-02    0,000000000e+00    0,000000000e+00    0,000000000e+00    0,000000000e+00
     1402000000   -2,504020631e-01    4,405526221e-01    2,017937452e-01   -8,723990619e-02    0,000000000e+00    0,000000000e+00    0,000000000e+00    0,000000000e+00
     1416000000   -3,933332860e-02    4,074675739e-01    1,978659332e-01   -1,106219888e-01    0,000000000e+00    0,000000000e+00    0,000000000e+00    0,000000000e+00
     1430000000    1,156837419e-01    2,978964746e-01    1,596820801e-01   -1,014692858e-01    0,000000000e+00    0,000000000e+00    0,000000000e+00    0,000000000e+00
     1444000000    1,960741580e-01    1,574394554e-01    1,585921794e-01   -1,015972570e-01    0,000000000e+00    0,000000000e+00    0,000000000e+00    0,000000000e+00
     1458000000    2,349171489e-01   -9,344860911e-03    1,534268111e-01   -8,628079295e-02    0,000000000e+00    0,000000000e+00    0,000000000e+00    0,000000000e+00
     1472000000    1,944887340e-01   -1,958756894e-01    1,511372775e-01   -4,878442362e-02    0,000000000e+00    0,000000000e+00    0,000000000e+00    0,000000000e+00
     1486000000    7,224835455e-02   -3,718568981e-01    1,676107049e-01    2,768790163e-02    0,000000000e+00    0,000000000e+00    0,000000000e+00    0,000000000e+00
     1500000000   -1,545509249e-01   -4,904557467e-01    2,358985245e-01    7,123726606e-02    0,000000000e+00    0,000000000e+00    0,000000000e+00    0,000000000e+00
