! NanoVNA-App
! Date: 2025-09-25 15:40:15
! Start: 100MHz Stop: 1,5GHz Points: 101
! S-Parameter data: F S11 S21 S12 S22
# Hz S RI R 50
!     Frequency           S11_Real           S11_Imag           S21_Real           S21_Imag           S12_Real           S12_Imag           S22_Real           S22_Imag
      100000000   -2,863257192e-02   -4,227010999e-03    3,738325834e-01   -7,214601040e-01    0,000000000e+00    0,000000000e+00    0,000000000e+00    0,000000000e+00
      114000000   -1,641584747e-02    1,148577686e-02   -8,922731876e-02   -8,051740527e-01    0,000000000e+00    0,000000000e+00    0,000000000e+00    0,000000000e+00
      128000000    3,543152241e-03    1,067723054e-02   -5,145881176e-01   -6,202669144e-01    0,000000000e+00    0,000000000e+00    0,000000000e+00    0,000000000e+00
      142000000    1,477162074e-02   -2,626148053e-03   -7,666651011e-01   -2,362823933e-01    0,000000000e+00    0,000000000e+00    0,000000000e+00    0,000000000e+00
      156000000    1,494497247e-02   -1,451622043e-02   -7,639954686e-01    2,202740461e-01    0,000000000e+00    0,000000000e+00    0,000000000e+00    0,000000000e+00
      170000000    1,727356389e-02   -2,244959213e-02   -5,179982781e-01    6,043738127e-01    0,000000000e+00    0,000000000e+00    0,000000000e+00    0,000000000e+00
      184000000    2,145829052e-02   -3,720443696e-02   -1,012624949e-01    7,858356237e-01    0,000000000e+00    0,000000000e+00    0,000000000e+00    0,000000000e+00
      198000000    1,330164075e-02   -6,256791949e-02    3,431730568e-01    7,120140195e-01    0,000000000e+00    0,000000000e+00    0,000000000e+00    0,000000000e+00
      212000000   -1,834746450e-02   -8,127155155e-02    6,777627468e-01    4,096599817e-01    0,000000000e+00    0,000000000e+00    0,000000000e+00    0,000000000e+00
      226000000   -6,126199663e-02   -6,924452633e-02    7,952546477e-01   -3,059236519e-02    0,000000000e+00    0,000000000e+00    0,000000000e+00    0,000000000e+00
      240000000   -8,209137619e-02   -2,582976595e-02    6,456108689e-01   -4,665416181e-01    0,000000000e+00    0,000000000e+00    0,000000000e+00    0,000000000e+00
      254000000   -6,327820569e-02    1,688218862e-02    2,759252191e-01   -7,427735925e-01    0,000000000e+00    0,000000000e+00    0,000000000e+00    0,000000000e+00
      268000000   -2,388233691e-02    2,865781821e-02   -1,778909713e-01   -7,634795904e-01    0,000000000e+00    0,000000000e+00    0,000000000e+00    0,000000000e+00
      282000000    4,157355521e-03    1,193577889e-02   -5,613732338e-01   -5,352502465e-01    0,000000000e+00    0,000000000e+00    0,000000000e+00    0,000000000e+00
      296000000    9,985256940e-03   -7,590265479e-03   -7,593362331e-01   -1,395284832e-01    0,000000000e+00    0,000000000e+00    0,000000000e+00    0,000000000e+00
      310000000    1,183125377e-02   -1,610363834e-02   -7,130498886e-01    2,982346117e-01    0,000000000e+00    0,000000000e+00    0,000000000e+00    0,000000000e+00
      324000000    2,016968653e-02   -2,676944435e-02   -4,281249642e-01    6,372554302e-01    0,000000000e+00    0,000000000e+00    0,000000000e+00    0,000000000e+00
      338000000    2,612671815e-02   -5,241108686e-02   -7,368772756e-03    7,633793950e-01    0,000000000e+00    0,000000000e+00    0,000000000e+00    0,000000000e+00
      352000000    7,662577555e-03   -8,467689902e-02    4,064971805e-01    6,398760080e-01    0,000000000e+00    0,000000000e+00    0,000000000e+00    0,000000000e+00
      366000000   -3,443801031e-02   -9,553122520e-02    6,901089549e-01    3,107136488e-01    0,000000000e+00    0,000000000e+00    0,000000000e+00    0,000000000e+00
      380000000   -7,022976130e-02   -7,101177424e-02    7,472090721e-01   -1,255838871e-01    0,000000000e+00    0,000000000e+00    0,000000000e+00    0,000000000e+00
      394000000   -7,221432030e-02   -3,270635381e-02    5,451337695e-01   -5,214914083e-01    0,000000000e+00    0,000000000e+00    0,000000000e+00    0,000000000e+00
      408000000   -4,620268196e-02   -1,635217480e-02    1,614414901e-01   -7,329089046e-01    0,000000000e+00    0,000000000e+00    0,000000000e+00    0,000000000e+00
      422000000   -2,786198072e-02   -3,247303888e-02   -2,669146359e-01   -6,953971982e-01    0,000000000e+00    0,000000000e+00    0,000000000e+00    0,000000000e+00
      436000000   -4,050930589e-02   -5,183286220e-02   -6,034154296e-01   -4,321549833e-01    0,000000000e+00    0,000000000e+00    0,000000000e+00    0,000000000e+00
      450000000   -6,710346788e-02   -4,383648932e-02   -7,394405603e-01   -2,148415335e-02    0,000000000e+00    0,000000000e+00    0,000000000e+00    0,000000000e+00
      464000000   -7,288192213e-02   -1,186060347e-02   -6,181893945e-01    3,972841203e-01    0,000000000e+00    0,000000000e+00    0,000000000e+00    0,000000000e+00
      478000000   -4,778948799e-02    1,139985677e-02   -2,828898728e-01    6,663719416e-01    0,000000000e+00    0,000000000e+00    0,000000000e+00    0,000000000e+00
      492000000   -1,542883180e-02    5,593000911e-03    1,369667202e-01    7,010432482e-01    0,000000000e+00    0,000000000e+00    0,000000000e+00    0,000000000e+00
      506000000   -2,820055466e-03   -1,626871899e-02    4,980906546e-01    5,015268922e-01    0,000000000e+00    0,000000000e+00    0,000000000e+00    0,000000000e+00
      520000000   -4,887531046e-03   -3,138335422e-02    6,864752769e-01    1,406327039e-01    0,000000000e+00    0,000000000e+00    0,000000000e+00    0,000000000e+00
      534000000   -3,395772539e-03   -3,800671920e-02    6,429873109e-01   -2,617066205e-01    0,000000000e+00    0,000000000e+00    0,000000000e+00    0,000000000e+00
      548000000    6,593904458e-03   -5,380331725e-02    3,804453015e-01   -5,658882260e-01    0,000000000e+00    0,000000000e+00    0,000000000e+00    0,000000000e+00
      562000000    3,503872314e-03   -8,987487108e-02    2,992420457e-03   -6,716847420e-01    0,000000000e+00    0,000000000e+00    0,000000000e+00    0,000000000e+00
      576000000   -3,418852761e-02   -1,242106184e-01   -3,684848249e-01   -5,574893355e-01    0,000000000e+00    0,000000000e+00    0,000000000e+00    0,000000000e+00
      590000000   -9,578638524e-02   -1,229089499e-01   -6,194656491e-01   -2,627058923e-01    0,000000000e+00    0,000000000e+00    0,000000000e+00    0,000000000e+00
      604000000   -1,390092671e-01   -7,213395834e-02   -6,640965343e-01    1,367911994e-01    0,000000000e+00    0,000000000e+00    0,000000000e+00    0,000000000e+00
      618000000   -1,297161132e-01   -1,004566345e-02   -4,643239081e-01    4,923850000e-01    0,000000000e+00    0,000000000e+00    0,000000000e+00    0,000000000e+00
      632000000   -8,430765569e-02    1,618623361e-02   -9,969885647e-02    6,621845961e-01    0,000000000e+00    0,000000000e+00    0,000000000e+00    0,000000000e+00
      646000000   -5,233890191e-02    8,141195285e-04    2,854260802e-01    5,943883657e-01    0,000000000e+00    0,000000000e+00    0,000000000e+00    0,000000000e+00
      660000000   -5,414764956e-02   -2,136346512e-02    5,642937422e-01    3,225834668e-01    0,000000000e+00    0,000000000e+00    0,000000000e+00    0,000000000e+00
      674000000   -6,988272816e-02   -1,594582759e-02    6,407071948e-01   -6,287993491e-02    0,000000000e+00    0,000000000e+00    0,000000000e+00    0,000000000e+00
      688000000   -6,636620313e-02    8,774766698e-03    4,704284668e-01   -4,238916039e-01    0,000000000e+00    0,000000000e+00    0,000000000e+00    0,000000000e+00
      702000000   -3,701891378e-02    2,527802996e-02    1,277200282e-01   -6,034609079e-01    0,000000000e+00    0,000000000e+00    0,000000000e+00    0,000000000e+00
      716000000    3,523152787e-03    1,552068256e-02   -2,594483495e-01   -5,444661975e-01    0,000000000e+00    0,000000000e+00    0,000000000e+00    0,000000000e+00
      730000000    3,653970361e-02   -1,351308078e-02   -5,212674141e-01   -2,714351416e-01    0,000000000e+00    0,000000000e+00    0,000000000e+00    0,000000000e+00
      744000000    6,312231719e-02   -6,495977193e-02   -5,602763295e-01    9,861834347e-02    0,000000000e+00    0,000000000e+00    0,000000000e+00    0,000000000e+00
      758000000    6,087927893e-02   -1,525940001e-01   -3,659430146e-01    4,003168941e-01    0,000000000e+00    0,000000000e+00    0,000000000e+00    0,000000000e+00
      772000000   -1,755681820e-02   -2,560032606e-01   -4,564347491e-02    5,088158846e-01    0,000000000e+00    0,000000000e+00    0,000000000e+00    0,000000000e+00
      786000000   -2,033222467e-01   -2,917886078e-01    2,603974640e-01    3,992091417e-01    0,000000000e+00    0,000000000e+00    0,000000000e+00    0,000000000e+00
      800000000   -4,081180990e-01   -1,262364089e-01    4,070100784e-01    1,182942614e-01    0,000000000e+00    0,000000000e+00    0,000000000e+00    0,000000000e+00
      814000000   -3,772144914e-01    2,022793591e-01    2,959814370e-01   -1,515917182e-01    0,000000000e+00    0,000000000e+00    0,000000000e+00    0,000000000e+00
      828000000   -6,299366802e-02    3,470281065e-01    8,217231184e-02   -1,902872175e-01    0,000000000e+00    0,000000000e+00    0,000000000e+00    0,000000000e+00
      842000000    2,124053389e-01    1,848894209e-01   -3,437934676e-03   -9,288743138e-02    0,000000000e+00    0,000000000e+00    0,000000000e+00    0,000000000e+00
      856000000    2,658942640e-01   -1,062638536e-01    3,672080860e-02   -3,705121204e-02    0,000000000e+00    0,000000000e+00    0,000000000e+00    0,000000000e+00
      870000000    8,175312728e-02   -3,514808714e-01    8,881413937e-02   -9,795536101e-02    0,000000000e+00    0,000000000e+00    0,000000000e+00    0,000000000e+00
      884000000   -2,671913803e-01   -3,561654687e-01    1,164547540e-02   -2,284799367e-01    0,000000000e+00    0,000000000e+00    0,000000000e+00    0,000000000e+00
      898000000   -4,567207992e-01   -1,260159630e-02   -2,157568038e-01   -2,091379017e-01    0,000000000e+00    0,000000000e+00    0,000000000e+00    0,000000000e+00
      912000000   -2,345479578e-01    2,770738006e-01   -3,379628956e-01    6,554364413e-02    0,000000000e+00    0,000000000e+00    0,000000000e+00    0,000000000e+00
      926000000    5,545926094e-02    2,604652345e-01   -2,094856501e-01    2,615804970e-01    0,000000000e+00    0,000000000e+00    0,000000000e+00    0,000000000e+00
      940000000    2,069421113e-01    8,419665694e-02   -3,241861239e-02    3,252802193e-01    0,000000000e+00    0,000000000e+00    0,000000000e+00    0,000000000e+00
      954000000    2,193715572e-01   -1,222803593e-01    1,312222779e-01    3,012968302e-01    0,000000000e+00    0,000000000e+00    0,000000000e+00    0,000000000e+00
      968000000    1,166620627e-01   -2,926845253e-01    2,689523399e-01    2,131570280e-01    0,000000000e+00    0,000000000e+00    0,000000000e+00    0,000000000e+00
      982000000   -7,804141939e-02   -3,834419250e-01    3,603745699e-01    6,288312376e-02    0,000000000e+00    0,000000000e+00    0,000000000e+00    0,000000000e+00
      996000000   -3,076701462e-01   -3,332439065e-01    3,650013506e-01   -1,431788802e-01    0,000000000e+00    0,000000000e+00    0,000000000e+00    0,000000000e+00
     1010000000   -4,560813606e-01   -1,162199527e-01    2,207743973e-01   -3,351968825e-01    0,000000000e+00    0,000000000e+00    0,000000000e+00    0,000000000e+00
     1024000000   -4,137385190e-01    1,449359506e-01   -3,269821778e-02   -3,886286914e-01    0,000000000e+00    0,000000000e+00    0,000000000e+00    0,000000000e+00
     1038000000   -2,216425985e-01    2,918494046e-01   -2,416144311e-01   -2,569411993e-01    0,000000000e+00    0,000000000e+00    0,000000000e+00    0,000000000e+00
     1052000000   -1,329110004e-02    2,765274346e-01   -3,113616109e-01   -4,826549068e-02    0,000000000e+00    0,000000000e+00    0,000000000e+00    0,000000000e+00
     1066000000    1,298357248e-01    1,708746403e-01   -2,492930889e-01    1,365204304e-01    0,000000000e+00    0,000000000e+00    0,000000000e+00    0,000000000e+00
     1080000000    1,910167038e-01    7,670099847e-03   -1,155571118e-01    2,525356114e-01    0,000000000e+00    0,000000000e+00    0,000000000e+00    0,000000000e+00
     1094000000    1,574126780e-01   -1,654610634e-01    5,907289311e-02    2,925477922e-01    0,000000000e+00    0,000000000e+00    0,000000000e+00    0,000000000e+00
     1108000000    1,690753549e-02   -2,945121527e-01    2,601725757e-01    2,328210175e-01    0,000000000e+00    0,000000000e+00    0,000000000e+00    0,000000000e+00
     1122000000   -2,113142461e-01   -2,810939848e-01    4,370368421e-01    2,218529768e-02    0,000000000e+00    0,000000000e+00    0,000000000e+00    0,000000000e+00
     1136000000   -3,234181404e-01   -2,504602633e-02    3,981713653e-01   -3,457394838e-01    0,000000000e+00    0,000000000e+00    0,000000000e+00    0,000000000e+00
     1150000000   -1,067972332e-01    1,413503885e-01    4,452314973e-02   -5,307152271e-01    0,000000000e+00    0,000000000e+00    0,000000000e+00    0,000000000e+00
     1164000000    8,815419674e-02   -1,910554431e-02   -2,517169118e-01   -4,023046196e-01    0,000000000e+00    0,000000000e+00    0,000000000e+00    0,000000000e+00
     1178000000    2,853449993e-02   -2,516584694e-01   -3,656798899e-01   -1,753026992e-01    0,000000000e+00    0,000000000e+00    0,000000000e+00    0,000000000e+00
     1192000000   -2,227749377e-01   -3,435245454e-01   -3,382198513e-01    4,360028356e-02    0,000000000e+00    0,000000000e+00    0,000000000e+00    0,000000000e+00
     1206000000   -4,775459766e-01   -1,855911463e-01   -1,915866584e-01    1,798074394e-01    0,000000000e+00    0,000000000e+00    0,000000000e+00    0,000000000e+00
     1220000000   -5,007580519e-01    1,385847032e-01   -9,049506858e-03    1,751046479e-01    0,000000000e+00    0,000000000e+00    0,000000000e+00    0,000000000e+00
     1234000000   -2,954134643e-01    3,416164815e-01    8,069495857e-02    7,563877851e-02    0,000000000e+00    0,000000000e+00    0,000000000e+00    0,000000000e+00
     1248000000   -6,137048081e-02    3,632999063e-01    7,037218660e-02    1,558283810e-03    0,000000000e+00    0,000000000e+00    0,000000000e+00    0,000000000e+00
     1262000000    1,098515689e-01    2,548831403e-01    3,040633164e-02   -2,834291756e-02    0,000000000e+00    0,000000000e+00    0,000000000e+00    0,000000000e+00
     1276000000    1,992267519e-01    1,080538705e-01    3,887805389e-03   -7,896710187e-03    0,000000000e+00    0,000000000e+00    0,000000000e+00    0,000000000e+00
     1290000000    2,193270773e-01   -6,416256726e-02    1,186989807e-02    2,343842946e-02    0,000000000e+00    0,000000000e+00    0,000000000e+00    0,000000000e+00
     1304000000    1,655422151e-01   -2,283677161e-01    5,677925795e-02    6,036206707e-02    0,000000000e+00    0,000000000e+00    0,000000000e+00    0,000000000e+00
     1318000000    2,635044977e-02   -3,611874878e-01    1,733745933e-01    1,673860662e-02    0,000000000e+00    0,000000000e+00    0,000000000e+00    0,000000000e+00
     1332000000   -1,553528756e-01   -3,941334784e-01    9,895475209e-02   -1,742166728e-01    0,000000000e+00    0,000000000e+00    0,000000000e+00    0,000000000e+00
     1346000000   -3,593874276e-01   -3,953345716e-01   -5,232750624e-02   -2,598061785e-02    0,000000000e+00    0,000000000e+00    0,000000000e+00    0,000000000e+00
     1360000000   -5,784149170e-01   -2,029675096e-01    6,050879136e-02    9,222251177e-02    0,000000000e+00    0,000000000e+00    0,000000000e+00    0,000000000e+00
     1374000000   -6,350684762e-01    9,923738241e-02    1,697872877e-01    4,641352221e-02    0,000000000e+00    0,000000000e+00    0,000000000e+00    0,000000000e+00
     1388000000   -4,720694423e-01    3,456849754e-01    2,213259935e-01   -2,431926690e-02    0,000000000e+00    0,000000000e+00    0,000000000e+00    0,000000000e+00
     1402000000   -2,469890118e-01    4,430246055e-01    2,070914954e-01   -9,264674038e-02    0,000000000e+00    0,000000000e+00    0,000000000e+00    0,000000000e+00
     1416000000   -3,930865601e-02    4,099647999e-01    1,990605295e-01   -1,055654585e-01    0,000000000e+00    0,000000000e+00    0,000000000e+00    0,000000000e+00
     1430000000    1,096002385e-01    3,114575744e-01    1,838367730e-01   -1,018082350e-01    0,000000000e+00    0,000000000e+00    0,000000000e+00    0,000000000e+00
     1444000000    2,038653195e-01    1,607281417e-01    1,634523422e-01   -9,764280170e-02    0,000000000e+00    0,000000000e+00    0,000000000e+00    0,000000000e+00
     1458000000    2,319893241e-01   -1,819149964e-02    1,566291600e-01   -9,569875151e-02    0,000000000e+00    0,000000000e+00    0,000000000e+00    0,000000000e+00
     1472000000    1,888151318e-01   -1,964825839e-01    1,376393884e-01   -5,025968701e-02    0,000000000e+00    0,000000000e+00    0,000000000e+00    0,000000000e+00
     1486000000    7,089778036e-02   -3,648081422e-01    1,682658195e-01    1,248416770e-02    0,000000000e+00    0,000000000e+00    0,000000000e+00    0,000000000e+00
     1500000000   -1,570067108e-01   -4,912212789e-01    2,380945385e-01    8,652597666e-02    0,000000000e+00    0,000000000e+00    0,000000000e+00    0,000000000e+00
