! NanoVNA-App
! Date: 2025-09-25 15:39:23
! Start: 100MHz Stop: 1,5GHz Points: 101
! S-Parameter data: F S11 S21 S12 S22
# Hz S RI R 50
!     Frequency           S11_Real           S11_Imag           S21_Real           S21_Imag           S12_Real           S12_Imag           S22_Real           S22_Imag
      100000000   -2,862781845e-02   -4,236022942e-03    3,737899959e-01   -7,214761376e-01    0,000000000e+00    0,000000000e+00    0,000000000e+00    0,000000000e+00
      114000000   -1,647687517e-02    1,147576049e-02   -8,910167962e-02   -8,050215244e-01    0,000000000e+00    0,000000000e+00    0,000000000e+00    0,000000000e+00
      128000000    3,453973681e-03    1,062988583e-02   -5,145253539e-01   -6,200874448e-01    0,000000000e+00    0,000000000e+00    0,000000000e+00    0,000000000e+00
      142000000    1,474402100e-02   -2,630989999e-03   -7,668658495e-01   -2,364271879e-01    0,000000000e+00    0,000000000e+00    0,000000000e+00    0,000000000e+00
      156000000    1,655514725e-02   -1,412944309e-02   -7,717262506e-01    2,246339619e-01    0,000000000e+00    0,000000000e+00    0,000000000e+00    0,000000000e+00
      170000000    1,726127043e-02   -2,251270786e-02   -5,175143480e-01    6,041153073e-01    0,000000000e+00    0,000000000e+00    0,000000000e+00    0,000000000e+00
      184000000    2,146499604e-02   -3,721404821e-02   -1,012244299e-01    7,858120799e-01    0,000000000e+00    0,000000000e+00    0,000000000e+00    0,000000000e+00
      198000000    1,331739966e-02   -6,254274398e-02    3,432981670e-01    7,120025754e-01    0,000000000e+00    0,000000000e+00    0,000000000e+00    0,000000000e+00
      212000000   -1,836785674e-02   -8,129011840e-02    6,776325703e-01    4,095588326e-01    0,000000000e+00    0,000000000e+00    0,000000000e+00    0,000000000e+00
      226000000   -6,127716973e-02   -6,919217855e-02    7,952958345e-01   -3,064938635e-02    0,000000000e+00    0,000000000e+00    0,000000000e+00    0,000000000e+00
      240000000   -8,204126358e-02   -2,583642676e-02    6,455126405e-01   -4,666240811e-01    0,000000000e+00    0,000000000e+00    0,000000000e+00    0,000000000e+00
      254000000   -6,328479946e-02    1,683899201e-02    2,757062614e-01   -7,430304885e-01    0,000000000e+00    0,000000000e+00    0,000000000e+00    0,000000000e+00
      268000000   -2,384820394e-02    2,871463820e-02   -1,783445328e-01   -7,639080286e-01    0,000000000e+00    0,000000000e+00    0,000000000e+00    0,000000000e+00
      282000000    4,112193827e-03    1,206632704e-02   -5,614410043e-01   -5,355906487e-01    0,000000000e+00    0,000000000e+00    0,000000000e+00    0,000000000e+00
      296000000    9,836685844e-03   -7,487398107e-03   -7,593071461e-01   -1,396145672e-01    0,000000000e+00    0,000000000e+00    0,000000000e+00    0,000000000e+00
      310000000    1,162185613e-02   -1,608631760e-02   -7,117860317e-01    2,968344986e-01    0,000000000e+00    0,000000000e+00    0,000000000e+00    0,000000000e+00
      324000000    2,006554231e-02   -2,653253265e-02   -4,273999929e-01    6,366730928e-01    0,000000000e+00    0,000000000e+00    0,000000000e+00    0,000000000e+00
      338000000    2,592678741e-02   -5,238401890e-02   -9,485173970e-03    7,629598379e-01    0,000000000e+00    0,000000000e+00    0,000000000e+00    0,000000000e+00
      352000000    7,465042640e-03   -8,464210480e-02    4,056233168e-01    6,395063996e-01    0,000000000e+00    0,000000000e+00    0,000000000e+00    0,000000000e+00
      366000000   -3,420525417e-02   -9,563495964e-02    6,900218129e-01    3,102832437e-01    0,000000000e+00    0,000000000e+00    0,000000000e+00    0,000000000e+00
      380000000   -7,041325420e-02   -7,109027356e-02    7,470209002e-01   -1,258494556e-01    0,000000000e+00    0,000000000e+00    0,000000000e+00    0,000000000e+00
      394000000   -7,198767364e-02   -3,272648156e-02    5,461629033e-01   -5,217269063e-01    0,000000000e+00    0,000000000e+00    0,000000000e+00    0,000000000e+00
      408000000   -4,612298310e-02   -1,650899462e-02    1,618153453e-01   -7,306811213e-01    0,000000000e+00    0,000000000e+00    0,000000000e+00    0,000000000e+00
      422000000   -2,833754756e-02   -3,248857334e-02   -2,672624886e-01   -6,950301528e-01    0,000000000e+00    0,000000000e+00    0,000000000e+00    0,000000000e+00
      436000000   -4,058367386e-02   -5,157544464e-02   -6,035259962e-01   -4,320624173e-01    0,000000000e+00    0,000000000e+00    0,000000000e+00    0,000000000e+00
      450000000   -6,687655300e-02   -4,407673329e-02   -7,396892309e-01   -2,155568823e-02    0,000000000e+00    0,000000000e+00    0,000000000e+00    0,000000000e+00
      464000000   -7,279828191e-02   -1,209891308e-02   -6,180850863e-01    3,966228664e-01    0,000000000e+00    0,000000000e+00    0,000000000e+00    0,000000000e+00
      478000000   -4,751044512e-02    1,134109683e-02   -2,823528051e-01    6,672784090e-01    0,000000000e+00    0,000000000e+00    0,000000000e+00    0,000000000e+00
      492000000   -1,552886982e-02    5,494776182e-03    1,370226145e-01    7,009898424e-01    0,000000000e+00    0,000000000e+00    0,000000000e+00    0,000000000e+00
      506000000   -2,859832486e-03   -1,619878784e-02    4,978348315e-01    5,017987490e-01    0,000000000e+00    0,000000000e+00    0,000000000e+00    0,000000000e+00
      520000000   -4,769388121e-03   -3,112955764e-02    6,866986156e-01    1,430041939e-01    0,000000000e+00    0,000000000e+00    0,000000000e+00    0,000000000e+00
      534000000   -3,494264558e-03   -3,822440654e-02    6,428825259e-01   -2,620359659e-01    0,000000000e+00    0,000000000e+00    0,000000000e+00    0,000000000e+00
      548000000    6,619044580e-03   -5,429105833e-02    3,809577227e-01   -5,669666529e-01    0,000000000e+00    0,000000000e+00    0,000000000e+00    0,000000000e+00
      562000000    3,687298857e-03   -8,950193226e-02    2,184528857e-03   -6,714213490e-01    0,000000000e+00    0,000000000e+00    0,000000000e+00    0,000000000e+00
      576000000   -3,396745026e-02   -1,248913780e-01   -3,679015338e-01   -5,566312075e-01    0,000000000e+00    0,000000000e+00    0,000000000e+00    0,000000000e+00
      590000000   -9,576319903e-02   -1,228811219e-01   -6,181603074e-01   -2,631499767e-01    0,000000000e+00    0,000000000e+00    0,000000000e+00    0,000000000e+00
      604000000   -1,387411058e-01   -7,244072109e-02   -6,639596224e-01    1,366204917e-01    0,000000000e+00    0,000000000e+00    0,000000000e+00    0,000000000e+00
      618000000   -1,292381287e-01   -9,598228149e-03   -4,637322724e-01    4,930886328e-01    0,000000000e+00    0,000000000e+00    0,000000000e+00    0,000000000e+00
      632000000   -8,396715671e-02    1,559174061e-02   -9,944001585e-02    6,621134877e-01    0,000000000e+00    0,000000000e+00    0,000000000e+00    0,000000000e+00
      646000000   -5,255779251e-02    2,525821037e-04    2,846834958e-01    5,945811868e-01    0,000000000e+00    0,000000000e+00    0,000000000e+00    0,000000000e+00
      660000000   -5,311280489e-02   -2,045905404e-02    5,651034117e-01    3,226925433e-01    0,000000000e+00    0,000000000e+00    0,000000000e+00    0,000000000e+00
      674000000   -6,946717948e-02   -1,582550816e-02    6,402489543e-01   -6,322903186e-02    0,000000000e+00    0,000000000e+00    0,000000000e+00    0,000000000e+00
      688000000   -6,666582823e-02    8,703417145e-03    4,705801904e-01   -4,235895574e-01    0,000000000e+00    0,000000000e+00    0,000000000e+00    0,000000000e+00
      702000000   -3,662723303e-02    2,697676234e-02    1,191564277e-01   -6,112292409e-01    0,000000000e+00    0,000000000e+00    0,000000000e+00    0,000000000e+00
      716000000    2,853423357e-03    1,608956605e-02   -2,601120472e-01   -5,444915295e-01    0,000000000e+00    0,000000000e+00    0,000000000e+00    0,000000000e+00
      730000000    3,666897863e-02   -1,425588969e-02   -5,219845176e-01   -2,707749903e-01    0,000000000e+00    0,000000000e+00    0,000000000e+00    0,000000000e+00
      744000000    6,240610406e-02   -6,596606970e-02   -5,599582195e-01    9,922421724e-02    0,000000000e+00    0,000000000e+00    0,000000000e+00    0,000000000e+00
      758000000    6,141610816e-02   -1,522741914e-01   -3,654648662e-01    4,005715847e-01    0,000000000e+00    0,000000000e+00    0,000000000e+00    0,000000000e+00
      772000000   -1,692395471e-02   -2,565056682e-01   -4,461343586e-02    5,094165802e-01    0,000000000e+00    0,000000000e+00    0,000000000e+00    0,000000000e+00
      786000000   -2,038571537e-01   -2,920087874e-01    2,594744861e-01    3,987693489e-01    0,000000000e+00    0,000000000e+00    0,000000000e+00    0,000000000e+00
      800000000   -4,076645672e-01   -1,274214536e-01    4,067574143e-01    1,184585243e-01    0,000000000e+00    0,000000000e+00    0,000000000e+00    0,000000000e+00
      814000000   -3,770071268e-01    2,019551992e-01    2,954921722e-01   -1,513571441e-01    0,000000000e+00    0,000000000e+00    0,000000000e+00    0,000000000e+00
      828000000   -6,129653752e-02    3,484041691e-01    8,179371059e-02   -1,897656620e-01    0,000000000e+00    0,000000000e+00    0,000000000e+00    0,000000000e+00
      842000000    2,117471099e-01    1,851935387e-01   -3,570988541e-03   -9,244959056e-02    0,000000000e+00    0,000000000e+00    0,000000000e+00    0,000000000e+00
      856000000    2,658650875e-01   -1,065118313e-01    3,743070737e-02   -3,731599450e-02    0,000000000e+00    0,000000000e+00    0,000000000e+00    0,000000000e+00
      870000000    8,103007823e-02   -3,514885008e-01    8,901203424e-02   -9,810700268e-02    0,000000000e+00    0,000000000e+00    0,000000000e+00    0,000000000e+00
      884000000   -2,677783966e-01   -3,540581465e-01    1,125466265e-02   -2,281007022e-01    0,000000000e+00    0,000000000e+00    0,000000000e+00    0,000000000e+00
      898000000   -4,568018019e-01   -1,331375912e-02   -2,157322913e-01   -2,096250206e-01    0,000000000e+00    0,000000000e+00    0,000000000e+00    0,000000000e+00
      912000000   -2,348845452e-01    2,789478302e-01   -3,440157175e-01    7,296527922e-02    0,000000000e+00    0,000000000e+00    0,000000000e+00    0,000000000e+00
      926000000    5,369034410e-02    2,604515553e-01   -2,108447105e-01    2,588164806e-01    0,000000000e+00    0,000000000e+00    0,000000000e+00    0,000000000e+00
      940000000    2,100076079e-01    8,578022569e-02   -3,201929852e-02    3,252380192e-01    0,000000000e+00    0,000000000e+00    0,000000000e+00    0,000000000e+00
      954000000    2,213069052e-01   -1,249682531e-01    1,303678602e-01    3,006690443e-01    0,000000000e+00    0,000000000e+00    0,000000000e+00    0,000000000e+00
      968000000    1,198809519e-01   -2,956841886e-01    2,694558501e-01    2,152250558e-01    0,000000000e+00    0,000000000e+00    0,000000000e+00    0,000000000e+00
      982000000   -8,080749959e-02   -3,860156536e-01    3,603577614e-01    6,063846126e-02    0,000000000e+00    0,000000000e+00    0,000000000e+00    0,000000000e+00
      996000000   -3,105914593e-01   -3,334019184e-01    3,621389866e-01   -1,450843513e-01    0,000000000e+00    0,000000000e+00    0,000000000e+00    0,000000000e+00
     1010000000   -4,582043588e-01   -1,197046638e-01    2,185266316e-01   -3,346131146e-01    0,000000000e+00    0,000000000e+00    0,000000000e+00    0,000000000e+00
     1024000000   -4,183129966e-01    1,448847055e-01   -3,243722022e-02   -3,851041198e-01    0,000000000e+00    0,000000000e+00    0,000000000e+00    0,000000000e+00
     1038000000   -2,236500978e-01    2,854065597e-01   -2,411525100e-01   -2,562834024e-01    0,000000000e+00    0,000000000e+00    0,000000000e+00    0,000000000e+00
     1052000000   -1,410363335e-02    2,770265639e-01   -3,101674020e-01   -4,674953222e-02    0,000000000e+00    0,000000000e+00    0,000000000e+00    0,000000000e+00
     1066000000    1,326770782e-01    1,663794667e-01   -2,521447837e-01    1,358981729e-01    0,000000000e+00    0,000000000e+00    0,000000000e+00    0,000000000e+00
     1080000000    1,954650283e-01    7,692163810e-03   -1,177361310e-01    2,545066178e-01    0,000000000e+00    0,000000000e+00    0,000000000e+00    0,000000000e+00
     1094000000    1,577204913e-01   -1,646628529e-01    6,052375585e-02    2,918391824e-01    0,000000000e+00    0,000000000e+00    0,000000000e+00    0,000000000e+00
     1108000000    1,948561519e-02   -2,918619812e-01    2,610979378e-01    2,331376374e-01    0,000000000e+00    0,000000000e+00    0,000000000e+00    0,000000000e+00
     1122000000   -2,112380862e-01   -2,848584354e-01    4,379127622e-01    2,320514061e-02    0,000000000e+00    0,000000000e+00    0,000000000e+00    0,000000000e+00
     1136000000   -3,214315176e-01   -2,972819656e-02    4,010749757e-01   -3,450917602e-01    0,000000000e+00    0,000000000e+00    0,000000000e+00    0,000000000e+00
     1150000000   -1,058439240e-01    1,409539580e-01    4,728258401e-02   -5,312529206e-01    0,000000000e+00    0,000000000e+00    0,000000000e+00    0,000000000e+00
     1164000000    8,180683851e-02   -1,798020303e-02   -2,516322136e-01   -4,013957083e-01    0,000000000e+00    0,000000000e+00    0,000000000e+00    0,000000000e+00
     1178000000    2,901204303e-02   -2,519853115e-01   -3,702139556e-01   -1,785229146e-01    0,000000000e+00    0,000000000e+00    0,000000000e+00    0,000000000e+00
     1192000000   -2,208823562e-01   -3,427776098e-01   -3,416614532e-01    4,463648796e-02    0,000000000e+00    0,000000000e+00    0,000000000e+00    0,000000000e+00
     1206000000   -4,838511944e-01   -1,788407862e-01   -1,908610165e-01    1,832020283e-01    0,000000000e+00    0,000000000e+00    0,000000000e+00    0,000000000e+00
     1220000000   -4,980527163e-01    1,365065277e-01   -8,697657846e-03    1,761110872e-01    0,000000000e+00    0,000000000e+00    0,000000000e+00    0,000000000e+00
     1234000000   -3,020436764e-01    3,395912647e-01    7,420847565e-02    7,399927080e-02    0,000000000e+00    0,000000000e+00    0,000000000e+00    0,000000000e+00
     1248000000   -6,081462279e-02    3,561162949e-01    6,728311628e-02   -2,836352214e-03    0,000000000e+00    0,000000000e+00    0,000000000e+00    0,000000000e+00
     1262000000    1,051884592e-01    2,596227825e-01    3,102631867e-02   -2,463719063e-02    0,000000000e+00    0,000000000e+00    0,000000000e+00    0,000000000e+00
     1276000000    2,044498324e-01    1,039084122e-01    4,577826709e-03   -1,113477722e-02    0,000000000e+00    0,000000000e+00    0,000000000e+00    0,000000000e+00
     1290000000    2,231095135e-01   -6,358328462e-02    1,448164601e-02    2,577532828e-02    0,000000000e+00    0,000000000e+00    0,000000000e+00    0,000000000e+00
     1304000000    1,654701978e-01   -2,324426472e-01    6,317935139e-02    5,881190300e-02    0,000000000e+00    0,000000000e+00    0,000000000e+00    0,000000000e+00
     1318000000    2,679088525e-02   -3,636282086e-01    1,722452343e-01    1,594118215e-02    0,000000000e+00    0,000000000e+00    0,000000000e+00    0,000000000e+00
     1332000000   -1,481494904e-01   -3,988533914e-01    1,012091115e-01   -1,812430471e-01    0,000000000e+00    0,000000000e+00    0,000000000e+00    0,000000000e+00
     1346000000   -3,598280847e-01   -3,885668218e-01   -5,726994202e-02   -1,947548427e-02    0,000000000e+00    0,000000000e+00    0,000000000e+00    0,000000000e+00
     1360000000   -5,851203203e-01   -2,016232908e-01    6,319890171e-02    9,537901729e-02    0,000000000e+00    0,000000000e+00    0,000000000e+00    0,000000000e+00
     1374000000   -6,210989952e-01    1,021114513e-01    1,801146120e-01    4,792276770e-02    0,000000000e+00    0,000000000e+00    0,000000000e+00    0,000000000e+00
     1388000000   -4,685853720e-01    3,508383036e-01    2,236477882e-01   -2,456744947e-02    0,000000000e+00    0,000000000e+00    0,000000000e+00    0,000000000e+00
     1402000000   -2,450907379e-01    4,471925795e-01    2,129102647e-01   -7,736020535e-02    0,000000000e+00    0,000000000e+00    0,000000000e+00    0,000000000e+00
     1416000000   -4,001013935e-02    4,095872641e-01    1,941066980e-01   -1,137430072e-01    0,000000000e+00    0,000000000e+00    0,000000000e+00    0,000000000e+00
     1430000000    1,153351516e-01    3,084850311e-01    1,774164289e-01   -1,115639731e-01    0,000000000e+00    0,000000000e+00    0,000000000e+00    0,000000000e+00
     1444000000    2,014601231e-01    1,546845883e-01    1,600577235e-01   -1,083996445e-01    0,000000000e+00    0,000000000e+00    0,000000000e+00    0,000000000e+00
     1458000000    2,302903831e-01   -1,527938526e-02    1,502224207e-01   -9,451504052e-02    0,000000000e+00    0,000000000e+00    0,000000000e+00    0,000000000e+00
     1472000000    1,956391782e-01   -1,933070421e-01    1,523711979e-01   -5,344426259e-02    0,000000000e+00    0,000000000e+00    0,000000000e+00    0,000000000e+00
     1486000000    6,378693879e-02   -3,716599643e-01    1,570263356e-01    1,211885177e-02    0,000000000e+00    0,000000000e+00    0,000000000e+00    0,000000000e+00
     1500000000   -1,555267721e-01   -4,822180569e-01    2,229962051e-01    9,666946530e-02    0,000000000e+00    0,000000000e+00    0,000000000e+00    0,000000000e+00
