! NanoVNA-App
! Date: 2025-09-25 15:44:13
! Start: 100MHz Stop: 1,5GHz Points: 101
! S-Parameter data: F S11 S21 S12 S22
# Hz S RI R 50
!     Frequency           S11_Real           S11_Imag           S21_Real           S21_Imag           S12_Real           S12_Imag           S22_Real           S22_Imag
      100000000   -2,876768447e-02   -4,257471766e-03    3,740042746e-01   -7,215814590e-01    0,000000000e+00    0,000000000e+00    0,000000000e+00    0,000000000e+00
      114000000   -1,653963700e-02    1,148522738e-02   -8,901278675e-02   -8,052237630e-01    0,000000000e+00    0,000000000e+00    0,000000000e+00    0,000000000e+00
      128000000    3,410216421e-03    1,066694222e-02   -5,144730210e-01   -6,201491356e-01    0,000000000e+00    0,000000000e+00    0,000000000e+00    0,000000000e+00
      142000000    1,462917589e-02   -2,635399345e-03   -7,668179274e-01   -2,364753783e-01    0,000000000e+00    0,000000000e+00    0,000000000e+00    0,000000000e+00
      156000000    1,544195972e-02   -1,486334484e-02   -7,688913345e-01    2,195788622e-01    0,000000000e+00    0,000000000e+00    0,000000000e+00    0,000000000e+00
      170000000    1,710343547e-02   -2,251380309e-02   -5,178260207e-01    6,042062044e-01    0,000000000e+00    0,000000000e+00    0,000000000e+00    0,000000000e+00
      184000000    2,136845328e-02   -3,713964671e-02   -1,014215052e-01    7,856542468e-01    0,000000000e+00    0,000000000e+00    0,000000000e+00    0,000000000e+00
      198000000    1,324795838e-02   -6,254547834e-02    3,429434001e-01    7,120714188e-01    0,000000000e+00    0,000000000e+00    0,000000000e+00    0,000000000e+00
      212000000   -1,841571741e-02   -8,128739893e-02    6,777217388e-01    4,097995162e-01    0,000000000e+00    0,000000000e+00    0,000000000e+00    0,000000000e+00
      226000000   -6,139076874e-02   -6,923563033e-02    7,954824567e-01   -3,046271205e-02    0,000000000e+00    0,000000000e+00    0,000000000e+00    0,000000000e+00
      240000000   -8,221606165e-02   -2,577212825e-02    6,456492543e-01   -4,666977823e-01    0,000000000e+00    0,000000000e+00    0,000000000e+00    0,000000000e+00
      254000000   -6,340480596e-02    1,694866270e-02    2,760363817e-01   -7,425823808e-01    0,000000000e+00    0,000000000e+00    0,000000000e+00    0,000000000e+00
      268000000   -2,394281141e-02    2,868994698e-02   -1,777818799e-01   -7,636988759e-01    0,000000000e+00    0,000000000e+00    0,000000000e+00    0,000000000e+00
      282000000    4,026023205e-03    1,206457242e-02   -5,615132451e-01   -5,353785753e-01    0,000000000e+00    0,000000000e+00    0,000000000e+00    0,000000000e+00
      296000000    9,933833964e-03   -7,420137059e-03   -7,594524622e-01   -1,395414025e-01    0,000000000e+00    0,000000000e+00    0,000000000e+00    0,000000000e+00
      310000000    1,152982470e-02   -1,604183577e-02   -7,130023837e-01    2,987276614e-01    0,000000000e+00    0,000000000e+00    0,000000000e+00    0,000000000e+00
      324000000    2,000447549e-02   -2,653137222e-02   -4,274751544e-01    6,380251050e-01    0,000000000e+00    0,000000000e+00    0,000000000e+00    0,000000000e+00
      338000000    2,566543035e-02   -5,224566534e-02   -6,101790816e-03    7,607814074e-01    0,000000000e+00    0,000000000e+00    0,000000000e+00    0,000000000e+00
      352000000    7,353362627e-03   -8,470185846e-02    4,061709940e-01    6,396777630e-01    0,000000000e+00    0,000000000e+00    0,000000000e+00    0,000000000e+00
      366000000   -3,424994648e-02   -9,529623389e-02    6,900331974e-01    3,108899891e-01    0,000000000e+00    0,000000000e+00    0,000000000e+00    0,000000000e+00
      380000000   -7,067532837e-02   -7,132981718e-02    7,467586994e-01   -1,260044128e-01    0,000000000e+00    0,000000000e+00    0,000000000e+00    0,000000000e+00
      394000000   -7,243900746e-02   -3,233763948e-02    5,464771986e-01   -5,204552412e-01    0,000000000e+00    0,000000000e+00    0,000000000e+00    0,000000000e+00
      408000000   -4,607634991e-02   -1,636306755e-02    1,614124924e-01   -7,315456867e-01    0,000000000e+00    0,000000000e+00    0,000000000e+00    0,000000000e+00
      422000000   -2,826758102e-02   -3,215056285e-02   -2,675110400e-01   -6,945954561e-01    0,000000000e+00    0,000000000e+00    0,000000000e+00    0,000000000e+00
      436000000   -4,054557532e-02   -5,188418180e-02   -6,036915779e-01   -4,322938621e-01    0,000000000e+00    0,000000000e+00    0,000000000e+00    0,000000000e+00
      450000000   -6,718130410e-02   -4,396963492e-02   -7,400258183e-01   -2,191895992e-02    0,000000000e+00    0,000000000e+00    0,000000000e+00    0,000000000e+00
      464000000   -7,298977673e-02   -1,180518139e-02   -6,185262799e-01    3,970995545e-01    0,000000000e+00    0,000000000e+00    0,000000000e+00    0,000000000e+00
      478000000   -4,726586118e-02    1,147169899e-02   -2,827962339e-01    6,670877934e-01    0,000000000e+00    0,000000000e+00    0,000000000e+00    0,000000000e+00
      492000000   -1,595751569e-02    5,700019654e-03    1,362145394e-01    7,009738684e-01    0,000000000e+00    0,000000000e+00    0,000000000e+00    0,000000000e+00
      506000000   -2,637705533e-03   -1,545005478e-02    4,980068803e-01    5,029206872e-01    0,000000000e+00    0,000000000e+00    0,000000000e+00    0,000000000e+00
      520000000   -4,603316076e-03   -3,160046786e-02    6,887644529e-01    1,428682655e-01    0,000000000e+00    0,000000000e+00    0,000000000e+00    0,000000000e+00
      534000000   -3,703133902e-03   -3,830982745e-02    6,426382661e-01   -2,617548108e-01    0,000000000e+00    0,000000000e+00    0,000000000e+00    0,000000000e+00
      548000000    6,302628201e-03   -5,449084565e-02    3,814899027e-01   -5,663089752e-01    0,000000000e+00    0,000000000e+00    0,000000000e+00    0,000000000e+00
      562000000    3,045690712e-03   -8,902782202e-02    2,906631911e-03   -6,717071533e-01    0,000000000e+00    0,000000000e+00    0,000000000e+00    0,000000000e+00
      576000000   -3,357069939e-02   -1,242500320e-01   -3,673875332e-01   -5,574041605e-01    0,000000000e+00    0,000000000e+00    0,000000000e+00    0,000000000e+00
      590000000   -9,567046911e-02   -1,227024868e-01   -6,219852567e-01   -2,640828192e-01    0,000000000e+00    0,000000000e+00    0,000000000e+00    0,000000000e+00
      604000000   -1,388767511e-01   -7,187407464e-02   -6,638969779e-01    1,369567215e-01    0,000000000e+00    0,000000000e+00    0,000000000e+00    0,000000000e+00
      618000000   -1,290673912e-01   -1,029753964e-02   -4,645838737e-01    4,926056266e-01    0,000000000e+00    0,000000000e+00    0,000000000e+00    0,000000000e+00
      632000000   -8,406736702e-02    1,590711623e-02   -1,004316136e-01    6,627622247e-01    0,000000000e+00    0,000000000e+00    0,000000000e+00    0,000000000e+00
      646000000   -5,150507763e-02    1,102058217e-03    2,846956551e-01    5,937306881e-01    0,000000000e+00    0,000000000e+00    0,000000000e+00    0,000000000e+00
      660000000   -5,412264168e-02   -2,039921470e-02    5,644500852e-01    3,233962059e-01    0,000000000e+00    0,000000000e+00    0,000000000e+00    0,000000000e+00
      674000000   -7,016661018e-02   -1,679430716e-02    6,407938004e-01   -6,319465488e-02    0,000000000e+00    0,000000000e+00    0,000000000e+00    0,000000000e+00
      688000000   -6,706593931e-02    8,658409119e-03    4,706371725e-01   -4,240675867e-01    0,000000000e+00    0,000000000e+00    0,000000000e+00    0,000000000e+00
      702000000   -3,675713390e-02    2,604355663e-02    1,257188767e-01   -6,031715870e-01    0,000000000e+00    0,000000000e+00    0,000000000e+00    0,000000000e+00
      716000000    2,889310010e-03    1,557738427e-02   -2,600460351e-01   -5,453516245e-01    0,000000000e+00    0,000000000e+00    0,000000000e+00    0,000000000e+00
      730000000    3,631456196e-02   -1,310524717e-02   -5,220043063e-01   -2,715147734e-01    0,000000000e+00    0,000000000e+00    0,000000000e+00    0,000000000e+00
      744000000    6,185663119e-02   -6,514411420e-02   -5,607559085e-01    9,830147773e-02    0,000000000e+00    0,000000000e+00    0,000000000e+00    0,000000000e+00
      758000000    6,104532629e-02   -1,513400525e-01   -3,666786849e-01    3,999056816e-01    0,000000000e+00    0,000000000e+00    0,000000000e+00    0,000000000e+00
      772000000   -1,723743044e-02   -2,548142374e-01   -4,585316032e-02    5,085090995e-01    0,000000000e+00    0,000000000e+00    0,000000000e+00    0,000000000e+00
      786000000   -2,028986961e-01   -2,913080454e-01    2,599295974e-01    3,990583122e-01    0,000000000e+00    0,000000000e+00    0,000000000e+00    0,000000000e+00
      800000000   -4,078485668e-01   -1,282753199e-01    4,073556066e-01    1,195638999e-01    0,000000000e+00    0,000000000e+00    0,000000000e+00    0,000000000e+00
      814000000   -3,767502010e-01    2,024412453e-01    2,969373763e-01   -1,504643857e-01    0,000000000e+00    0,000000000e+00    0,000000000e+00    0,000000000e+00
      828000000   -6,176549941e-02    3,477065563e-01    8,273192495e-02   -1,906863600e-01    0,000000000e+00    0,000000000e+00    0,000000000e+00    0,000000000e+00
      842000000    2,116987109e-01    1,863286495e-01   -3,516381606e-03   -9,347242862e-02    0,000000000e+00    0,000000000e+00    0,000000000e+00    0,000000000e+00
      856000000    2,661583722e-01   -1,053982079e-01    3,603975847e-02   -3,755186498e-02    0,000000000e+00    0,000000000e+00    0,000000000e+00    0,000000000e+00
      870000000    8,241064847e-02   -3,508829772e-01    8,856835216e-02   -9,682438523e-02    0,000000000e+00    0,000000000e+00    0,000000000e+00    0,000000000e+00
      884000000   -2,667968571e-01   -3,568786681e-01    1,122662611e-02   -2,275391668e-01    0,000000000e+00    0,000000000e+00    0,000000000e+00    0,000000000e+00
      898000000   -4,584911466e-01   -1,447224431e-02   -2,154260129e-01   -2,104429752e-01    0,000000000e+00    0,000000000e+00    0,000000000e+00    0,000000000e+00
      912000000   -2,368589491e-01    2,785879672e-01   -3,332741559e-01    8,085063100e-02    0,000000000e+00    0,000000000e+00    0,000000000e+00    0,000000000e+00
      926000000    5,669258535e-02    2,606575191e-01   -2,081822902e-01    2,598209977e-01    0,000000000e+00    0,000000000e+00    0,000000000e+00    0,000000000e+00
      940000000    2,073073238e-01    8,441032469e-02   -3,229295090e-02    3,257625401e-01    0,000000000e+00    0,000000000e+00    0,000000000e+00    0,000000000e+00
      954000000    2,183477730e-01   -1,228837967e-01    1,316996515e-01    3,012783229e-01    0,000000000e+00    0,000000000e+00    0,000000000e+00    0,000000000e+00
      968000000    1,152125224e-01   -2,918800712e-01    2,686227262e-01    2,147327811e-01    0,000000000e+00    0,000000000e+00    0,000000000e+00    0,000000000e+00
      982000000   -7,482657582e-02   -3,854567707e-01    3,617786765e-01    6,391593069e-02    0,000000000e+00    0,000000000e+00    0,000000000e+00    0,000000000e+00
      996000000   -3,089053333e-01   -3,305069208e-01    3,623391092e-01   -1,418974996e-01    0,000000000e+00    0,000000000e+00    0,000000000e+00    0,000000000e+00
     1010000000   -4,604854882e-01   -1,200567856e-01    2,195635289e-01   -3,354941308e-01    0,000000000e+00    0,000000000e+00    0,000000000e+00    0,000000000e+00
     1024000000   -4,199288487e-01    1,458885670e-01   -3,167913482e-02   -3,855070770e-01    0,000000000e+00    0,000000000e+00    0,000000000e+00    0,000000000e+00
     1038000000   -2,253559679e-01    2,881038785e-01   -2,413761467e-01   -2,584800720e-01    0,000000000e+00    0,000000000e+00    0,000000000e+00    0,000000000e+00
     1052000000   -1,418874040e-02    2,835813463e-01   -3,099731505e-01   -4,624674469e-02    0,000000000e+00    0,000000000e+00    0,000000000e+00    0,000000000e+00
     1066000000    1,344860941e-01    1,686498672e-01   -2,469671816e-01    1,370029449e-01    0,000000000e+00    0,000000000e+00    0,000000000e+00    0,000000000e+00
     1080000000    1,914688498e-01    6,422550883e-03   -1,155920029e-01    2,564784288e-01    0,000000000e+00    0,000000000e+00    0,000000000e+00    0,000000000e+00
     1094000000    1,622099131e-01   -1,647012085e-01    6,002700701e-02    2,922054827e-01    0,000000000e+00    0,000000000e+00    0,000000000e+00    0,000000000e+00
     1108000000    1,774043590e-02   -2,968107760e-01    2,604359686e-01    2,341042906e-01    0,000000000e+00    0,000000000e+00    0,000000000e+00    0,000000000e+00
     1122000000   -2,120291442e-01   -2,880183756e-01    4,423744977e-01    2,390379086e-02    0,000000000e+00    0,000000000e+00    0,000000000e+00    0,000000000e+00
     1136000000   -3,301143944e-01   -3,077910841e-02    4,010301530e-01   -3,434578180e-01    0,000000000e+00    0,000000000e+00    0,000000000e+00    0,000000000e+00
     1150000000   -1,060602218e-01    1,442738920e-01    5,298512802e-02   -5,265246630e-01    0,000000000e+00    0,000000000e+00    0,000000000e+00    0,000000000e+00
     1164000000    8,571750671e-02   -1,858577877e-02   -2,514151931e-01   -4,033825696e-01    0,000000000e+00    0,000000000e+00    0,000000000e+00    0,000000000e+00
     1178000000    2,953725867e-02   -2,512263358e-01   -3,685377538e-01   -1,793341041e-01    0,000000000e+00    0,000000000e+00    0,000000000e+00    0,000000000e+00
     1192000000   -2,207180858e-01   -3,490699828e-01   -3,424772620e-01    3,895621002e-02    0,000000000e+00    0,000000000e+00    0,000000000e+00    0,000000000e+00
     1206000000   -4,770517647e-01   -1,835161895e-01   -1,898161918e-01    1,787266731e-01    0,000000000e+00    0,000000000e+00    0,000000000e+00    0,000000000e+00
     1220000000   -5,067718029e-01    1,367325932e-01   -1,449616626e-02    1,738652438e-01    0,000000000e+00    0,000000000e+00    0,000000000e+00    0,000000000e+00
     1234000000   -3,054975867e-01    3,359156549e-01    7,398626208e-02    7,834021747e-02    0,000000000e+00    0,000000000e+00    0,000000000e+00    0,000000000e+00
     1248000000   -6,210793555e-02    3,565901816e-01    6,130938604e-02   -3,336728783e-03    0,000000000e+00    0,000000000e+00    0,000000000e+00    0,000000000e+00
     1262000000    1,131047308e-01    2,579340935e-01    3,112193570e-02   -1,951941289e-02    0,000000000e+00    0,000000000e+00    0,000000000e+00    0,000000000e+00
     1276000000    2,037976533e-01    1,049394757e-01    8,155603893e-03   -1,395002939e-02    0,000000000e+00    0,000000000e+00    0,000000000e+00    0,000000000e+00
     1290000000    2,193810344e-01   -6,180639938e-02    1,174681634e-02    2,470746636e-02    0,000000000e+00    0,000000000e+00    0,000000000e+00    0,000000000e+00
     1304000000    1,640105397e-01   -2,289522588e-01    6,564696878e-02    5,875862390e-02    0,000000000e+00    0,000000000e+00    0,000000000e+00    0,000000000e+00
     1318000000    2,155999094e-02   -3,608622849e-01    1,671512425e-01    2,070963755e-02    0,000000000e+00    0,000000000e+00    0,000000000e+00    0,000000000e+00
     1332000000   -1,489927173e-01   -3,930270672e-01    1,078531072e-01   -1,762178689e-01    0,000000000e+00    0,000000000e+00    0,000000000e+00    0,000000000e+00
     1346000000   -3,583687246e-01   -3,874366283e-01   -5,818990245e-02   -1,792971231e-02    0,000000000e+00    0,000000000e+00    0,000000000e+00    0,000000000e+00
     1360000000   -5,765741467e-01   -2,020713091e-01    7,771626860e-02    8,757548034e-02    0,000000000e+00    0,000000000e+00    0,000000000e+00    0,000000000e+00
     1374000000   -6,219564080e-01    1,082412824e-01    1,829658151e-01    5,278125405e-02    0,000000000e+00    0,000000000e+00    0,000000000e+00    0,000000000e+00
     1388000000   -4,780093133e-01    3,548364043e-01    2,206629366e-01   -1,854397170e-02    0,000000000e+00    0,000000000e+00    0,000000000e+00    0,000000000e+00
     1402000000   -2,502104938e-01    4,420576394e-01    2,191095352e-01   -7,881417125e-02    0,000000000e+00    0,000000000e+00    0,000000000e+00    0,000000000e+00
     1416000000   -4,519132897e-02    4,115048051e-01    1,845247597e-01   -1,086209640e-01    0,000000000e+00    0,000000000e+00    0,000000000e+00    0,000000000e+00
     1430000000    1,076506302e-01    3,077099323e-01    1,779019684e-01   -1,074072570e-01    0,000000000e+00    0,000000000e+00    0,000000000e+00    0,000000000e+00
     1444000000    2,004919052e-01    1,543221623e-01    1,677756011e-01   -1,132734939e-01    0,000000000e+00    0,000000000e+00    0,000000000e+00    0,000000000e+00
     1458000000    2,277731001e-01   -1,419219282e-02    1,485171020e-01   -8,478198200e-02    0,000000000e+00    0,000000000e+00    0,000000000e+00    0,000000000e+00
     1472000000    1,929782927e-01   -1,920031011e-01    1,397002190e-01   -4,220461100e-02    0,000000000e+00    0,000000000e+00    0,000000000e+00    0,000000000e+00
     1486000000    7,187981904e-02   -3,631798327e-01    1,786646843e-01    2,660459094e-02    0,000000000e+00    0,000000000e+00    0,000000000e+00    0,000000000e+00
     1500000000   -1,538892388e-01   -4,837636650e-01    2,352656424e-01    9,318194538e-02    0,000000000e+00    0,000000000e+00    0,000000000e+00    0,000000000e+00
