! NanoVNA-App
! Date: 2025-09-25 15:46:08
! Start: 100MHz Stop: 1,5GHz Points: 101
! S-Parameter data: F S11 S21 S12 S22
# Hz S RI R 50
!     Frequency           S11_Real           S11_Imag           S21_Real           S21_Imag           S12_Real           S12_Imag           S22_Real           S22_Imag
      100000000   -2,880189195e-02   -4,254649859e-03    3,740413785e-01   -7,215773463e-01    0,000000000e+00    0,000000000e+00    0,000000000e+00    0,000000000e+00
      114000000   -1,657214575e-02    1,148849819e-02   -8,895956725e-02   -8,050912023e-01    0,000000000e+00    0,000000000e+00    0,000000000e+00    0,000000000e+00
      128000000    3,389331279e-03    1,072164346e-02   -5,144105554e-01   -6,202381849e-01    0,000000000e+00    0,000000000e+00    0,000000000e+00    0,000000000e+00
      142000000    1,463255379e-02   -2,667111577e-03   -7,669726014e-01   -2,364641875e-01    0,000000000e+00    0,000000000e+00    0,000000000e+00    0,000000000e+00
      156000000    1,603337377e-02   -1,447936427e-02   -7,721604705e-01    2,235155106e-01    0,000000000e+00    0,000000000e+00    0,000000000e+00    0,000000000e+00
      170000000    1,702793688e-02   -2,250470966e-02   -5,179422498e-01    6,045991182e-01    0,000000000e+00    0,000000000e+00    0,000000000e+00    0,000000000e+00
      184000000    2,130722255e-02   -3,714128211e-02   -1,014127210e-01    7,858611941e-01    0,000000000e+00    0,000000000e+00    0,000000000e+00    0,000000000e+00
      198000000    1,324360073e-02   -6,248914450e-02    3,432842791e-01    7,121949196e-01    0,000000000e+00    0,000000000e+00    0,000000000e+00    0,000000000e+00
      212000000   -1,842720062e-02   -8,130455762e-02    6,778028011e-01    4,100848734e-01    0,000000000e+00    0,000000000e+00    0,000000000e+00    0,000000000e+00
      226000000   -6,136305258e-02   -6,925570220e-02    7,953909636e-01   -3,043443337e-02    0,000000000e+00    0,000000000e+00    0,000000000e+00    0,000000000e+00
      240000000   -8,233618736e-02   -2,577998675e-02    6,461021304e-01   -4,667400122e-01    0,000000000e+00    0,000000000e+00    0,000000000e+00    0,000000000e+00
      254000000   -6,346048415e-02    1,700055413e-02    2,761282623e-01   -7,429044843e-01    0,000000000e+00    0,000000000e+00    0,000000000e+00    0,000000000e+00
      268000000   -2,398068085e-02    2,885384485e-02   -1,779811531e-01   -7,641294599e-01    0,000000000e+00    0,000000000e+00    0,000000000e+00    0,000000000e+00
      282000000    4,046396352e-03    1,211027335e-02   -5,619654655e-01   -5,356968045e-01    0,000000000e+00    0,000000000e+00    0,000000000e+00    0,000000000e+00
      296000000    9,890601970e-03   -7,648371160e-03   -7,594743967e-01   -1,396053135e-01    0,000000000e+00    0,000000000e+00    0,000000000e+00    0,000000000e+00
      310000000    1,160961390e-02   -1,600396447e-02   -7,125573754e-01    2,971630394e-01    0,000000000e+00    0,000000000e+00    0,000000000e+00    0,000000000e+00
      324000000    2,002711035e-02   -2,664008737e-02   -4,269686937e-01    6,374537945e-01    0,000000000e+00    0,000000000e+00    0,000000000e+00    0,000000000e+00
      338000000    2,559002303e-02   -5,213277042e-02   -8,804043755e-03    7,598012686e-01    0,000000000e+00    0,000000000e+00    0,000000000e+00    0,000000000e+00
      352000000    7,314223796e-03   -8,496531844e-02    4,059679508e-01    6,393410563e-01    0,000000000e+00    0,000000000e+00    0,000000000e+00    0,000000000e+00
      366000000   -3,455638885e-02   -9,531243145e-02    6,900991797e-01    3,115392029e-01    0,000000000e+00    0,000000000e+00    0,000000000e+00    0,000000000e+00
      380000000   -7,054825127e-02   -7,121944427e-02    7,472856045e-01   -1,260055453e-01    0,000000000e+00    0,000000000e+00    0,000000000e+00    0,000000000e+00
      394000000   -7,213628292e-02   -3,251827881e-02    5,469855666e-01   -5,220937133e-01    0,000000000e+00    0,000000000e+00    0,000000000e+00    0,000000000e+00
      408000000   -4,634230211e-02   -1,642828062e-02    1,616879255e-01   -7,325748205e-01    0,000000000e+00    0,000000000e+00    0,000000000e+00    0,000000000e+00
      422000000   -2,832103707e-02   -3,177256137e-02   -2,678983510e-01   -6,936351657e-01    0,000000000e+00    0,000000000e+00    0,000000000e+00    0,000000000e+00
      436000000   -4,024707153e-02   -5,188412219e-02   -6,033128500e-01   -4,319594502e-01    0,000000000e+00    0,000000000e+00    0,000000000e+00    0,000000000e+00
      450000000   -6,706960499e-02   -4,369783774e-02   -7,397506237e-01   -2,191224322e-02    0,000000000e+00    0,000000000e+00    0,000000000e+00    0,000000000e+00
      464000000   -7,285031676e-02   -1,177011989e-02   -6,182183027e-01    3,967111111e-01    0,000000000e+00    0,000000000e+00    0,000000000e+00    0,000000000e+00
      478000000   -4,778273404e-02    1,127441134e-02   -2,828321159e-01    6,672770381e-01    0,000000000e+00    0,000000000e+00    0,000000000e+00    0,000000000e+00
      492000000   -1,578793861e-02    5,433704238e-03    1,373132467e-01    7,013896704e-01    0,000000000e+00    0,000000000e+00    0,000000000e+00    0,000000000e+00
      506000000   -2,911522053e-03   -1,580014452e-02    4,981888235e-01    5,030279160e-01    0,000000000e+00    0,000000000e+00    0,000000000e+00    0,000000000e+00
      520000000   -5,203538574e-03   -3,101873025e-02    6,875011325e-01    1,412724555e-01    0,000000000e+00    0,000000000e+00    0,000000000e+00    0,000000000e+00
      534000000   -3,723729169e-03   -3,787605464e-02    6,433752179e-01   -2,616076469e-01    0,000000000e+00    0,000000000e+00    0,000000000e+00    0,000000000e+00
      548000000    6,346900482e-03   -5,389864743e-02    3,817693591e-01   -5,669695139e-01    0,000000000e+00    0,000000000e+00    0,000000000e+00    0,000000000e+00
      562000000    3,006319515e-03   -8,959294856e-02    3,693588311e-03   -6,722876430e-01    0,000000000e+00    0,000000000e+00    0,000000000e+00    0,000000000e+00
      576000000   -3,407057375e-02   -1,245817021e-01   -3,681497872e-01   -5,576465130e-01    0,000000000e+00    0,000000000e+00    0,000000000e+00    0,000000000e+00
      590000000   -9,577196091e-02   -1,227854118e-01   -6,180340648e-01   -2,636664510e-01    0,000000000e+00    0,000000000e+00    0,000000000e+00    0,000000000e+00
      604000000   -1,390993595e-01   -7,261448354e-02   -6,645389795e-01    1,363595277e-01    0,000000000e+00    0,000000000e+00    0,000000000e+00    0,000000000e+00
      618000000   -1,294734925e-01   -9,490506724e-03   -4,646929502e-01    4,933342934e-01    0,000000000e+00    0,000000000e+00    0,000000000e+00    0,000000000e+00
      632000000   -8,528640866e-02    1,623121090e-02   -9,966892004e-02    6,620558500e-01    0,000000000e+00    0,000000000e+00    0,000000000e+00    0,000000000e+00
      646000000   -5,128995702e-02    1,019046176e-03    2,846131027e-01    5,955069065e-01    0,000000000e+00    0,000000000e+00    0,000000000e+00    0,000000000e+00
      660000000   -5,355595797e-02   -2,123710327e-02    5,645545721e-01    3,233976960e-01    0,000000000e+00    0,000000000e+00    0,000000000e+00    0,000000000e+00
      674000000   -6,938599050e-02   -1,730490103e-02    6,410359740e-01   -6,303008646e-02    0,000000000e+00    0,000000000e+00    0,000000000e+00    0,000000000e+00
      688000000   -6,638433784e-02    9,166695178e-03    4,706681669e-01   -4,239315689e-01    0,000000000e+00    0,000000000e+00    0,000000000e+00    0,000000000e+00
      702000000   -3,665190190e-02    2,580375224e-02    1,199814677e-01   -6,116372943e-01    0,000000000e+00    0,000000000e+00    0,000000000e+00    0,000000000e+00
      716000000    3,148478689e-03    1,664621569e-02   -2,590887845e-01   -5,451655984e-01    0,000000000e+00    0,000000000e+00    0,000000000e+00    0,000000000e+00
      730000000    3,746332228e-02   -1,395988930e-02   -5,220198631e-01   -2,711459398e-01    0,000000000e+00    0,000000000e+00    0,000000000e+00    0,000000000e+00
      744000000    6,262209266e-02   -6,458628178e-02   -5,604920387e-01    9,835271537e-02    0,000000000e+00    0,000000000e+00    0,000000000e+00    0,000000000e+00
      758000000    6,103870273e-02   -1,509086341e-01   -3,670541942e-01    4,005438685e-01    0,000000000e+00    0,000000000e+00    0,000000000e+00    0,000000000e+00
      772000000   -1,638878509e-02   -2,550130188e-01   -4,611855745e-02    5,088560581e-01    0,000000000e+00    0,000000000e+00    0,000000000e+00    0,000000000e+00
      786000000   -2,025369108e-01   -2,920877039e-01    2,594347000e-01    3,995004296e-01    0,000000000e+00    0,000000000e+00    0,000000000e+00    0,000000000e+00
      800000000   -4,080290198e-01   -1,265794933e-01    4,081228971e-01    1,187041923e-01    0,000000000e+00    0,000000000e+00    0,000000000e+00    0,000000000e+00
      814000000   -3,764778376e-01    2,011114806e-01    2,970913053e-01   -1,517548859e-01    0,000000000e+00    0,000000000e+00    0,000000000e+00    0,000000000e+00
      828000000   -6,304695457e-02    3,479695916e-01    8,252549917e-02   -1,916363686e-01    0,000000000e+00    0,000000000e+00    0,000000000e+00    0,000000000e+00
      842000000    2,114283144e-01    1,865092367e-01   -4,219387658e-03   -9,395827353e-02    0,000000000e+00    0,000000000e+00    0,000000000e+00    0,000000000e+00
      856000000    2,661263347e-01   -1,055632904e-01    3,521545231e-02   -3,734352067e-02    0,000000000e+00    0,000000000e+00    0,000000000e+00    0,000000000e+00
      870000000    8,331989497e-02   -3,510612845e-01    8,815791458e-02   -9,689726681e-02    0,000000000e+00    0,000000000e+00    0,000000000e+00    0,000000000e+00
      884000000   -2,666090429e-01   -3,562240899e-01    1,211311389e-02   -2,264067084e-01    0,000000000e+00    0,000000000e+00    0,000000000e+00    0,000000000e+00
      898000000   -4,588639140e-01   -1,425919030e-02   -2,149556726e-01   -2,102225572e-01    0,000000000e+00    0,000000000e+00    0,000000000e+00    0,000000000e+00
      912000000   -2,368593514e-01    2,782761753e-01   -3,394771516e-01    8,019037545e-02    0,000000000e+00    0,000000000e+00    0,000000000e+00    0,000000000e+00
      926000000    5,649746954e-02    2,626324296e-01   -2,094820440e-01    2,611436248e-01    0,000000000e+00    0,000000000e+00    0,000000000e+00    0,000000000e+00
      940000000    2,077627927e-01    8,273185045e-02   -3,174325451e-02    3,248017728e-01    0,000000000e+00    0,000000000e+00    0,000000000e+00    0,000000000e+00
      954000000    2,228941321e-01   -1,216346920e-01    1,317023784e-01    3,007427454e-01    0,000000000e+00    0,000000000e+00    0,000000000e+00    0,000000000e+00
      968000000    1,188786328e-01   -2,934184074e-01    2,691324055e-01    2,140943557e-01    0,000000000e+00    0,000000000e+00    0,000000000e+00    0,000000000e+00
      982000000   -7,583368570e-02   -3,867594302e-01    3,601370454e-01    6,376010180e-02    0,000000000e+00    0,000000000e+00    0,000000000e+00    0,000000000e+00
      996000000   -3,089654744e-01   -3,318166435e-01    3,631732464e-01   -1,417689919e-01    0,000000000e+00    0,000000000e+00    0,000000000e+00    0,000000000e+00
     1010000000   -4,576074183e-01   -1,169745028e-01    2,213843465e-01   -3,364958465e-01    0,000000000e+00    0,000000000e+00    0,000000000e+00    0,000000000e+00
     1024000000   -4,160156548e-01    1,399167031e-01   -2,972585894e-02   -3,872173429e-01    0,000000000e+00    0,000000000e+00    0,000000000e+00    0,000000000e+00
     1038000000   -2,257883102e-01    2,923072278e-01   -2,417824119e-01   -2,584070563e-01    0,000000000e+00    0,000000000e+00    0,000000000e+00    0,000000000e+00
     1052000000   -1,585997827e-02    2,823069990e-01   -3,101413846e-01   -4,611977562e-02    0,000000000e+00    0,000000000e+00    0,000000000e+00    0,000000000e+00
     1066000000    1,291096359e-01    1,668617576e-01   -2,495867610e-01    1,390925646e-01    0,000000000e+00    0,000000000e+00    0,000000000e+00    0,000000000e+00
     1080000000    1,938138753e-01    4,732050467e-03   -1,147308052e-01    2,558704317e-01    0,000000000e+00    0,000000000e+00    0,000000000e+00    0,000000000e+00
     1094000000    1,620750129e-01   -1,627629995e-01    5,776290596e-02    2,930197716e-01    0,000000000e+00    0,000000000e+00    0,000000000e+00    0,000000000e+00
     1108000000    2,173318341e-02   -2,935112417e-01    2,609586120e-01    2,334010005e-01    0,000000000e+00    0,000000000e+00    0,000000000e+00    0,000000000e+00
     1122000000   -2,147636712e-01   -2,801986039e-01    4,395508468e-01    2,369814552e-02    0,000000000e+00    0,000000000e+00    0,000000000e+00    0,000000000e+00
     1136000000   -3,296865225e-01   -2,980666049e-02    3,991402984e-01   -3,448704183e-01    0,000000000e+00    0,000000000e+00    0,000000000e+00    0,000000000e+00
     1150000000   -1,060399786e-01    1,414063275e-01    4,978642985e-02   -5,324892402e-01    0,000000000e+00    0,000000000e+00    0,000000000e+00    0,000000000e+00
     1164000000    8,415991813e-02   -1,989363134e-02   -2,502322197e-01   -4,073992074e-01    0,000000000e+00    0,000000000e+00    0,000000000e+00    0,000000000e+00
     1178000000    2,484070510e-02   -2,494047284e-01   -3,717197180e-01   -1,781791300e-01    0,000000000e+00    0,000000000e+00    0,000000000e+00    0,000000000e+00
     1192000000   -2,211550623e-01   -3,439339995e-01   -3,411619067e-01    4,204415902e-02    0,000000000e+00    0,000000000e+00    0,000000000e+00    0,000000000e+00
     1206000000   -4,792552590e-01   -1,863531917e-01   -1,906054914e-01    1,804136038e-01    0,000000000e+00    0,000000000e+00    0,000000000e+00    0,000000000e+00
     1220000000   -5,061086416e-01    1,403062791e-01   -1,242075302e-02    1,774019748e-01    0,000000000e+00    0,000000000e+00    0,000000000e+00    0,000000000e+00
     1234000000   -3,045239747e-01    3,447293639e-01    7,110875845e-02    8,100115508e-02    0,000000000e+00    0,000000000e+00    0,000000000e+00    0,000000000e+00
     1248000000   -6,545020640e-02    3,580752015e-01    6,858649105e-02   -1,334096771e-03    0,000000000e+00    0,000000000e+00    0,000000000e+00    0,000000000e+00
     1262000000    1,068132669e-01    2,613171637e-01    3,046965040e-02   -1,787143387e-02    0,000000000e+00    0,000000000e+00    0,000000000e+00    0,000000000e+00
     1276000000    2,024079561e-01    1,075601131e-01    6,585294381e-03   -1,229349058e-02    0,000000000e+00    0,000000000e+00    0,000000000e+00    0,000000000e+00
     1290000000    2,224699855e-01   -6,207242608e-02    1,432747394e-02    2,804107405e-02    0,000000000e+00    0,000000000e+00    0,000000000e+00    0,000000000e+00
     1304000000    1,666599065e-01   -2,333281338e-01    5,628693849e-02    6,035790592e-02    0,000000000e+00    0,000000000e+00    0,000000000e+00    0,000000000e+00
     1318000000    2,678778209e-02   -3,637539446e-01    1,682743728e-01    1,303875912e-02    0,000000000e+00    0,000000000e+00    0,000000000e+00    0,000000000e+00
     1332000000   -1,498354822e-01   -3,968211710e-01    1,029139310e-01   -1,765607595e-01    0,000000000e+00    0,000000000e+00    0,000000000e+00    0,000000000e+00
     1346000000   -3,599403203e-01   -3,849595785e-01   -6,425581127e-02   -2,581047826e-02    0,000000000e+00    0,000000000e+00    0,000000000e+00    0,000000000e+00
     1360000000   -5,872977972e-01   -2,048270553e-01    5,339016393e-02    9,197966754e-02    0,000000000e+00    0,000000000e+00    0,000000000e+00    0,000000000e+00
     1374000000   -6,298859715e-01    1,022515967e-01    1,683662236e-01    4,548002034e-02    0,000000000e+00    0,000000000e+00    0,000000000e+00    0,000000000e+00
     1388000000   -4,793835282e-01    3,474905193e-01    2,188692987e-01   -3,430783004e-02    0,000000000e+00    0,000000000e+00    0,000000000e+00    0,000000000e+00
     1402000000   -2,452055216e-01    4,419213533e-01    2,102195472e-01   -8,704968542e-02    0,000000000e+00    0,000000000e+00    0,000000000e+00    0,000000000e+00
     1416000000   -3,870362416e-02    4,133003652e-01    1,876971424e-01   -1,000725478e-01    0,000000000e+00    0,000000000e+00    0,000000000e+00    0,000000000e+00
     1430000000    1,080839559e-01    2,940917611e-01    1,599794775e-01   -1,055381149e-01    0,000000000e+00    0,000000000e+00    0,000000000e+00    0,000000000e+00
     1444000000    1,949477643e-01    1,582254320e-01    1,622727960e-01   -1,034161150e-01    0,000000000e+00    0,000000000e+00    0,000000000e+00    0,000000000e+00
     1458000000    2,313421965e-01   -1,132116187e-02    1,509490758e-01   -8,322504908e-02    0,000000000e+00    0,000000000e+00    0,000000000e+00    0,000000000e+00
     1472000000    1,888755709e-01   -1,941314042e-01    1,397883296e-01   -5,082514510e-02    0,000000000e+00    0,000000000e+00    0,000000000e+00    0,000000000e+00
     1486000000    6,900952756e-02   -3,693809807e-01    1,717299670e-01    1,477693394e-02    0,000000000e+00    0,000000000e+00    0,000000000e+00    0,000000000e+00
     1500000000   -1,659438163e-01   -4,898594618e-01    2,169460207e-01    7,904233038e-02    0,000000000e+00    0,000000000e+00    0,000000000e+00    0,000000000e+00
