! NanoVNA-App
! Date: 2025-09-25 15:45:16
! Start: 100MHz Stop: 1,5GHz Points: 101
! S-Parameter data: F S11 S21 S12 S22
# Hz S RI R 50
!     Frequency           S11_Real           S11_Imag           S21_Real           S21_Imag           S12_Real           S12_Imag           S22_Real           S22_Imag
      100000000   -2,879940346e-02   -4,252686165e-03    3,739695847e-01   -7,215387821e-01    0,000000000e+00    0,000000000e+00    0,000000000e+00    0,000000000e+00
      114000000   -1,654307358e-02    1,150341798e-02   -8,898261935e-02   -8,051772714e-01    0,000000000e+00    0,000000000e+00    0,000000000e+00    0,000000000e+00
      128000000    3,419014625e-03    1,069202181e-02   -5,144626498e-01   -6,201446652e-01    0,000000000e+00    0,000000000e+00    0,000000000e+00    0,000000000e+00
      142000000    1,463874336e-02   -2,661906416e-03   -7,670553327e-01   -2,366743237e-01    0,000000000e+00    0,000000000e+00    0,000000000e+00    0,000000000e+00
      156000000    1,576342992e-02   -1,467058714e-02   -7,710384727e-01    2,215857506e-01    0,000000000e+00    0,000000000e+00    0,000000000e+00    0,000000000e+00
      170000000    1,710139588e-02   -2,241672389e-02   -5,179407597e-01    6,043924689e-01    0,000000000e+00    0,000000000e+00    0,000000000e+00    0,000000000e+00
      184000000    2,133795246e-02   -3,713958338e-02   -1,012811959e-01    7,858843803e-01    0,000000000e+00    0,000000000e+00    0,000000000e+00    0,000000000e+00
      198000000    1,321562286e-02   -6,250669807e-02    3,431772888e-01    7,121573091e-01    0,000000000e+00    0,000000000e+00    0,000000000e+00    0,000000000e+00
      212000000   -1,841297001e-02   -8,126353472e-02    6,779358983e-01    4,098487794e-01    0,000000000e+00    0,000000000e+00    0,000000000e+00    0,000000000e+00
      226000000   -6,135877967e-02   -6,927689910e-02    7,953457832e-01   -3,043052740e-02    0,000000000e+00    0,000000000e+00    0,000000000e+00    0,000000000e+00
      240000000   -8,226703852e-02   -2,581458725e-02    6,456969976e-01   -4,665293396e-01    0,000000000e+00    0,000000000e+00    0,000000000e+00    0,000000000e+00
      254000000   -6,341224909e-02    1,699577272e-02    2,760572433e-01   -7,428519726e-01    0,000000000e+00    0,000000000e+00    0,000000000e+00    0,000000000e+00
      268000000   -2,394838817e-02    2,875520848e-02   -1,777855009e-01   -7,640140653e-01    0,000000000e+00    0,000000000e+00    0,000000000e+00    0,000000000e+00
      282000000    4,125526175e-03    1,210354827e-02   -5,617700815e-01   -5,355771184e-01    0,000000000e+00    0,000000000e+00    0,000000000e+00    0,000000000e+00
      296000000    9,850466624e-03   -7,556683384e-03   -7,596626282e-01   -1,397486776e-01    0,000000000e+00    0,000000000e+00    0,000000000e+00    0,000000000e+00
      310000000    1,144804154e-02   -1,599960960e-02   -7,122543454e-01    2,985970676e-01    0,000000000e+00    0,000000000e+00    0,000000000e+00    0,000000000e+00
      324000000    1,976277865e-02   -2,656510845e-02   -4,274671078e-01    6,373912096e-01    0,000000000e+00    0,000000000e+00    0,000000000e+00    0,000000000e+00
      338000000    2,578755841e-02   -5,218239501e-02   -9,542712010e-03    7,625432014e-01    0,000000000e+00    0,000000000e+00    0,000000000e+00    0,000000000e+00
      352000000    7,628167048e-03   -8,467424661e-02    4,069588780e-01    6,396697164e-01    0,000000000e+00    0,000000000e+00    0,000000000e+00    0,000000000e+00
      366000000   -3,437311575e-02   -9,542949498e-02    6,908923388e-01    3,115571141e-01    0,000000000e+00    0,000000000e+00    0,000000000e+00    0,000000000e+00
      380000000   -7,054419070e-02   -7,121647894e-02    7,475519180e-01   -1,253790259e-01    0,000000000e+00    0,000000000e+00    0,000000000e+00    0,000000000e+00
      394000000   -7,212229073e-02   -3,243908659e-02    5,472753644e-01   -5,210782886e-01    0,000000000e+00    0,000000000e+00    0,000000000e+00    0,000000000e+00
      408000000   -4,622917995e-02   -1,626754738e-02    1,612285525e-01   -7,308335304e-01    0,000000000e+00    0,000000000e+00    0,000000000e+00    0,000000000e+00
      422000000   -2,826532163e-02   -3,218826652e-02   -2,667257190e-01   -6,944703460e-01    0,000000000e+00    0,000000000e+00    0,000000000e+00    0,000000000e+00
      436000000   -4,044234008e-02   -5,193945020e-02   -6,032074690e-01   -4,316820204e-01    0,000000000e+00    0,000000000e+00    0,000000000e+00    0,000000000e+00
      450000000   -6,715526432e-02   -4,394801334e-02   -7,402370572e-01   -2,206039242e-02    0,000000000e+00    0,000000000e+00    0,000000000e+00    0,000000000e+00
      464000000   -7,296728343e-02   -1,165164914e-02   -6,178947687e-01    3,967492580e-01    0,000000000e+00    0,000000000e+00    0,000000000e+00    0,000000000e+00
      478000000   -4,768986255e-02    1,127455384e-02   -2,826386690e-01    6,664030552e-01    0,000000000e+00    0,000000000e+00    0,000000000e+00    0,000000000e+00
      492000000   -1,574215852e-02    5,781125743e-03    1,374121010e-01    7,005789876e-01    0,000000000e+00    0,000000000e+00    0,000000000e+00    0,000000000e+00
      506000000   -2,771379193e-03   -1,578043960e-02    4,978504479e-01    5,028798580e-01    0,000000000e+00    0,000000000e+00    0,000000000e+00    0,000000000e+00
      520000000   -4,909847863e-03   -3,116046637e-02    6,858549714e-01    1,406909227e-01    0,000000000e+00    0,000000000e+00    0,000000000e+00    0,000000000e+00
      534000000   -3,797519486e-03   -3,804756701e-02    6,429895163e-01   -2,619521320e-01    0,000000000e+00    0,000000000e+00    0,000000000e+00    0,000000000e+00
      548000000    6,289402489e-03   -5,355504155e-02    3,815158606e-01   -5,657360554e-01    0,000000000e+00    0,000000000e+00    0,000000000e+00    0,000000000e+00
      562000000    3,278915305e-03   -8,987469971e-02    3,015616676e-03   -6,712892652e-01    0,000000000e+00    0,000000000e+00    0,000000000e+00    0,000000000e+00
      576000000   -3,417796269e-02   -1,239275932e-01   -3,683982790e-01   -5,568464398e-01    0,000000000e+00    0,000000000e+00    0,000000000e+00    0,000000000e+00
      590000000   -9,578292072e-02   -1,231213287e-01   -6,180243492e-01   -2,642244697e-01    0,000000000e+00    0,000000000e+00    0,000000000e+00    0,000000000e+00
      604000000   -1,392597705e-01   -7,255662233e-02   -6,643482447e-01    1,364988834e-01    0,000000000e+00    0,000000000e+00    0,000000000e+00    0,000000000e+00
      618000000   -1,295144111e-01   -9,681743570e-03   -4,646013081e-01    4,933529198e-01    0,000000000e+00    0,000000000e+00    0,000000000e+00    0,000000000e+00
      632000000   -8,414105326e-02    1,571894996e-02   -9,986408055e-02    6,612437367e-01    0,000000000e+00    0,000000000e+00    0,000000000e+00    0,000000000e+00
      646000000   -5,235299468e-02    4,797062720e-04    2,857978046e-01    5,948709846e-01    0,000000000e+00    0,000000000e+00    0,000000000e+00    0,000000000e+00
      660000000   -5,347412825e-02   -2,008488588e-02    5,645639300e-01    3,237137794e-01    0,000000000e+00    0,000000000e+00    0,000000000e+00    0,000000000e+00
      674000000   -6,987839192e-02   -1,613782160e-02    6,406066418e-01   -6,310091168e-02    0,000000000e+00    0,000000000e+00    0,000000000e+00    0,000000000e+00
      688000000   -6,782665849e-02    9,627878666e-03    4,707405567e-01   -4,239214063e-01    0,000000000e+00    0,000000000e+00    0,000000000e+00    0,000000000e+00
      702000000   -3,679368645e-02    2,592848800e-02    1,221463308e-01   -6,036160588e-01    0,000000000e+00    0,000000000e+00    0,000000000e+00    0,000000000e+00
      716000000    2,842895454e-03    1,605328918e-02   -2,593843639e-01   -5,446173549e-01    0,000000000e+00    0,000000000e+00    0,000000000e+00    0,000000000e+00
      730000000    3,676607832e-02   -1,321348362e-02   -5,219599009e-01   -2,718840241e-01    0,000000000e+00    0,000000000e+00    0,000000000e+00    0,000000000e+00
      744000000    6,265138835e-02   -6,570184976e-02   -5,607748032e-01    9,888283163e-02    0,000000000e+00    0,000000000e+00    0,000000000e+00    0,000000000e+00
      758000000    6,066380814e-02   -1,514270008e-01   -3,665670753e-01    4,004793167e-01    0,000000000e+00    0,000000000e+00    0,000000000e+00    0,000000000e+00
      772000000   -1,755200699e-02   -2,562120259e-01   -4,548580945e-02    5,096350908e-01    0,000000000e+00    0,000000000e+00    0,000000000e+00    0,000000000e+00
      786000000   -2,017311305e-01   -2,903268635e-01    2,597312629e-01    3,992370069e-01    0,000000000e+00    0,000000000e+00    0,000000000e+00    0,000000000e+00
      800000000   -4,071628749e-01   -1,281439215e-01    4,077111185e-01    1,191409752e-01    0,000000000e+00    0,000000000e+00    0,000000000e+00    0,000000000e+00
      814000000   -3,780139685e-01    2,011431605e-01    2,964563966e-01   -1,514286399e-01    0,000000000e+00    0,000000000e+00    0,000000000e+00    0,000000000e+00
      828000000   -6,322991103e-02    3,469786346e-01    8,286986500e-02   -1,913785040e-01    0,000000000e+00    0,000000000e+00    0,000000000e+00    0,000000000e+00
      842000000    2,116199732e-01    1,862659752e-01   -3,475785488e-03   -9,336906672e-02    0,000000000e+00    0,000000000e+00    0,000000000e+00    0,000000000e+00
      856000000    2,664840519e-01   -1,048328653e-01    3,537499160e-02   -3,684781492e-02    0,000000000e+00    0,000000000e+00    0,000000000e+00    0,000000000e+00
      870000000    8,177056909e-02   -3,503204882e-01    8,808021992e-02   -9,712357074e-02    0,000000000e+00    0,000000000e+00    0,000000000e+00    0,000000000e+00
      884000000   -2,667963207e-01   -3,556863964e-01    1,191047300e-02   -2,267215699e-01    0,000000000e+00    0,000000000e+00    0,000000000e+00    0,000000000e+00
      898000000   -4,575594962e-01   -1,500462368e-02   -2,142544538e-01   -2,103779763e-01    0,000000000e+00    0,000000000e+00    0,000000000e+00    0,000000000e+00
      912000000   -2,347435802e-01    2,792112827e-01   -3,419649601e-01    7,814019173e-02    0,000000000e+00    0,000000000e+00    0,000000000e+00    0,000000000e+00
      926000000    5,611974373e-02    2,626156807e-01   -2,079625279e-01    2,630152106e-01    0,000000000e+00    0,000000000e+00    0,000000000e+00    0,000000000e+00
      940000000    2,076366693e-01    8,450745791e-02   -3,318293765e-02    3,247080445e-01    0,000000000e+00    0,000000000e+00    0,000000000e+00    0,000000000e+00
      954000000    2,227317095e-01   -1,199136302e-01    1,325777769e-01    3,014554381e-01    0,000000000e+00    0,000000000e+00    0,000000000e+00    0,000000000e+00
      968000000    1,164301708e-01   -2,963164449e-01    2,676830292e-01    2,132637501e-01    0,000000000e+00    0,000000000e+00    0,000000000e+00    0,000000000e+00
      982000000   -7,898504287e-02   -3,824859262e-01    3,601181507e-01    6,287980825e-02    0,000000000e+00    0,000000000e+00    0,000000000e+00    0,000000000e+00
      996000000   -3,131495416e-01   -3,312940300e-01    3,624126613e-01   -1,421198845e-01    0,000000000e+00    0,000000000e+00    0,000000000e+00    0,000000000e+00
     1010000000   -4,609518647e-01   -1,210208163e-01    2,217349708e-01   -3,355848491e-01    0,000000000e+00    0,000000000e+00    0,000000000e+00    0,000000000e+00
     1024000000   -4,199256301e-01    1,473664045e-01   -2,947827242e-02   -3,862212300e-01    0,000000000e+00    0,000000000e+00    0,000000000e+00    0,000000000e+00
     1038000000   -2,252244204e-01    2,865058780e-01   -2,419038415e-01   -2,586333156e-01    0,000000000e+00    0,000000000e+00    0,000000000e+00    0,000000000e+00
     1052000000   -1,499712653e-02    2,836560905e-01   -3,102873564e-01   -4,815293476e-02    0,000000000e+00    0,000000000e+00    0,000000000e+00    0,000000000e+00
     1066000000    1,306961477e-01    1,717711240e-01   -2,495426983e-01    1,374214292e-01    0,000000000e+00    0,000000000e+00    0,000000000e+00    0,000000000e+00
     1080000000    1,907690316e-01    7,864562795e-03   -1,148136482e-01    2,544470429e-01    0,000000000e+00    0,000000000e+00    0,000000000e+00    0,000000000e+00
     1094000000    1,618704051e-01   -1,611447036e-01    6,046647578e-02    2,916933596e-01    0,000000000e+00    0,000000000e+00    0,000000000e+00    0,000000000e+00
     1108000000    1,950434782e-02   -2,920462191e-01    2,608167827e-01    2,331677526e-01    0,000000000e+00    0,000000000e+00    0,000000000e+00    0,000000000e+00
     1122000000   -2,166834176e-01   -2,817279398e-01    4,384356141e-01    2,187392116e-02    0,000000000e+00    0,000000000e+00    0,000000000e+00    0,000000000e+00
     1136000000   -3,290449381e-01   -3,194650263e-02    4,005320668e-01   -3,440816998e-01    0,000000000e+00    0,000000000e+00    0,000000000e+00    0,000000000e+00
     1150000000   -1,049672142e-01    1,437968314e-01    4,993550107e-02   -5,324149728e-01    0,000000000e+00    0,000000000e+00    0,000000000e+00    0,000000000e+00
     1164000000    8,660078794e-02   -1,843446307e-02   -2,525965273e-01   -4,079698026e-01    0,000000000e+00    0,000000000e+00    0,000000000e+00    0,000000000e+00
     1178000000    2,553754114e-02   -2,503975928e-01   -3,741674721e-01   -1,802265942e-01    0,000000000e+00    0,000000000e+00    0,000000000e+00    0,000000000e+00
     1192000000   -2,181514651e-01   -3,462721705e-01   -3,424947262e-01    4,104034975e-02    0,000000000e+00    0,000000000e+00    0,000000000e+00    0,000000000e+00
     1206000000   -4,787676036e-01   -1,803264022e-01   -1,905640513e-01    1,826040000e-01    0,000000000e+00    0,000000000e+00    0,000000000e+00    0,000000000e+00
     1220000000   -5,079061985e-01    1,381071508e-01   -1,272169128e-02    1,787084192e-01    0,000000000e+00    0,000000000e+00    0,000000000e+00    0,000000000e+00
     1234000000   -3,064535856e-01    3,387698233e-01    7,511151582e-02    7,743082941e-02    0,000000000e+00    0,000000000e+00    0,000000000e+00    0,000000000e+00
     1248000000   -6,067259610e-02    3,641924560e-01    6,784466654e-02    8,419686928e-04    0,000000000e+00    0,000000000e+00    0,000000000e+00    0,000000000e+00
     1262000000    1,124781817e-01    2,561760545e-01    3,118011169e-02   -2,641269192e-02    0,000000000e+00    0,000000000e+00    0,000000000e+00    0,000000000e+00
     1276000000    2,022674978e-01    1,095708609e-01    4,959238693e-03   -6,854329258e-03    0,000000000e+00    0,000000000e+00    0,000000000e+00    0,000000000e+00
     1290000000    2,229234278e-01   -6,115357578e-02    1,208880823e-02    3,091589361e-02    0,000000000e+00    0,000000000e+00    0,000000000e+00    0,000000000e+00
     1304000000    1,653610617e-01   -2,336215377e-01    5,744466931e-02    5,940734595e-02    0,000000000e+00    0,000000000e+00    0,000000000e+00    0,000000000e+00
     1318000000    2,715299837e-02   -3,633598685e-01    1,706169397e-01    1,502678636e-02    0,000000000e+00    0,000000000e+00    0,000000000e+00    0,000000000e+00
     1332000000   -1,492103338e-01   -3,999146223e-01    9,618144482e-02   -1,806420684e-01    0,000000000e+00    0,000000000e+00    0,000000000e+00    0,000000000e+00
     1346000000   -3,604686856e-01   -3,907126486e-01   -5,316825584e-02   -2,560656890e-02    0,000000000e+00    0,000000000e+00    0,000000000e+00    0,000000000e+00
     1360000000   -5,834155679e-01   -2,101439685e-01    6,199425459e-02    8,054263890e-02    0,000000000e+00    0,000000000e+00    0,000000000e+00    0,000000000e+00
     1374000000   -6,321758032e-01    1,068991944e-01    1,730823815e-01    4,668838158e-02    0,000000000e+00    0,000000000e+00    0,000000000e+00    0,000000000e+00
     1388000000   -4,751273394e-01    3,542016447e-01    2,244155705e-01   -2,253677137e-02    0,000000000e+00    0,000000000e+00    0,000000000e+00    0,000000000e+00
     1402000000   -2,455699891e-01    4,429566264e-01    2,177964151e-01   -8,302062005e-02    0,000000000e+00    0,000000000e+00    0,000000000e+00    0,000000000e+00
     1416000000   -4,466069117e-02    4,131172597e-01    1,854761392e-01   -1,042555571e-01    0,000000000e+00    0,000000000e+00    0,000000000e+00    0,000000000e+00
     1430000000    1,121445894e-01    3,091350496e-01    1,671454906e-01   -1,168912649e-01    0,000000000e+00    0,000000000e+00    0,000000000e+00    0,000000000e+00
     1444000000    1,976210475e-01    1,607895792e-01    1,622994095e-01   -1,035978869e-01    0,000000000e+00    0,000000000e+00    0,000000000e+00    0,000000000e+00
     1458000000    2,305476665e-01   -1,425938681e-02    1,591159105e-01   -8,214330673e-02    0,000000000e+00    0,000000000e+00    0,000000000e+00    0,000000000e+00
     1472000000    1,910522431e-01   -1,942213327e-01    1,385933608e-01   -4,036580026e-02    0,000000000e+00    0,000000000e+00    0,000000000e+00    0,000000000e+00
     1486000000    6,703788042e-02   -3,685420752e-01    1,677521169e-01    1,951774582e-02    0,000000000e+00    0,000000000e+00    0,000000000e+00    0,000000000e+00
     1500000000   -1,635144353e-01   -4,897394478e-01    2,290742546e-01    8,997450769e-02    0,000000000e+00    0,000000000e+00    0,000000000e+00    0,000000000e+00
