! NanoVNA-App
! Date: 2025-09-25 15:43:12
! Start: 100MHz Stop: 1,5GHz Points: 101
! S-Parameter data: F S11 S21 S12 S22
# Hz S RI R 50
!     Frequency           S11_Real           S11_Imag           S21_Real           S21_Imag           S12_Real           S12_Imag           S22_Real           S22_Imag
      100000000   -2,877734043e-02   -4,245174117e-03    3,739967942e-01   -7,215960026e-01    0,000000000e+00    0,000000000e+00    0,000000000e+00    0,000000000e+00
      114000000   -1,655096933e-02    1,145797316e-02   -8,914422244e-02   -8,053373694e-01    0,000000000e+00    0,000000000e+00    0,000000000e+00    0,000000000e+00
      128000000    3,416876309e-03    1,068641618e-02   -5,145809650e-01   -6,203858852e-01    0,000000000e+00    0,000000000e+00    0,000000000e+00    0,000000000e+00
      142000000    1,462282892e-02   -2,635960700e-03   -7,669349909e-01   -2,364680916e-01    0,000000000e+00    0,000000000e+00    0,000000000e+00    0,000000000e+00
      156000000    1,557010226e-02   -1,445186976e-02   -7,674201131e-01    2,227364928e-01    0,000000000e+00    0,000000000e+00    0,000000000e+00    0,000000000e+00
      170000000    1,705048978e-02   -2,243836224e-02   -5,178665519e-01    6,045465469e-01    0,000000000e+00    0,000000000e+00    0,000000000e+00    0,000000000e+00
      184000000    2,130742744e-02   -3,715252876e-02   -1,014997810e-01    7,859877944e-01    0,000000000e+00    0,000000000e+00    0,000000000e+00    0,000000000e+00
      198000000    1,325258520e-02   -6,255996972e-02    3,431787789e-01    7,118654847e-01    0,000000000e+00    0,000000000e+00    0,000000000e+00    0,000000000e+00
      212000000   -1,846267097e-02   -8,127330244e-02    6,777340174e-01    4,098802209e-01    0,000000000e+00    0,000000000e+00    0,000000000e+00    0,000000000e+00
      226000000   -6,137041748e-02   -6,923062354e-02    7,953960299e-01   -3,043588810e-02    0,000000000e+00    0,000000000e+00    0,000000000e+00    0,000000000e+00
      240000000   -8,223617822e-02   -2,578836121e-02    6,457442641e-01   -4,667317569e-01    0,000000000e+00    0,000000000e+00    0,000000000e+00    0,000000000e+00
      254000000   -6,343900412e-02    1,696848497e-02    2,761096060e-01   -7,431272268e-01    0,000000000e+00    0,000000000e+00    0,000000000e+00    0,000000000e+00
      268000000   -2,406813949e-02    2,872083522e-02   -1,780207008e-01   -7,645216584e-01    0,000000000e+00    0,000000000e+00    0,000000000e+00    0,000000000e+00
      282000000    4,025718197e-03    1,207456365e-02   -5,619728565e-01   -5,354365706e-01    0,000000000e+00    0,000000000e+00    0,000000000e+00    0,000000000e+00
      296000000    9,847579524e-03   -7,624966558e-03   -7,595111132e-01   -1,395420134e-01    0,000000000e+00    0,000000000e+00    0,000000000e+00    0,000000000e+00
      310000000    1,147897728e-02   -1,608247310e-02   -7,131208181e-01    2,974643409e-01    0,000000000e+00    0,000000000e+00    0,000000000e+00    0,000000000e+00
      324000000    1,988614351e-02   -2,667881548e-02   -4,271132648e-01    6,377093792e-01    0,000000000e+00    0,000000000e+00    0,000000000e+00    0,000000000e+00
      338000000    2,589346655e-02   -5,238623545e-02   -1,107802801e-02    7,597193718e-01    0,000000000e+00    0,000000000e+00    0,000000000e+00    0,000000000e+00
      352000000    7,251292467e-03   -8,467208594e-02    4,061832130e-01    6,397937536e-01    0,000000000e+00    0,000000000e+00    0,000000000e+00    0,000000000e+00
      366000000   -3,442817181e-02   -9,539050609e-02    6,908279657e-01    3,110156059e-01    0,000000000e+00    0,000000000e+00    0,000000000e+00    0,000000000e+00
      380000000   -7,036660612e-02   -7,118203491e-02    7,475721240e-01   -1,254278719e-01    0,000000000e+00    0,000000000e+00    0,000000000e+00    0,000000000e+00
      394000000   -7,227195054e-02   -3,247584775e-02    5,473681688e-01   -5,218966007e-01    0,000000000e+00    0,000000000e+00    0,000000000e+00    0,000000000e+00
      408000000   -4,618775472e-02   -1,640853845e-02    1,600805223e-01   -7,323001027e-01    0,000000000e+00    0,000000000e+00    0,000000000e+00    0,000000000e+00
      422000000   -2,834717184e-02   -3,213242814e-02   -2,678995430e-01   -6,945374608e-01    0,000000000e+00    0,000000000e+00    0,000000000e+00    0,000000000e+00
      436000000   -4,021833837e-02   -5,188729614e-02   -6,034550667e-01   -4,315319657e-01    0,000000000e+00    0,000000000e+00    0,000000000e+00    0,000000000e+00
      450000000   -6,741786003e-02   -4,387289286e-02   -7,399352193e-01   -2,225969359e-02    0,000000000e+00    0,000000000e+00    0,000000000e+00    0,000000000e+00
      464000000   -7,281860709e-02   -1,210418623e-02   -6,180112958e-01    3,970235586e-01    0,000000000e+00    0,000000000e+00    0,000000000e+00    0,000000000e+00
      478000000   -4,745565355e-02    1,138000656e-02   -2,824607193e-01    6,668773890e-01    0,000000000e+00    0,000000000e+00    0,000000000e+00    0,000000000e+00
      492000000   -1,547740493e-02    5,459818523e-03    1,366311312e-01    7,001512051e-01    0,000000000e+00    0,000000000e+00    0,000000000e+00    0,000000000e+00
      506000000   -2,927296096e-03   -1,568944007e-02    4,972293675e-01    5,024482608e-01    0,000000000e+00    0,000000000e+00    0,000000000e+00    0,000000000e+00
      520000000   -5,066657439e-03   -3,139195591e-02    6,889333725e-01    1,414314359e-01    0,000000000e+00    0,000000000e+00    0,000000000e+00    0,000000000e+00
      534000000   -3,796986304e-03   -3,813412413e-02    6,424387097e-01   -2,622884810e-01    0,000000000e+00    0,000000000e+00    0,000000000e+00    0,000000000e+00
      548000000    6,367848255e-03   -5,370943993e-02    3,819084764e-01   -5,662068129e-01    0,000000000e+00    0,000000000e+00    0,000000000e+00    0,000000000e+00
      562000000    3,212612355e-03   -8,946524560e-02    3,363250988e-03   -6,711552143e-01    0,000000000e+00    0,000000000e+00    0,000000000e+00    0,000000000e+00
      576000000   -3,416431695e-02   -1,242645681e-01   -3,684625030e-01   -5,569520593e-01    0,000000000e+00    0,000000000e+00    0,000000000e+00    0,000000000e+00
      590000000   -9,592095017e-02   -1,225849688e-01   -6,198098063e-01   -2,655750513e-01    0,000000000e+00    0,000000000e+00    0,000000000e+00    0,000000000e+00
      604000000   -1,386385560e-01   -7,232186198e-02   -6,637438536e-01    1,363027394e-01    0,000000000e+00    0,000000000e+00    0,000000000e+00    0,000000000e+00
      618000000   -1,289211512e-01   -9,771010838e-03   -4,643880725e-01    4,926282167e-01    0,000000000e+00    0,000000000e+00    0,000000000e+00    0,000000000e+00
      632000000   -8,454684913e-02    1,567989402e-02   -9,919991344e-02    6,628423333e-01    0,000000000e+00    0,000000000e+00    0,000000000e+00    0,000000000e+00
      646000000   -5,128353834e-02    3,659500508e-04    2,850042582e-01    5,944644809e-01    0,000000000e+00    0,000000000e+00    0,000000000e+00    0,000000000e+00
      660000000   -5,312066525e-02   -2,044776455e-02    5,644140244e-01    3,239618838e-01    0,000000000e+00    0,000000000e+00    0,000000000e+00    0,000000000e+00
      674000000   -6,948929280e-02   -1,724658906e-02    6,407502890e-01   -6,290181726e-02    0,000000000e+00    0,000000000e+00    0,000000000e+00    0,000000000e+00
      688000000   -6,640722603e-02    9,185412899e-03    4,709924459e-01   -4,242888093e-01    0,000000000e+00    0,000000000e+00    0,000000000e+00    0,000000000e+00
      702000000   -3,574226052e-02    2,596606687e-02    1,242732778e-01   -6,032060981e-01    0,000000000e+00    0,000000000e+00    0,000000000e+00    0,000000000e+00
      716000000    2,954608761e-03    1,570658199e-02   -2,602028251e-01   -5,451605320e-01    0,000000000e+00    0,000000000e+00    0,000000000e+00    0,000000000e+00
      730000000    3,676015884e-02   -1,436268352e-02   -5,219890475e-01   -2,715302706e-01    0,000000000e+00    0,000000000e+00    0,000000000e+00    0,000000000e+00
      744000000    6,312434375e-02   -6,528539956e-02   -5,603942871e-01    9,881420434e-02    0,000000000e+00    0,000000000e+00    0,000000000e+00    0,000000000e+00
      758000000    6,044297293e-02   -1,520571262e-01   -3,665241301e-01    4,011452496e-01    0,000000000e+00    0,000000000e+00    0,000000000e+00    0,000000000e+00
      772000000   -1,784151979e-02   -2,561931610e-01   -4,456034675e-02    5,089071393e-01    0,000000000e+00    0,000000000e+00    0,000000000e+00    0,000000000e+00
      786000000   -2,025678158e-01   -2,904949188e-01    2,601346076e-01    3,990708292e-01    0,000000000e+00    0,000000000e+00    0,000000000e+00    0,000000000e+00
      800000000   -4,069198668e-01   -1,272079945e-01    4,072470963e-01    1,186426356e-01    0,000000000e+00    0,000000000e+00    0,000000000e+00    0,000000000e+00
      814000000   -3,769713044e-01    2,008239925e-01    2,967793643e-01   -1,508917660e-01    0,000000000e+00    0,000000000e+00    0,000000000e+00    0,000000000e+00
      828000000   -6,338936836e-02    3,483620584e-01    8,223618567e-02   -1,910762191e-01    0,000000000e+00    0,000000000e+00    0,000000000e+00    0,000000000e+00
      842000000    2,117611915e-01    1,859948486e-01   -3,347481601e-03   -9,283065051e-02    0,000000000e+00    0,000000000e+00    0,000000000e+00    0,000000000e+00
      856000000    2,659548521e-01   -1,055705100e-01    3,589405864e-02   -3,720848262e-02    0,000000000e+00    0,000000000e+00    0,000000000e+00    0,000000000e+00
      870000000    8,271111548e-02   -3,512266576e-01    8,837262541e-02   -9,735710919e-02    0,000000000e+00    0,000000000e+00    0,000000000e+00    0,000000000e+00
      884000000   -2,677602470e-01   -3,562142253e-01    1,149012521e-02   -2,274114639e-01    0,000000000e+00    0,000000000e+00    0,000000000e+00    0,000000000e+00
      898000000   -4,573125243e-01   -1,390649751e-02   -2,143943459e-01   -2,107733339e-01    0,000000000e+00    0,000000000e+00    0,000000000e+00    0,000000000e+00
      912000000   -2,370984852e-01    2,784694731e-01   -3,266720772e-01    7,522100210e-02    0,000000000e+00    0,000000000e+00    0,000000000e+00    0,000000000e+00
      926000000    5,455270037e-02    2,609231472e-01   -2,094410062e-01    2,605515718e-01    0,000000000e+00    0,000000000e+00    0,000000000e+00    0,000000000e+00
      940000000    2,106786817e-01    8,409103751e-02   -3,074447252e-02    3,252213299e-01    0,000000000e+00    0,000000000e+00    0,000000000e+00    0,000000000e+00
      954000000    2,182229310e-01   -1,219839603e-01    1,310296804e-01    3,019451797e-01    0,000000000e+00    0,000000000e+00    0,000000000e+00    0,000000000e+00
      968000000    1,195882633e-01   -2,930580080e-01    2,665520310e-01    2,159082592e-01    0,000000000e+00    0,000000000e+00    0,000000000e+00    0,000000000e+00
      982000000   -7,534118742e-02   -3,869334459e-01    3,608555794e-01    6,396678835e-02    0,000000000e+00    0,000000000e+00    0,000000000e+00    0,000000000e+00
      996000000   -3,081799448e-01   -3,330849409e-01    3,623825312e-01   -1,430653632e-01    0,000000000e+00    0,000000000e+00    0,000000000e+00    0,000000000e+00
     1010000000   -4,628856480e-01   -1,150523648e-01    2,189659029e-01   -3,359768093e-01    0,000000000e+00    0,000000000e+00    0,000000000e+00    0,000000000e+00
     1024000000   -4,193404615e-01    1,403335780e-01   -2,987871505e-02   -3,872240484e-01    0,000000000e+00    0,000000000e+00    0,000000000e+00    0,000000000e+00
     1038000000   -2,212624699e-01    2,859508097e-01   -2,431087196e-01   -2,547691464e-01    0,000000000e+00    0,000000000e+00    0,000000000e+00    0,000000000e+00
     1052000000   -1,729360037e-02    2,788220644e-01   -3,111470938e-01   -4,455201328e-02    0,000000000e+00    0,000000000e+00    0,000000000e+00    0,000000000e+00
     1066000000    1,309426874e-01    1,704440564e-01   -2,509137392e-01    1,370487809e-01    0,000000000e+00    0,000000000e+00    0,000000000e+00    0,000000000e+00
     1080000000    1,905076206e-01    8,802687749e-03   -1,162053198e-01    2,544662952e-01    0,000000000e+00    0,000000000e+00    0,000000000e+00    0,000000000e+00
     1094000000    1,626723111e-01   -1,611929685e-01    6,057120487e-02    2,916415632e-01    0,000000000e+00    0,000000000e+00    0,000000000e+00    0,000000000e+00
     1108000000    1,638915576e-02   -2,936666906e-01    2,592369616e-01    2,345925868e-01    0,000000000e+00    0,000000000e+00    0,000000000e+00    0,000000000e+00
     1122000000   -2,109443694e-01   -2,798514664e-01    4,385247529e-01    2,577803656e-02    0,000000000e+00    0,000000000e+00    0,000000000e+00    0,000000000e+00
     1136000000   -3,279205859e-01   -3,269192204e-02    4,009948671e-01   -3,454849720e-01    0,000000000e+00    0,000000000e+00    0,000000000e+00    0,000000000e+00
     1150000000   -1,080671027e-01    1,404924691e-01    5,055881664e-02   -5,347756147e-01    0,000000000e+00    0,000000000e+00    0,000000000e+00    0,000000000e+00
     1164000000    8,201967925e-02   -1,850765757e-02   -2,534616590e-01   -4,026702344e-01    0,000000000e+00    0,000000000e+00    0,000000000e+00    0,000000000e+00
     1178000000    2,776243538e-02   -2,536805868e-01   -3,681000173e-01   -1,805238277e-01    0,000000000e+00    0,000000000e+00    0,000000000e+00    0,000000000e+00
     1192000000   -2,205289304e-01   -3,503533304e-01   -3,406831026e-01    3,813419864e-02    0,000000000e+00    0,000000000e+00    0,000000000e+00    0,000000000e+00
     1206000000   -4,759072065e-01   -1,834075451e-01   -1,877658665e-01    1,799204946e-01    0,000000000e+00    0,000000000e+00    0,000000000e+00    0,000000000e+00
     1220000000   -5,085543394e-01    1,349566728e-01   -1,066224091e-02    1,756302863e-01    0,000000000e+00    0,000000000e+00    0,000000000e+00    0,000000000e+00
     1234000000   -2,996849716e-01    3,397276998e-01    7,247209549e-02    7,607680559e-02    0,000000000e+00    0,000000000e+00    0,000000000e+00    0,000000000e+00
     1248000000   -6,417509168e-02    3,639406860e-01    6,945196539e-02    4,212123808e-03    0,000000000e+00    0,000000000e+00    0,000000000e+00    0,000000000e+00
     1262000000    1,075550690e-01    2,581677437e-01    2,900695242e-02   -2,283666283e-02    0,000000000e+00    0,000000000e+00    0,000000000e+00    0,000000000e+00
     1276000000    2,034960389e-01    1,103525534e-01    4,299599212e-03   -6,160205230e-03    0,000000000e+00    0,000000000e+00    0,000000000e+00    0,000000000e+00
     1290000000    2,199025303e-01   -6,213802844e-02    1,268361695e-02    2,475314215e-02    0,000000000e+00    0,000000000e+00    0,000000000e+00    0,000000000e+00
     1304000000    1,667231321e-01   -2,301074117e-01    6,267300993e-02    6,383349746e-02    0,000000000e+00    0,000000000e+00    0,000000000e+00    0,000000000e+00
     1318000000    2,456956916e-02   -3,646792471e-01    1,702096313e-01    1,350415591e-02    0,000000000e+00    0,000000000e+00    0,000000000e+00    0,000000000e+00
     1332000000   -1,488405913e-01   -3,982260525e-01    1,019550189e-01   -1,797686517e-01    0,000000000e+00    0,000000000e+00    0,000000000e+00    0,000000000e+00
     1346000000   -3,613439798e-01   -3,939107955e-01   -5,913435668e-02   -2,676354162e-02    0,000000000e+00    0,000000000e+00    0,000000000e+00    0,000000000e+00
     1360000000   -5,844325423e-01   -2,122277617e-01    6,342505664e-02    7,655468583e-02    0,000000000e+00    0,000000000e+00    0,000000000e+00    0,000000000e+00
     1374000000   -6,281479001e-01    1,102829427e-01    1,747426242e-01    5,965003744e-02    0,000000000e+00    0,000000000e+00    0,000000000e+00    0,000000000e+00
     1388000000   -4,719629884e-01    3,579607308e-01    2,246031761e-01   -2,201690525e-02    0,000000000e+00    0,000000000e+00    0,000000000e+00    0,000000000e+00
     1402000000   -2,479073405e-01    4,494292438e-01    2,107380778e-01   -7,583138347e-02    0,000000000e+00    0,000000000e+00    0,000000000e+00    0,000000000e+00
     1416000000   -4,200788587e-02    4,132125080e-01    1,911191642e-01   -9,882256389e-02    0,000000000e+00    0,000000000e+00    0,000000000e+00    0,000000000e+00
     1430000000    1,119522229e-01    3,169881999e-01    1,841820478e-01   -9,650040418e-02    0,000000000e+00    0,000000000e+00    0,000000000e+00    0,000000000e+00
     1444000000    2,002145052e-01    1,577128917e-01    1,631599963e-01   -1,018970236e-01    0,000000000e+00    0,000000000e+00    0,000000000e+00    0,000000000e+00
     1458000000    2,315409631e-01   -1,530019473e-02    1,430614442e-01   -9,760028124e-02    0,000000000e+00    0,000000000e+00    0,000000000e+00    0,000000000e+00
     1472000000    1,873519719e-01   -1,941492707e-01    1,401380748e-01   -3,497537225e-02    0,000000000e+00    0,000000000e+00    0,000000000e+00    0,000000000e+00
     1486000000    7,146795094e-02   -3,667470217e-01    1,775868833e-01    2,254065499e-02    0,000000000e+00    0,000000000e+00    0,000000000e+00    0,000000000e+00
     1500000000   -1,623497158e-01   -4,890026450e-01    2,235254198e-01    7,629584521e-02    0,000000000e+00    0,000000000e+00    0,000000000e+00    0,000000000e+00
