! NanoVNA-App
! Date: 2025-09-25 15:42:41
! Start: 100MHz Stop: 1,5GHz Points: 101
! S-Parameter data: F S11 S21 S12 S22
# Hz S RI R 50
!     Frequency           S11_Real           S11_Imag           S21_Real           S21_Imag           S12_Real           S12_Imag           S22_Real           S22_Imag
      100000000   -2,875425480e-02   -4,253743216e-03    3,739705086e-01   -7,215851545e-01    0,000000000e+00    0,000000000e+00    0,000000000e+00    0,000000000e+00
      114000000   -1,654577069e-02    1,148549002e-02   -8,903573453e-02   -8,052672148e-01    0,000000000e+00    0,000000000e+00    0,000000000e+00    0,000000000e+00
      128000000    3,436527913e-03    1,068204083e-02   -5,144597888e-01   -6,204148531e-01    0,000000000e+00    0,000000000e+00    0,000000000e+00    0,000000000e+00
      142000000    1,462303381e-02   -2,647207119e-03   -7,669665813e-01   -2,365050912e-01    0,000000000e+00    0,000000000e+00    0,000000000e+00    0,000000000e+00
      156000000    1,545947324e-02   -1,481497008e-02   -7,688684464e-01    2,196157873e-01    0,000000000e+00    0,000000000e+00    0,000000000e+00    0,000000000e+00
      170000000    1,713230275e-02   -2,249693125e-02   -5,176696777e-01    6,043821573e-01    0,000000000e+00    0,000000000e+00    0,000000000e+00    0,000000000e+00
      184000000    2,131341584e-02   -3,711717576e-02   -1,013868377e-01    7,854900956e-01    0,000000000e+00    0,000000000e+00    0,000000000e+00    0,000000000e+00
      198000000    1,321400795e-02   -6,257884949e-02    3,430665731e-01    7,120725513e-01    0,000000000e+00    0,000000000e+00    0,000000000e+00    0,000000000e+00
      212000000   -1,845762134e-02   -8,127656579e-02    6,778008938e-01    4,097767472e-01    0,000000000e+00    0,000000000e+00    0,000000000e+00    0,000000000e+00
      226000000   -6,141173840e-02   -6,920101494e-02    7,954239845e-01   -3,044824861e-02    0,000000000e+00    0,000000000e+00    0,000000000e+00    0,000000000e+00
      240000000   -8,228621632e-02   -2,582405135e-02    6,459326744e-01   -4,667986333e-01    0,000000000e+00    0,000000000e+00    0,000000000e+00    0,000000000e+00
      254000000   -6,343795359e-02    1,693969034e-02    2,760712206e-01   -7,426565289e-01    0,000000000e+00    0,000000000e+00    0,000000000e+00    0,000000000e+00
      268000000   -2,400642447e-02    2,876752429e-02   -1,782687157e-01   -7,637323141e-01    0,000000000e+00    0,000000000e+00    0,000000000e+00    0,000000000e+00
      282000000    4,079169128e-03    1,199175511e-02   -5,612331629e-01   -5,351299644e-01    0,000000000e+00    0,000000000e+00    0,000000000e+00    0,000000000e+00
      296000000    9,773186408e-03   -7,570448332e-03   -7,595162988e-01   -1,395734996e-01    0,000000000e+00    0,000000000e+00    0,000000000e+00    0,000000000e+00
      310000000    1,147118304e-02   -1,605525054e-02   -7,124425769e-01    2,988135517e-01    0,000000000e+00    0,000000000e+00    0,000000000e+00    0,000000000e+00
      324000000    2,002086863e-02   -2,654862963e-02   -4,274718463e-01    6,372751594e-01    0,000000000e+00    0,000000000e+00    0,000000000e+00    0,000000000e+00
      338000000    2,587948553e-02   -5,187716335e-02   -7,117801346e-03    7,600125670e-01    0,000000000e+00    0,000000000e+00    0,000000000e+00    0,000000000e+00
      352000000    7,275887299e-03   -8,502388746e-02    4,058110118e-01    6,385090351e-01    0,000000000e+00    0,000000000e+00    0,000000000e+00    0,000000000e+00
      366000000   -3,447439522e-02   -9,577085823e-02    6,899766922e-01    3,111065328e-01    0,000000000e+00    0,000000000e+00    0,000000000e+00    0,000000000e+00
      380000000   -7,029300183e-02   -7,107103616e-02    7,471079230e-01   -1,259756535e-01    0,000000000e+00    0,000000000e+00    0,000000000e+00    0,000000000e+00
      394000000   -7,207691669e-02   -3,252727166e-02    5,466247201e-01   -5,221806169e-01    0,000000000e+00    0,000000000e+00    0,000000000e+00    0,000000000e+00
      408000000   -4,632424563e-02   -1,658046246e-02    1,616872847e-01   -7,311817408e-01    0,000000000e+00    0,000000000e+00    0,000000000e+00    0,000000000e+00
      422000000   -2,808512002e-02   -3,189484775e-02   -2,669287324e-01   -6,947445273e-01    0,000000000e+00    0,000000000e+00    0,000000000e+00    0,000000000e+00
      436000000   -4,063054174e-02   -5,157782137e-02   -6,035414338e-01   -4,320356250e-01    0,000000000e+00    0,000000000e+00    0,000000000e+00    0,000000000e+00
      450000000   -6,688780338e-02   -4,410120100e-02   -7,393538952e-01   -2,178245038e-02    0,000000000e+00    0,000000000e+00    0,000000000e+00    0,000000000e+00
      464000000   -7,277137786e-02   -1,189787779e-02   -6,180810332e-01    3,966436386e-01    0,000000000e+00    0,000000000e+00    0,000000000e+00    0,000000000e+00
      478000000   -4,760886729e-02    1,159633044e-02   -2,828887105e-01    6,672243476e-01    0,000000000e+00    0,000000000e+00    0,000000000e+00    0,000000000e+00
      492000000   -1,541519444e-02    5,581952631e-03    1,369182914e-01    7,017387152e-01    0,000000000e+00    0,000000000e+00    0,000000000e+00    0,000000000e+00
      506000000   -2,909725765e-03   -1,586947776e-02    4,979382455e-01    5,025417805e-01    0,000000000e+00    0,000000000e+00    0,000000000e+00    0,000000000e+00
      520000000   -4,973231349e-03   -3,096962534e-02    6,881569028e-01    1,423326284e-01    0,000000000e+00    0,000000000e+00    0,000000000e+00    0,000000000e+00
      534000000   -3,813513787e-03   -3,789739683e-02    6,430548429e-01   -2,618532479e-01    0,000000000e+00    0,000000000e+00    0,000000000e+00    0,000000000e+00
      548000000    6,628999021e-03   -5,385693535e-02    3,812800348e-01   -5,661126375e-01    0,000000000e+00    0,000000000e+00    0,000000000e+00    0,000000000e+00
      562000000    3,365161363e-03   -8,940419555e-02    3,052699380e-03   -6,716336608e-01    0,000000000e+00    0,000000000e+00    0,000000000e+00    0,000000000e+00
      576000000   -3,386349976e-02   -1,241357550e-01   -3,682496250e-01   -5,570433736e-01    0,000000000e+00    0,000000000e+00    0,000000000e+00    0,000000000e+00
      590000000   -9,576274455e-02   -1,226452813e-01   -6,205456257e-01   -2,634084821e-01    0,000000000e+00    0,000000000e+00    0,000000000e+00    0,000000000e+00
      604000000   -1,391201168e-01   -7,213772088e-02   -6,642429829e-01    1,366514564e-01    0,000000000e+00    0,000000000e+00    0,000000000e+00    0,000000000e+00
      618000000   -1,294891387e-01   -9,952699766e-03   -4,651087224e-01    4,929129779e-01    0,000000000e+00    0,000000000e+00    0,000000000e+00    0,000000000e+00
      632000000   -8,434703946e-02    1,551414840e-02   -1,004036590e-01    6,631092429e-01    0,000000000e+00    0,000000000e+00    0,000000000e+00    0,000000000e+00
      646000000   -5,262306333e-02    8,159748977e-04    2,851818502e-01    5,938180685e-01    0,000000000e+00    0,000000000e+00    0,000000000e+00    0,000000000e+00
      660000000   -5,340640992e-02   -2,053034492e-02    5,644300580e-01    3,232309818e-01    0,000000000e+00    0,000000000e+00    0,000000000e+00    0,000000000e+00
      674000000   -6,971698254e-02   -1,732094027e-02    6,406648159e-01   -6,309101731e-02    0,000000000e+00    0,000000000e+00    0,000000000e+00    0,000000000e+00
      688000000   -6,658223271e-02    8,685890585e-03    4,702073336e-01   -4,240718782e-01    0,000000000e+00    0,000000000e+00    0,000000000e+00    0,000000000e+00
      702000000   -3,713825345e-02    2,595660649e-02    1,282441616e-01   -6,088748574e-01    0,000000000e+00    0,000000000e+00    0,000000000e+00    0,000000000e+00
      716000000    3,722755704e-03    1,540201437e-02   -2,592037618e-01   -5,440181494e-01    0,000000000e+00    0,000000000e+00    0,000000000e+00    0,000000000e+00
      730000000    3,732556850e-02   -1,415158994e-02   -5,222166777e-01   -2,714138627e-01    0,000000000e+00    0,000000000e+00    0,000000000e+00    0,000000000e+00
      744000000    6,305430084e-02   -6,487019360e-02   -5,606237054e-01    9,850120544e-02    0,000000000e+00    0,000000000e+00    0,000000000e+00    0,000000000e+00
      758000000    6,098381057e-02   -1,512392163e-01   -3,665803969e-01    4,001441002e-01    0,000000000e+00    0,000000000e+00    0,000000000e+00    0,000000000e+00
      772000000   -1,758045517e-02   -2,561923862e-01   -4,540936649e-02    5,095978975e-01    0,000000000e+00    0,000000000e+00    0,000000000e+00    0,000000000e+00
      786000000   -2,020791769e-01   -2,908293307e-01    2,594600618e-01    3,995089829e-01    0,000000000e+00    0,000000000e+00    0,000000000e+00    0,000000000e+00
      800000000   -4,079962075e-01   -1,264678240e-01    4,071274102e-01    1,180638075e-01    0,000000000e+00    0,000000000e+00    0,000000000e+00    0,000000000e+00
      814000000   -3,773599267e-01    2,017537802e-01    2,959848940e-01   -1,515176892e-01    0,000000000e+00    0,000000000e+00    0,000000000e+00    0,000000000e+00
      828000000   -6,293271482e-02    3,470646739e-01    8,263359219e-02   -1,910748333e-01    0,000000000e+00    0,000000000e+00    0,000000000e+00    0,000000000e+00
      842000000    2,117851973e-01    1,856392026e-01   -3,509142902e-03   -9,334184229e-02    0,000000000e+00    0,000000000e+00    0,000000000e+00    0,000000000e+00
      856000000    2,659153640e-01   -1,058377549e-01    3,575418144e-02   -3,706716746e-02    0,000000000e+00    0,000000000e+00    0,000000000e+00    0,000000000e+00
      870000000    8,228203654e-02   -3,504789472e-01    8,888464421e-02   -9,733427316e-02    0,000000000e+00    0,000000000e+00    0,000000000e+00    0,000000000e+00
      884000000   -2,673147321e-01   -3,550758064e-01    1,096876431e-02   -2,272133976e-01    0,000000000e+00    0,000000000e+00    0,000000000e+00    0,000000000e+00
      898000000   -4,585214555e-01   -1,392687671e-02   -2,155760676e-01   -2,094111890e-01    0,000000000e+00    0,000000000e+00    0,000000000e+00    0,000000000e+00
      912000000   -2,339862138e-01    2,780089378e-01   -3,413464427e-01    7,792009413e-02    0,000000000e+00    0,000000000e+00    0,000000000e+00    0,000000000e+00
      926000000    5,409521982e-02    2,611788809e-01   -2,115538865e-01    2,606760263e-01    0,000000000e+00    0,000000000e+00    0,000000000e+00    0,000000000e+00
      940000000    2,089696378e-01    8,676950634e-02   -3,158043697e-02    3,260768652e-01    0,000000000e+00    0,000000000e+00    0,000000000e+00    0,000000000e+00
      954000000    2,210135609e-01   -1,231742054e-01    1,317028254e-01    2,989230454e-01    0,000000000e+00    0,000000000e+00    0,000000000e+00    0,000000000e+00
      968000000    1,190040410e-01   -2,963585556e-01    2,699674964e-01    2,152808160e-01    0,000000000e+00    0,000000000e+00    0,000000000e+00    0,000000000e+00
      982000000   -7,618086785e-02   -3,833854198e-01    3,598547578e-01    6,311921775e-02    0,000000000e+00    0,000000000e+00    0,000000000e+00    0,000000000e+00
      996000000   -3,099511266e-01   -3,277067840e-01    3,621316552e-01   -1,450086236e-01    0,000000000e+00    0,000000000e+00    0,000000000e+00    0,000000000e+00
     1010000000   -4,619607329e-01   -1,135598347e-01    2,197195888e-01   -3,347826898e-01    0,000000000e+00    0,000000000e+00    0,000000000e+00    0,000000000e+00
     1024000000   -4,133350849e-01    1,409079432e-01   -3,354671597e-02   -3,845840394e-01    0,000000000e+00    0,000000000e+00    0,000000000e+00    0,000000000e+00
     1038000000   -2,207750380e-01    2,913084328e-01   -2,407743335e-01   -2,569613457e-01    0,000000000e+00    0,000000000e+00    0,000000000e+00    0,000000000e+00
     1052000000   -1,416962314e-02    2,777444124e-01   -3,112046421e-01   -4,654551670e-02    0,000000000e+00    0,000000000e+00    0,000000000e+00    0,000000000e+00
     1066000000    1,336898804e-01    1,676696390e-01   -2,517336607e-01    1,383056790e-01    0,000000000e+00    0,000000000e+00    0,000000000e+00    0,000000000e+00
     1080000000    1,954125315e-01    1,042886451e-02   -1,182667911e-01    2,525765598e-01    0,000000000e+00    0,000000000e+00    0,000000000e+00    0,000000000e+00
     1094000000    1,602988392e-01   -1,610010415e-01    6,000970677e-02    2,927402854e-01    0,000000000e+00    0,000000000e+00    0,000000000e+00    0,000000000e+00
     1108000000    1,567783393e-02   -2,938076258e-01    2,617159486e-01    2,332085967e-01    0,000000000e+00    0,000000000e+00    0,000000000e+00    0,000000000e+00
     1122000000   -2,170837373e-01   -2,830047309e-01    4,384849966e-01    2,324482054e-02    0,000000000e+00    0,000000000e+00    0,000000000e+00    0,000000000e+00
     1136000000   -3,238216341e-01   -2,754761465e-02    3,988279700e-01   -3,475100994e-01    0,000000000e+00    0,000000000e+00    0,000000000e+00    0,000000000e+00
     1150000000   -1,066168621e-01    1,408100575e-01    4,956364259e-02   -5,320596695e-01    0,000000000e+00    0,000000000e+00    0,000000000e+00    0,000000000e+00
     1164000000    8,672938496e-02   -1,710004918e-02   -2,481495440e-01   -4,043379128e-01    0,000000000e+00    0,000000000e+00    0,000000000e+00    0,000000000e+00
     1178000000    2,781669796e-02   -2,546721995e-01   -3,716408312e-01   -1,823266000e-01    0,000000000e+00    0,000000000e+00    0,000000000e+00    0,000000000e+00
     1192000000   -2,238776237e-01   -3,462550342e-01   -3,420597017e-01    4,051845148e-02    0,000000000e+00    0,000000000e+00    0,000000000e+00    0,000000000e+00
     1206000000   -4,787611365e-01   -1,787515134e-01   -1,888863593e-01    1,853506565e-01    0,000000000e+00    0,000000000e+00    0,000000000e+00    0,000000000e+00
     1220000000   -5,043351054e-01    1,335211992e-01   -1,135508623e-02    1,795187145e-01    0,000000000e+00    0,000000000e+00    0,000000000e+00    0,000000000e+00
     1234000000   -2,984283268e-01    3,383002877e-01    7,017780840e-02    7,872157544e-02    0,000000000e+00    0,000000000e+00    0,000000000e+00    0,000000000e+00
     1248000000   -6,569303572e-02    3,594853282e-01    7,058661431e-02    9,512602264e-05    0,000000000e+00    0,000000000e+00    0,000000000e+00    0,000000000e+00
     1262000000    1,113599464e-01    2,630226016e-01    3,042892367e-02   -2,090184391e-02    0,000000000e+00    0,000000000e+00    0,000000000e+00    0,000000000e+00
     1276000000    2,023475468e-01    1,089636236e-01    5,924781784e-03   -6,103908177e-03    0,000000000e+00    0,000000000e+00    0,000000000e+00    0,000000000e+00
     1290000000    2,201658338e-01   -6,567939371e-02    5,087404978e-03    2,728486434e-02    0,000000000e+00    0,000000000e+00    0,000000000e+00    0,000000000e+00
     1304000000    1,693163812e-01   -2,323808819e-01    6,882368028e-02    6,194797158e-02    0,000000000e+00    0,000000000e+00    0,000000000e+00    0,000000000e+00
     1318000000    2,338111401e-02   -3,658086956e-01    1,697350889e-01    1,695207134e-02    0,000000000e+00    0,000000000e+00    0,000000000e+00    0,000000000e+00
     1332000000   -1,531025618e-01   -3,954444826e-01    9,622783959e-02   -1,757631302e-01    0,000000000e+00    0,000000000e+00    0,000000000e+00    0,000000000e+00
     1346000000   -3,582303524e-01   -3,911301494e-01   -4,645175487e-02   -2,359975874e-02    0,000000000e+00    0,000000000e+00    0,000000000e+00    0,000000000e+00
     1360000000   -5,864423513e-01   -2,151493579e-01    7,024217397e-02    8,165799826e-02    0,000000000e+00    0,000000000e+00    0,000000000e+00    0,000000000e+00
     1374000000   -6,235662699e-01    1,033828855e-01    1,836662591e-01    4,668164998e-02    0,000000000e+00    0,000000000e+00    0,000000000e+00    0,000000000e+00
     1388000000   -4,776016474e-01    3,429056108e-01    2,070343941e-01   -2,917031571e-02    0,000000000e+00    0,000000000e+00    0,000000000e+00    0,000000000e+00
     1402000000   -2,449322641e-01    4,471539259e-01    2,075433582e-01   -7,112742215e-02    0,000000000e+00    0,000000000e+00    0,000000000e+00    0,000000000e+00
     1416000000   -3,361077979e-02    4,114426076e-01    1,969905943e-01   -1,041277349e-01    0,000000000e+00    0,000000000e+00    0,000000000e+00    0,000000000e+00
     1430000000    1,101090983e-01    3,010118306e-01    1,774215549e-01   -1,382447630e-01    0,000000000e+00    0,000000000e+00    0,000000000e+00    0,000000000e+00
     1444000000    1,999230087e-01    1,617994756e-01    1,602366269e-01   -1,050975919e-01    0,000000000e+00    0,000000000e+00    0,000000000e+00    0,000000000e+00
     1458000000    2,311957479e-01   -9,519950487e-03    1,586419493e-01   -8,342553675e-02    0,000000000e+00    0,000000000e+00    0,000000000e+00    0,000000000e+00
     1472000000    1,885085106e-01   -1,963086128e-01    1,401836127e-01   -3,689195216e-02    0,000000000e+00    0,000000000e+00    0,000000000e+00    0,000000000e+00
     1486000000    6,516017765e-02   -3,692286313e-01    1,565979570e-01    1,641469449e-02    0,000000000e+00    0,000000000e+00    0,000000000e+00    0,000000000e+00
     1500000000   -1,672111154e-01   -4,841982424e-01    2,147700936e-01    9,794123471e-02    0,000000000e+00    0,000000000e+00    0,000000000e+00    0,000000000e+00
