! NanoVNA-App
! Date: 2025-09-25 15:40:23
! Start: 100MHz Stop: 1,5GHz Points: 101
! S-Parameter data: F S11 S21 S12 S22
# Hz S RI R 50
!     Frequency           S11_Real           S11_Imag           S21_Real           S21_Imag           S12_Real           S12_Imag           S22_Real           S22_Imag
      100000000   -2,865157090e-02   -4,228301346e-03    3,738722205e-01   -7,214612365e-01    0,000000000e+00    0,000000000e+00    0,000000000e+00    0,000000000e+00
      114000000   -1,644242182e-02    1,145897992e-02   -8,924881369e-02   -8,050746918e-01    0,000000000e+00    0,000000000e+00    0,000000000e+00    0,000000000e+00
      128000000    3,518569749e-03    1,071993448e-02   -5,145860314e-01   -6,201894283e-01    0,000000000e+00    0,000000000e+00    0,000000000e+00    0,000000000e+00
      142000000    1,471657958e-02   -2,637136960e-03   -7,667498589e-01   -2,363800555e-01    0,000000000e+00    0,000000000e+00    0,000000000e+00    0,000000000e+00
      156000000    1,594061032e-02   -1,470521465e-02   -7,707444429e-01    2,217182070e-01    0,000000000e+00    0,000000000e+00    0,000000000e+00    0,000000000e+00
      170000000    1,723573171e-02   -2,251401730e-02   -5,177100897e-01    6,042094827e-01    0,000000000e+00    0,000000000e+00    0,000000000e+00    0,000000000e+00
      184000000    2,140058577e-02   -3,715086728e-02   -1,014917493e-01    7,853966355e-01    0,000000000e+00    0,000000000e+00    0,000000000e+00    0,000000000e+00
      198000000    1,325826533e-02   -6,253631413e-02    3,429314196e-01    7,122507691e-01    0,000000000e+00    0,000000000e+00    0,000000000e+00    0,000000000e+00
      212000000   -1,837694459e-02   -8,126604557e-02    6,777554750e-01    4,096173048e-01    0,000000000e+00    0,000000000e+00    0,000000000e+00    0,000000000e+00
      226000000   -6,120269001e-02   -6,922473013e-02    7,952890396e-01   -3,059976920e-02    0,000000000e+00    0,000000000e+00    0,000000000e+00    0,000000000e+00
      240000000   -8,210863918e-02   -2,581595071e-02    6,455608010e-01   -4,665702879e-01    0,000000000e+00    0,000000000e+00    0,000000000e+00    0,000000000e+00
      254000000   -6,327176839e-02    1,685014553e-02    2,758401334e-01   -7,424986959e-01    0,000000000e+00    0,000000000e+00    0,000000000e+00    0,000000000e+00
      268000000   -2,392924204e-02    2,868626453e-02   -1,778677106e-01   -7,634505630e-01    0,000000000e+00    0,000000000e+00    0,000000000e+00    0,000000000e+00
      282000000    4,030444194e-03    1,200916339e-02   -5,614351034e-01   -5,352486968e-01    0,000000000e+00    0,000000000e+00    0,000000000e+00    0,000000000e+00
      296000000    1,000109222e-02   -7,538580336e-03   -7,594032288e-01   -1,396600306e-01    0,000000000e+00    0,000000000e+00    0,000000000e+00    0,000000000e+00
      310000000    1,172389556e-02   -1,600328460e-02   -7,110252976e-01    2,976770997e-01    0,000000000e+00    0,000000000e+00    0,000000000e+00    0,000000000e+00
      324000000    2,018901892e-02   -2,670555562e-02   -4,265418351e-01    6,372587681e-01    0,000000000e+00    0,000000000e+00    0,000000000e+00    0,000000000e+00
      338000000    2,555671893e-02   -5,261006951e-02   -7,361430675e-03    7,624660134e-01    0,000000000e+00    0,000000000e+00    0,000000000e+00    0,000000000e+00
      352000000    7,497105747e-03   -8,490597457e-02    4,061911404e-01    6,399952173e-01    0,000000000e+00    0,000000000e+00    0,000000000e+00    0,000000000e+00
      366000000   -3,427380696e-02   -9,540791065e-02    6,901986599e-01    3,113095164e-01    0,000000000e+00    0,000000000e+00    0,000000000e+00    0,000000000e+00
      380000000   -7,036092132e-02   -7,114988565e-02    7,465946078e-01   -1,257368326e-01    0,000000000e+00    0,000000000e+00    0,000000000e+00    0,000000000e+00
      394000000   -7,219342142e-02   -3,244712576e-02    5,460352302e-01   -5,195645690e-01    0,000000000e+00    0,000000000e+00    0,000000000e+00    0,000000000e+00
      408000000   -4,626427963e-02   -1,629286259e-02    1,613016129e-01   -7,308842540e-01    0,000000000e+00    0,000000000e+00    0,000000000e+00    0,000000000e+00
      422000000   -2,812698670e-02   -3,210391104e-02   -2,670228779e-01   -6,940759420e-01    0,000000000e+00    0,000000000e+00    0,000000000e+00    0,000000000e+00
      436000000   -4,033301026e-02   -5,175536126e-02   -6,036242843e-01   -4,313111007e-01    0,000000000e+00    0,000000000e+00    0,000000000e+00    0,000000000e+00
      450000000   -6,715776771e-02   -4,370119423e-02   -7,398161888e-01   -2,170264907e-02    0,000000000e+00    0,000000000e+00    0,000000000e+00    0,000000000e+00
      464000000   -7,256288081e-02   -1,208937634e-02   -6,174076200e-01    3,967666626e-01    0,000000000e+00    0,000000000e+00    0,000000000e+00    0,000000000e+00
      478000000   -4,755535349e-02    1,105047110e-02   -2,826216221e-01    6,669592261e-01    0,000000000e+00    0,000000000e+00    0,000000000e+00    0,000000000e+00
      492000000   -1,562185585e-02    5,419788882e-03    1,369426101e-01    7,001710534e-01    0,000000000e+00    0,000000000e+00    0,000000000e+00    0,000000000e+00
      506000000   -2,429713495e-03   -1,608729362e-02    4,979747832e-01    5,025606155e-01    0,000000000e+00    0,000000000e+00    0,000000000e+00    0,000000000e+00
      520000000   -4,729353357e-03   -3,159212694e-02    6,883310676e-01    1,417934299e-01    0,000000000e+00    0,000000000e+00    0,000000000e+00    0,000000000e+00
      534000000   -3,516310593e-03   -3,775509074e-02    6,429266930e-01   -2,614800930e-01    0,000000000e+00    0,000000000e+00    0,000000000e+00    0,000000000e+00
      548000000    6,711085327e-03   -5,425622314e-02    3,811372221e-01   -5,660474300e-01    0,000000000e+00    0,000000000e+00    0,000000000e+00    0,000000000e+00
      562000000    3,638914088e-03   -8,985000104e-02    3,381056711e-03   -6,713868976e-01    0,000000000e+00    0,000000000e+00    0,000000000e+00    0,000000000e+00
      576000000   -3,435755521e-02   -1,245900989e-01   -3,682689965e-01   -5,567997694e-01    0,000000000e+00    0,000000000e+00    0,000000000e+00    0,000000000e+00
      590000000   -9,551153332e-02   -1,226952747e-01   -6,210699081e-01   -2,635208964e-01    0,000000000e+00    0,000000000e+00    0,000000000e+00    0,000000000e+00
      604000000   -1,384966075e-01   -7,218547910e-02   -6,635513306e-01    1,367200464e-01    0,000000000e+00    0,000000000e+00    0,000000000e+00    0,000000000e+00
      618000000   -1,289246380e-01   -9,811930358e-03   -4,643163383e-01    4,925102293e-01    0,000000000e+00    0,000000000e+00    0,000000000e+00    0,000000000e+00
      632000000   -8,412494510e-02    1,566248015e-02   -1,001822278e-01    6,618384719e-01    0,000000000e+00    0,000000000e+00    0,000000000e+00    0,000000000e+00
      646000000   -5,264278501e-02    4,750896769e-04    2,846893966e-01    5,940347910e-01    0,000000000e+00    0,000000000e+00    0,000000000e+00    0,000000000e+00
      660000000   -5,301600695e-02   -2,078925818e-02    5,643786788e-01    3,230338097e-01    0,000000000e+00    0,000000000e+00    0,000000000e+00    0,000000000e+00
      674000000   -6,897883862e-02   -1,640600897e-02    6,405228972e-01   -6,305913627e-02    0,000000000e+00    0,000000000e+00    0,000000000e+00    0,000000000e+00
      688000000   -6,752466410e-02    8,630883880e-03    4,706351161e-01   -4,239190519e-01    0,000000000e+00    0,000000000e+00    0,000000000e+00    0,000000000e+00
      702000000   -3,592869267e-02    2,648043260e-02    1,218203902e-01   -6,032142639e-01    0,000000000e+00    0,000000000e+00    0,000000000e+00    0,000000000e+00
      716000000    2,914692042e-03    1,636936516e-02   -2,592490911e-01   -5,440126657e-01    0,000000000e+00    0,000000000e+00    0,000000000e+00    0,000000000e+00
      730000000    3,632924706e-02   -1,407507714e-02   -5,216748118e-01   -2,710202634e-01    0,000000000e+00    0,000000000e+00    0,000000000e+00    0,000000000e+00
      744000000    6,216660142e-02   -6,560949236e-02   -5,599367023e-01    9,889491647e-02    0,000000000e+00    0,000000000e+00    0,000000000e+00    0,000000000e+00
      758000000    6,166655943e-02   -1,525442451e-01   -3,651129901e-01    4,004278481e-01    0,000000000e+00    0,000000000e+00    0,000000000e+00    0,000000000e+00
      772000000   -1,767229475e-02   -2,553640306e-01   -4,486982152e-02    5,089062452e-01    0,000000000e+00    0,000000000e+00    0,000000000e+00    0,000000000e+00
      786000000   -2,018134892e-01   -2,914039195e-01    2,592962384e-01    3,989065588e-01    0,000000000e+00    0,000000000e+00    0,000000000e+00    0,000000000e+00
      800000000   -4,081662297e-01   -1,275923848e-01    4,069752693e-01    1,185733229e-01    0,000000000e+00    0,000000000e+00    0,000000000e+00    0,000000000e+00
      814000000   -3,765719831e-01    2,027095258e-01    2,953571379e-01   -1,511150151e-01    0,000000000e+00    0,000000000e+00    0,000000000e+00    0,000000000e+00
      828000000   -6,276091933e-02    3,473408222e-01    8,202449977e-02   -1,900343001e-01    0,000000000e+00    0,000000000e+00    0,000000000e+00    0,000000000e+00
      842000000    2,117540389e-01    1,848058105e-01   -3,086169949e-03   -9,276957065e-02    0,000000000e+00    0,000000000e+00    0,000000000e+00    0,000000000e+00
      856000000    2,655394971e-01   -1,061433256e-01    3,634994850e-02   -3,631078824e-02    0,000000000e+00    0,000000000e+00    0,000000000e+00    0,000000000e+00
      870000000    8,170633018e-02   -3,519885838e-01    8,864393830e-02   -9,756056219e-02    0,000000000e+00    0,000000000e+00    0,000000000e+00    0,000000000e+00
      884000000   -2,675030529e-01   -3,561698794e-01    1,155372988e-02   -2,287252992e-01    0,000000000e+00    0,000000000e+00    0,000000000e+00    0,000000000e+00
      898000000   -4,581578672e-01   -1,307144575e-02   -2,172206044e-01   -2,097541392e-01    0,000000000e+00    0,000000000e+00    0,000000000e+00    0,000000000e+00
      912000000   -2,350545824e-01    2,791862488e-01   -3,426589668e-01    6,727111340e-02    0,000000000e+00    0,000000000e+00    0,000000000e+00    0,000000000e+00
      926000000    5,602470413e-02    2,633468807e-01   -2,084227502e-01    2,636982501e-01    0,000000000e+00    0,000000000e+00    0,000000000e+00    0,000000000e+00
      940000000    2,106583267e-01    8,226902783e-02   -3,153122589e-02    3,248531222e-01    0,000000000e+00    0,000000000e+00    0,000000000e+00    0,000000000e+00
      954000000    2,184212506e-01   -1,213617623e-01    1,313987970e-01    3,018722832e-01    0,000000000e+00    0,000000000e+00    0,000000000e+00    0,000000000e+00
      968000000    1,183149219e-01   -2,924670577e-01    2,692282498e-01    2,148036957e-01    0,000000000e+00    0,000000000e+00    0,000000000e+00    0,000000000e+00
      982000000   -7,938819379e-02   -3,850306571e-01    3,602715731e-01    6,361762434e-02    0,000000000e+00    0,000000000e+00    0,000000000e+00    0,000000000e+00
      996000000   -3,096705973e-01   -3,281470239e-01    3,628158271e-01   -1,444336772e-01    0,000000000e+00    0,000000000e+00    0,000000000e+00    0,000000000e+00
     1010000000   -4,590621591e-01   -1,192696244e-01    2,195930034e-01   -3,359998465e-01    0,000000000e+00    0,000000000e+00    0,000000000e+00    0,000000000e+00
     1024000000   -4,188078046e-01    1,409789920e-01   -3,007900529e-02   -3,875443637e-01    0,000000000e+00    0,000000000e+00    0,000000000e+00    0,000000000e+00
     1038000000   -2,217915654e-01    2,912395298e-01   -2,418395728e-01   -2,584657371e-01    0,000000000e+00    0,000000000e+00    0,000000000e+00    0,000000000e+00
     1052000000   -1,483093761e-02    2,781250775e-01   -3,114194870e-01   -4,708273336e-02    0,000000000e+00    0,000000000e+00    0,000000000e+00    0,000000000e+00
     1066000000    1,336320639e-01    1,695491523e-01   -2,506235540e-01    1,403142363e-01    0,000000000e+00    0,000000000e+00    0,000000000e+00    0,000000000e+00
     1080000000    1,907595396e-01    4,304389935e-03   -1,167640314e-01    2,547932863e-01    0,000000000e+00    0,000000000e+00    0,000000000e+00    0,000000000e+00
     1094000000    1,623249203e-01   -1,655328721e-01    5,933869630e-02    2,936846316e-01    0,000000000e+00    0,000000000e+00    0,000000000e+00    0,000000000e+00
     1108000000    2,191632241e-02   -2,948459983e-01    2,596609890e-01    2,342637330e-01    0,000000000e+00    0,000000000e+00    0,000000000e+00    0,000000000e+00
     1122000000   -2,159821987e-01   -2,793531716e-01    4,416014552e-01    2,383835986e-02    0,000000000e+00    0,000000000e+00    0,000000000e+00    0,000000000e+00
     1136000000   -3,267826438e-01   -2,676945366e-02    4,010599852e-01   -3,452175260e-01    0,000000000e+00    0,000000000e+00    0,000000000e+00    0,000000000e+00
     1150000000   -1,023941636e-01    1,401988864e-01    4,683387652e-02   -5,302168131e-01    0,000000000e+00    0,000000000e+00    0,000000000e+00    0,000000000e+00
     1164000000    8,654926717e-02   -2,082494460e-02   -2,541412115e-01   -4,029163718e-01    0,000000000e+00    0,000000000e+00    0,000000000e+00    0,000000000e+00
     1178000000    2,899854258e-02   -2,504602671e-01   -3,686465621e-01   -1,757092625e-01    0,000000000e+00    0,000000000e+00    0,000000000e+00    0,000000000e+00
     1192000000   -2,228541821e-01   -3,443458080e-01   -3,400779366e-01    4,200457409e-02    0,000000000e+00    0,000000000e+00    0,000000000e+00    0,000000000e+00
     1206000000   -4,825389981e-01   -1,798808277e-01   -1,907555014e-01    1,826983988e-01    0,000000000e+00    0,000000000e+00    0,000000000e+00    0,000000000e+00
     1220000000   -5,000504851e-01    1,430300921e-01   -6,845610216e-03    1,738480031e-01    0,000000000e+00    0,000000000e+00    0,000000000e+00    0,000000000e+00
     1234000000   -3,037733138e-01    3,383544981e-01    7,419189066e-02    8,119172603e-02    0,000000000e+00    0,000000000e+00    0,000000000e+00    0,000000000e+00
     1248000000   -5,698392168e-02    3,529499173e-01    6,625491381e-02    1,922952477e-03    0,000000000e+00    0,000000000e+00    0,000000000e+00    0,000000000e+00
     1262000000    1,161982268e-01    2,569155097e-01    3,202687949e-02   -2,404256724e-02    0,000000000e+00    0,000000000e+00    0,000000000e+00    0,000000000e+00
     1276000000    2,017366588e-01    1,048937216e-01    5,479624029e-03   -1,226916909e-02    0,000000000e+00    0,000000000e+00    0,000000000e+00    0,000000000e+00
     1290000000    2,193329185e-01   -5,942615867e-02    8,525419049e-03    3,056126833e-02    0,000000000e+00    0,000000000e+00    0,000000000e+00    0,000000000e+00
     1304000000    1,655680835e-01   -2,326904535e-01    6,282136589e-02    5,508664623e-02    0,000000000e+00    0,000000000e+00    0,000000000e+00    0,000000000e+00
     1318000000    2,127663605e-02   -3,666190803e-01    1,611678004e-01    1,338094566e-02    0,000000000e+00    0,000000000e+00    0,000000000e+00    0,000000000e+00
     1332000000   -1,513933539e-01   -3,927170932e-01    9,828701615e-02   -1,763990223e-01    0,000000000e+00    0,000000000e+00    0,000000000e+00    0,000000000e+00
     1346000000   -3,595713079e-01   -3,908787668e-01   -5,242450908e-02   -1,736887917e-02    0,000000000e+00    0,000000000e+00    0,000000000e+00    0,000000000e+00
     1360000000   -5,870235562e-01   -2,034480870e-01    5,339827761e-02    8,287428319e-02    0,000000000e+00    0,000000000e+00    0,000000000e+00    0,000000000e+00
     1374000000   -6,235508919e-01    9,806221724e-02    1,794609725e-01    4,663937166e-02    0,000000000e+00    0,000000000e+00    0,000000000e+00    0,000000000e+00
     1388000000   -4,729462564e-01    3,499684334e-01    2,122174948e-01   -2,524652891e-02    0,000000000e+00    0,000000000e+00    0,000000000e+00    0,000000000e+00
     1402000000   -2,458715439e-01    4,414497614e-01    2,053559572e-01   -8,025869727e-02    0,000000000e+00    0,000000000e+00    0,000000000e+00    0,000000000e+00
     1416000000   -3,916200995e-02    4,044606984e-01    1,937599927e-01   -1,162503809e-01    0,000000000e+00    0,000000000e+00    0,000000000e+00    0,000000000e+00
     1430000000    1,133327857e-01    3,118393719e-01    2,094812542e-01   -1,215801015e-01    0,000000000e+00    0,000000000e+00    0,000000000e+00    0,000000000e+00
     1444000000    2,049890310e-01    1,587533206e-01    1,710526645e-01   -1,095057577e-01    0,000000000e+00    0,000000000e+00    0,000000000e+00    0,000000000e+00
     1458000000    2,299666852e-01   -1,471145730e-02    1,411157846e-01   -8,179422468e-02    0,000000000e+00    0,000000000e+00    0,000000000e+00    0,000000000e+00
     1472000000    1,848170012e-01   -1,952264160e-01    1,331316531e-01   -4,671940207e-02    0,000000000e+00    0,000000000e+00    0,000000000e+00    0,000000000e+00
     1486000000    6,634984910e-02   -3,673641086e-01    1,643303335e-01    7,651729975e-03    0,000000000e+00    0,000000000e+00    0,000000000e+00    0,000000000e+00
     1500000000   -1,567466259e-01   -4,857007861e-01    2,387502939e-01    8,020770550e-02    0,000000000e+00    0,000000000e+00    0,000000000e+00    0,000000000e+00
