! NanoVNA-App
! Date: 2025-09-25 15:38:50
! Start: 100MHz Stop: 1,5GHz Points: 101
! S-Parameter data: F S11 S21 S12 S22
# Hz S RI R 50
!     Frequency           S11_Real           S11_Imag           S21_Real           S21_Imag           S12_Real           S12_Imag           S22_Real           S22_Imag
      100000000   -2,868551202e-02   -4,237624351e-03    3,738247454e-01   -7,214854956e-01    0,000000000e+00    0,000000000e+00    0,000000000e+00    0,000000000e+00
      114000000   -1,647332497e-02    1,146993972e-02   -8,924026042e-02   -8,049675226e-01    0,000000000e+00    0,000000000e+00    0,000000000e+00    0,000000000e+00
      128000000    3,416136373e-03    1,068768650e-02   -5,145949721e-01   -6,201598048e-01    0,000000000e+00    0,000000000e+00    0,000000000e+00    0,000000000e+00
      142000000    1,468909066e-02   -2,617956605e-03   -7,667666674e-01   -2,363105267e-01    0,000000000e+00    0,000000000e+00    0,000000000e+00    0,000000000e+00
      156000000    1,627135836e-02   -1,413657330e-02   -7,693435550e-01    2,241874635e-01    0,000000000e+00    0,000000000e+00    0,000000000e+00    0,000000000e+00
      170000000    1,715576835e-02   -2,251499332e-02   -5,178157687e-01    6,045364141e-01    0,000000000e+00    0,000000000e+00    0,000000000e+00    0,000000000e+00
      184000000    2,138193697e-02   -3,721756861e-02   -1,014751568e-01    7,854166031e-01    0,000000000e+00    0,000000000e+00    0,000000000e+00    0,000000000e+00
      198000000    1,327045262e-02   -6,255338341e-02    3,433073163e-01    7,120258212e-01    0,000000000e+00    0,000000000e+00    0,000000000e+00    0,000000000e+00
      212000000   -1,841665804e-02   -8,128508180e-02    6,780636311e-01    4,097966850e-01    0,000000000e+00    0,000000000e+00    0,000000000e+00    0,000000000e+00
      226000000   -6,128308922e-02   -6,925787032e-02    7,953014970e-01   -3,056002036e-02    0,000000000e+00    0,000000000e+00    0,000000000e+00    0,000000000e+00
      240000000   -8,213112503e-02   -2,576750703e-02    6,456380486e-01   -4,667609930e-01    0,000000000e+00    0,000000000e+00    0,000000000e+00    0,000000000e+00
      254000000   -6,330087781e-02    1,684680022e-02    2,759871781e-01   -7,427210808e-01    0,000000000e+00    0,000000000e+00    0,000000000e+00    0,000000000e+00
      268000000   -2,397787757e-02    2,872537635e-02   -1,776933372e-01   -7,634505033e-01    0,000000000e+00    0,000000000e+00    0,000000000e+00    0,000000000e+00
      282000000    4,143992905e-03    1,206184551e-02   -5,616534352e-01   -5,349884033e-01    0,000000000e+00    0,000000000e+00    0,000000000e+00    0,000000000e+00
      296000000    9,874740615e-03   -7,626983337e-03   -7,593731880e-01   -1,393807828e-01    0,000000000e+00    0,000000000e+00    0,000000000e+00    0,000000000e+00
      310000000    1,170726959e-02   -1,609974168e-02   -7,115098238e-01    2,973839939e-01    0,000000000e+00    0,000000000e+00    0,000000000e+00    0,000000000e+00
      324000000    1,999634877e-02   -2,671230584e-02   -4,279932082e-01    6,373671293e-01    0,000000000e+00    0,000000000e+00    0,000000000e+00    0,000000000e+00
      338000000    2,586479113e-02   -5,209329352e-02   -6,722161081e-03    7,612355947e-01    0,000000000e+00    0,000000000e+00    0,000000000e+00    0,000000000e+00
      352000000    7,262810599e-03   -8,493929356e-02    4,054797590e-01    6,390506625e-01    0,000000000e+00    0,000000000e+00    0,000000000e+00    0,000000000e+00
      366000000   -3,433805704e-02   -9,537462890e-02    6,901180148e-01    3,112971783e-01    0,000000000e+00    0,000000000e+00    0,000000000e+00    0,000000000e+00
      380000000   -7,033059001e-02   -7,123614103e-02    7,469213009e-01   -1,258632541e-01    0,000000000e+00    0,000000000e+00    0,000000000e+00    0,000000000e+00
      394000000   -7,203305513e-02   -3,261785582e-02    5,469774008e-01   -5,211432576e-01    0,000000000e+00    0,000000000e+00    0,000000000e+00    0,000000000e+00
      408000000   -4,618860781e-02   -1,643243618e-02    1,607357413e-01   -7,325530648e-01    0,000000000e+00    0,000000000e+00    0,000000000e+00    0,000000000e+00
      422000000   -2,821391821e-02   -3,219094872e-02   -2,672204077e-01   -6,940509677e-01    0,000000000e+00    0,000000000e+00    0,000000000e+00    0,000000000e+00
      436000000   -4,051294550e-02   -5,184986815e-02   -6,038535237e-01   -4,316643178e-01    0,000000000e+00    0,000000000e+00    0,000000000e+00    0,000000000e+00
      450000000   -6,693492085e-02   -4,397432506e-02   -7,398405671e-01   -2,187126689e-02    0,000000000e+00    0,000000000e+00    0,000000000e+00    0,000000000e+00
      464000000   -7,277755439e-02   -1,165522635e-02   -6,173795462e-01    3,971732557e-01    0,000000000e+00    0,000000000e+00    0,000000000e+00    0,000000000e+00
      478000000   -4,749498889e-02    1,102733891e-02   -2,818163037e-01    6,667234302e-01    0,000000000e+00    0,000000000e+00    0,000000000e+00    0,000000000e+00
      492000000   -1,555632427e-02    5,437884480e-03    1,374668926e-01    7,006393671e-01    0,000000000e+00    0,000000000e+00    0,000000000e+00    0,000000000e+00
      506000000   -2,838996705e-03   -1,589472592e-02    4,971827865e-01    5,020167232e-01    0,000000000e+00    0,000000000e+00    0,000000000e+00    0,000000000e+00
      520000000   -5,335784517e-03   -3,129010275e-02    6,869404316e-01    1,409776509e-01    0,000000000e+00    0,000000000e+00    0,000000000e+00    0,000000000e+00
      534000000   -3,403627779e-03   -3,821481392e-02    6,432003379e-01   -2,617689669e-01    0,000000000e+00    0,000000000e+00    0,000000000e+00    0,000000000e+00
      548000000    6,906446069e-03   -5,397162214e-02    3,811893463e-01   -5,663365126e-01    0,000000000e+00    0,000000000e+00    0,000000000e+00    0,000000000e+00
      562000000    3,440456698e-03   -8,918885142e-02    2,021359513e-03   -6,710820794e-01    0,000000000e+00    0,000000000e+00    0,000000000e+00    0,000000000e+00
      576000000   -3,433330730e-02   -1,242998689e-01   -3,684083223e-01   -5,571148396e-01    0,000000000e+00    0,000000000e+00    0,000000000e+00    0,000000000e+00
      590000000   -9,608789533e-02   -1,227988377e-01   -6,206079125e-01   -2,619758844e-01    0,000000000e+00    0,000000000e+00    0,000000000e+00    0,000000000e+00
      604000000   -1,385539472e-01   -7,250709087e-02   -6,634212136e-01    1,367497295e-01    0,000000000e+00    0,000000000e+00    0,000000000e+00    0,000000000e+00
      618000000   -1,295044571e-01   -1,020425372e-02   -4,645264447e-01    4,927341044e-01    0,000000000e+00    0,000000000e+00    0,000000000e+00    0,000000000e+00
      632000000   -8,470850438e-02    1,540805493e-02   -1,003678218e-01    6,630257964e-01    0,000000000e+00    0,000000000e+00    0,000000000e+00    0,000000000e+00
      646000000   -5,219872296e-02    7,636121591e-04    2,862395048e-01    5,940113664e-01    0,000000000e+00    0,000000000e+00    0,000000000e+00    0,000000000e+00
      660000000   -5,426751822e-02   -2,075563930e-02    5,642464161e-01    3,230472505e-01    0,000000000e+00    0,000000000e+00    0,000000000e+00    0,000000000e+00
      674000000   -6,943119317e-02   -1,612817496e-02    6,410195827e-01   -6,340148300e-02    0,000000000e+00    0,000000000e+00    0,000000000e+00    0,000000000e+00
      688000000   -6,668189913e-02    8,759484626e-03    4,701755643e-01   -4,237148166e-01    0,000000000e+00    0,000000000e+00    0,000000000e+00    0,000000000e+00
      702000000   -3,469492868e-02    2,598205581e-02    1,189330891e-01   -6,072449684e-01    0,000000000e+00    0,000000000e+00    0,000000000e+00    0,000000000e+00
      716000000    3,058889182e-03    1,571119763e-02   -2,590073943e-01   -5,445778966e-01    0,000000000e+00    0,000000000e+00    0,000000000e+00    0,000000000e+00
      730000000    3,636328876e-02   -1,333346870e-02   -5,218200684e-01   -2,707414031e-01    0,000000000e+00    0,000000000e+00    0,000000000e+00    0,000000000e+00
      744000000    6,335301697e-02   -6,490428001e-02   -5,604972243e-01    9,885600954e-02    0,000000000e+00    0,000000000e+00    0,000000000e+00    0,000000000e+00
      758000000    6,104516611e-02   -1,525980979e-01   -3,662052155e-01    4,009417295e-01    0,000000000e+00    0,000000000e+00    0,000000000e+00    0,000000000e+00
      772000000   -1,733022369e-02   -2,564864457e-01   -4,471078515e-02    5,094231963e-01    0,000000000e+00    0,000000000e+00    0,000000000e+00    0,000000000e+00
      786000000   -2,027952224e-01   -2,910024524e-01    2,592815459e-01    3,984847665e-01    0,000000000e+00    0,000000000e+00    0,000000000e+00    0,000000000e+00
      800000000   -4,086655974e-01   -1,272302866e-01    4,070828855e-01    1,177321523e-01    0,000000000e+00    0,000000000e+00    0,000000000e+00    0,000000000e+00
      814000000   -3,763784766e-01    2,035349905e-01    2,957488000e-01   -1,507855803e-01    0,000000000e+00    0,000000000e+00    0,000000000e+00    0,000000000e+00
      828000000   -6,211026385e-02    3,471696675e-01    8,247762918e-02   -1,897816360e-01    0,000000000e+00    0,000000000e+00    0,000000000e+00    0,000000000e+00
      842000000    2,116275877e-01    1,849627346e-01   -3,379220376e-03   -9,259668738e-02    0,000000000e+00    0,000000000e+00    0,000000000e+00    0,000000000e+00
      856000000    2,656816542e-01   -1,066814139e-01    3,736932203e-02   -3,697131947e-02    0,000000000e+00    0,000000000e+00    0,000000000e+00    0,000000000e+00
      870000000    8,105662465e-02   -3,510466218e-01    8,897930384e-02   -9,815863520e-02    0,000000000e+00    0,000000000e+00    0,000000000e+00    0,000000000e+00
      884000000   -2,677383125e-01   -3,547215164e-01    1,115706936e-02   -2,281685621e-01    0,000000000e+00    0,000000000e+00    0,000000000e+00    0,000000000e+00
      898000000   -4,569843411e-01   -1,348217949e-02   -2,160731554e-01   -2,100450099e-01    0,000000000e+00    0,000000000e+00    0,000000000e+00    0,000000000e+00
      912000000   -2,343173325e-01    2,784501016e-01   -3,439235091e-01    6,948799640e-02    0,000000000e+00    0,000000000e+00    0,000000000e+00    0,000000000e+00
      926000000    5,575984716e-02    2,639304399e-01   -2,091788948e-01    2,643893957e-01    0,000000000e+00    0,000000000e+00    0,000000000e+00    0,000000000e+00
      940000000    2,084349543e-01    8,550196141e-02   -3,261853755e-02    3,270758390e-01    0,000000000e+00    0,000000000e+00    0,000000000e+00    0,000000000e+00
      954000000    2,219970524e-01   -1,218945086e-01    1,314588338e-01    3,008349240e-01    0,000000000e+00    0,000000000e+00    0,000000000e+00    0,000000000e+00
      968000000    1,184465289e-01   -2,933992445e-01    2,680504322e-01    2,151587009e-01    0,000000000e+00    0,000000000e+00    0,000000000e+00    0,000000000e+00
      982000000   -7,849366963e-02   -3,828582168e-01    3,602302670e-01    6,123983115e-02    0,000000000e+00    0,000000000e+00    0,000000000e+00    0,000000000e+00
      996000000   -3,084609509e-01   -3,322308064e-01    3,625773191e-01   -1,450443417e-01    0,000000000e+00    0,000000000e+00    0,000000000e+00    0,000000000e+00
     1010000000   -4,634182155e-01   -1,186128929e-01    2,203412801e-01   -3,354189694e-01    0,000000000e+00    0,000000000e+00    0,000000000e+00    0,000000000e+00
     1024000000   -4,149421751e-01    1,394592971e-01   -3,273292631e-02   -3,858853579e-01    0,000000000e+00    0,000000000e+00    0,000000000e+00    0,000000000e+00
     1038000000   -2,251290530e-01    2,892806530e-01   -2,399726957e-01   -2,584895492e-01    0,000000000e+00    0,000000000e+00    0,000000000e+00    0,000000000e+00
     1052000000   -1,150585525e-02    2,810540199e-01   -3,109118640e-01   -4,494483769e-02    0,000000000e+00    0,000000000e+00    0,000000000e+00    0,000000000e+00
     1066000000    1,303214580e-01    1,675906777e-01   -2,479333580e-01    1,386798471e-01    0,000000000e+00    0,000000000e+00    0,000000000e+00    0,000000000e+00
     1080000000    1,916588396e-01    1,029896364e-02   -1,160669252e-01    2,545848489e-01    0,000000000e+00    0,000000000e+00    0,000000000e+00    0,000000000e+00
     1094000000    1,576135010e-01   -1,632176340e-01    6,106714532e-02    2,899932265e-01    0,000000000e+00    0,000000000e+00    0,000000000e+00    0,000000000e+00
     1108000000    1,506415941e-02   -2,975281775e-01    2,604375482e-01    2,342920750e-01    0,000000000e+00    0,000000000e+00    0,000000000e+00    0,000000000e+00
     1122000000   -2,156754136e-01   -2,788872421e-01    4,398905337e-01    2,282404341e-02    0,000000000e+00    0,000000000e+00    0,000000000e+00    0,000000000e+00
     1136000000   -3,220549822e-01   -3,145883232e-02    3,986276090e-01   -3,436359465e-01    0,000000000e+00    0,000000000e+00    0,000000000e+00    0,000000000e+00
     1150000000   -1,004177108e-01    1,395034492e-01    4,819511995e-02   -5,295645595e-01    0,000000000e+00    0,000000000e+00    0,000000000e+00    0,000000000e+00
     1164000000    8,729053289e-02   -1,718804240e-02   -2,517552078e-01   -4,007000327e-01    0,000000000e+00    0,000000000e+00    0,000000000e+00    0,000000000e+00
     1178000000    2,924370766e-02   -2,503797710e-01   -3,683618605e-01   -1,754170358e-01    0,000000000e+00    0,000000000e+00    0,000000000e+00    0,000000000e+00
     1192000000   -2,240576446e-01   -3,435203433e-01   -3,403694630e-01    4,109542444e-02    0,000000000e+00    0,000000000e+00    0,000000000e+00    0,000000000e+00
     1206000000   -4,749585390e-01   -1,797461361e-01   -1,873585731e-01    1,798559278e-01    0,000000000e+00    0,000000000e+00    0,000000000e+00    0,000000000e+00
     1220000000   -5,041659474e-01    1,368713826e-01   -1,342534274e-02    1,787768900e-01    0,000000000e+00    0,000000000e+00    0,000000000e+00    0,000000000e+00
     1234000000   -2,961441875e-01    3,475577533e-01    7,567548752e-02    8,141824603e-02    0,000000000e+00    0,000000000e+00    0,000000000e+00    0,000000000e+00
     1248000000   -6,190939248e-02    3,632687330e-01    7,091138512e-02    5,035017966e-04    0,000000000e+00    0,000000000e+00    0,000000000e+00    0,000000000e+00
     1262000000    1,064282432e-01    2,583552301e-01    3,097607568e-02   -2,120156400e-02    0,000000000e+00    0,000000000e+00    0,000000000e+00    0,000000000e+00
     1276000000    2,022924572e-01    1,100513265e-01    9,507535025e-03   -2,540663816e-03    0,000000000e+00    0,000000000e+00    0,000000000e+00    0,000000000e+00
     1290000000    2,222607583e-01   -6,621302664e-02    1,114672795e-02    2,715186030e-02    0,000000000e+00    0,000000000e+00    0,000000000e+00    0,000000000e+00
     1304000000    1,697562784e-01   -2,303245068e-01    6,624194980e-02    5,847050250e-02    0,000000000e+00    0,000000000e+00    0,000000000e+00    0,000000000e+00
     1318000000    2,413990535e-02   -3,664748073e-01    1,735311449e-01    1,724988781e-02    0,000000000e+00    0,000000000e+00    0,000000000e+00    0,000000000e+00
     1332000000   -1,453012675e-01   -3,966776133e-01    1,057840139e-01   -1,812472641e-01    0,000000000e+00    0,000000000e+00    0,000000000e+00    0,000000000e+00
     1346000000   -3,577161431e-01   -3,898804188e-01   -4,996782914e-02   -1,520986389e-02    0,000000000e+00    0,000000000e+00    0,000000000e+00    0,000000000e+00
     1360000000   -5,827207565e-01   -1,995567679e-01    6,276047230e-02    1,005038619e-01    0,000000000e+00    0,000000000e+00    0,000000000e+00    0,000000000e+00
     1374000000   -6,249114871e-01    1,022199616e-01    1,841862053e-01    4,783044383e-02    0,000000000e+00    0,000000000e+00    0,000000000e+00    0,000000000e+00
     1388000000   -4,705743492e-01    3,464431763e-01    2,217536718e-01   -3,774049878e-02    0,000000000e+00    0,000000000e+00    0,000000000e+00    0,000000000e+00
     1402000000   -2,489890754e-01    4,407738447e-01    2,091893256e-01   -8,516878635e-02    0,000000000e+00    0,000000000e+00    0,000000000e+00    0,000000000e+00
     1416000000   -3,231656924e-02    4,113373458e-01    1,974922121e-01   -1,091116071e-01    0,000000000e+00    0,000000000e+00    0,000000000e+00    0,000000000e+00
     1430000000    1,174478233e-01    3,036256135e-01    1,817273349e-01   -1,267095804e-01    0,000000000e+00    0,000000000e+00    0,000000000e+00    0,000000000e+00
     1444000000    1,999349594e-01    1,612748802e-01    1,674078554e-01   -1,028358713e-01    0,000000000e+00    0,000000000e+00    0,000000000e+00    0,000000000e+00
     1458000000    2,308096290e-01   -1,391863637e-02    1,393328607e-01   -8,231192082e-02    0,000000000e+00    0,000000000e+00    0,000000000e+00    0,000000000e+00
     1472000000    1,837815493e-01   -1,899665296e-01    1,369455904e-01   -3,364729136e-02    0,000000000e+00    0,000000000e+00    0,000000000e+00    0,000000000e+00
     1486000000    7,115889341e-02   -3,619139493e-01    1,813203543e-01    1,488023344e-02    0,000000000e+00    0,000000000e+00    0,000000000e+00    0,000000000e+00
     1500000000   -1,617467701e-01   -4,944346845e-01    2,317366451e-01    7,595342398e-02    0,000000000e+00    0,000000000e+00    0,000000000e+00    0,000000000e+00
