! NanoVNA-App
! Date: 2025-09-25 15:45:02
! Start: 100MHz Stop: 1,5GHz Points: 101
! S-Parameter data: F S11 S21 S12 S22
# Hz S RI R 50
!     Frequency           S11_Real           S11_Imag           S21_Real           S21_Imag           S12_Real           S12_Imag           S22_Real           S22_Imag
      100000000   -2,876709402e-02   -4,241175018e-03    3,739700913e-01   -7,215709090e-01    0,000000000e+00    0,000000000e+00    0,000000000e+00    0,000000000e+00
      114000000   -1,651619934e-02    1,150105987e-02   -8,899401128e-02   -8,050552607e-01    0,000000000e+00    0,000000000e+00    0,000000000e+00    0,000000000e+00
      128000000    3,414784325e-03    1,071575657e-02   -5,145466924e-01   -6,203703284e-01    0,000000000e+00    0,000000000e+00    0,000000000e+00    0,000000000e+00
      142000000    1,466445904e-02   -2,673361683e-03   -7,669686079e-01   -2,364859134e-01    0,000000000e+00    0,000000000e+00    0,000000000e+00    0,000000000e+00
      156000000    1,546370890e-02   -1,450046711e-02   -7,673793435e-01    2,227032930e-01    0,000000000e+00    0,000000000e+00    0,000000000e+00    0,000000000e+00
      170000000    1,709146239e-02   -2,246769704e-02   -5,178257823e-01    6,044229865e-01    0,000000000e+00    0,000000000e+00    0,000000000e+00    0,000000000e+00
      184000000    2,127762698e-02   -3,713405132e-02   -1,013461873e-01    7,860178947e-01    0,000000000e+00    0,000000000e+00    0,000000000e+00    0,000000000e+00
      198000000    1,325244736e-02   -6,255651265e-02    3,428710699e-01    7,120356560e-01    0,000000000e+00    0,000000000e+00    0,000000000e+00    0,000000000e+00
      212000000   -1,841788553e-02   -8,131628484e-02    6,778829694e-01    4,098527133e-01    0,000000000e+00    0,000000000e+00    0,000000000e+00    0,000000000e+00
      226000000   -6,142262369e-02   -6,930645555e-02    7,954366207e-01   -3,043027222e-02    0,000000000e+00    0,000000000e+00    0,000000000e+00    0,000000000e+00
      240000000   -8,228193969e-02   -2,573152632e-02    6,460263133e-01   -4,669121206e-01    0,000000000e+00    0,000000000e+00    0,000000000e+00    0,000000000e+00
      254000000   -6,342336535e-02    1,699419133e-02    2,763895094e-01   -7,430713177e-01    0,000000000e+00    0,000000000e+00    0,000000000e+00    0,000000000e+00
      268000000   -2,398922667e-02    2,883026563e-02   -1,780563295e-01   -7,640155554e-01    0,000000000e+00    0,000000000e+00    0,000000000e+00    0,000000000e+00
      282000000    4,118987825e-03    1,208338793e-02   -5,618304014e-01   -5,355239511e-01    0,000000000e+00    0,000000000e+00    0,000000000e+00    0,000000000e+00
      296000000    9,764640592e-03   -7,622502744e-03   -7,594498396e-01   -1,397051960e-01    0,000000000e+00    0,000000000e+00    0,000000000e+00    0,000000000e+00
      310000000    1,145606115e-02   -1,597614214e-02   -7,119146585e-01    2,973289788e-01    0,000000000e+00    0,000000000e+00    0,000000000e+00    0,000000000e+00
      324000000    1,999971829e-02   -2,668122388e-02   -4,270289242e-01    6,375693083e-01    0,000000000e+00    0,000000000e+00    0,000000000e+00    0,000000000e+00
      338000000    2,570676990e-02   -5,196963251e-02   -9,105448611e-03    7,591100335e-01    0,000000000e+00    0,000000000e+00    0,000000000e+00    0,000000000e+00
      352000000    7,354305591e-03   -8,477235585e-02    4,058234394e-01    6,394506097e-01    0,000000000e+00    0,000000000e+00    0,000000000e+00    0,000000000e+00
      366000000   -3,465177864e-02   -9,559283406e-02    6,892951727e-01    3,113576472e-01    0,000000000e+00    0,000000000e+00    0,000000000e+00    0,000000000e+00
      380000000   -7,037011534e-02   -7,103114575e-02    7,474237084e-01   -1,248927340e-01    0,000000000e+00    0,000000000e+00    0,000000000e+00    0,000000000e+00
      394000000   -7,196856290e-02   -3,254499659e-02    5,454637408e-01   -5,211680532e-01    0,000000000e+00    0,000000000e+00    0,000000000e+00    0,000000000e+00
      408000000   -4,635558650e-02   -1,629986614e-02    1,613910347e-01   -7,323081493e-01    0,000000000e+00    0,000000000e+00    0,000000000e+00    0,000000000e+00
      422000000   -2,857284248e-02   -3,195279837e-02   -2,668244243e-01   -6,952857375e-01    0,000000000e+00    0,000000000e+00    0,000000000e+00    0,000000000e+00
      436000000   -4,055350646e-02   -5,209286883e-02   -6,035749316e-01   -4,320919216e-01    0,000000000e+00    0,000000000e+00    0,000000000e+00    0,000000000e+00
      450000000   -6,718418002e-02   -4,402775690e-02   -7,397632003e-01   -2,216164954e-02    0,000000000e+00    0,000000000e+00    0,000000000e+00    0,000000000e+00
      464000000   -7,315029949e-02   -1,175943390e-02   -6,187865138e-01    3,967139721e-01    0,000000000e+00    0,000000000e+00    0,000000000e+00    0,000000000e+00
      478000000   -4,737665132e-02    1,126671862e-02   -2,824743092e-01    6,663935184e-01    0,000000000e+00    0,000000000e+00    0,000000000e+00    0,000000000e+00
      492000000   -1,533577405e-02    5,912710447e-03    1,372796595e-01    7,020866275e-01    0,000000000e+00    0,000000000e+00    0,000000000e+00    0,000000000e+00
      506000000   -2,873276593e-03   -1,589068584e-02    4,976617694e-01    5,019932985e-01    0,000000000e+00    0,000000000e+00    0,000000000e+00    0,000000000e+00
      520000000   -5,114022177e-03   -3,157058358e-02    6,887719035e-01    1,424650401e-01    0,000000000e+00    0,000000000e+00    0,000000000e+00    0,000000000e+00
      534000000   -3,777615260e-03   -3,752502799e-02    6,425993443e-01   -2,617641687e-01    0,000000000e+00    0,000000000e+00    0,000000000e+00    0,000000000e+00
      548000000    5,980865099e-03   -5,387904122e-02    3,813959658e-01   -5,656531453e-01    0,000000000e+00    0,000000000e+00    0,000000000e+00    0,000000000e+00
      562000000    3,397676628e-03   -8,930473030e-02    3,092171624e-03   -6,715141535e-01    0,000000000e+00    0,000000000e+00    0,000000000e+00    0,000000000e+00
      576000000   -3,369595855e-02   -1,242168248e-01   -3,677425385e-01   -5,563443303e-01    0,000000000e+00    0,000000000e+00    0,000000000e+00    0,000000000e+00
      590000000   -9,568528831e-02   -1,228014827e-01   -6,186878085e-01   -2,657942176e-01    0,000000000e+00    0,000000000e+00    0,000000000e+00    0,000000000e+00
      604000000   -1,392267048e-01   -7,200624794e-02   -6,643304825e-01    1,363794655e-01    0,000000000e+00    0,000000000e+00    0,000000000e+00    0,000000000e+00
      618000000   -1,297407150e-01   -9,721218608e-03   -4,651840925e-01    4,929719269e-01    0,000000000e+00    0,000000000e+00    0,000000000e+00    0,000000000e+00
      632000000   -8,399970084e-02    1,613716781e-02   -9,872416407e-02    6,628368497e-01    0,000000000e+00    0,000000000e+00    0,000000000e+00    0,000000000e+00
      646000000   -5,135770515e-02    8,021184476e-04    2,856085896e-01    5,953317285e-01    0,000000000e+00    0,000000000e+00    0,000000000e+00    0,000000000e+00
      660000000   -5,380405858e-02   -2,128481492e-02    5,646851063e-01    3,237212896e-01    0,000000000e+00    0,000000000e+00    0,000000000e+00    0,000000000e+00
      674000000   -6,952377409e-02   -1,595957577e-02    6,408874393e-01   -6,264516711e-02    0,000000000e+00    0,000000000e+00    0,000000000e+00    0,000000000e+00
      688000000   -6,652967632e-02    8,805400692e-03    4,710220397e-01   -4,242678881e-01    0,000000000e+00    0,000000000e+00    0,000000000e+00    0,000000000e+00
      702000000   -3,519376740e-02    2,617339231e-02    1,200728416e-01   -6,093251705e-01    0,000000000e+00    0,000000000e+00    0,000000000e+00    0,000000000e+00
      716000000    2,867628587e-03    1,613334753e-02   -2,592577338e-01   -5,448578000e-01    0,000000000e+00    0,000000000e+00    0,000000000e+00    0,000000000e+00
      730000000    3,634063154e-02   -1,444999222e-02   -5,216775537e-01   -2,716071010e-01    0,000000000e+00    0,000000000e+00    0,000000000e+00    0,000000000e+00
      744000000    6,243374571e-02   -6,459795684e-02   -5,603022575e-01    9,828199446e-02    0,000000000e+00    0,000000000e+00    0,000000000e+00    0,000000000e+00
      758000000    6,110218167e-02   -1,523170471e-01   -3,668404520e-01    4,007157087e-01    0,000000000e+00    0,000000000e+00    0,000000000e+00    0,000000000e+00
      772000000   -1,675480977e-02   -2,556325793e-01   -4,639384151e-02    5,096844435e-01    0,000000000e+00    0,000000000e+00    0,000000000e+00    0,000000000e+00
      786000000   -2,021890879e-01   -2,909120321e-01    2,590146065e-01    3,998742700e-01    0,000000000e+00    0,000000000e+00    0,000000000e+00    0,000000000e+00
      800000000   -4,066991210e-01   -1,271391064e-01    4,071270823e-01    1,189051047e-01    0,000000000e+00    0,000000000e+00    0,000000000e+00    0,000000000e+00
      814000000   -3,770118356e-01    2,011795789e-01    2,971664667e-01   -1,505498588e-01    0,000000000e+00    0,000000000e+00    0,000000000e+00    0,000000000e+00
      828000000   -6,269085407e-02    3,472869396e-01    8,299452811e-02   -1,914487928e-01    0,000000000e+00    0,000000000e+00    0,000000000e+00    0,000000000e+00
      842000000    2,112031430e-01    1,865105182e-01   -4,044634290e-03   -9,374525398e-02    0,000000000e+00    0,000000000e+00    0,000000000e+00    0,000000000e+00
      856000000    2,664034367e-01   -1,051256359e-01    3,542121872e-02   -3,654005006e-02    0,000000000e+00    0,000000000e+00    0,000000000e+00    0,000000000e+00
      870000000    8,349534869e-02   -3,501680195e-01    8,826516569e-02   -9,617978334e-02    0,000000000e+00    0,000000000e+00    0,000000000e+00    0,000000000e+00
      884000000   -2,669064701e-01   -3,571764231e-01    1,179771870e-02   -2,266985774e-01    0,000000000e+00    0,000000000e+00    0,000000000e+00    0,000000000e+00
      898000000   -4,583296776e-01   -1,428612415e-02   -2,146556973e-01   -2,096533030e-01    0,000000000e+00    0,000000000e+00    0,000000000e+00    0,000000000e+00
      912000000   -2,367993295e-01    2,793410718e-01   -3,430666327e-01    7,533473521e-02    0,000000000e+00    0,000000000e+00    0,000000000e+00    0,000000000e+00
      926000000    5,567140877e-02    2,624559700e-01   -2,076424509e-01    2,632149160e-01    0,000000000e+00    0,000000000e+00    0,000000000e+00    0,000000000e+00
      940000000    2,117656618e-01    8,643013239e-02   -3,096018545e-02    3,258487880e-01    0,000000000e+00    0,000000000e+00    0,000000000e+00    0,000000000e+00
      954000000    2,210095227e-01   -1,201163605e-01    1,310369521e-01    3,020777702e-01    0,000000000e+00    0,000000000e+00    0,000000000e+00    0,000000000e+00
      968000000    1,209115684e-01   -2,947971225e-01    2,695155144e-01    2,135768682e-01    0,000000000e+00    0,000000000e+00    0,000000000e+00    0,000000000e+00
      982000000   -7,990871370e-02   -3,865831792e-01    3,595917523e-01    6,282306463e-02    0,000000000e+00    0,000000000e+00    0,000000000e+00    0,000000000e+00
      996000000   -3,126912117e-01   -3,330790401e-01    3,619104922e-01   -1,451247185e-01    0,000000000e+00    0,000000000e+00    0,000000000e+00    0,000000000e+00
     1010000000   -4,590064883e-01   -1,196628734e-01    2,204152942e-01   -3,334206045e-01    0,000000000e+00    0,000000000e+00    0,000000000e+00    0,000000000e+00
     1024000000   -4,204457402e-01    1,462457627e-01   -3,188703954e-02   -3,869788945e-01    0,000000000e+00    0,000000000e+00    0,000000000e+00    0,000000000e+00
     1038000000   -2,265959233e-01    2,884946465e-01   -2,415403426e-01   -2,557000518e-01    0,000000000e+00    0,000000000e+00    0,000000000e+00    0,000000000e+00
     1052000000   -1,135946903e-02    2,824038565e-01   -3,114693463e-01   -4,681416228e-02    0,000000000e+00    0,000000000e+00    0,000000000e+00    0,000000000e+00
     1066000000    1,331657916e-01    1,665015668e-01   -2,520460188e-01    1,385928690e-01    0,000000000e+00    0,000000000e+00    0,000000000e+00    0,000000000e+00
     1080000000    1,919319183e-01    1,006950811e-02   -1,163245738e-01    2,538400292e-01    0,000000000e+00    0,000000000e+00    0,000000000e+00    0,000000000e+00
     1094000000    1,635746807e-01   -1,639460474e-01    5,916395411e-02    2,923729122e-01    0,000000000e+00    0,000000000e+00    0,000000000e+00    0,000000000e+00
     1108000000    1,736791991e-02   -2,988813818e-01    2,595084906e-01    2,335973680e-01    0,000000000e+00    0,000000000e+00    0,000000000e+00    0,000000000e+00
     1122000000   -2,115348130e-01   -2,858319283e-01    4,403131008e-01    2,748605795e-02    0,000000000e+00    0,000000000e+00    0,000000000e+00    0,000000000e+00
     1136000000   -3,237094879e-01   -3,340642154e-02    3,973481357e-01   -3,415215313e-01    0,000000000e+00    0,000000000e+00    0,000000000e+00    0,000000000e+00
     1150000000   -1,107534245e-01    1,383938491e-01    4,922437295e-02   -5,283759236e-01    0,000000000e+00    0,000000000e+00    0,000000000e+00    0,000000000e+00
     1164000000    8,785607666e-02   -1,680224016e-02   -2,540759444e-01   -4,043364227e-01    0,000000000e+00    0,000000000e+00    0,000000000e+00    0,000000000e+00
     1178000000    2,764635161e-02   -2,498853952e-01   -3,689852655e-01   -1,800241470e-01    0,000000000e+00    0,000000000e+00    0,000000000e+00    0,000000000e+00
     1192000000   -2,220852375e-01   -3,510785699e-01   -3,398867249e-01    3,968224302e-02    0,000000000e+00    0,000000000e+00    0,000000000e+00    0,000000000e+00
     1206000000   -4,801959097e-01   -1,789874285e-01   -1,887788326e-01    1,853165627e-01    0,000000000e+00    0,000000000e+00    0,000000000e+00    0,000000000e+00
     1220000000   -5,041062832e-01    1,358405501e-01   -1,063895877e-02    1,784301698e-01    0,000000000e+00    0,000000000e+00    0,000000000e+00    0,000000000e+00
     1234000000   -3,003358543e-01    3,474896848e-01    7,585080713e-02    7,985362411e-02    0,000000000e+00    0,000000000e+00    0,000000000e+00    0,000000000e+00
     1248000000   -6,545252353e-02    3,632592261e-01    6,533126533e-02   -1,567777217e-04    0,000000000e+00    0,000000000e+00    0,000000000e+00    0,000000000e+00
     1262000000    1,065229774e-01    2,602836788e-01    2,749501169e-02   -2,486380376e-02    0,000000000e+00    0,000000000e+00    0,000000000e+00    0,000000000e+00
     1276000000    2,008606493e-01    1,074137539e-01    3,411975922e-03   -8,150970563e-03    0,000000000e+00    0,000000000e+00    0,000000000e+00    0,000000000e+00
     1290000000    2,202918530e-01   -6,497335434e-02    1,304339804e-02    2,199003473e-02    0,000000000e+00    0,000000000e+00    0,000000000e+00    0,000000000e+00
     1304000000    1,687506735e-01   -2,308364362e-01    6,363146007e-02    5,518851429e-02    0,000000000e+00    0,000000000e+00    0,000000000e+00    0,000000000e+00
     1318000000    2,414413169e-02   -3,652532399e-01    1,654350311e-01    1,314626541e-02    0,000000000e+00    0,000000000e+00    0,000000000e+00    0,000000000e+00
     1332000000   -1,498727500e-01   -3,895736635e-01    1,014442518e-01   -1,745489091e-01    0,000000000e+00    0,000000000e+00    0,000000000e+00    0,000000000e+00
     1346000000   -3,621372581e-01   -3,887334168e-01   -6,357558072e-02   -1,611278579e-02    0,000000000e+00    0,000000000e+00    0,000000000e+00    0,000000000e+00
     1360000000   -5,901098847e-01   -2,071743608e-01    5,350124463e-02    9,019732475e-02    0,000000000e+00    0,000000000e+00    0,000000000e+00    0,000000000e+00
     1374000000   -6,310902834e-01    1,008169204e-01    1,732864529e-01    5,314629152e-02    0,000000000e+00    0,000000000e+00    0,000000000e+00    0,000000000e+00
     1388000000   -4,733862579e-01    3,557371497e-01    2,189760655e-01   -1,477024332e-02    0,000000000e+00    0,000000000e+00    0,000000000e+00    0,000000000e+00
     1402000000   -2,446336597e-01    4,461965859e-01    2,130533159e-01   -8,958504349e-02    0,000000000e+00    0,000000000e+00    0,000000000e+00    0,000000000e+00
     1416000000   -4,246465489e-02    4,169514477e-01    1,835458279e-01   -1,057711989e-01    0,000000000e+00    0,000000000e+00    0,000000000e+00    0,000000000e+00
     1430000000    1,119670421e-01    3,037955761e-01    1,727505028e-01   -1,240067482e-01    0,000000000e+00    0,000000000e+00    0,000000000e+00    0,000000000e+00
     1444000000    2,009250224e-01    1,578240991e-01    1,577605605e-01   -1,030916497e-01    0,000000000e+00    0,000000000e+00    0,000000000e+00    0,000000000e+00
     1458000000    2,301456481e-01   -1,360446308e-02    1,523890048e-01   -8,381283283e-02    0,000000000e+00    0,000000000e+00    0,000000000e+00    0,000000000e+00
     1472000000    1,916118413e-01   -1,935902238e-01    1,501242816e-01   -3,932444379e-02    0,000000000e+00    0,000000000e+00    0,000000000e+00    0,000000000e+00
     1486000000    7,052151114e-02   -3,711056411e-01    1,641682684e-01    1,220528036e-02    0,000000000e+00    0,000000000e+00    0,000000000e+00    0,000000000e+00
     1500000000   -1,556504816e-01   -4,842338860e-01    2,332642376e-01    8,817289770e-02    0,000000000e+00    0,000000000e+00    0,000000000e+00    0,000000000e+00
