! NanoVNA-App
! Date: 2025-09-25 15:45:43
! Start: 100MHz Stop: 1,5GHz Points: 101
! S-Parameter data: F S11 S21 S12 S22
# Hz S RI R 50
!     Frequency           S11_Real           S11_Imag           S21_Real           S21_Imag           S12_Real           S12_Imag           S22_Real           S22_Imag
      100000000   -2,880184539e-02   -4,244582728e-03    3,739668429e-01   -7,215780616e-01    0,000000000e+00    0,000000000e+00    0,000000000e+00    0,000000000e+00
      114000000   -1,657308266e-02    1,151532959e-02   -8,898626268e-02   -8,052434325e-01    0,000000000e+00    0,000000000e+00    0,000000000e+00    0,000000000e+00
      128000000    3,422937589e-03    1,073071361e-02   -5,144696832e-01   -6,201713085e-01    0,000000000e+00    0,000000000e+00    0,000000000e+00    0,000000000e+00
      142000000    1,462832466e-02   -2,657523379e-03   -7,670348287e-01   -2,366357148e-01    0,000000000e+00    0,000000000e+00    0,000000000e+00    0,000000000e+00
      156000000    1,609988883e-02   -1,448102109e-02   -7,720282078e-01    2,234251797e-01    0,000000000e+00    0,000000000e+00    0,000000000e+00    0,000000000e+00
      170000000    1,707982272e-02   -2,247678675e-02   -5,179396868e-01    6,045322418e-01    0,000000000e+00    0,000000000e+00    0,000000000e+00    0,000000000e+00
      184000000    2,129573934e-02   -3,710601106e-02   -1,017595828e-01    7,861002684e-01    0,000000000e+00    0,000000000e+00    0,000000000e+00    0,000000000e+00
      198000000    1,323980745e-02   -6,248263270e-02    3,432744741e-01    7,122672796e-01    0,000000000e+00    0,000000000e+00    0,000000000e+00    0,000000000e+00
      212000000   -1,844838075e-02   -8,129186928e-02    6,778005362e-01    4,099100530e-01    0,000000000e+00    0,000000000e+00    0,000000000e+00    0,000000000e+00
      226000000   -6,139807776e-02   -6,924868375e-02    7,954630852e-01   -3,045446053e-02    0,000000000e+00    0,000000000e+00    0,000000000e+00    0,000000000e+00
      240000000   -8,233888447e-02   -2,577124164e-02    6,460636854e-01   -4,669688344e-01    0,000000000e+00    0,000000000e+00    0,000000000e+00    0,000000000e+00
      254000000   -6,345420331e-02    1,698918827e-02    2,759932280e-01   -7,429807186e-01    0,000000000e+00    0,000000000e+00    0,000000000e+00    0,000000000e+00
      268000000   -2,398895286e-02    2,888848633e-02   -1,778908223e-01   -7,641156912e-01    0,000000000e+00    0,000000000e+00    0,000000000e+00    0,000000000e+00
      282000000    4,021578468e-03    1,213265862e-02   -5,618091226e-01   -5,355840325e-01    0,000000000e+00    0,000000000e+00    0,000000000e+00    0,000000000e+00
      296000000    9,781110100e-03   -7,626252249e-03   -7,596294284e-01   -1,399123967e-01    0,000000000e+00    0,000000000e+00    0,000000000e+00    0,000000000e+00
      310000000    1,154534705e-02   -1,596456021e-02   -7,117800117e-01    2,979864478e-01    0,000000000e+00    0,000000000e+00    0,000000000e+00    0,000000000e+00
      324000000    1,999250613e-02   -2,645438164e-02   -4,273975790e-01    6,378516555e-01    0,000000000e+00    0,000000000e+00    0,000000000e+00    0,000000000e+00
      338000000    2,596776374e-02   -5,211045966e-02   -9,080849588e-03    7,611417174e-01    0,000000000e+00    0,000000000e+00    0,000000000e+00    0,000000000e+00
      352000000    7,479465567e-03   -8,463790268e-02    4,055674076e-01    6,396326423e-01    0,000000000e+00    0,000000000e+00    0,000000000e+00    0,000000000e+00
      366000000   -3,455136716e-02   -9,557270259e-02    6,894804835e-01    3,115565479e-01    0,000000000e+00    0,000000000e+00    0,000000000e+00    0,000000000e+00
      380000000   -7,046960294e-02   -7,118296623e-02    7,473175526e-01   -1,253598481e-01    0,000000000e+00    0,000000000e+00    0,000000000e+00    0,000000000e+00
      394000000   -7,217596471e-02   -3,250250965e-02    5,453634858e-01   -5,216616392e-01    0,000000000e+00    0,000000000e+00    0,000000000e+00    0,000000000e+00
      408000000   -4,639070854e-02   -1,641879790e-02    1,615192592e-01   -7,334545851e-01    0,000000000e+00    0,000000000e+00    0,000000000e+00    0,000000000e+00
      422000000   -2,828229405e-02   -3,206231818e-02   -2,662155032e-01   -6,949900985e-01    0,000000000e+00    0,000000000e+00    0,000000000e+00    0,000000000e+00
      436000000   -4,035845771e-02   -5,157396570e-02   -6,035571694e-01   -4,315439165e-01    0,000000000e+00    0,000000000e+00    0,000000000e+00    0,000000000e+00
      450000000   -6,701746583e-02   -4,402233288e-02   -7,402511835e-01   -2,228238434e-02    0,000000000e+00    0,000000000e+00    0,000000000e+00    0,000000000e+00
      464000000   -7,293781638e-02   -1,211430784e-02   -6,179458499e-01    3,966751993e-01    0,000000000e+00    0,000000000e+00    0,000000000e+00    0,000000000e+00
      478000000   -4,754424095e-02    1,122032478e-02   -2,825958729e-01    6,664494872e-01    0,000000000e+00    0,000000000e+00    0,000000000e+00    0,000000000e+00
      492000000   -1,560674328e-02    6,051099859e-03    1,369541585e-01    7,016842961e-01    0,000000000e+00    0,000000000e+00    0,000000000e+00    0,000000000e+00
      506000000   -2,578671090e-03   -1,622439548e-02    4,973489344e-01    5,024939179e-01    0,000000000e+00    0,000000000e+00    0,000000000e+00    0,000000000e+00
      520000000   -5,394756794e-03   -3,117820062e-02    6,872164607e-01    1,411232203e-01    0,000000000e+00    0,000000000e+00    0,000000000e+00    0,000000000e+00
      534000000   -3,497810801e-03   -3,801190853e-02    6,431761980e-01   -2,615433931e-01    0,000000000e+00    0,000000000e+00    0,000000000e+00    0,000000000e+00
      548000000    6,430979818e-03   -5,379927903e-02    3,819763660e-01   -5,664466023e-01    0,000000000e+00    0,000000000e+00    0,000000000e+00    0,000000000e+00
      562000000    3,686701646e-03   -8,899927139e-02    2,960086800e-03   -6,705544591e-01    0,000000000e+00    0,000000000e+00    0,000000000e+00    0,000000000e+00
      576000000   -3,376017883e-02   -1,247223914e-01   -3,678292036e-01   -5,574064851e-01    0,000000000e+00    0,000000000e+00    0,000000000e+00    0,000000000e+00
      590000000   -9,546977282e-02   -1,226264611e-01   -6,183009744e-01   -2,646885812e-01    0,000000000e+00    0,000000000e+00    0,000000000e+00    0,000000000e+00
      604000000   -1,391271204e-01   -7,228085399e-02   -6,642484069e-01    1,364911795e-01    0,000000000e+00    0,000000000e+00    0,000000000e+00    0,000000000e+00
      618000000   -1,299138069e-01   -9,862991050e-03   -4,645406306e-01    4,925985932e-01    0,000000000e+00    0,000000000e+00    0,000000000e+00    0,000000000e+00
      632000000   -8,448089659e-02    1,662943326e-02   -9,935984761e-02    6,627413630e-01    0,000000000e+00    0,000000000e+00    0,000000000e+00    0,000000000e+00
      646000000   -5,129401013e-02    2,969575580e-04    2,858459055e-01    5,946605206e-01    0,000000000e+00    0,000000000e+00    0,000000000e+00    0,000000000e+00
      660000000   -5,327042565e-02   -2,088169940e-02    5,654302239e-01    3,228004277e-01    0,000000000e+00    0,000000000e+00    0,000000000e+00    0,000000000e+00
      674000000   -6,998735666e-02   -1,615425572e-02    6,405201554e-01   -6,307973713e-02    0,000000000e+00    0,000000000e+00    0,000000000e+00    0,000000000e+00
      688000000   -6,708164513e-02    8,536973968e-03    4,712624550e-01   -4,249207079e-01    0,000000000e+00    0,000000000e+00    0,000000000e+00    0,000000000e+00
      702000000   -3,605008498e-02    2,553375438e-02    1,196783781e-01   -6,082993150e-01    0,000000000e+00    0,000000000e+00    0,000000000e+00    0,000000000e+00
      716000000    3,827428911e-03    1,540625468e-02   -2,586042583e-01   -5,450223088e-01    0,000000000e+00    0,000000000e+00    0,000000000e+00    0,000000000e+00
      730000000    3,612982482e-02   -1,384241879e-02   -5,217432380e-01   -2,716124058e-01    0,000000000e+00    0,000000000e+00    0,000000000e+00    0,000000000e+00
      744000000    6,229077280e-02   -6,594467908e-02   -5,606334805e-01    9,825142473e-02    0,000000000e+00    0,000000000e+00    0,000000000e+00    0,000000000e+00
      758000000    6,149575487e-02   -1,513812244e-01   -3,664037883e-01    4,009532928e-01    0,000000000e+00    0,000000000e+00    0,000000000e+00    0,000000000e+00
      772000000   -1,760974899e-02   -2,554197907e-01   -4,665079713e-02    5,089834929e-01    0,000000000e+00    0,000000000e+00    0,000000000e+00    0,000000000e+00
      786000000   -2,022588849e-01   -2,913076282e-01    2,601213753e-01    3,993411660e-01    0,000000000e+00    0,000000000e+00    0,000000000e+00    0,000000000e+00
      800000000   -4,067615569e-01   -1,281067878e-01    4,071763754e-01    1,191671565e-01    0,000000000e+00    0,000000000e+00    0,000000000e+00    0,000000000e+00
      814000000   -3,779511750e-01    2,008954883e-01    2,975313067e-01   -1,513273567e-01    0,000000000e+00    0,000000000e+00    0,000000000e+00    0,000000000e+00
      828000000   -6,269897521e-02    3,488688767e-01    8,292328566e-02   -1,909635961e-01    0,000000000e+00    0,000000000e+00    0,000000000e+00    0,000000000e+00
      842000000    2,116267830e-01    1,861247420e-01   -3,875950351e-03   -9,402601421e-02    0,000000000e+00    0,000000000e+00    0,000000000e+00    0,000000000e+00
      856000000    2,664038241e-01   -1,052142233e-01    3,480380774e-02   -3,726380691e-02    0,000000000e+00    0,000000000e+00    0,000000000e+00    0,000000000e+00
      870000000    8,322573453e-02   -3,510018885e-01    8,792062849e-02   -9,689915180e-02    0,000000000e+00    0,000000000e+00    0,000000000e+00    0,000000000e+00
      884000000   -2,660808265e-01   -3,566599190e-01    1,201616041e-02   -2,273615748e-01    0,000000000e+00    0,000000000e+00    0,000000000e+00    0,000000000e+00
      898000000   -4,591248333e-01   -1,452378277e-02   -2,154054344e-01   -2,105231136e-01    0,000000000e+00    0,000000000e+00    0,000000000e+00    0,000000000e+00
      912000000   -2,367139906e-01    2,780773342e-01   -3,433937132e-01    7,363832742e-02    0,000000000e+00    0,000000000e+00    0,000000000e+00    0,000000000e+00
      926000000    5,671802908e-02    2,615414560e-01   -2,088413090e-01    2,621417046e-01    0,000000000e+00    0,000000000e+00    0,000000000e+00    0,000000000e+00
      940000000    2,082829624e-01    8,254849911e-02   -3,226245567e-02    3,254945874e-01    0,000000000e+00    0,000000000e+00    0,000000000e+00    0,000000000e+00
      954000000    2,190082669e-01   -1,192364395e-01    1,302246302e-01    2,996688485e-01    0,000000000e+00    0,000000000e+00    0,000000000e+00    0,000000000e+00
      968000000    1,159396246e-01   -2,951962650e-01    2,678247988e-01    2,134791315e-01    0,000000000e+00    0,000000000e+00    0,000000000e+00    0,000000000e+00
      982000000   -8,056786656e-02   -3,863570392e-01    3,596127033e-01    6,263000518e-02    0,000000000e+00    0,000000000e+00    0,000000000e+00    0,000000000e+00
      996000000   -3,099420965e-01   -3,296722174e-01    3,632964790e-01   -1,442501247e-01    0,000000000e+00    0,000000000e+00    0,000000000e+00    0,000000000e+00
     1010000000   -4,624419212e-01   -1,152703241e-01    2,191801965e-01   -3,350672424e-01    0,000000000e+00    0,000000000e+00    0,000000000e+00    0,000000000e+00
     1024000000   -4,135458469e-01    1,424696296e-01   -2,968001366e-02   -3,862901628e-01    0,000000000e+00    0,000000000e+00    0,000000000e+00    0,000000000e+00
     1038000000   -2,211984992e-01    2,928843498e-01   -2,424525619e-01   -2,580001652e-01    0,000000000e+00    0,000000000e+00    0,000000000e+00    0,000000000e+00
     1052000000   -1,301018242e-02    2,767603397e-01   -3,109204173e-01   -4,819339886e-02    0,000000000e+00    0,000000000e+00    0,000000000e+00    0,000000000e+00
     1066000000    1,306786537e-01    1,698572785e-01   -2,525063753e-01    1,373681575e-01    0,000000000e+00    0,000000000e+00    0,000000000e+00    0,000000000e+00
     1080000000    1,952675283e-01    1,183999889e-02   -1,159547046e-01    2,528802454e-01    0,000000000e+00    0,000000000e+00    0,000000000e+00    0,000000000e+00
     1094000000    1,597405076e-01   -1,607341766e-01    5,993120745e-02    2,916715741e-01    0,000000000e+00    0,000000000e+00    0,000000000e+00    0,000000000e+00
     1108000000    1,740505546e-02   -2,935717702e-01    2,603493333e-01    2,348515987e-01    0,000000000e+00    0,000000000e+00    0,000000000e+00    0,000000000e+00
     1122000000   -2,162771970e-01   -2,833483517e-01    4,375396669e-01    2,261871099e-02    0,000000000e+00    0,000000000e+00    0,000000000e+00    0,000000000e+00
     1136000000   -3,268431127e-01   -2,744659223e-02    3,981023431e-01   -3,468108475e-01    0,000000000e+00    0,000000000e+00    0,000000000e+00    0,000000000e+00
     1150000000   -1,118244082e-01    1,413098872e-01    4,727252573e-02   -5,310286880e-01    0,000000000e+00    0,000000000e+00    0,000000000e+00    0,000000000e+00
     1164000000    8,139932156e-02   -1,676692255e-02   -2,529638708e-01   -4,045844674e-01    0,000000000e+00    0,000000000e+00    0,000000000e+00    0,000000000e+00
     1178000000    2,603424340e-02   -2,479258031e-01   -3,666827381e-01   -1,776292175e-01    0,000000000e+00    0,000000000e+00    0,000000000e+00    0,000000000e+00
     1192000000   -2,188854367e-01   -3,500539064e-01   -3,405611515e-01    3,585704789e-02    0,000000000e+00    0,000000000e+00    0,000000000e+00    0,000000000e+00
     1206000000   -4,826490879e-01   -1,828189194e-01   -1,930184513e-01    1,809110492e-01    0,000000000e+00    0,000000000e+00    0,000000000e+00    0,000000000e+00
     1220000000   -5,053026676e-01    1,344445646e-01   -1,195799280e-02    1,745990664e-01    0,000000000e+00    0,000000000e+00    0,000000000e+00    0,000000000e+00
     1234000000   -3,008138835e-01    3,471638262e-01    7,433986664e-02    7,973644882e-02    0,000000000e+00    0,000000000e+00    0,000000000e+00    0,000000000e+00
     1248000000   -5,761252344e-02    3,618021607e-01    6,734732538e-02   -4,930065188e-05    0,000000000e+00    0,000000000e+00    0,000000000e+00    0,000000000e+00
     1262000000    1,119225025e-01    2,623742819e-01    2,940947190e-02   -2,530359663e-02    0,000000000e+00    0,000000000e+00    0,000000000e+00    0,000000000e+00
     1276000000    2,009345293e-01    1,122980267e-01    6,743859500e-03   -6,124781445e-03    0,000000000e+00    0,000000000e+00    0,000000000e+00    0,000000000e+00
     1290000000    2,210964859e-01   -6,420645863e-02    9,584601037e-03    2,257093787e-02    0,000000000e+00    0,000000000e+00    0,000000000e+00    0,000000000e+00
     1304000000    1,660435349e-01   -2,327703089e-01    5,900610983e-02    5,966195092e-02    0,000000000e+00    0,000000000e+00    0,000000000e+00    0,000000000e+00
     1318000000    2,258659713e-02   -3,608739674e-01    1,687988639e-01    1,928695850e-02    0,000000000e+00    0,000000000e+00    0,000000000e+00    0,000000000e+00
     1332000000   -1,527726203e-01   -3,995489478e-01    9,791550040e-02   -1,734861135e-01    0,000000000e+00    0,000000000e+00    0,000000000e+00    0,000000000e+00
     1346000000   -3,596820831e-01   -3,893904090e-01   -5,092332885e-02   -1,938109100e-02    0,000000000e+00    0,000000000e+00    0,000000000e+00    0,000000000e+00
     1360000000   -5,856395960e-01   -1,987951845e-01    6,090147793e-02    8,985401690e-02    0,000000000e+00    0,000000000e+00    0,000000000e+00    0,000000000e+00
     1374000000   -6,206269860e-01    1,027377471e-01    1,781533957e-01    4,691630602e-02    0,000000000e+00    0,000000000e+00    0,000000000e+00    0,000000000e+00
     1388000000   -4,734302461e-01    3,545168638e-01    2,284807265e-01   -2,478045784e-02    0,000000000e+00    0,000000000e+00    0,000000000e+00    0,000000000e+00
     1402000000   -2,437851578e-01    4,424876869e-01    2,098894566e-01   -8,172768354e-02    0,000000000e+00    0,000000000e+00    0,000000000e+00    0,000000000e+00
     1416000000   -4,031363875e-02    4,155544043e-01    1,912137866e-01   -9,584702551e-02    0,000000000e+00    0,000000000e+00    0,000000000e+00    0,000000000e+00
     1430000000    1,037630886e-01    3,028987646e-01    1,664845645e-01   -1,012473479e-01    0,000000000e+00    0,000000000e+00    0,000000000e+00    0,000000000e+00
     1444000000    1,973860264e-01    1,555794775e-01    1,552059650e-01   -1,141183004e-01    0,000000000e+00    0,000000000e+00    0,000000000e+00    0,000000000e+00
     1458000000    2,294201404e-01   -6,977851968e-03    1,455925703e-01   -7,557282597e-02    0,000000000e+00    0,000000000e+00    0,000000000e+00    0,000000000e+00
     1472000000    1,892518252e-01   -1,953032166e-01    1,384837627e-01   -4,578521475e-02    0,000000000e+00    0,000000000e+00    0,000000000e+00    0,000000000e+00
     1486000000    7,146696746e-02   -3,603158593e-01    1,658823043e-01    3,367065266e-02    0,000000000e+00    0,000000000e+00    0,000000000e+00    0,000000000e+00
     1500000000   -1,676430106e-01   -4,864182174e-01    2,229164988e-01    8,501976728e-02    0,000000000e+00    0,000000000e+00    0,000000000e+00    0,000000000e+00
