! NanoVNA-App
! Date: 2025-09-25 15:44:18
! Start: 100MHz Stop: 1,5GHz Points: 101
! S-Parameter data: F S11 S21 S12 S22
# Hz S RI R 50
!     Frequency           S11_Real           S11_Imag           S21_Real           S21_Imag           S12_Real           S12_Imag           S22_Real           S22_Imag
      100000000   -2,876658365e-02   -4,245294724e-03    3,739675283e-01   -7,215209007e-01    0,000000000e+00    0,000000000e+00    0,000000000e+00    0,000000000e+00
      114000000   -1,652922109e-02    1,148843858e-02   -8,890437335e-02   -8,053575158e-01    0,000000000e+00    0,000000000e+00    0,000000000e+00    0,000000000e+00
      128000000    3,401759081e-03    1,067197695e-02   -5,144324303e-01   -6,201890707e-01    0,000000000e+00    0,000000000e+00    0,000000000e+00    0,000000000e+00
      142000000    1,463697851e-02   -2,653261181e-03   -7,667466402e-01   -2,364938408e-01    0,000000000e+00    0,000000000e+00    0,000000000e+00    0,000000000e+00
      156000000    1,619703136e-02   -1,418211963e-02   -7,693882585e-01    2,240043432e-01    0,000000000e+00    0,000000000e+00    0,000000000e+00    0,000000000e+00
      170000000    1,704685017e-02   -2,249113657e-02   -5,176653862e-01    6,043538451e-01    0,000000000e+00    0,000000000e+00    0,000000000e+00    0,000000000e+00
      184000000    2,129176445e-02   -3,718877211e-02   -1,013803110e-01    7,857911587e-01    0,000000000e+00    0,000000000e+00    0,000000000e+00    0,000000000e+00
      198000000    1,325936057e-02   -6,253374368e-02    3,433232903e-01    7,124167681e-01    0,000000000e+00    0,000000000e+00    0,000000000e+00    0,000000000e+00
      212000000   -1,845384017e-02   -8,126484603e-02    6,777612567e-01    4,099596441e-01    0,000000000e+00    0,000000000e+00    0,000000000e+00    0,000000000e+00
      226000000   -6,137361005e-02   -6,913761795e-02    7,954047322e-01   -3,046745248e-02    0,000000000e+00    0,000000000e+00    0,000000000e+00    0,000000000e+00
      240000000   -8,225874603e-02   -2,581794001e-02    6,459053755e-01   -4,665094316e-01    0,000000000e+00    0,000000000e+00    0,000000000e+00    0,000000000e+00
      254000000   -6,342652440e-02    1,693249308e-02    2,760993838e-01   -7,429734468e-01    0,000000000e+00    0,000000000e+00    0,000000000e+00    0,000000000e+00
      268000000   -2,393049933e-02    2,876923792e-02   -1,773900241e-01   -7,638553977e-01    0,000000000e+00    0,000000000e+00    0,000000000e+00    0,000000000e+00
      282000000    4,077018239e-03    1,209316403e-02   -5,616416335e-01   -5,353972316e-01    0,000000000e+00    0,000000000e+00    0,000000000e+00    0,000000000e+00
      296000000    9,895334020e-03   -7,451224606e-03   -7,593691349e-01   -1,396303177e-01    0,000000000e+00    0,000000000e+00    0,000000000e+00    0,000000000e+00
      310000000    1,156013273e-02   -1,612975635e-02   -7,117422819e-01    2,973915339e-01    0,000000000e+00    0,000000000e+00    0,000000000e+00    0,000000000e+00
      324000000    2,005015314e-02   -2,662876807e-02   -4,269276857e-01    6,371133327e-01    0,000000000e+00    0,000000000e+00    0,000000000e+00    0,000000000e+00
      338000000    2,570402622e-02   -5,206854269e-02   -8,776395582e-03    7,591903210e-01    0,000000000e+00    0,000000000e+00    0,000000000e+00    0,000000000e+00
      352000000    7,796750870e-03   -8,456987143e-02    4,061453640e-01    6,396967173e-01    0,000000000e+00    0,000000000e+00    0,000000000e+00    0,000000000e+00
      366000000   -3,430650011e-02   -9,530179948e-02    6,900076866e-01    3,117282689e-01    0,000000000e+00    0,000000000e+00    0,000000000e+00    0,000000000e+00
      380000000   -7,049594074e-02   -7,109778374e-02    7,469055653e-01   -1,263289154e-01    0,000000000e+00    0,000000000e+00    0,000000000e+00    0,000000000e+00
      394000000   -7,224832475e-02   -3,272448108e-02    5,462768674e-01   -5,211929083e-01    0,000000000e+00    0,000000000e+00    0,000000000e+00    0,000000000e+00
      408000000   -4,601607472e-02   -1,654595509e-02    1,612587422e-01   -7,321964502e-01    0,000000000e+00    0,000000000e+00    0,000000000e+00    0,000000000e+00
      422000000   -2,824844979e-02   -3,218421713e-02   -2,663205266e-01   -6,939176321e-01    0,000000000e+00    0,000000000e+00    0,000000000e+00    0,000000000e+00
      436000000   -4,059735686e-02   -5,169131979e-02   -6,037268043e-01   -4,322084188e-01    0,000000000e+00    0,000000000e+00    0,000000000e+00    0,000000000e+00
      450000000   -6,710977107e-02   -4,336911440e-02   -7,397452593e-01   -2,176794782e-02    0,000000000e+00    0,000000000e+00    0,000000000e+00    0,000000000e+00
      464000000   -7,302667201e-02   -1,182147488e-02   -6,181395650e-01    3,967005014e-01    0,000000000e+00    0,000000000e+00    0,000000000e+00    0,000000000e+00
      478000000   -4,729282111e-02    1,136454102e-02   -2,820870578e-01    6,669793129e-01    0,000000000e+00    0,000000000e+00    0,000000000e+00    0,000000000e+00
      492000000   -1,608067378e-02    5,440789741e-03    1,371693462e-01    7,009699941e-01    0,000000000e+00    0,000000000e+00    0,000000000e+00    0,000000000e+00
      506000000   -2,769730054e-03   -1,620482653e-02    4,974626005e-01    5,027709603e-01    0,000000000e+00    0,000000000e+00    0,000000000e+00    0,000000000e+00
      520000000   -5,140287802e-03   -3,118450567e-02    6,872351170e-01    1,416003257e-01    0,000000000e+00    0,000000000e+00    0,000000000e+00    0,000000000e+00
      534000000   -3,559380770e-03   -3,795339540e-02    6,431512833e-01   -2,617197335e-01    0,000000000e+00    0,000000000e+00    0,000000000e+00    0,000000000e+00
      548000000    6,685062312e-03   -5,376413837e-02    3,813269138e-01   -5,665801764e-01    0,000000000e+00    0,000000000e+00    0,000000000e+00    0,000000000e+00
      562000000    3,237563185e-03   -8,961308748e-02    3,200475592e-03   -6,725240946e-01    0,000000000e+00    0,000000000e+00    0,000000000e+00    0,000000000e+00
      576000000   -3,375497460e-02   -1,245659888e-01   -3,676221669e-01   -5,573352575e-01    0,000000000e+00    0,000000000e+00    0,000000000e+00    0,000000000e+00
      590000000   -9,583482146e-02   -1,229878888e-01   -6,212388277e-01   -2,639871538e-01    0,000000000e+00    0,000000000e+00    0,000000000e+00    0,000000000e+00
      604000000   -1,386841238e-01   -7,186163962e-02   -6,643630266e-01    1,370220631e-01    0,000000000e+00    0,000000000e+00    0,000000000e+00    0,000000000e+00
      618000000   -1,296961010e-01   -9,633370675e-03   -4,641371667e-01    4,923377335e-01    0,000000000e+00    0,000000000e+00    0,000000000e+00    0,000000000e+00
      632000000   -8,482379466e-02    1,602356508e-02   -1,012479141e-01    6,617397070e-01    0,000000000e+00    0,000000000e+00    0,000000000e+00    0,000000000e+00
      646000000   -5,170664936e-02    1,208454836e-03    2,857725918e-01    5,944841504e-01    0,000000000e+00    0,000000000e+00    0,000000000e+00    0,000000000e+00
      660000000   -5,335233733e-02   -2,118542604e-02    5,642379522e-01    3,229605556e-01    0,000000000e+00    0,000000000e+00    0,000000000e+00    0,000000000e+00
      674000000   -6,916622818e-02   -1,632729732e-02    6,407369971e-01   -6,320292503e-02    0,000000000e+00    0,000000000e+00    0,000000000e+00    0,000000000e+00
      688000000   -6,702339649e-02    8,432243019e-03    4,714736044e-01   -4,235831797e-01    0,000000000e+00    0,000000000e+00    0,000000000e+00    0,000000000e+00
      702000000   -3,530591354e-02    2,560079657e-02    1,206337661e-01   -6,070673466e-01    0,000000000e+00    0,000000000e+00    0,000000000e+00    0,000000000e+00
      716000000    4,202211741e-03    1,565565728e-02   -2,598916590e-01   -5,453673005e-01    0,000000000e+00    0,000000000e+00    0,000000000e+00    0,000000000e+00
      730000000    3,594882414e-02   -1,386430301e-02   -5,219175220e-01   -2,717711329e-01    0,000000000e+00    0,000000000e+00    0,000000000e+00    0,000000000e+00
      744000000    6,215407327e-02   -6,566780061e-02   -5,602973104e-01    9,865337610e-02    0,000000000e+00    0,000000000e+00    0,000000000e+00    0,000000000e+00
      758000000    6,134695187e-02   -1,523230523e-01   -3,663949668e-01    4,003518820e-01    0,000000000e+00    0,000000000e+00    0,000000000e+00    0,000000000e+00
      772000000   -1,669825613e-02   -2,561646104e-01   -4,636283219e-02    5,092360377e-01    0,000000000e+00    0,000000000e+00    0,000000000e+00    0,000000000e+00
      786000000   -2,010554820e-01   -2,910037041e-01    2,595593929e-01    3,993409574e-01    0,000000000e+00    0,000000000e+00    0,000000000e+00    0,000000000e+00
      800000000   -4,076367319e-01   -1,283868104e-01    4,075401127e-01    1,191313416e-01    0,000000000e+00    0,000000000e+00    0,000000000e+00    0,000000000e+00
      814000000   -3,775289357e-01    2,020519227e-01    2,969984114e-01   -1,519604772e-01    0,000000000e+00    0,000000000e+00    0,000000000e+00    0,000000000e+00
      828000000   -6,341536343e-02    3,472439647e-01    8,277166635e-02   -1,909918636e-01    0,000000000e+00    0,000000000e+00    0,000000000e+00    0,000000000e+00
      842000000    2,113788575e-01    1,857495755e-01   -3,889848012e-03   -9,390652180e-02    0,000000000e+00    0,000000000e+00    0,000000000e+00    0,000000000e+00
      856000000    2,665546238e-01   -1,054171994e-01    3,595536202e-02   -3,679376841e-02    0,000000000e+00    0,000000000e+00    0,000000000e+00    0,000000000e+00
      870000000    8,265934139e-02   -3,515648842e-01    8,797410131e-02   -9,722047299e-02    0,000000000e+00    0,000000000e+00    0,000000000e+00    0,000000000e+00
      884000000   -2,681441605e-01   -3,558289409e-01    1,183639839e-02   -2,276280820e-01    0,000000000e+00    0,000000000e+00    0,000000000e+00    0,000000000e+00
      898000000   -4,585234523e-01   -1,421600860e-02   -2,154827267e-01   -2,096597850e-01    0,000000000e+00    0,000000000e+00    0,000000000e+00    0,000000000e+00
      912000000   -2,367255092e-01    2,781164646e-01   -3,259743154e-01    7,638110965e-02    0,000000000e+00    0,000000000e+00    0,000000000e+00    0,000000000e+00
      926000000    5,570674315e-02    2,633076310e-01   -2,078777254e-01    2,631474733e-01    0,000000000e+00    0,000000000e+00    0,000000000e+00    0,000000000e+00
      940000000    2,091577947e-01    8,570296317e-02   -3,281487897e-02    3,245550096e-01    0,000000000e+00    0,000000000e+00    0,000000000e+00    0,000000000e+00
      954000000    2,226333618e-01   -1,212522537e-01    1,310020834e-01    3,009284139e-01    0,000000000e+00    0,000000000e+00    0,000000000e+00    0,000000000e+00
      968000000    1,194677949e-01   -2,933818102e-01    2,679316700e-01    2,134908140e-01    0,000000000e+00    0,000000000e+00    0,000000000e+00    0,000000000e+00
      982000000   -7,855957001e-02   -3,825357258e-01    3,604236245e-01    6,232367083e-02    0,000000000e+00    0,000000000e+00    0,000000000e+00    0,000000000e+00
      996000000   -3,131676912e-01   -3,298823535e-01    3,628835976e-01   -1,410257518e-01    0,000000000e+00    0,000000000e+00    0,000000000e+00    0,000000000e+00
     1010000000   -4,630102515e-01   -1,180157885e-01    2,199150175e-01   -3,348264396e-01    0,000000000e+00    0,000000000e+00    0,000000000e+00    0,000000000e+00
     1024000000   -4,141947329e-01    1,462912261e-01   -2,956528217e-02   -3,856324553e-01    0,000000000e+00    0,000000000e+00    0,000000000e+00    0,000000000e+00
     1038000000   -2,228643447e-01    2,861886919e-01   -2,398206741e-01   -2,582105398e-01    0,000000000e+00    0,000000000e+00    0,000000000e+00    0,000000000e+00
     1052000000   -1,092737913e-02    2,806347907e-01   -3,112858534e-01   -4,607823119e-02    0,000000000e+00    0,000000000e+00    0,000000000e+00    0,000000000e+00
     1066000000    1,303954720e-01    1,681991816e-01   -2,524993718e-01    1,387501657e-01    0,000000000e+00    0,000000000e+00    0,000000000e+00    0,000000000e+00
     1080000000    1,933940500e-01    5,323694553e-03   -1,157593802e-01    2,547987998e-01    0,000000000e+00    0,000000000e+00    0,000000000e+00    0,000000000e+00
     1094000000    1,616511345e-01   -1,647709459e-01    6,046744436e-02    2,906968296e-01    0,000000000e+00    0,000000000e+00    0,000000000e+00    0,000000000e+00
     1108000000    1,868470944e-02   -2,935470343e-01    2,603824139e-01    2,361008525e-01    0,000000000e+00    0,000000000e+00    0,000000000e+00    0,000000000e+00
     1122000000   -2,090471983e-01   -2,838276625e-01    4,382211268e-01    2,658652328e-02    0,000000000e+00    0,000000000e+00    0,000000000e+00    0,000000000e+00
     1136000000   -3,277227283e-01   -3,402990475e-02    3,986212611e-01   -3,448575437e-01    0,000000000e+00    0,000000000e+00    0,000000000e+00    0,000000000e+00
     1150000000   -1,056953594e-01    1,352343261e-01    4,832893983e-02   -5,303455591e-01    0,000000000e+00    0,000000000e+00    0,000000000e+00    0,000000000e+00
     1164000000    8,242850751e-02   -1,524592098e-02   -2,521088719e-01   -4,034433365e-01    0,000000000e+00    0,000000000e+00    0,000000000e+00    0,000000000e+00
     1178000000    2,969437838e-02   -2,496450543e-01   -3,687087893e-01   -1,779751182e-01    0,000000000e+00    0,000000000e+00    0,000000000e+00    0,000000000e+00
     1192000000   -2,217904776e-01   -3,456903994e-01   -3,411340714e-01    4,269098118e-02    0,000000000e+00    0,000000000e+00    0,000000000e+00    0,000000000e+00
     1206000000   -4,832411706e-01   -1,817500740e-01   -1,918610036e-01    1,842584610e-01    0,000000000e+00    0,000000000e+00    0,000000000e+00    0,000000000e+00
     1220000000   -5,037947893e-01    1,343348771e-01   -8,939973079e-03    1,763480306e-01    0,000000000e+00    0,000000000e+00    0,000000000e+00    0,000000000e+00
     1234000000   -3,053283691e-01    3,467400670e-01    7,495564967e-02    7,726421207e-02    0,000000000e+00    0,000000000e+00    0,000000000e+00    0,000000000e+00
     1248000000   -6,747188419e-02    3,598102927e-01    6,687586755e-02    1,375269727e-03    0,000000000e+00    0,000000000e+00    0,000000000e+00    0,000000000e+00
     1262000000    1,126733646e-01    2,543068826e-01    3,087696247e-02   -2,429780550e-02    0,000000000e+00    0,000000000e+00    0,000000000e+00    0,000000000e+00
     1276000000    1,997421235e-01    1,100602597e-01    3,943091724e-03   -9,216182865e-03    0,000000000e+00    0,000000000e+00    0,000000000e+00    0,000000000e+00
     1290000000    2,228199840e-01   -6,150460988e-02    1,416557934e-02    2,780781873e-02    0,000000000e+00    0,000000000e+00    0,000000000e+00    0,000000000e+00
     1304000000    1,638086289e-01   -2,319569737e-01    5,882591754e-02    5,621520057e-02    0,000000000e+00    0,000000000e+00    0,000000000e+00    0,000000000e+00
     1318000000    2,780500613e-02   -3,631816208e-01    1,675806195e-01    2,107082307e-02    0,000000000e+00    0,000000000e+00    0,000000000e+00    0,000000000e+00
     1332000000   -1,494690478e-01   -3,918981552e-01    1,056247726e-01   -1,738328934e-01    0,000000000e+00    0,000000000e+00    0,000000000e+00    0,000000000e+00
     1346000000   -3,600862324e-01   -3,947947621e-01   -5,851738527e-02   -3,129833564e-02    0,000000000e+00    0,000000000e+00    0,000000000e+00    0,000000000e+00
     1360000000   -5,831701756e-01   -2,039627880e-01    7,356268167e-02    8,611560613e-02    0,000000000e+00    0,000000000e+00    0,000000000e+00    0,000000000e+00
     1374000000   -6,311458349e-01    1,029081345e-01    1,711151898e-01    4,314650223e-02    0,000000000e+00    0,000000000e+00    0,000000000e+00    0,000000000e+00
     1388000000   -4,753743410e-01    3,528230488e-01    2,125334889e-01   -2,317391336e-02    0,000000000e+00    0,000000000e+00    0,000000000e+00    0,000000000e+00
     1402000000   -2,444254756e-01    4,499620795e-01    2,178325653e-01   -6,918509305e-02    0,000000000e+00    0,000000000e+00    0,000000000e+00    0,000000000e+00
     1416000000   -3,607240319e-02    4,053567946e-01    1,924398094e-01   -1,096884385e-01    0,000000000e+00    0,000000000e+00    0,000000000e+00    0,000000000e+00
     1430000000    1,148187891e-01    3,077740371e-01    1,904309541e-01   -1,033953503e-01    0,000000000e+00    0,000000000e+00    0,000000000e+00    0,000000000e+00
     1444000000    1,985862851e-01    1,576050669e-01    1,720402986e-01   -1,037093252e-01    0,000000000e+00    0,000000000e+00    0,000000000e+00    0,000000000e+00
     1458000000    2,329373360e-01   -1,253739558e-02    1,453233957e-01   -9,874595702e-02    0,000000000e+00    0,000000000e+00    0,000000000e+00    0,000000000e+00
     1472000000    1,856132448e-01   -1,940226257e-01    1,329304129e-01   -4,259197041e-02    0,000000000e+00    0,000000000e+00    0,000000000e+00    0,000000000e+00
     1486000000    6,789765507e-02   -3,701573908e-01    1,645022333e-01    1,592888683e-02    0,000000000e+00    0,000000000e+00    0,000000000e+00    0,000000000e+00
     1500000000   -1,638182253e-01   -4,798731506e-01    2,275909185e-01    8,841262013e-02    0,000000000e+00    0,000000000e+00    0,000000000e+00    0,000000000e+00
