! NanoVNA-App
! Date: 2025-09-25 15:45:44
! Start: 100MHz Stop: 1,5GHz Points: 101
! S-Parameter data: F S11 S21 S12 S22
# Hz S RI R 50
!     Frequency           S11_Real           S11_Imag           S21_Real           S21_Imag           S12_Real           S12_Imag           S22_Real           S22_Imag
      100000000   -2,879696153e-02   -4,261705559e-03    3,740011156e-01   -7,215596437e-01    0,000000000e+00    0,000000000e+00    0,000000000e+00    0,000000000e+00
      114000000   -1,655856520e-02    1,150815003e-02   -8,886371553e-02   -8,051900268e-01    0,000000000e+00    0,000000000e+00    0,000000000e+00    0,000000000e+00
      128000000    3,376884153e-03    1,072154008e-02   -5,143780112e-01   -6,202792525e-01    0,000000000e+00    0,000000000e+00    0,000000000e+00    0,000000000e+00
      142000000    1,463224646e-02   -2,666237997e-03   -7,667605877e-01   -2,364954203e-01    0,000000000e+00    0,000000000e+00    0,000000000e+00    0,000000000e+00
      156000000    1,468623616e-02   -1,456754468e-02   -7,636449933e-01    2,187668085e-01    0,000000000e+00    0,000000000e+00    0,000000000e+00    0,000000000e+00
      170000000    1,699598692e-02   -2,244316787e-02   -5,179765224e-01    6,044948697e-01    0,000000000e+00    0,000000000e+00    0,000000000e+00    0,000000000e+00
      184000000    2,127053775e-02   -3,712075576e-02   -1,014391184e-01    7,860197425e-01    0,000000000e+00    0,000000000e+00    0,000000000e+00    0,000000000e+00
      198000000    1,326757297e-02   -6,253734976e-02    3,431071043e-01    7,121799588e-01    0,000000000e+00    0,000000000e+00    0,000000000e+00    0,000000000e+00
      212000000   -1,842395589e-02   -8,126003295e-02    6,778265238e-01    4,098225534e-01    0,000000000e+00    0,000000000e+00    0,000000000e+00    0,000000000e+00
      226000000   -6,142891943e-02   -6,925039738e-02    7,955076098e-01   -3,045381047e-02    0,000000000e+00    0,000000000e+00    0,000000000e+00    0,000000000e+00
      240000000   -8,227853477e-02   -2,574452572e-02    6,458240747e-01   -4,665362835e-01    0,000000000e+00    0,000000000e+00    0,000000000e+00    0,000000000e+00
      254000000   -6,345712394e-02    1,698766649e-02    2,761960328e-01   -7,427368760e-01    0,000000000e+00    0,000000000e+00    0,000000000e+00    0,000000000e+00
      268000000   -2,395756543e-02    2,878816426e-02   -1,781707704e-01   -7,641773820e-01    0,000000000e+00    0,000000000e+00    0,000000000e+00    0,000000000e+00
      282000000    4,095316399e-03    1,207725517e-02   -5,618009567e-01   -5,358632803e-01    0,000000000e+00    0,000000000e+00    0,000000000e+00    0,000000000e+00
      296000000    9,878125042e-03   -7,571307942e-03   -7,594209909e-01   -1,396262199e-01    0,000000000e+00    0,000000000e+00    0,000000000e+00    0,000000000e+00
      310000000    1,149636041e-02   -1,602833159e-02   -7,122218013e-01    2,991923392e-01    0,000000000e+00    0,000000000e+00    0,000000000e+00    0,000000000e+00
      324000000    1,992210373e-02   -2,655321173e-02   -4,279036224e-01    6,382551789e-01    0,000000000e+00    0,000000000e+00    0,000000000e+00    0,000000000e+00
      338000000    2,524957433e-02   -5,229430646e-02   -8,234549314e-03    7,590503693e-01    0,000000000e+00    0,000000000e+00    0,000000000e+00    0,000000000e+00
      352000000    7,458969951e-03   -8,481834084e-02    4,055904150e-01    6,393713355e-01    0,000000000e+00    0,000000000e+00    0,000000000e+00    0,000000000e+00
      366000000   -3,420447558e-02   -9,536469728e-02    6,903597116e-01    3,118012249e-01    0,000000000e+00    0,000000000e+00    0,000000000e+00    0,000000000e+00
      380000000   -7,055056840e-02   -7,115978748e-02    7,473091483e-01   -1,259054989e-01    0,000000000e+00    0,000000000e+00    0,000000000e+00    0,000000000e+00
      394000000   -7,228452712e-02   -3,252697736e-02    5,449771881e-01   -5,214105844e-01    0,000000000e+00    0,000000000e+00    0,000000000e+00    0,000000000e+00
      408000000   -4,606425390e-02   -1,633255370e-02    1,613903493e-01   -7,321035266e-01    0,000000000e+00    0,000000000e+00    0,000000000e+00    0,000000000e+00
      422000000   -2,830596268e-02   -3,223336861e-02   -2,667053044e-01   -6,944674253e-01    0,000000000e+00    0,000000000e+00    0,000000000e+00    0,000000000e+00
      436000000   -4,041601717e-02   -5,173628032e-02   -6,035225987e-01   -4,318512082e-01    0,000000000e+00    0,000000000e+00    0,000000000e+00    0,000000000e+00
      450000000   -6,703124195e-02   -4,393691197e-02   -7,399266362e-01   -2,193373628e-02    0,000000000e+00    0,000000000e+00    0,000000000e+00    0,000000000e+00
      464000000   -7,275113463e-02   -1,180604845e-02   -6,189281344e-01    3,968696594e-01    0,000000000e+00    0,000000000e+00    0,000000000e+00    0,000000000e+00
      478000000   -4,772816971e-02    1,104908716e-02   -2,824532688e-01    6,666194201e-01    0,000000000e+00    0,000000000e+00    0,000000000e+00    0,000000000e+00
      492000000   -1,586233824e-02    5,593111273e-03    1,372077614e-01    7,013357878e-01    0,000000000e+00    0,000000000e+00    0,000000000e+00    0,000000000e+00
      506000000   -2,509003039e-03   -1,599197835e-02    4,984058738e-01    5,025734901e-01    0,000000000e+00    0,000000000e+00    0,000000000e+00    0,000000000e+00
      520000000   -4,526097327e-03   -3,130616248e-02    6,891358495e-01    1,430677176e-01    0,000000000e+00    0,000000000e+00    0,000000000e+00    0,000000000e+00
      534000000   -3,625084646e-03   -3,825212643e-02    6,433385611e-01   -2,616012096e-01    0,000000000e+00    0,000000000e+00    0,000000000e+00    0,000000000e+00
      548000000    6,430419162e-03   -5,369618535e-02    3,811574578e-01   -5,658718348e-01    0,000000000e+00    0,000000000e+00    0,000000000e+00    0,000000000e+00
      562000000    3,056342015e-03   -8,909004182e-02    3,186154645e-03   -6,719783545e-01    0,000000000e+00    0,000000000e+00    0,000000000e+00    0,000000000e+00
      576000000   -3,397367895e-02   -1,240764484e-01   -3,689351082e-01   -5,568389893e-01    0,000000000e+00    0,000000000e+00    0,000000000e+00    0,000000000e+00
      590000000   -9,572833031e-02   -1,226619408e-01   -6,215823889e-01   -2,642454505e-01    0,000000000e+00    0,000000000e+00    0,000000000e+00    0,000000000e+00
      604000000   -1,389320344e-01   -7,221229374e-02   -6,643573046e-01    1,370172948e-01    0,000000000e+00    0,000000000e+00    0,000000000e+00    0,000000000e+00
      618000000   -1,287950575e-01   -1,007148717e-02   -4,650112689e-01    4,933103919e-01    0,000000000e+00    0,000000000e+00    0,000000000e+00    0,000000000e+00
      632000000   -8,451195061e-02    1,651906595e-02   -1,003261432e-01    6,626101136e-01    0,000000000e+00    0,000000000e+00    0,000000000e+00    0,000000000e+00
      646000000   -5,251797661e-02    8,193409303e-04    2,858625352e-01    5,943309069e-01    0,000000000e+00    0,000000000e+00    0,000000000e+00    0,000000000e+00
      660000000   -5,453632772e-02   -2,057663351e-02    5,650370717e-01    3,233492672e-01    0,000000000e+00    0,000000000e+00    0,000000000e+00    0,000000000e+00
      674000000   -6,990411133e-02   -1,709068753e-02    6,409105659e-01   -6,305420399e-02    0,000000000e+00    0,000000000e+00    0,000000000e+00    0,000000000e+00
      688000000   -6,759252399e-02    9,733744897e-03    4,711611271e-01   -4,232265949e-01    0,000000000e+00    0,000000000e+00    0,000000000e+00    0,000000000e+00
      702000000   -3,605225310e-02    2,600365691e-02    1,201542765e-01   -6,075772643e-01    0,000000000e+00    0,000000000e+00    0,000000000e+00    0,000000000e+00
      716000000    3,738396801e-03    1,567150652e-02   -2,588016391e-01   -5,447134376e-01    0,000000000e+00    0,000000000e+00    0,000000000e+00    0,000000000e+00
      730000000    3,720803186e-02   -1,346701104e-02   -5,221102834e-01   -2,718163729e-01    0,000000000e+00    0,000000000e+00    0,000000000e+00    0,000000000e+00
      744000000    6,224184483e-02   -6,446418166e-02   -5,609461665e-01    9,823159873e-02    0,000000000e+00    0,000000000e+00    0,000000000e+00    0,000000000e+00
      758000000    6,008275226e-02   -1,512677968e-01   -3,662627041e-01    4,001910686e-01    0,000000000e+00    0,000000000e+00    0,000000000e+00    0,000000000e+00
      772000000   -1,767666265e-02   -2,564027309e-01   -4,592866451e-02    5,089353323e-01    0,000000000e+00    0,000000000e+00    0,000000000e+00    0,000000000e+00
      786000000   -2,030642182e-01   -2,906081975e-01    2,597832978e-01    3,990944028e-01    0,000000000e+00    0,000000000e+00    0,000000000e+00    0,000000000e+00
      800000000   -4,082327783e-01   -1,276231408e-01    4,076646566e-01    1,192488745e-01    0,000000000e+00    0,000000000e+00    0,000000000e+00    0,000000000e+00
      814000000   -3,772301078e-01    2,007463425e-01    2,973713875e-01   -1,511338800e-01    0,000000000e+00    0,000000000e+00    0,000000000e+00    0,000000000e+00
      828000000   -6,228465587e-02    3,472460508e-01    8,300241828e-02   -1,908769011e-01    0,000000000e+00    0,000000000e+00    0,000000000e+00    0,000000000e+00
      842000000    2,118660212e-01    1,858636290e-01   -3,727152944e-03   -9,358806163e-02    0,000000000e+00    0,000000000e+00    0,000000000e+00    0,000000000e+00
      856000000    2,660468221e-01   -1,052690521e-01    3,505663574e-02   -3,724789619e-02    0,000000000e+00    0,000000000e+00    0,000000000e+00    0,000000000e+00
      870000000    8,325923979e-02   -3,510292172e-01    8,863758296e-02   -9,667874128e-02    0,000000000e+00    0,000000000e+00    0,000000000e+00    0,000000000e+00
      884000000   -2,660742104e-01   -3,572992682e-01    1,307765022e-02   -2,269191295e-01    0,000000000e+00    0,000000000e+00    0,000000000e+00    0,000000000e+00
      898000000   -4,578879178e-01   -1,373493392e-02   -2,145666629e-01   -2,093186826e-01    0,000000000e+00    0,000000000e+00    0,000000000e+00    0,000000000e+00
      912000000   -2,353241742e-01    2,792760134e-01   -3,264802694e-01    7,533325255e-02    0,000000000e+00    0,000000000e+00    0,000000000e+00    0,000000000e+00
      926000000    5,442849174e-02    2,613506615e-01   -2,101544738e-01    2,605386674e-01    0,000000000e+00    0,000000000e+00    0,000000000e+00    0,000000000e+00
      940000000    2,070899755e-01    8,618938923e-02   -3,219559789e-02    3,252979517e-01    0,000000000e+00    0,000000000e+00    0,000000000e+00    0,000000000e+00
      954000000    2,230419517e-01   -1,215255931e-01    1,315499097e-01    2,999700308e-01    0,000000000e+00    0,000000000e+00    0,000000000e+00    0,000000000e+00
      968000000    1,189399064e-01   -2,923042476e-01    2,679925561e-01    2,152518183e-01    0,000000000e+00    0,000000000e+00    0,000000000e+00    0,000000000e+00
      982000000   -7,927776128e-02   -3,840213418e-01    3,599161804e-01    6,314001977e-02    0,000000000e+00    0,000000000e+00    0,000000000e+00    0,000000000e+00
      996000000   -3,128160536e-01   -3,322933316e-01    3,620457053e-01   -1,423253268e-01    0,000000000e+00    0,000000000e+00    0,000000000e+00    0,000000000e+00
     1010000000   -4,607969224e-01   -1,138140634e-01    2,196485549e-01   -3,340013623e-01    0,000000000e+00    0,000000000e+00    0,000000000e+00    0,000000000e+00
     1024000000   -4,205277562e-01    1,465936899e-01   -3,235450387e-02   -3,847994208e-01    0,000000000e+00    0,000000000e+00    0,000000000e+00    0,000000000e+00
     1038000000   -2,264950573e-01    2,897224426e-01   -2,427866757e-01   -2,575720251e-01    0,000000000e+00    0,000000000e+00    0,000000000e+00    0,000000000e+00
     1052000000   -1,572733372e-02    2,785796225e-01   -3,106349707e-01   -4,716050625e-02    0,000000000e+00    0,000000000e+00    0,000000000e+00    0,000000000e+00
     1066000000    1,319362223e-01    1,729345322e-01   -2,504495978e-01    1,361226141e-01    0,000000000e+00    0,000000000e+00    0,000000000e+00    0,000000000e+00
     1080000000    1,918010265e-01    9,906546213e-03   -1,161901504e-01    2,540721297e-01    0,000000000e+00    0,000000000e+00    0,000000000e+00    0,000000000e+00
     1094000000    1,628439873e-01   -1,611858159e-01    5,822355300e-02    2,919469774e-01    0,000000000e+00    0,000000000e+00    0,000000000e+00    0,000000000e+00
     1108000000    2,016272955e-02   -2,949679196e-01    2,591316700e-01    2,346904576e-01    0,000000000e+00    0,000000000e+00    0,000000000e+00    0,000000000e+00
     1122000000   -2,099115849e-01   -2,839734554e-01    4,379281104e-01    2,675021254e-02    0,000000000e+00    0,000000000e+00    0,000000000e+00    0,000000000e+00
     1136000000   -3,289784491e-01   -3,304278478e-02    4,017118812e-01   -3,445102572e-01    0,000000000e+00    0,000000000e+00    0,000000000e+00    0,000000000e+00
     1150000000   -1,110999510e-01    1,428843737e-01    5,233755708e-02   -5,321416855e-01    0,000000000e+00    0,000000000e+00    0,000000000e+00    0,000000000e+00
     1164000000    8,643546700e-02   -1,413998101e-02   -2,504598200e-01   -4,054201245e-01    0,000000000e+00    0,000000000e+00    0,000000000e+00    0,000000000e+00
     1178000000    2,961501852e-02   -2,482452989e-01   -3,692789972e-01   -1,797459722e-01    0,000000000e+00    0,000000000e+00    0,000000000e+00    0,000000000e+00
     1192000000   -2,150768489e-01   -3,498547971e-01   -3,421784043e-01    3,877044469e-02    0,000000000e+00    0,000000000e+00    0,000000000e+00    0,000000000e+00
     1206000000   -4,733220339e-01   -1,831429452e-01   -1,869557649e-01    1,793959141e-01    0,000000000e+00    0,000000000e+00    0,000000000e+00    0,000000000e+00
     1220000000   -5,034516454e-01    1,431710571e-01   -7,321964484e-03    1,784719229e-01    0,000000000e+00    0,000000000e+00    0,000000000e+00    0,000000000e+00
     1234000000   -3,034488261e-01    3,491782844e-01    7,654098421e-02    8,141659200e-02    0,000000000e+00    0,000000000e+00    0,000000000e+00    0,000000000e+00
     1248000000   -5,830439180e-02    3,615940213e-01    6,606200337e-02    2,949612215e-03    0,000000000e+00    0,000000000e+00    0,000000000e+00    0,000000000e+00
     1262000000    1,100803092e-01    2,659625411e-01    3,062991798e-02   -2,364944294e-02    0,000000000e+00    0,000000000e+00    0,000000000e+00    0,000000000e+00
     1276000000    2,052262723e-01    1,059067547e-01    9,621897712e-03   -1,010074653e-02    0,000000000e+00    0,000000000e+00    0,000000000e+00    0,000000000e+00
     1290000000    2,235614806e-01   -6,179909408e-02    1,520458981e-02    2,549020015e-02    0,000000000e+00    0,000000000e+00    0,000000000e+00    0,000000000e+00
     1304000000    1,674829721e-01   -2,264994383e-01    5,972980335e-02    6,040884927e-02    0,000000000e+00    0,000000000e+00    0,000000000e+00    0,000000000e+00
     1318000000    2,415645681e-02   -3,650339544e-01    1,631118059e-01    1,428128686e-02    0,000000000e+00    0,000000000e+00    0,000000000e+00    0,000000000e+00
     1332000000   -1,456398517e-01   -3,958015442e-01    1,084890217e-01   -1,785650551e-01    0,000000000e+00    0,000000000e+00    0,000000000e+00    0,000000000e+00
     1346000000   -3,570234776e-01   -3,941747844e-01   -5,428799242e-02   -2,284114249e-02    0,000000000e+00    0,000000000e+00    0,000000000e+00    0,000000000e+00
     1360000000   -5,854700804e-01   -2,056384832e-01    6,211062148e-02    8,466958255e-02    0,000000000e+00    0,000000000e+00    0,000000000e+00    0,000000000e+00
     1374000000   -6,228293180e-01    1,084474549e-01    1,854243428e-01    4,272675514e-02    0,000000000e+00    0,000000000e+00    0,000000000e+00    0,000000000e+00
     1388000000   -4,755535424e-01    3,520374894e-01    2,280408740e-01   -2,395115979e-02    0,000000000e+00    0,000000000e+00    0,000000000e+00    0,000000000e+00
     1402000000   -2,417917103e-01    4,528711140e-01    2,099431008e-01   -6,807289273e-02    0,000000000e+00    0,000000000e+00    0,000000000e+00    0,000000000e+00
     1416000000   -4,421698302e-02    4,100877345e-01    1,873369962e-01   -1,062305421e-01    0,000000000e+00    0,000000000e+00    0,000000000e+00    0,000000000e+00
     1430000000    1,127254963e-01    2,994681597e-01    1,705234945e-01   -1,448073536e-01    0,000000000e+00    0,000000000e+00    0,000000000e+00    0,000000000e+00
     1444000000    1,994404197e-01    1,586584002e-01    1,717943251e-01   -1,114709526e-01    0,000000000e+00    0,000000000e+00    0,000000000e+00    0,000000000e+00
     1458000000    2,298145294e-01   -1,701196656e-02    1,566082835e-01   -8,311351389e-02    0,000000000e+00    0,000000000e+00    0,000000000e+00    0,000000000e+00
     1472000000    1,922656447e-01   -1,912128329e-01    1,467818320e-01   -4,071704671e-02    0,000000000e+00    0,000000000e+00    0,000000000e+00    0,000000000e+00
     1486000000    6,394911557e-02   -3,621986210e-01    1,554059237e-01    2,691831440e-02    0,000000000e+00    0,000000000e+00    0,000000000e+00    0,000000000e+00
     1500000000   -1,547437906e-01   -4,841780961e-01    2,370309383e-01    9,297129512e-02    0,000000000e+00    0,000000000e+00    0,000000000e+00    0,000000000e+00
