! NanoVNA-App
! Date: 2025-09-25 15:40:20
! Start: 100MHz Stop: 1,5GHz Points: 101
! S-Parameter data: F S11 S21 S12 S22
# Hz S RI R 50
!     Frequency           S11_Real           S11_Imag           S21_Real           S21_Imag           S12_Real           S12_Imag           S22_Real           S22_Imag
      100000000   -2,863181569e-02   -4,235054366e-03    3,738135695e-01   -7,215250134e-01    0,000000000e+00    0,000000000e+00    0,000000000e+00    0,000000000e+00
      114000000   -1,641373150e-02    1,150407549e-02   -8,927050978e-02   -8,049880266e-01    0,000000000e+00    0,000000000e+00    0,000000000e+00    0,000000000e+00
      128000000    3,506603418e-03    1,072647236e-02   -5,145422816e-01   -6,200196147e-01    0,000000000e+00    0,000000000e+00    0,000000000e+00    0,000000000e+00
      142000000    1,473422442e-02   -2,629836090e-03   -7,667466402e-01   -2,362784594e-01    0,000000000e+00    0,000000000e+00    0,000000000e+00    0,000000000e+00
      156000000    1,594618522e-02   -1,477352623e-02   -7,709130645e-01    2,217041403e-01    0,000000000e+00    0,000000000e+00    0,000000000e+00    0,000000000e+00
      170000000    1,723038033e-02   -2,252122015e-02   -5,178760290e-01    6,044924855e-01    0,000000000e+00    0,000000000e+00    0,000000000e+00    0,000000000e+00
      184000000    2,145968564e-02   -3,719832748e-02   -1,013932377e-01    7,861898541e-01    0,000000000e+00    0,000000000e+00    0,000000000e+00    0,000000000e+00
      198000000    1,329888776e-02   -6,255449355e-02    3,432163298e-01    7,119705677e-01    0,000000000e+00    0,000000000e+00    0,000000000e+00    0,000000000e+00
      212000000   -1,834508963e-02   -8,129206300e-02    6,776914001e-01    4,096401632e-01    0,000000000e+00    0,000000000e+00    0,000000000e+00    0,000000000e+00
      226000000   -6,124568731e-02   -6,925419718e-02    7,952890992e-01   -3,062267601e-02    0,000000000e+00    0,000000000e+00    0,000000000e+00    0,000000000e+00
      240000000   -8,210934699e-02   -2,584522590e-02    6,457999945e-01   -4,668452144e-01    0,000000000e+00    0,000000000e+00    0,000000000e+00    0,000000000e+00
      254000000   -6,323428452e-02    1,691901870e-02    2,759100795e-01   -7,425168753e-01    0,000000000e+00    0,000000000e+00    0,000000000e+00    0,000000000e+00
      268000000   -2,383933589e-02    2,873211913e-02   -1,780313253e-01   -7,639324665e-01    0,000000000e+00    0,000000000e+00    0,000000000e+00    0,000000000e+00
      282000000    4,174435511e-03    1,194304507e-02   -5,613837242e-01   -5,352590680e-01    0,000000000e+00    0,000000000e+00    0,000000000e+00    0,000000000e+00
      296000000    9,907584637e-03   -7,578418124e-03   -7,590505481e-01   -1,397115290e-01    0,000000000e+00    0,000000000e+00    0,000000000e+00    0,000000000e+00
      310000000    1,147101913e-02   -1,620476507e-02   -7,106564641e-01    2,972235978e-01    0,000000000e+00    0,000000000e+00    0,000000000e+00    0,000000000e+00
      324000000    2,009867877e-02   -2,660512924e-02   -4,276008010e-01    6,371793151e-01    0,000000000e+00    0,000000000e+00    0,000000000e+00    0,000000000e+00
      338000000    2,593428083e-02   -5,246838927e-02   -9,125843644e-03    7,625033259e-01    0,000000000e+00    0,000000000e+00    0,000000000e+00    0,000000000e+00
      352000000    7,619644981e-03   -8,463951945e-02    4,066377580e-01    6,400575042e-01    0,000000000e+00    0,000000000e+00    0,000000000e+00    0,000000000e+00
      366000000   -3,432049975e-02   -9,560333937e-02    6,904316545e-01    3,102074265e-01    0,000000000e+00    0,000000000e+00    0,000000000e+00    0,000000000e+00
      380000000   -7,026591897e-02   -7,126490027e-02    7,476873398e-01   -1,255735904e-01    0,000000000e+00    0,000000000e+00    0,000000000e+00    0,000000000e+00
      394000000   -7,198647410e-02   -3,256319091e-02    5,472765565e-01   -5,225817561e-01    0,000000000e+00    0,000000000e+00    0,000000000e+00    0,000000000e+00
      408000000   -4,595622420e-02   -1,635606401e-02    1,609184146e-01   -7,312753201e-01    0,000000000e+00    0,000000000e+00    0,000000000e+00    0,000000000e+00
      422000000   -2,809436433e-02   -3,245985880e-02   -2,671735585e-01   -6,949714422e-01    0,000000000e+00    0,000000000e+00    0,000000000e+00    0,000000000e+00
      436000000   -4,062129557e-02   -5,186070129e-02   -6,035953760e-01   -4,321042299e-01    0,000000000e+00    0,000000000e+00    0,000000000e+00    0,000000000e+00
      450000000   -6,712029874e-02   -4,406641796e-02   -7,395219207e-01   -2,231274731e-02    0,000000000e+00    0,000000000e+00    0,000000000e+00    0,000000000e+00
      464000000   -7,295282185e-02   -1,211412065e-02   -6,180704832e-01    3,964607120e-01    0,000000000e+00    0,000000000e+00    0,000000000e+00    0,000000000e+00
      478000000   -4,759631306e-02    1,126991492e-02   -2,822325230e-01    6,665324569e-01    0,000000000e+00    0,000000000e+00    0,000000000e+00    0,000000000e+00
      492000000   -1,600622386e-02    5,565882195e-03    1,361993998e-01    7,012934685e-01    0,000000000e+00    0,000000000e+00    0,000000000e+00    0,000000000e+00
      506000000   -2,674707444e-03   -1,599571109e-02    4,969716668e-01    5,022809505e-01    0,000000000e+00    0,000000000e+00    0,000000000e+00    0,000000000e+00
      520000000   -4,861747380e-03   -3,141157702e-02    6,871805787e-01    1,418754011e-01    0,000000000e+00    0,000000000e+00    0,000000000e+00    0,000000000e+00
      534000000   -3,411174286e-03   -3,802502900e-02    6,434553266e-01   -2,614371479e-01    0,000000000e+00    0,000000000e+00    0,000000000e+00    0,000000000e+00
      548000000    6,307473872e-03   -5,374474451e-02    3,818493783e-01   -5,657588840e-01    0,000000000e+00    0,000000000e+00    0,000000000e+00    0,000000000e+00
      562000000    3,398173489e-03   -8,935340494e-02    2,744644182e-03   -6,710582972e-01    0,000000000e+00    0,000000000e+00    0,000000000e+00    0,000000000e+00
      576000000   -3,422665223e-02   -1,245173067e-01   -3,685162067e-01   -5,571091771e-01    0,000000000e+00    0,000000000e+00    0,000000000e+00    0,000000000e+00
      590000000   -9,573998302e-02   -1,229035556e-01   -6,212642789e-01   -2,651267648e-01    0,000000000e+00    0,000000000e+00    0,000000000e+00    0,000000000e+00
      604000000   -1,387911886e-01   -7,279582322e-02   -6,638836861e-01    1,365648210e-01    0,000000000e+00    0,000000000e+00    0,000000000e+00    0,000000000e+00
      618000000   -1,292665601e-01   -9,615400806e-03   -4,646861553e-01    4,934763014e-01    0,000000000e+00    0,000000000e+00    0,000000000e+00    0,000000000e+00
      632000000   -8,388426155e-02    1,571253315e-02   -1,003822610e-01    6,621585488e-01    0,000000000e+00    0,000000000e+00    0,000000000e+00    0,000000000e+00
      646000000   -5,147702247e-02    8,631758974e-04    2,853984833e-01    5,942187905e-01    0,000000000e+00    0,000000000e+00    0,000000000e+00    0,000000000e+00
      660000000   -5,294494703e-02   -2,084687911e-02    5,643693805e-01    3,228072524e-01    0,000000000e+00    0,000000000e+00    0,000000000e+00    0,000000000e+00
      674000000   -7,020130008e-02   -1,711252332e-02    6,408171654e-01   -6,321031600e-02    0,000000000e+00    0,000000000e+00    0,000000000e+00    0,000000000e+00
      688000000   -6,723363698e-02    8,534729481e-03    4,706082940e-01   -4,243707657e-01    0,000000000e+00    0,000000000e+00    0,000000000e+00    0,000000000e+00
      702000000   -3,580506891e-02    2,578479983e-02    1,210782304e-01   -6,109158397e-01    0,000000000e+00    0,000000000e+00    0,000000000e+00    0,000000000e+00
      716000000    4,194458015e-03    1,641488634e-02   -2,596408725e-01   -5,436518192e-01    0,000000000e+00    0,000000000e+00    0,000000000e+00    0,000000000e+00
      730000000    3,676722571e-02   -1,470701769e-02   -5,222435594e-01   -2,710061669e-01    0,000000000e+00    0,000000000e+00    0,000000000e+00    0,000000000e+00
      744000000    6,320623308e-02   -6,512991339e-02   -5,603085160e-01    9,894588590e-02    0,000000000e+00    0,000000000e+00    0,000000000e+00    0,000000000e+00
      758000000    6,142213568e-02   -1,512834877e-01   -3,664931059e-01    3,997145295e-01    0,000000000e+00    0,000000000e+00    0,000000000e+00    0,000000000e+00
      772000000   -1,752143726e-02   -2,569330633e-01   -4,528937489e-02    5,099097490e-01    0,000000000e+00    0,000000000e+00    0,000000000e+00    0,000000000e+00
      786000000   -2,023197263e-01   -2,913997769e-01    2,586039305e-01    3,984471262e-01    0,000000000e+00    0,000000000e+00    0,000000000e+00    0,000000000e+00
      800000000   -4,088437259e-01   -1,264605224e-01    4,065906703e-01    1,181879267e-01    0,000000000e+00    0,000000000e+00    0,000000000e+00    0,000000000e+00
      814000000   -3,757295907e-01    2,027088106e-01    2,959291637e-01   -1,509123296e-01    0,000000000e+00    0,000000000e+00    0,000000000e+00    0,000000000e+00
      828000000   -6,204041839e-02    3,464292288e-01    8,200062811e-02   -1,901153624e-01    0,000000000e+00    0,000000000e+00    0,000000000e+00    0,000000000e+00
      842000000    2,116135806e-01    1,850773990e-01   -3,458942054e-03   -9,245042503e-02    0,000000000e+00    0,000000000e+00    0,000000000e+00    0,000000000e+00
      856000000    2,660169005e-01   -1,062020659e-01    3,646379709e-02   -3,667909652e-02    0,000000000e+00    0,000000000e+00    0,000000000e+00    0,000000000e+00
      870000000    8,177822083e-02   -3,508853316e-01    8,878970891e-02   -9,730750322e-02    0,000000000e+00    0,000000000e+00    0,000000000e+00    0,000000000e+00
      884000000   -2,677145302e-01   -3,570386469e-01    1,115144324e-02   -2,279589921e-01    0,000000000e+00    0,000000000e+00    0,000000000e+00    0,000000000e+00
      898000000   -4,582751989e-01   -1,278382819e-02   -2,161278278e-01   -2,099870443e-01    0,000000000e+00    0,000000000e+00    0,000000000e+00    0,000000000e+00
      912000000   -2,353425622e-01    2,775354981e-01   -3,377693295e-01    6,196799874e-02    0,000000000e+00    0,000000000e+00    0,000000000e+00    0,000000000e+00
      926000000    5,462942645e-02    2,622374594e-01   -2,101175636e-01    2,628915906e-01    0,000000000e+00    0,000000000e+00    0,000000000e+00    0,000000000e+00
      940000000    2,075046301e-01    8,350744843e-02   -3,227692097e-02    3,259737790e-01    0,000000000e+00    0,000000000e+00    0,000000000e+00    0,000000000e+00
      954000000    2,210400701e-01   -1,200915948e-01    1,311067045e-01    3,022911847e-01    0,000000000e+00    0,000000000e+00    0,000000000e+00    0,000000000e+00
      968000000    1,149107367e-01   -2,934609056e-01    2,681945264e-01    2,129375935e-01    0,000000000e+00    0,000000000e+00    0,000000000e+00    0,000000000e+00
      982000000   -7,523567975e-02   -3,844547570e-01    3,603602648e-01    6,248354539e-02    0,000000000e+00    0,000000000e+00    0,000000000e+00    0,000000000e+00
      996000000   -3,108827174e-01   -3,332817852e-01    3,633611500e-01   -1,422747821e-01    0,000000000e+00    0,000000000e+00    0,000000000e+00    0,000000000e+00
     1010000000   -4,582206309e-01   -1,167096645e-01    2,190655023e-01   -3,367921710e-01    0,000000000e+00    0,000000000e+00    0,000000000e+00    0,000000000e+00
     1024000000   -4,171296656e-01    1,390136182e-01   -3,349293396e-02   -3,854089081e-01    0,000000000e+00    0,000000000e+00    0,000000000e+00    0,000000000e+00
     1038000000   -2,209339589e-01    2,864874303e-01   -2,441406995e-01   -2,575075626e-01    0,000000000e+00    0,000000000e+00    0,000000000e+00    0,000000000e+00
     1052000000   -1,669999212e-02    2,811919749e-01   -3,091857135e-01   -4,980229959e-02    0,000000000e+00    0,000000000e+00    0,000000000e+00    0,000000000e+00
     1066000000    1,290060580e-01    1,682769358e-01   -2,512609661e-01    1,390197873e-01    0,000000000e+00    0,000000000e+00    0,000000000e+00    0,000000000e+00
     1080000000    1,943244189e-01    1,109657064e-02   -1,152668521e-01    2,540436685e-01    0,000000000e+00    0,000000000e+00    0,000000000e+00    0,000000000e+00
     1094000000    1,634407043e-01   -1,644087285e-01    5,954021215e-02    2,922331393e-01    0,000000000e+00    0,000000000e+00    0,000000000e+00    0,000000000e+00
     1108000000    1,593880914e-02   -2,991183996e-01    2,597824931e-01    2,341959924e-01    0,000000000e+00    0,000000000e+00    0,000000000e+00    0,000000000e+00
     1122000000   -2,139012814e-01   -2,772117555e-01    4,420300722e-01    2,071573026e-02    0,000000000e+00    0,000000000e+00    0,000000000e+00    0,000000000e+00
     1136000000   -3,289313912e-01   -2,701886185e-02    3,977596760e-01   -3,446333110e-01    0,000000000e+00    0,000000000e+00    0,000000000e+00    0,000000000e+00
     1150000000   -1,034914628e-01    1,407816261e-01    4,740523547e-02   -5,294362307e-01    0,000000000e+00    0,000000000e+00    0,000000000e+00    0,000000000e+00
     1164000000    8,339509368e-02   -1,523259468e-02   -2,510810494e-01   -4,002178311e-01    0,000000000e+00    0,000000000e+00    0,000000000e+00    0,000000000e+00
     1178000000    2,538386360e-02   -2,522985637e-01   -3,712498248e-01   -1,794679314e-01    0,000000000e+00    0,000000000e+00    0,000000000e+00    0,000000000e+00
     1192000000   -2,244592309e-01   -3,483500183e-01   -3,419782519e-01    3,655251488e-02    0,000000000e+00    0,000000000e+00    0,000000000e+00    0,000000000e+00
     1206000000   -4,829716980e-01   -1,767381728e-01   -1,904674023e-01    1,810124367e-01    0,000000000e+00    0,000000000e+00    0,000000000e+00    0,000000000e+00
     1220000000   -4,964375198e-01    1,390290558e-01   -1,098693255e-02    1,771733314e-01    0,000000000e+00    0,000000000e+00    0,000000000e+00    0,000000000e+00
     1234000000   -3,013502359e-01    3,368300200e-01    7,543613017e-02    7,791943103e-02    0,000000000e+00    0,000000000e+00    0,000000000e+00    0,000000000e+00
     1248000000   -5,452626199e-02    3,558305204e-01    6,842836738e-02    7,725282921e-04    0,000000000e+00    0,000000000e+00    0,000000000e+00    0,000000000e+00
     1262000000    1,117125079e-01    2,625724673e-01    3,152799606e-02   -2,499170415e-02    0,000000000e+00    0,000000000e+00    0,000000000e+00    0,000000000e+00
     1276000000    1,984420717e-01    1,052165329e-01    2,832016442e-03   -4,418006632e-03    0,000000000e+00    0,000000000e+00    0,000000000e+00    0,000000000e+00
     1290000000    2,232161462e-01   -6,140935794e-02    1,591294631e-02    2,994470298e-02    0,000000000e+00    0,000000000e+00    0,000000000e+00    0,000000000e+00
     1304000000    1,655286252e-01   -2,283158451e-01    6,056778505e-02    6,305394322e-02    0,000000000e+00    0,000000000e+00    0,000000000e+00    0,000000000e+00
     1318000000    2,593304589e-02   -3,622407019e-01    1,709962934e-01    1,658726856e-02    0,000000000e+00    0,000000000e+00    0,000000000e+00    0,000000000e+00
     1332000000   -1,457359493e-01   -3,976175189e-01    1,051028222e-01   -1,756268740e-01    0,000000000e+00    0,000000000e+00    0,000000000e+00    0,000000000e+00
     1346000000   -3,586786985e-01   -3,959875703e-01   -5,337505415e-02   -2,601652965e-02    0,000000000e+00    0,000000000e+00    0,000000000e+00    0,000000000e+00
     1360000000   -5,980845690e-01   -2,038884312e-01    5,723295361e-02    8,538427949e-02    0,000000000e+00    0,000000000e+00    0,000000000e+00    0,000000000e+00
     1374000000   -6,233448982e-01    1,124790460e-01    1,813534796e-01    6,015313417e-02    0,000000000e+00    0,000000000e+00    0,000000000e+00    0,000000000e+00
     1388000000   -4,738337696e-01    3,564791083e-01    2,171607763e-01   -1,470161136e-02    0,000000000e+00    0,000000000e+00    0,000000000e+00    0,000000000e+00
     1402000000   -2,475317121e-01    4,471320808e-01    2,074512392e-01   -8,349178731e-02    0,000000000e+00    0,000000000e+00    0,000000000e+00    0,000000000e+00
     1416000000   -3,427773342e-02    4,098241329e-01    2,011007816e-01   -9,683199972e-02    0,000000000e+00    0,000000000e+00    0,000000000e+00    0,000000000e+00
     1430000000    1,112362444e-01    3,128051162e-01    1,715363264e-01   -1,024960577e-01    0,000000000e+00    0,000000000e+00    0,000000000e+00    0,000000000e+00
     1444000000    2,028479725e-01    1,592349261e-01    1,629761457e-01   -1,052245796e-01    0,000000000e+00    0,000000000e+00    0,000000000e+00    0,000000000e+00
     1458000000    2,339515537e-01   -1,156674605e-02    1,553285569e-01   -8,768015355e-02    0,000000000e+00    0,000000000e+00    0,000000000e+00    0,000000000e+00
     1472000000    1,942797899e-01   -1,882189512e-01    1,455965340e-01   -4,505672306e-02    0,000000000e+00    0,000000000e+00    0,000000000e+00    0,000000000e+00
     1486000000    6,615713984e-02   -3,610217571e-01    1,605321616e-01    2,193735726e-02    0,000000000e+00    0,000000000e+00    0,000000000e+00    0,000000000e+00
     1500000000   -1,552839130e-01   -4,868067205e-01    2,402585298e-01    9,296810627e-02    0,000000000e+00    0,000000000e+00    0,000000000e+00    0,000000000e+00
