! NanoVNA-App
! Date: 2025-09-25 15:39:13
! Start: 100MHz Stop: 1,5GHz Points: 101
! S-Parameter data: F S11 S21 S12 S22
# Hz S RI R 50
!     Frequency           S11_Real           S11_Imag           S21_Real           S21_Imag           S12_Real           S12_Imag           S22_Real           S22_Imag
      100000000   -2,863465436e-02   -4,230840597e-03    3,738138080e-01   -7,215153575e-01    0,000000000e+00    0,000000000e+00    0,000000000e+00    0,000000000e+00
      114000000   -1,640979759e-02    1,148796733e-02   -8,928015083e-02   -8,050966263e-01    0,000000000e+00    0,000000000e+00    0,000000000e+00    0,000000000e+00
      128000000    3,505475819e-03    1,069782209e-02   -5,144311190e-01   -6,200235486e-01    0,000000000e+00    0,000000000e+00    0,000000000e+00    0,000000000e+00
      142000000    1,472469233e-02   -2,613861114e-03   -7,667363286e-01   -2,362241894e-01    0,000000000e+00    0,000000000e+00    0,000000000e+00    0,000000000e+00
      156000000    1,482853480e-02   -1,450724155e-02   -7,634196877e-01    2,189914584e-01    0,000000000e+00    0,000000000e+00    0,000000000e+00    0,000000000e+00
      170000000    1,729465649e-02   -2,245815471e-02   -5,175095201e-01    6,042807102e-01    0,000000000e+00    0,000000000e+00    0,000000000e+00    0,000000000e+00
      184000000    2,148318104e-02   -3,716800362e-02   -1,012920365e-01    7,857027054e-01    0,000000000e+00    0,000000000e+00    0,000000000e+00    0,000000000e+00
      198000000    1,336592250e-02   -6,258444488e-02    3,429723084e-01    7,119618058e-01    0,000000000e+00    0,000000000e+00    0,000000000e+00    0,000000000e+00
      212000000   -1,838180423e-02   -8,121585101e-02    6,776787639e-01    4,096697271e-01    0,000000000e+00    0,000000000e+00    0,000000000e+00    0,000000000e+00
      226000000   -6,129130349e-02   -6,920386106e-02    7,952290773e-01   -3,060804307e-02    0,000000000e+00    0,000000000e+00    0,000000000e+00    0,000000000e+00
      240000000   -8,203584701e-02   -2,582957037e-02    6,455504298e-01   -4,667069018e-01    0,000000000e+00    0,000000000e+00    0,000000000e+00    0,000000000e+00
      254000000   -6,326354295e-02    1,683153212e-02    2,757341564e-01   -7,429220676e-01    0,000000000e+00    0,000000000e+00    0,000000000e+00    0,000000000e+00
      268000000   -2,380851470e-02    2,875762992e-02   -1,779486984e-01   -7,639206052e-01    0,000000000e+00    0,000000000e+00    0,000000000e+00    0,000000000e+00
      282000000    4,120358266e-03    1,201522537e-02   -5,617015362e-01   -5,354910493e-01    0,000000000e+00    0,000000000e+00    0,000000000e+00    0,000000000e+00
      296000000    9,933872148e-03   -7,549609989e-03   -7,592248917e-01   -1,395173520e-01    0,000000000e+00    0,000000000e+00    0,000000000e+00    0,000000000e+00
      310000000    1,178428531e-02   -1,620639674e-02   -7,115059495e-01    2,972929776e-01    0,000000000e+00    0,000000000e+00    0,000000000e+00    0,000000000e+00
      324000000    2,013711259e-02   -2,683231607e-02   -4,266525507e-01    6,379330754e-01    0,000000000e+00    0,000000000e+00    0,000000000e+00    0,000000000e+00
      338000000    2,594252303e-02   -5,243004858e-02   -7,036346477e-03    7,636649013e-01    0,000000000e+00    0,000000000e+00    0,000000000e+00    0,000000000e+00
      352000000    7,540264167e-03   -8,486385643e-02    4,062496424e-01    6,393125057e-01    0,000000000e+00    0,000000000e+00    0,000000000e+00    0,000000000e+00
      366000000   -3,448087350e-02   -9,548670799e-02    6,900532842e-01    3,107388616e-01    0,000000000e+00    0,000000000e+00    0,000000000e+00    0,000000000e+00
      380000000   -7,016409189e-02   -7,103425264e-02    7,468804121e-01   -1,252502650e-01    0,000000000e+00    0,000000000e+00    0,000000000e+00    0,000000000e+00
      394000000   -7,201261073e-02   -3,247665986e-02    5,456456542e-01   -5,202619433e-01    0,000000000e+00    0,000000000e+00    0,000000000e+00    0,000000000e+00
      408000000   -4,632341489e-02   -1,652182452e-02    1,598186046e-01   -7,315857410e-01    0,000000000e+00    0,000000000e+00    0,000000000e+00    0,000000000e+00
      422000000   -2,832042053e-02   -3,207870200e-02   -2,670297027e-01   -6,937196255e-01    0,000000000e+00    0,000000000e+00    0,000000000e+00    0,000000000e+00
      436000000   -4,052904993e-02   -5,161005259e-02   -6,035987139e-01   -4,308388829e-01    0,000000000e+00    0,000000000e+00    0,000000000e+00    0,000000000e+00
      450000000   -6,686772406e-02   -4,379945621e-02   -7,396308184e-01   -2,166886628e-02    0,000000000e+00    0,000000000e+00    0,000000000e+00    0,000000000e+00
      464000000   -7,306022942e-02   -1,205483079e-02   -6,178292632e-01    3,970299065e-01    0,000000000e+00    0,000000000e+00    0,000000000e+00    0,000000000e+00
      478000000   -4,742663354e-02    1,106959488e-02   -2,824989855e-01    6,662731767e-01    0,000000000e+00    0,000000000e+00    0,000000000e+00    0,000000000e+00
      492000000   -1,567452587e-02    5,438189954e-03    1,376871020e-01    7,008836865e-01    0,000000000e+00    0,000000000e+00    0,000000000e+00    0,000000000e+00
      506000000   -2,565504052e-03   -1,606781781e-02    4,976021647e-01    5,019596815e-01    0,000000000e+00    0,000000000e+00    0,000000000e+00    0,000000000e+00
      520000000   -5,146380514e-03   -3,099337779e-02    6,880941391e-01    1,406513155e-01    0,000000000e+00    0,000000000e+00    0,000000000e+00    0,000000000e+00
      534000000   -3,707835451e-03   -3,815223277e-02    6,428230405e-01   -2,621520460e-01    0,000000000e+00    0,000000000e+00    0,000000000e+00    0,000000000e+00
      548000000    6,247007288e-03   -5,423811451e-02    3,808870316e-01   -5,666460395e-01    0,000000000e+00    0,000000000e+00    0,000000000e+00    0,000000000e+00
      562000000    3,701740410e-03   -8,965045214e-02    2,838138025e-03   -6,711784601e-01    0,000000000e+00    0,000000000e+00    0,000000000e+00    0,000000000e+00
      576000000   -3,418383747e-02   -1,239906773e-01   -3,674588799e-01   -5,573256612e-01    0,000000000e+00    0,000000000e+00    0,000000000e+00    0,000000000e+00
      590000000   -9,563827515e-02   -1,228588596e-01   -6,180798411e-01   -2,631882727e-01    0,000000000e+00    0,000000000e+00    0,000000000e+00    0,000000000e+00
      604000000   -1,386718154e-01   -7,251447439e-02   -6,642225385e-01    1,361589879e-01    0,000000000e+00    0,000000000e+00    0,000000000e+00    0,000000000e+00
      618000000   -1,288847625e-01   -1,046686433e-02   -4,633497596e-01    4,933905303e-01    0,000000000e+00    0,000000000e+00    0,000000000e+00    0,000000000e+00
      632000000   -8,479636908e-02    1,591975428e-02   -9,996799380e-02    6,630175710e-01    0,000000000e+00    0,000000000e+00    0,000000000e+00    0,000000000e+00
      646000000   -5,216340348e-02    6,128620589e-05    2,851449549e-01    5,942643285e-01    0,000000000e+00    0,000000000e+00    0,000000000e+00    0,000000000e+00
      660000000   -5,348836631e-02   -2,157271281e-02    5,647981167e-01    3,225950599e-01    0,000000000e+00    0,000000000e+00    0,000000000e+00    0,000000000e+00
      674000000   -6,909429282e-02   -1,654465869e-02    6,407604814e-01   -6,365527958e-02    0,000000000e+00    0,000000000e+00    0,000000000e+00    0,000000000e+00
      688000000   -6,704559922e-02    8,613415062e-03    4,708304107e-01   -4,238432348e-01    0,000000000e+00    0,000000000e+00    0,000000000e+00    0,000000000e+00
      702000000   -3,579912707e-02    2,542754263e-02    1,269412339e-01   -6,115557551e-01    0,000000000e+00    0,000000000e+00    0,000000000e+00    0,000000000e+00
      716000000    4,073027987e-03    1,664535142e-02   -2,592257261e-01   -5,450322628e-01    0,000000000e+00    0,000000000e+00    0,000000000e+00    0,000000000e+00
      730000000    3,711915016e-02   -1,309155114e-02   -5,219382644e-01   -2,709034681e-01    0,000000000e+00    0,000000000e+00    0,000000000e+00    0,000000000e+00
      744000000    6,298438460e-02   -6,561303884e-02   -5,600163341e-01    9,905488789e-02    0,000000000e+00    0,000000000e+00    0,000000000e+00    0,000000000e+00
      758000000    6,171025708e-02   -1,523256451e-01   -3,651647866e-01    4,004003704e-01    0,000000000e+00    0,000000000e+00    0,000000000e+00    0,000000000e+00
      772000000   -1,782726310e-02   -2,566708326e-01   -4,541049153e-02    5,073887706e-01    0,000000000e+00    0,000000000e+00    0,000000000e+00    0,000000000e+00
      786000000   -2,035136372e-01   -2,921069264e-01    2,596223652e-01    3,990406990e-01    0,000000000e+00    0,000000000e+00    0,000000000e+00    0,000000000e+00
      800000000   -4,079102278e-01   -1,257766485e-01    4,068953693e-01    1,174317598e-01    0,000000000e+00    0,000000000e+00    0,000000000e+00    0,000000000e+00
      814000000   -3,761263192e-01    2,029848248e-01    2,953838706e-01   -1,512197554e-01    0,000000000e+00    0,000000000e+00    0,000000000e+00    0,000000000e+00
      828000000   -6,175487861e-02    3,478142321e-01    8,171185851e-02   -1,901213378e-01    0,000000000e+00    0,000000000e+00    0,000000000e+00    0,000000000e+00
      842000000    2,111989111e-01    1,851775199e-01   -3,541365266e-03   -9,202460945e-02    0,000000000e+00    0,000000000e+00    0,000000000e+00    0,000000000e+00
      856000000    2,653223872e-01   -1,065427214e-01    3,702355176e-02   -3,700020537e-02    0,000000000e+00    0,000000000e+00    0,000000000e+00    0,000000000e+00
      870000000    8,138914406e-02   -3,526307940e-01    8,950432390e-02   -9,811359644e-02    0,000000000e+00    0,000000000e+00    0,000000000e+00    0,000000000e+00
      884000000   -2,694446445e-01   -3,549765348e-01    1,114539336e-02   -2,284549624e-01    0,000000000e+00    0,000000000e+00    0,000000000e+00    0,000000000e+00
      898000000   -4,574741125e-01   -1,252762228e-02   -2,160605043e-01   -2,095331401e-01    0,000000000e+00    0,000000000e+00    0,000000000e+00    0,000000000e+00
      912000000   -2,345080972e-01    2,780958116e-01   -3,251913786e-01    6,952416152e-02    0,000000000e+00    0,000000000e+00    0,000000000e+00    0,000000000e+00
      926000000    5,582160503e-02    2,626492381e-01   -2,078002244e-01    2,624855340e-01    0,000000000e+00    0,000000000e+00    0,000000000e+00    0,000000000e+00
      940000000    2,090506256e-01    8,267654479e-02   -3,147405013e-02    3,244484961e-01    0,000000000e+00    0,000000000e+00    0,000000000e+00    0,000000000e+00
      954000000    2,212089449e-01   -1,240402311e-01    1,314103603e-01    3,009486496e-01    0,000000000e+00    0,000000000e+00    0,000000000e+00    0,000000000e+00
      968000000    1,165872589e-01   -2,944827974e-01    2,675205469e-01    2,144266814e-01    0,000000000e+00    0,000000000e+00    0,000000000e+00    0,000000000e+00
      982000000   -7,580555975e-02   -3,841947913e-01    3,613348305e-01    6,319266558e-02    0,000000000e+00    0,000000000e+00    0,000000000e+00    0,000000000e+00
      996000000   -3,103048205e-01   -3,288518488e-01    3,622399271e-01   -1,427856982e-01    0,000000000e+00    0,000000000e+00    0,000000000e+00    0,000000000e+00
     1010000000   -4,632090330e-01   -1,144300476e-01    2,209508568e-01   -3,355220556e-01    0,000000000e+00    0,000000000e+00    0,000000000e+00    0,000000000e+00
     1024000000   -4,178971350e-01    1,441649199e-01   -3,124209680e-02   -3,852820992e-01    0,000000000e+00    0,000000000e+00    0,000000000e+00    0,000000000e+00
     1038000000   -2,217635214e-01    2,911219299e-01   -2,412009835e-01   -2,553794682e-01    0,000000000e+00    0,000000000e+00    0,000000000e+00    0,000000000e+00
     1052000000   -1,475524157e-02    2,830385268e-01   -3,128319979e-01   -4,651703313e-02    0,000000000e+00    0,000000000e+00    0,000000000e+00    0,000000000e+00
     1066000000    1,295762807e-01    1,698002368e-01   -2,507173717e-01    1,371071339e-01    0,000000000e+00    0,000000000e+00    0,000000000e+00    0,000000000e+00
     1080000000    1,946597546e-01    8,358774707e-03   -1,164262220e-01    2,557971179e-01    0,000000000e+00    0,000000000e+00    0,000000000e+00    0,000000000e+00
     1094000000    1,600703448e-01   -1,606441140e-01    5,969852209e-02    2,917872667e-01    0,000000000e+00    0,000000000e+00    0,000000000e+00    0,000000000e+00
     1108000000    1,690364815e-02   -2,928150892e-01    2,610068023e-01    2,306526750e-01    0,000000000e+00    0,000000000e+00    0,000000000e+00    0,000000000e+00
     1122000000   -2,175535709e-01   -2,844257355e-01    4,399687648e-01    2,463785559e-02    0,000000000e+00    0,000000000e+00    0,000000000e+00    0,000000000e+00
     1136000000   -3,265891373e-01   -3,377083689e-02    3,982782364e-01   -3,475719690e-01    0,000000000e+00    0,000000000e+00    0,000000000e+00    0,000000000e+00
     1150000000   -1,091164872e-01    1,405130625e-01    4,653603956e-02   -5,304411054e-01    0,000000000e+00    0,000000000e+00    0,000000000e+00    0,000000000e+00
     1164000000    8,546187729e-02   -1,508321054e-02   -2,514026761e-01   -4,019823372e-01    0,000000000e+00    0,000000000e+00    0,000000000e+00    0,000000000e+00
     1178000000    2,824201062e-02   -2,530556321e-01   -3,672496378e-01   -1,799188852e-01    0,000000000e+00    0,000000000e+00    0,000000000e+00    0,000000000e+00
     1192000000   -2,193315923e-01   -3,467195332e-01   -3,398942947e-01    4,182434455e-02    0,000000000e+00    0,000000000e+00    0,000000000e+00    0,000000000e+00
     1206000000   -4,814224839e-01   -1,761577278e-01   -1,914473176e-01    1,848652810e-01    0,000000000e+00    0,000000000e+00    0,000000000e+00    0,000000000e+00
     1220000000   -4,986779690e-01    1,372363120e-01   -7,547206245e-03    1,752258390e-01    0,000000000e+00    0,000000000e+00    0,000000000e+00    0,000000000e+00
     1234000000   -3,007152081e-01    3,409059644e-01    6,961705536e-02    8,063855022e-02    0,000000000e+00    0,000000000e+00    0,000000000e+00    0,000000000e+00
     1248000000   -6,107320637e-02    3,552955091e-01    6,654402614e-02   -2,174286405e-03    0,000000000e+00    0,000000000e+00    0,000000000e+00    0,000000000e+00
     1262000000    1,057900116e-01    2,580951750e-01    2,770817652e-02   -2,376864851e-02    0,000000000e+00    0,000000000e+00    0,000000000e+00    0,000000000e+00
     1276000000    1,995465457e-01    1,057888195e-01    3,202948952e-03   -1,137871947e-02    0,000000000e+00    0,000000000e+00    0,000000000e+00    0,000000000e+00
     1290000000    2,217492312e-01   -6,684345007e-02    1,258268673e-02    2,463928796e-02    0,000000000e+00    0,000000000e+00    0,000000000e+00    0,000000000e+00
     1304000000    1,677870899e-01   -2,314104140e-01    6,953371316e-02    5,785464123e-02    0,000000000e+00    0,000000000e+00    0,000000000e+00    0,000000000e+00
     1318000000    2,168725058e-02   -3,643602133e-01    1,702231467e-01    9,904091246e-03    0,000000000e+00    0,000000000e+00    0,000000000e+00    0,000000000e+00
     1332000000   -1,509060562e-01   -4,002245367e-01    1,014102846e-01   -1,894596964e-01    0,000000000e+00    0,000000000e+00    0,000000000e+00    0,000000000e+00
     1346000000   -3,608224094e-01   -3,890700638e-01   -5,509827286e-02   -1,512229815e-02    0,000000000e+00    0,000000000e+00    0,000000000e+00    0,000000000e+00
     1360000000   -5,871679783e-01   -2,039360553e-01    5,426765978e-02    8,859364688e-02    0,000000000e+00    0,000000000e+00    0,000000000e+00    0,000000000e+00
     1374000000   -6,291171312e-01    9,736702591e-02    1,734541506e-01    4,633868113e-02    0,000000000e+00    0,000000000e+00    0,000000000e+00    0,000000000e+00
     1388000000   -4,746657908e-01    3,487606645e-01    2,199217528e-01   -2,538808994e-02    0,000000000e+00    0,000000000e+00    0,000000000e+00    0,000000000e+00
     1402000000   -2,490244508e-01    4,457877576e-01    2,043676674e-01   -8,043381572e-02    0,000000000e+00    0,000000000e+00    0,000000000e+00    0,000000000e+00
     1416000000   -3,689400852e-02    4,064463079e-01    1,975255758e-01   -1,117947325e-01    0,000000000e+00    0,000000000e+00    0,000000000e+00    0,000000000e+00
     1430000000    1,152555421e-01    3,048249185e-01    1,750568897e-01   -1,243240237e-01    0,000000000e+00    0,000000000e+00    0,000000000e+00    0,000000000e+00
     1444000000    2,016205639e-01    1,592263132e-01    1,609985530e-01   -9,703411162e-02    0,000000000e+00    0,000000000e+00    0,000000000e+00    0,000000000e+00
     1458000000    2,283614278e-01   -1,713773608e-02    1,510245949e-01   -9,329168499e-02    0,000000000e+00    0,000000000e+00    0,000000000e+00    0,000000000e+00
     1472000000    1,899966747e-01   -1,955552697e-01    1,308677495e-01   -4,936020076e-02    0,000000000e+00    0,000000000e+00    0,000000000e+00    0,000000000e+00
     1486000000    6,725225598e-02   -3,624961972e-01    1,507482082e-01    3,018362820e-02    0,000000000e+00    0,000000000e+00    0,000000000e+00    0,000000000e+00
     1500000000   -1,502687782e-01   -4,808290601e-01    2,329987735e-01    9,435244650e-02    0,000000000e+00    0,000000000e+00    0,000000000e+00    0,000000000e+00
