! NanoVNA-App
! Date: 2025-09-25 15:44:08
! Start: 100MHz Stop: 1,5GHz Points: 101
! S-Parameter data: F S11 S21 S12 S22
# Hz S RI R 50
!     Frequency           S11_Real           S11_Imag           S21_Real           S21_Imag           S12_Real           S12_Imag           S22_Real           S22_Imag
      100000000   -2,873442881e-02   -4,258629866e-03    3,739511073e-01   -7,215660214e-01    0,000000000e+00    0,000000000e+00    0,000000000e+00    0,000000000e+00
      114000000   -1,650910079e-02    1,144579146e-02   -8,913040906e-02   -8,051008582e-01    0,000000000e+00    0,000000000e+00    0,000000000e+00    0,000000000e+00
      128000000    3,461777000e-03    1,069406513e-02   -5,145516396e-01   -6,202481389e-01    0,000000000e+00    0,000000000e+00    0,000000000e+00    0,000000000e+00
      142000000    1,465768740e-02   -2,645775210e-03   -7,668850422e-01   -2,363855094e-01    0,000000000e+00    0,000000000e+00    0,000000000e+00    0,000000000e+00
      156000000    1,541692391e-02   -1,473220531e-02   -7,689134479e-01    2,197288424e-01    0,000000000e+00    0,000000000e+00    0,000000000e+00    0,000000000e+00
      170000000    1,709108055e-02   -2,244560234e-02   -5,180329680e-01    6,045467257e-01    0,000000000e+00    0,000000000e+00    0,000000000e+00    0,000000000e+00
      184000000    2,138416097e-02   -3,716372699e-02   -1,014721170e-01    7,857086658e-01    0,000000000e+00    0,000000000e+00    0,000000000e+00    0,000000000e+00
      198000000    1,323035359e-02   -6,255554408e-02    3,431390822e-01    7,121846080e-01    0,000000000e+00    0,000000000e+00    0,000000000e+00    0,000000000e+00
      212000000   -1,841190830e-02   -8,132994175e-02    6,778005362e-01    4,097378850e-01    0,000000000e+00    0,000000000e+00    0,000000000e+00    0,000000000e+00
      226000000   -6,131124496e-02   -6,919825077e-02    7,953560352e-01   -3,048801981e-02    0,000000000e+00    0,000000000e+00    0,000000000e+00    0,000000000e+00
      240000000   -8,219189942e-02   -2,584528178e-02    6,457478404e-01   -4,665597975e-01    0,000000000e+00    0,000000000e+00    0,000000000e+00    0,000000000e+00
      254000000   -6,336379051e-02    1,697184704e-02    2,758781314e-01   -7,431579232e-01    0,000000000e+00    0,000000000e+00    0,000000000e+00    0,000000000e+00
      268000000   -2,395252511e-02    2,869656309e-02   -1,778481603e-01   -7,639091015e-01    0,000000000e+00    0,000000000e+00    0,000000000e+00    0,000000000e+00
      282000000    4,096683115e-03    1,206118520e-02   -5,616686940e-01   -5,353411436e-01    0,000000000e+00    0,000000000e+00    0,000000000e+00    0,000000000e+00
      296000000    9,994054213e-03   -7,647127844e-03   -7,593544722e-01   -1,395324767e-01    0,000000000e+00    0,000000000e+00    0,000000000e+00    0,000000000e+00
      310000000    1,147594582e-02   -1,603550836e-02   -7,111281157e-01    2,976024151e-01    0,000000000e+00    0,000000000e+00    0,000000000e+00    0,000000000e+00
      324000000    2,003226429e-02   -2,657514811e-02   -4,275174439e-01    6,363790631e-01    0,000000000e+00    0,000000000e+00    0,000000000e+00    0,000000000e+00
      338000000    2,565428428e-02   -5,222453177e-02   -7,172478829e-03    7,595471740e-01    0,000000000e+00    0,000000000e+00    0,000000000e+00    0,000000000e+00
      352000000    7,410727907e-03   -8,445880562e-02    4,067414403e-01    6,403378248e-01    0,000000000e+00    0,000000000e+00    0,000000000e+00    0,000000000e+00
      366000000   -3,424464166e-02   -9,547635913e-02    6,898913383e-01    3,109764159e-01    0,000000000e+00    0,000000000e+00    0,000000000e+00    0,000000000e+00
      380000000   -7,052114606e-02   -7,111342251e-02    7,465749979e-01   -1,256802678e-01    0,000000000e+00    0,000000000e+00    0,000000000e+00    0,000000000e+00
      394000000   -7,192593068e-02   -3,254779428e-02    5,466972589e-01   -5,224173069e-01    0,000000000e+00    0,000000000e+00    0,000000000e+00    0,000000000e+00
      408000000   -4,609747604e-02   -1,614386961e-02    1,619557291e-01   -7,304018736e-01    0,000000000e+00    0,000000000e+00    0,000000000e+00    0,000000000e+00
      422000000   -2,814365551e-02   -3,222041577e-02   -2,676358819e-01   -6,951946616e-01    0,000000000e+00    0,000000000e+00    0,000000000e+00    0,000000000e+00
      436000000   -4,036666825e-02   -5,179451406e-02   -6,034485698e-01   -4,321648777e-01    0,000000000e+00    0,000000000e+00    0,000000000e+00    0,000000000e+00
      450000000   -6,718875468e-02   -4,413421452e-02   -7,400328517e-01   -2,161998302e-02    0,000000000e+00    0,000000000e+00    0,000000000e+00    0,000000000e+00
      464000000   -7,311811298e-02   -1,141026057e-02   -6,184823513e-01    3,969828784e-01    0,000000000e+00    0,000000000e+00    0,000000000e+00    0,000000000e+00
      478000000   -4,753401875e-02    1,110862475e-02   -2,822286785e-01    6,670293212e-01    0,000000000e+00    0,000000000e+00    0,000000000e+00    0,000000000e+00
      492000000   -1,580942981e-02    5,732708145e-03    1,375210583e-01    7,010325193e-01    0,000000000e+00    0,000000000e+00    0,000000000e+00    0,000000000e+00
      506000000   -2,588666277e-03   -1,546795294e-02    4,978346229e-01    5,030458570e-01    0,000000000e+00    0,000000000e+00    0,000000000e+00    0,000000000e+00
      520000000   -5,021314602e-03   -3,097457439e-02    6,876196861e-01    1,414934993e-01    0,000000000e+00    0,000000000e+00    0,000000000e+00    0,000000000e+00
      534000000   -3,907278180e-03   -3,803941980e-02    6,426827312e-01   -2,616165876e-01    0,000000000e+00    0,000000000e+00    0,000000000e+00    0,000000000e+00
      548000000    6,427111104e-03   -5,395322293e-02    3,813289702e-01   -5,661264658e-01    0,000000000e+00    0,000000000e+00    0,000000000e+00    0,000000000e+00
      562000000    3,467820352e-03   -8,926337212e-02    3,399359528e-03   -6,708840132e-01    0,000000000e+00    0,000000000e+00    0,000000000e+00    0,000000000e+00
      576000000   -3,395440802e-02   -1,245485395e-01   -3,671055138e-01   -5,580480099e-01    0,000000000e+00    0,000000000e+00    0,000000000e+00    0,000000000e+00
      590000000   -9,577026218e-02   -1,227452457e-01   -6,197611690e-01   -2,620493174e-01    0,000000000e+00    0,000000000e+00    0,000000000e+00    0,000000000e+00
      604000000   -1,387816817e-01   -7,238539308e-02   -6,636868715e-01    1,364859939e-01    0,000000000e+00    0,000000000e+00    0,000000000e+00    0,000000000e+00
      618000000   -1,286379546e-01   -9,729763493e-03   -4,643136263e-01    4,930568635e-01    0,000000000e+00    0,000000000e+00    0,000000000e+00    0,000000000e+00
      632000000   -8,430529386e-02    1,648224704e-02   -1,001553908e-01    6,625582576e-01    0,000000000e+00    0,000000000e+00    0,000000000e+00    0,000000000e+00
      646000000   -5,146251991e-02    7,299584104e-04    2,850687802e-01    5,936082602e-01    0,000000000e+00    0,000000000e+00    0,000000000e+00    0,000000000e+00
      660000000   -5,380180851e-02   -2,033418790e-02    5,647985935e-01    3,229441643e-01    0,000000000e+00    0,000000000e+00    0,000000000e+00    0,000000000e+00
      674000000   -7,025384903e-02   -1,649845578e-02    6,407189369e-01   -6,311830133e-02    0,000000000e+00    0,000000000e+00    0,000000000e+00    0,000000000e+00
      688000000   -6,748989224e-02    8,659269661e-03    4,700535238e-01   -4,242833555e-01    0,000000000e+00    0,000000000e+00    0,000000000e+00    0,000000000e+00
      702000000   -3,529844806e-02    2,611722797e-02    1,212569252e-01   -6,096288562e-01    0,000000000e+00    0,000000000e+00    0,000000000e+00    0,000000000e+00
      716000000    3,164056456e-03    1,564088091e-02   -2,595017254e-01   -5,452073216e-01    0,000000000e+00    0,000000000e+00    0,000000000e+00    0,000000000e+00
      730000000    3,626622260e-02   -1,328845229e-02   -5,222055316e-01   -2,715579867e-01    0,000000000e+00    0,000000000e+00    0,000000000e+00    0,000000000e+00
      744000000    6,325072795e-02   -6,525667757e-02   -5,605890751e-01    9,852965921e-02    0,000000000e+00    0,000000000e+00    0,000000000e+00    0,000000000e+00
      758000000    6,139700115e-02   -1,512221098e-01   -3,668751717e-01    4,001855552e-01    0,000000000e+00    0,000000000e+00    0,000000000e+00    0,000000000e+00
      772000000   -1,774326712e-02   -2,553758621e-01   -4,565606266e-02    5,084089637e-01    0,000000000e+00    0,000000000e+00    0,000000000e+00    0,000000000e+00
      786000000   -2,029328793e-01   -2,915551364e-01    2,599936724e-01    3,991049826e-01    0,000000000e+00    0,000000000e+00    0,000000000e+00    0,000000000e+00
      800000000   -4,072812200e-01   -1,266871840e-01    4,071674347e-01    1,186516657e-01    0,000000000e+00    0,000000000e+00    0,000000000e+00    0,000000000e+00
      814000000   -3,768618703e-01    2,020099461e-01    2,970640957e-01   -1,506946236e-01    0,000000000e+00    0,000000000e+00    0,000000000e+00    0,000000000e+00
      828000000   -6,249097362e-02    3,467761576e-01    8,305828273e-02   -1,911150664e-01    0,000000000e+00    0,000000000e+00    0,000000000e+00    0,000000000e+00
      842000000    2,114189267e-01    1,864780039e-01   -3,693436971e-03   -9,363700449e-02    0,000000000e+00    0,000000000e+00    0,000000000e+00    0,000000000e+00
      856000000    2,657869458e-01   -1,052586660e-01    3,542270884e-02   -3,721311688e-02    0,000000000e+00    0,000000000e+00    0,000000000e+00    0,000000000e+00
      870000000    8,294901252e-02   -3,506288528e-01    8,812792599e-02   -9,654045850e-02    0,000000000e+00    0,000000000e+00    0,000000000e+00    0,000000000e+00
      884000000   -2,680523992e-01   -3,564429283e-01    1,158346701e-02   -2,261766195e-01    0,000000000e+00    0,000000000e+00    0,000000000e+00    0,000000000e+00
      898000000   -4,583332837e-01   -1,472772192e-02   -2,157536894e-01   -2,102893591e-01    0,000000000e+00    0,000000000e+00    0,000000000e+00    0,000000000e+00
      912000000   -2,357739061e-01    2,789421678e-01   -3,452460170e-01    7,419723272e-02    0,000000000e+00    0,000000000e+00    0,000000000e+00    0,000000000e+00
      926000000    5,627210066e-02    2,624525726e-01   -2,066671103e-01    2,626165748e-01    0,000000000e+00    0,000000000e+00    0,000000000e+00    0,000000000e+00
      940000000    2,082543671e-01    8,619569242e-02   -3,244567662e-02    3,261370361e-01    0,000000000e+00    0,000000000e+00    0,000000000e+00    0,000000000e+00
      954000000    2,221286148e-01   -1,227219328e-01    1,319438815e-01    3,011930585e-01    0,000000000e+00    0,000000000e+00    0,000000000e+00    0,000000000e+00
      968000000    1,151969805e-01   -2,962234914e-01    2,682845294e-01    2,135571390e-01    0,000000000e+00    0,000000000e+00    0,000000000e+00    0,000000000e+00
      982000000   -7,674513012e-02   -3,870009780e-01    3,590890467e-01    6,519979239e-02    0,000000000e+00    0,000000000e+00    0,000000000e+00    0,000000000e+00
      996000000   -3,083549142e-01   -3,321244717e-01    3,626439273e-01   -1,436165422e-01    0,000000000e+00    0,000000000e+00    0,000000000e+00    0,000000000e+00
     1010000000   -4,616611600e-01   -1,188771427e-01    2,208414823e-01   -3,367252648e-01    0,000000000e+00    0,000000000e+00    0,000000000e+00    0,000000000e+00
     1024000000   -4,182961285e-01    1,458073705e-01   -3,258764744e-02   -3,867516518e-01    0,000000000e+00    0,000000000e+00    0,000000000e+00    0,000000000e+00
     1038000000   -2,254995555e-01    2,886742949e-01   -2,396372110e-01   -2,561735213e-01    0,000000000e+00    0,000000000e+00    0,000000000e+00    0,000000000e+00
     1052000000   -1,376590040e-02    2,795988023e-01   -3,105602562e-01   -4,577900469e-02    0,000000000e+00    0,000000000e+00    0,000000000e+00    0,000000000e+00
     1066000000    1,362396032e-01    1,693654358e-01   -2,527842522e-01    1,374015212e-01    0,000000000e+00    0,000000000e+00    0,000000000e+00    0,000000000e+00
     1080000000    1,945841163e-01    8,972200565e-03   -1,142994389e-01    2,548742890e-01    0,000000000e+00    0,000000000e+00    0,000000000e+00    0,000000000e+00
     1094000000    1,600612104e-01   -1,619214863e-01    5,940272659e-02    2,917806208e-01    0,000000000e+00    0,000000000e+00    0,000000000e+00    0,000000000e+00
     1108000000    1,555079035e-02   -2,956654131e-01    2,617846429e-01    2,350235283e-01    0,000000000e+00    0,000000000e+00    0,000000000e+00    0,000000000e+00
     1122000000   -2,109133005e-01   -2,816798389e-01    4,375205636e-01    2,262662724e-02    0,000000000e+00    0,000000000e+00    0,000000000e+00    0,000000000e+00
     1136000000   -3,232066929e-01   -3,387285769e-02    4,000560343e-01   -3,445719779e-01    0,000000000e+00    0,000000000e+00    0,000000000e+00    0,000000000e+00
     1150000000   -1,092637330e-01    1,355144531e-01    5,042763054e-02   -5,325342417e-01    0,000000000e+00    0,000000000e+00    0,000000000e+00    0,000000000e+00
     1164000000    8,511050791e-02   -1,880797558e-02   -2,514984012e-01   -4,068274796e-01    0,000000000e+00    0,000000000e+00    0,000000000e+00    0,000000000e+00
     1178000000    2,935285307e-02   -2,522960305e-01   -3,680960238e-01   -1,795981079e-01    0,000000000e+00    0,000000000e+00    0,000000000e+00    0,000000000e+00
     1192000000   -2,231374830e-01   -3,495964110e-01   -3,425493538e-01    4,008775577e-02    0,000000000e+00    0,000000000e+00    0,000000000e+00    0,000000000e+00
     1206000000   -4,803117216e-01   -1,811549217e-01   -1,916235834e-01    1,821040511e-01    0,000000000e+00    0,000000000e+00    0,000000000e+00    0,000000000e+00
     1220000000   -5,063861012e-01    1,354284137e-01   -1,059181895e-02    1,727027595e-01    0,000000000e+00    0,000000000e+00    0,000000000e+00    0,000000000e+00
     1234000000   -2,998718023e-01    3,436210752e-01    7,170304656e-02    8,040753007e-02    0,000000000e+00    0,000000000e+00    0,000000000e+00    0,000000000e+00
     1248000000   -5,822753906e-02    3,593936861e-01    7,222329080e-02   -4,108897876e-03    0,000000000e+00    0,000000000e+00    0,000000000e+00    0,000000000e+00
     1262000000    1,073449031e-01    2,583669126e-01    2,662103064e-02   -2,622683160e-02    0,000000000e+00    0,000000000e+00    0,000000000e+00    0,000000000e+00
     1276000000    2,002683431e-01    1,118510216e-01    2,888411051e-03   -4,601309076e-03    0,000000000e+00    0,000000000e+00    0,000000000e+00    0,000000000e+00
     1290000000    2,215783745e-01   -6,276491284e-02    1,450356189e-02    2,517955191e-02    0,000000000e+00    0,000000000e+00    0,000000000e+00    0,000000000e+00
     1304000000    1,672029793e-01   -2,283051312e-01    6,449522823e-02    5,789315328e-02    0,000000000e+00    0,000000000e+00    0,000000000e+00    0,000000000e+00
     1318000000    2,737312764e-02   -3,641213775e-01    1,744338423e-01    2,199166082e-02    0,000000000e+00    0,000000000e+00    0,000000000e+00    0,000000000e+00
     1332000000   -1,514199823e-01   -3,943234980e-01    1,045410931e-01   -1,729829013e-01    0,000000000e+00    0,000000000e+00    0,000000000e+00    0,000000000e+00
     1346000000   -3,638210297e-01   -3,889714181e-01   -6,207008287e-02   -1,423744764e-02    0,000000000e+00    0,000000000e+00    0,000000000e+00    0,000000000e+00
     1360000000   -5,824219584e-01   -1,980451941e-01    7,036966830e-02    8,822978288e-02    0,000000000e+00    0,000000000e+00    0,000000000e+00    0,000000000e+00
     1374000000   -6,327807307e-01    1,132182404e-01    1,805077046e-01    5,974521115e-02    0,000000000e+00    0,000000000e+00    0,000000000e+00    0,000000000e+00
     1388000000   -4,772908688e-01    3,446710706e-01    2,064726353e-01   -3,606587648e-02    0,000000000e+00    0,000000000e+00    0,000000000e+00    0,000000000e+00
     1402000000   -2,465698421e-01    4,480548799e-01    2,070769966e-01   -8,056231588e-02    0,000000000e+00    0,000000000e+00    0,000000000e+00    0,000000000e+00
     1416000000   -3,362446278e-02    4,115892649e-01    2,024108171e-01   -1,050755233e-01    0,000000000e+00    0,000000000e+00    0,000000000e+00    0,000000000e+00
     1430000000    1,096078232e-01    2,974157929e-01    1,903086007e-01   -1,092190444e-01    0,000000000e+00    0,000000000e+00    0,000000000e+00    0,000000000e+00
     1444000000    1,980986595e-01    1,540325433e-01    1,583143920e-01   -1,111252829e-01    0,000000000e+00    0,000000000e+00    0,000000000e+00    0,000000000e+00
     1458000000    2,236719280e-01   -1,060688216e-02    1,442019492e-01   -7,775765657e-02    0,000000000e+00    0,000000000e+00    0,000000000e+00    0,000000000e+00
     1472000000    1,911634505e-01   -1,913479716e-01    1,482082307e-01   -4,662490636e-02    0,000000000e+00    0,000000000e+00    0,000000000e+00    0,000000000e+00
     1486000000    6,038153917e-02   -3,640308976e-01    1,557656527e-01    2,573058195e-02    0,000000000e+00    0,000000000e+00    0,000000000e+00    0,000000000e+00
     1500000000   -1,580119133e-01   -4,868112206e-01    2,365690172e-01    7,525645196e-02    0,000000000e+00    0,000000000e+00    0,000000000e+00    0,000000000e+00
