! NanoVNA-App
! Date: 2025-09-25 15:43:53
! Start: 100MHz Stop: 1,5GHz Points: 101
! S-Parameter data: F S11 S21 S12 S22
# Hz S RI R 50
!     Frequency           S11_Real           S11_Imag           S21_Real           S21_Imag           S12_Real           S12_Imag           S22_Real           S22_Imag
      100000000   -2,874071710e-02   -4,255439620e-03    3,739477992e-01   -7,215724587e-01    0,000000000e+00    0,000000000e+00    0,000000000e+00    0,000000000e+00
      114000000   -1,651235111e-02    1,148850564e-02   -8,887806535e-02   -8,051895499e-01    0,000000000e+00    0,000000000e+00    0,000000000e+00    0,000000000e+00
      128000000    3,402608447e-03    1,069490984e-02   -5,142651796e-01   -6,201899648e-01    0,000000000e+00    0,000000000e+00    0,000000000e+00    0,000000000e+00
      142000000    1,464649476e-02   -2,651699586e-03   -7,668858171e-01   -2,364615351e-01    0,000000000e+00    0,000000000e+00    0,000000000e+00    0,000000000e+00
      156000000    1,539800595e-02   -1,479897834e-02   -7,688816190e-01    2,197164744e-01    0,000000000e+00    0,000000000e+00    0,000000000e+00    0,000000000e+00
      170000000    1,712998189e-02   -2,246303670e-02   -5,178745389e-01    6,045942903e-01    0,000000000e+00    0,000000000e+00    0,000000000e+00    0,000000000e+00
      184000000    2,135401405e-02   -3,712271899e-02   -1,014623567e-01    7,858800292e-01    0,000000000e+00    0,000000000e+00    0,000000000e+00    0,000000000e+00
      198000000    1,318641007e-02   -6,249628589e-02    3,431871235e-01    7,124032378e-01    0,000000000e+00    0,000000000e+00    0,000000000e+00    0,000000000e+00
      212000000   -1,842809282e-02   -8,130021393e-02    6,777188182e-01    4,096773267e-01    0,000000000e+00    0,000000000e+00    0,000000000e+00    0,000000000e+00
      226000000   -6,137724593e-02   -6,912280619e-02    7,954227328e-01   -3,051006794e-02    0,000000000e+00    0,000000000e+00    0,000000000e+00    0,000000000e+00
      240000000   -8,225225657e-02   -2,581485733e-02    6,458176970e-01   -4,668327570e-01    0,000000000e+00    0,000000000e+00    0,000000000e+00    0,000000000e+00
      254000000   -6,340027601e-02    1,694917865e-02    2,759900391e-01   -7,426509261e-01    0,000000000e+00    0,000000000e+00    0,000000000e+00    0,000000000e+00
      268000000   -2,398534119e-02    2,879532985e-02   -1,776389927e-01   -7,640982270e-01    0,000000000e+00    0,000000000e+00    0,000000000e+00    0,000000000e+00
      282000000    4,060658161e-03    1,212882716e-02   -5,619810820e-01   -5,354810357e-01    0,000000000e+00    0,000000000e+00    0,000000000e+00    0,000000000e+00
      296000000    9,828382172e-03   -7,494045887e-03   -7,595791221e-01   -1,396904290e-01    0,000000000e+00    0,000000000e+00    0,000000000e+00    0,000000000e+00
      310000000    1,148418430e-02   -1,605618186e-02   -7,111065388e-01    2,973743379e-01    0,000000000e+00    0,000000000e+00    0,000000000e+00    0,000000000e+00
      324000000    2,001214400e-02   -2,680814639e-02   -4,281227887e-01    6,366718411e-01    0,000000000e+00    0,000000000e+00    0,000000000e+00    0,000000000e+00
      338000000    2,594803646e-02   -5,247316509e-02   -9,212199599e-03    7,605814338e-01    0,000000000e+00    0,000000000e+00    0,000000000e+00    0,000000000e+00
      352000000    7,304963190e-03   -8,452726156e-02    4,058980942e-01    6,387513876e-01    0,000000000e+00    0,000000000e+00    0,000000000e+00    0,000000000e+00
      366000000   -3,442569450e-02   -9,553940594e-02    6,900176406e-01    3,114284873e-01    0,000000000e+00    0,000000000e+00    0,000000000e+00    0,000000000e+00
      380000000   -7,043554634e-02   -7,116126269e-02    7,465922236e-01   -1,256123632e-01    0,000000000e+00    0,000000000e+00    0,000000000e+00    0,000000000e+00
      394000000   -7,221752405e-02   -3,292297944e-02    5,459241271e-01   -5,219689012e-01    0,000000000e+00    0,000000000e+00    0,000000000e+00    0,000000000e+00
      408000000   -4,630249366e-02   -1,679255255e-02    1,611457765e-01   -7,323525548e-01    0,000000000e+00    0,000000000e+00    0,000000000e+00    0,000000000e+00
      422000000   -2,824075334e-02   -3,224679828e-02   -2,672228217e-01   -6,947045326e-01    0,000000000e+00    0,000000000e+00    0,000000000e+00    0,000000000e+00
      436000000   -4,076245800e-02   -5,189890042e-02   -6,033151746e-01   -4,323803186e-01    0,000000000e+00    0,000000000e+00    0,000000000e+00    0,000000000e+00
      450000000   -6,702464074e-02   -4,396373406e-02   -7,403161526e-01   -2,213349007e-02    0,000000000e+00    0,000000000e+00    0,000000000e+00    0,000000000e+00
      464000000   -7,299899310e-02   -1,177221164e-02   -6,185746789e-01    3,964889646e-01    0,000000000e+00    0,000000000e+00    0,000000000e+00    0,000000000e+00
      478000000   -4,739879072e-02    1,131977979e-02   -2,822276354e-01    6,668610573e-01    0,000000000e+00    0,000000000e+00    0,000000000e+00    0,000000000e+00
      492000000   -1,593770832e-02    5,563889164e-03    1,373052448e-01    7,005150914e-01    0,000000000e+00    0,000000000e+00    0,000000000e+00    0,000000000e+00
      506000000   -2,571740421e-03   -1,561467536e-02    4,980967641e-01    5,030257106e-01    0,000000000e+00    0,000000000e+00    0,000000000e+00    0,000000000e+00
      520000000   -4,826225340e-03   -3,130967543e-02    6,880446076e-01    1,421949416e-01    0,000000000e+00    0,000000000e+00    0,000000000e+00    0,000000000e+00
      534000000   -3,443042049e-03   -3,807542473e-02    6,432348490e-01   -2,623756826e-01    0,000000000e+00    0,000000000e+00    0,000000000e+00    0,000000000e+00
      548000000    6,585158873e-03   -5,376179144e-02    3,813451529e-01   -5,658389330e-01    0,000000000e+00    0,000000000e+00    0,000000000e+00    0,000000000e+00
      562000000    3,253052942e-03   -8,948305994e-02    2,406313317e-03   -6,708034873e-01    0,000000000e+00    0,000000000e+00    0,000000000e+00    0,000000000e+00
      576000000   -3,365073726e-02   -1,245086193e-01   -3,681040704e-01   -5,572175980e-01    0,000000000e+00    0,000000000e+00    0,000000000e+00    0,000000000e+00
      590000000   -9,567852318e-02   -1,228618547e-01   -6,185860038e-01   -2,628222704e-01    0,000000000e+00    0,000000000e+00    0,000000000e+00    0,000000000e+00
      604000000   -1,389288753e-01   -7,272132486e-02   -6,642212868e-01    1,364395469e-01    0,000000000e+00    0,000000000e+00    0,000000000e+00    0,000000000e+00
      618000000   -1,296587884e-01   -9,791361168e-03   -4,644411504e-01    4,925120473e-01    0,000000000e+00    0,000000000e+00    0,000000000e+00    0,000000000e+00
      632000000   -8,409933746e-02    1,637925208e-02   -1,005010456e-01    6,626348495e-01    0,000000000e+00    0,000000000e+00    0,000000000e+00    0,000000000e+00
      646000000   -5,161790922e-02    1,080479124e-03    2,865645587e-01    5,950647593e-01    0,000000000e+00    0,000000000e+00    0,000000000e+00    0,000000000e+00
      660000000   -5,322807655e-02   -2,120864019e-02    5,643828511e-01    3,228836060e-01    0,000000000e+00    0,000000000e+00    0,000000000e+00    0,000000000e+00
      674000000   -6,907828897e-02   -1,632405072e-02    6,407787800e-01   -6,325784326e-02    0,000000000e+00    0,000000000e+00    0,000000000e+00    0,000000000e+00
      688000000   -6,701982021e-02    8,660158142e-03    4,711697400e-01   -4,236870110e-01    0,000000000e+00    0,000000000e+00    0,000000000e+00    0,000000000e+00
      702000000   -3,525875881e-02    2,513692342e-02    1,196211055e-01   -6,048403382e-01    0,000000000e+00    0,000000000e+00    0,000000000e+00    0,000000000e+00
      716000000    2,790676197e-03    1,592028141e-02   -2,583183348e-01   -5,446580052e-01    0,000000000e+00    0,000000000e+00    0,000000000e+00    0,000000000e+00
      730000000    3,673326224e-02   -1,479581464e-02   -5,219644904e-01   -2,713801563e-01    0,000000000e+00    0,000000000e+00    0,000000000e+00    0,000000000e+00
      744000000    6,266071647e-02   -6,536899507e-02   -5,604607463e-01    9,810311347e-02    0,000000000e+00    0,000000000e+00    0,000000000e+00    0,000000000e+00
      758000000    6,188436225e-02   -1,518895179e-01   -3,665976226e-01    4,005608261e-01    0,000000000e+00    0,000000000e+00    0,000000000e+00    0,000000000e+00
      772000000   -1,677092910e-02   -2,556682825e-01   -4,530769214e-02    5,100633502e-01    0,000000000e+00    0,000000000e+00    0,000000000e+00    0,000000000e+00
      786000000   -2,016978264e-01   -2,913511395e-01    2,590560913e-01    3,996540606e-01    0,000000000e+00    0,000000000e+00    0,000000000e+00    0,000000000e+00
      800000000   -4,067507386e-01   -1,271070987e-01    4,076087773e-01    1,189033464e-01    0,000000000e+00    0,000000000e+00    0,000000000e+00    0,000000000e+00
      814000000   -3,767347038e-01    2,023722529e-01    2,965158820e-01   -1,514513642e-01    0,000000000e+00    0,000000000e+00    0,000000000e+00    0,000000000e+00
      828000000   -6,283423305e-02    3,470796049e-01    8,296082914e-02   -1,911153942e-01    0,000000000e+00    0,000000000e+00    0,000000000e+00    0,000000000e+00
      842000000    2,113603950e-01    1,858062595e-01   -3,802349325e-03   -9,323266894e-02    0,000000000e+00    0,000000000e+00    0,000000000e+00    0,000000000e+00
      856000000    2,663740516e-01   -1,058242396e-01    3,584836796e-02   -3,661943972e-02    0,000000000e+00    0,000000000e+00    0,000000000e+00    0,000000000e+00
      870000000    8,269888163e-02   -3,510706723e-01    8,848502487e-02   -9,720827639e-02    0,000000000e+00    0,000000000e+00    0,000000000e+00    0,000000000e+00
      884000000   -2,668957114e-01   -3,567584455e-01    1,128810178e-02   -2,272811383e-01    0,000000000e+00    0,000000000e+00    0,000000000e+00    0,000000000e+00
      898000000   -4,571592212e-01   -1,445585210e-02   -2,146406770e-01   -2,101723105e-01    0,000000000e+00    0,000000000e+00    0,000000000e+00    0,000000000e+00
      912000000   -2,342468053e-01    2,776115239e-01   -3,397461772e-01    6,298126280e-02    0,000000000e+00    0,000000000e+00    0,000000000e+00    0,000000000e+00
      926000000    5,461457744e-02    2,624287903e-01   -2,110942751e-01    2,636702359e-01    0,000000000e+00    0,000000000e+00    0,000000000e+00    0,000000000e+00
      940000000    2,108195275e-01    8,473119140e-02   -2,982123755e-02    3,264364898e-01    0,000000000e+00    0,000000000e+00    0,000000000e+00    0,000000000e+00
      954000000    2,190358937e-01   -1,222628728e-01    1,304397881e-01    3,022017479e-01    0,000000000e+00    0,000000000e+00    0,000000000e+00    0,000000000e+00
      968000000    1,168151796e-01   -2,929107249e-01    2,684896290e-01    2,139043659e-01    0,000000000e+00    0,000000000e+00    0,000000000e+00    0,000000000e+00
      982000000   -7,566072792e-02   -3,866773546e-01    3,610666394e-01    6,205982342e-02    0,000000000e+00    0,000000000e+00    0,000000000e+00    0,000000000e+00
      996000000   -3,079470396e-01   -3,322533369e-01    3,627945483e-01   -1,427619159e-01    0,000000000e+00    0,000000000e+00    0,000000000e+00    0,000000000e+00
     1010000000   -4,609701633e-01   -1,189665049e-01    2,204658836e-01   -3,357792199e-01    0,000000000e+00    0,000000000e+00    0,000000000e+00    0,000000000e+00
     1024000000   -4,139704406e-01    1,410331726e-01   -3,086274862e-02   -3,852190971e-01    0,000000000e+00    0,000000000e+00    0,000000000e+00    0,000000000e+00
     1038000000   -2,260244340e-01    2,903696597e-01   -2,412473559e-01   -2,579954267e-01    0,000000000e+00    0,000000000e+00    0,000000000e+00    0,000000000e+00
     1052000000   -1,223303378e-02    2,825483382e-01   -3,099561930e-01   -4,773587361e-02    0,000000000e+00    0,000000000e+00    0,000000000e+00    0,000000000e+00
     1066000000    1,314283013e-01    1,670615822e-01   -2,517270148e-01    1,398593336e-01    0,000000000e+00    0,000000000e+00    0,000000000e+00    0,000000000e+00
     1080000000    1,958367079e-01    7,922544144e-03   -1,161224172e-01    2,552920580e-01    0,000000000e+00    0,000000000e+00    0,000000000e+00    0,000000000e+00
     1094000000    1,618916243e-01   -1,614512503e-01    6,149271503e-02    2,888858318e-01    0,000000000e+00    0,000000000e+00    0,000000000e+00    0,000000000e+00
     1108000000    1,904569194e-02   -2,995051742e-01    2,615914941e-01    2,339599580e-01    0,000000000e+00    0,000000000e+00    0,000000000e+00    0,000000000e+00
     1122000000   -2,178373486e-01   -2,832124829e-01    4,403386116e-01    2,327147126e-02    0,000000000e+00    0,000000000e+00    0,000000000e+00    0,000000000e+00
     1136000000   -3,266026676e-01   -3,411143646e-02    4,007673562e-01   -3,447182477e-01    0,000000000e+00    0,000000000e+00    0,000000000e+00    0,000000000e+00
     1150000000   -1,028769314e-01    1,381275356e-01    4,800490290e-02   -5,314816833e-01    0,000000000e+00    0,000000000e+00    0,000000000e+00    0,000000000e+00
     1164000000    8,302433044e-02   -1,716859639e-02   -2,522416413e-01   -4,023413360e-01    0,000000000e+00    0,000000000e+00    0,000000000e+00    0,000000000e+00
     1178000000    2,757846192e-02   -2,531200945e-01   -3,718378842e-01   -1,793308705e-01    0,000000000e+00    0,000000000e+00    0,000000000e+00    0,000000000e+00
     1192000000   -2,231087238e-01   -3,446141779e-01   -3,410483301e-01    4,366683215e-02    0,000000000e+00    0,000000000e+00    0,000000000e+00    0,000000000e+00
     1206000000   -4,744221568e-01   -1,779447645e-01   -1,855355650e-01    1,812132001e-01    0,000000000e+00    0,000000000e+00    0,000000000e+00    0,000000000e+00
     1220000000   -5,020292401e-01    1,415450871e-01   -9,591385722e-03    1,800157428e-01    0,000000000e+00    0,000000000e+00    0,000000000e+00    0,000000000e+00
     1234000000   -2,976476252e-01    3,381353617e-01    7,663226128e-02    7,469312102e-02    0,000000000e+00    0,000000000e+00    0,000000000e+00    0,000000000e+00
     1248000000   -5,821747705e-02    3,583465815e-01    7,058625668e-02   -1,593884081e-04    0,000000000e+00    0,000000000e+00    0,000000000e+00    0,000000000e+00
     1262000000    1,088289246e-01    2,570999563e-01    2,683600411e-02   -2,456982620e-02    0,000000000e+00    0,000000000e+00    0,000000000e+00    0,000000000e+00
     1276000000    2,000717670e-01    1,081584021e-01    3,877714043e-03   -4,879720509e-03    0,000000000e+00    0,000000000e+00    0,000000000e+00    0,000000000e+00
     1290000000    2,191991210e-01   -6,412397325e-02    9,706119075e-03    2,269745059e-02    0,000000000e+00    0,000000000e+00    0,000000000e+00    0,000000000e+00
     1304000000    1,658796519e-01   -2,337419242e-01    5,839640275e-02    5,964546278e-02    0,000000000e+00    0,000000000e+00    0,000000000e+00    0,000000000e+00
     1318000000    2,613016218e-02   -3,620224297e-01    1,653343141e-01    1,967158727e-02    0,000000000e+00    0,000000000e+00    0,000000000e+00    0,000000000e+00
     1332000000   -1,506045908e-01   -3,938885629e-01    1,057696491e-01   -1,734914184e-01    0,000000000e+00    0,000000000e+00    0,000000000e+00    0,000000000e+00
     1346000000   -3,605394363e-01   -3,883971572e-01   -6,082999334e-02   -2,051283047e-02    0,000000000e+00    0,000000000e+00    0,000000000e+00    0,000000000e+00
     1360000000   -5,787376165e-01   -2,018693835e-01    7,042425871e-02    8,903106302e-02    0,000000000e+00    0,000000000e+00    0,000000000e+00    0,000000000e+00
     1374000000   -6,331981421e-01    9,896167368e-02    1,653119475e-01    5,225557461e-02    0,000000000e+00    0,000000000e+00    0,000000000e+00    0,000000000e+00
     1388000000   -4,756610692e-01    3,443989158e-01    2,148142755e-01   -3,022798710e-02    0,000000000e+00    0,000000000e+00    0,000000000e+00    0,000000000e+00
     1402000000   -2,410880178e-01    4,413556457e-01    2,191284746e-01   -8,718163520e-02    0,000000000e+00    0,000000000e+00    0,000000000e+00    0,000000000e+00
     1416000000   -3,399471939e-02    4,123411775e-01    2,029087991e-01   -1,037816331e-01    0,000000000e+00    0,000000000e+00    0,000000000e+00    0,000000000e+00
     1430000000    1,194935814e-01    3,030619919e-01    1,853187680e-01   -1,347841322e-01    0,000000000e+00    0,000000000e+00    0,000000000e+00    0,000000000e+00
     1444000000    2,048085779e-01    1,598240286e-01    1,673467010e-01   -1,113925278e-01    0,000000000e+00    0,000000000e+00    0,000000000e+00    0,000000000e+00
     1458000000    2,319177836e-01   -6,965139415e-03    1,517179161e-01   -8,317741007e-02    0,000000000e+00    0,000000000e+00    0,000000000e+00    0,000000000e+00
     1472000000    1,912337542e-01   -1,906200498e-01    1,478588134e-01   -5,201267824e-02    0,000000000e+00    0,000000000e+00    0,000000000e+00    0,000000000e+00
     1486000000    7,088652253e-02   -3,647507131e-01    1,738241613e-01    2,432101220e-02    0,000000000e+00    0,000000000e+00    0,000000000e+00    0,000000000e+00
     1500000000   -1,634802222e-01   -4,897349477e-01    2,198437750e-01    6,358936429e-02    0,000000000e+00    0,000000000e+00    0,000000000e+00    0,000000000e+00
