! NanoVNA-App
! Date: 2025-09-25 15:40:38
! Start: 100MHz Stop: 1,5GHz Points: 101
! S-Parameter data: F S11 S21 S12 S22
# Hz S RI R 50
!     Frequency           S11_Real           S11_Imag           S21_Real           S21_Imag           S12_Real           S12_Imag           S22_Real           S22_Imag
      100000000   -2,870280854e-02   -4,236367997e-03    3,738565445e-01   -7,215467691e-01    0,000000000e+00    0,000000000e+00    0,000000000e+00    0,000000000e+00
      114000000   -1,648393087e-02    1,150111575e-02   -8,920756727e-02   -8,051847816e-01    0,000000000e+00    0,000000000e+00    0,000000000e+00    0,000000000e+00
      128000000    3,427535994e-03    1,064698119e-02   -5,145826936e-01   -6,202865839e-01    0,000000000e+00    0,000000000e+00    0,000000000e+00    0,000000000e+00
      142000000    1,467669103e-02   -2,640338149e-03   -7,669390440e-01   -2,363671958e-01    0,000000000e+00    0,000000000e+00    0,000000000e+00    0,000000000e+00
      156000000    1,580946892e-02   -1,469300222e-02   -7,707697749e-01    2,216406316e-01    0,000000000e+00    0,000000000e+00    0,000000000e+00    0,000000000e+00
      170000000    1,717861183e-02   -2,246806771e-02   -5,175983906e-01    6,042919159e-01    0,000000000e+00    0,000000000e+00    0,000000000e+00    0,000000000e+00
      184000000    2,133174054e-02   -3,718425706e-02   -1,013413742e-01    7,857109904e-01    0,000000000e+00    0,000000000e+00    0,000000000e+00    0,000000000e+00
      198000000    1,323423721e-02   -6,257448345e-02    3,431158364e-01    7,119799256e-01    0,000000000e+00    0,000000000e+00    0,000000000e+00    0,000000000e+00
      212000000   -1,839633659e-02   -8,131615072e-02    6,777219772e-01    4,097039700e-01    0,000000000e+00    0,000000000e+00    0,000000000e+00    0,000000000e+00
      226000000   -6,132329628e-02   -6,919631362e-02    7,953514457e-01   -3,053237870e-02    0,000000000e+00    0,000000000e+00    0,000000000e+00    0,000000000e+00
      240000000   -8,217391372e-02   -2,584012784e-02    6,458081007e-01   -4,665281773e-01    0,000000000e+00    0,000000000e+00    0,000000000e+00    0,000000000e+00
      254000000   -6,333203614e-02    1,687029935e-02    2,758379579e-01   -7,429215908e-01    0,000000000e+00    0,000000000e+00    0,000000000e+00    0,000000000e+00
      268000000   -2,399392799e-02    2,871657722e-02   -1,779912114e-01   -7,640830874e-01    0,000000000e+00    0,000000000e+00    0,000000000e+00    0,000000000e+00
      282000000    4,023302812e-03    1,199542172e-02   -5,615860820e-01   -5,352121592e-01    0,000000000e+00    0,000000000e+00    0,000000000e+00    0,000000000e+00
      296000000    9,891320020e-03   -7,517565042e-03   -7,593491077e-01   -1,396310627e-01    0,000000000e+00    0,000000000e+00    0,000000000e+00    0,000000000e+00
      310000000    1,168503333e-02   -1,610748097e-02   -7,128694654e-01    2,978960574e-01    0,000000000e+00    0,000000000e+00    0,000000000e+00    0,000000000e+00
      324000000    2,009983361e-02   -2,665346302e-02   -4,267500937e-01    6,369043589e-01    0,000000000e+00    0,000000000e+00    0,000000000e+00    0,000000000e+00
      338000000    2,563443407e-02   -5,229616538e-02   -7,381568197e-03    7,635655403e-01    0,000000000e+00    0,000000000e+00    0,000000000e+00    0,000000000e+00
      352000000    7,365016732e-03   -8,484616876e-02    4,062403142e-01    6,392764449e-01    0,000000000e+00    0,000000000e+00    0,000000000e+00    0,000000000e+00
      366000000   -3,481057659e-02   -9,535852820e-02    6,894699335e-01    3,107933402e-01    0,000000000e+00    0,000000000e+00    0,000000000e+00    0,000000000e+00
      380000000   -7,054840773e-02   -7,126627862e-02    7,463635802e-01   -1,259771287e-01    0,000000000e+00    0,000000000e+00    0,000000000e+00    0,000000000e+00
      394000000   -7,202608138e-02   -3,269260004e-02    5,470096469e-01   -5,206844211e-01    0,000000000e+00    0,000000000e+00    0,000000000e+00    0,000000000e+00
      408000000   -4,628114775e-02   -1,630379818e-02    1,599586308e-01   -7,318499088e-01    0,000000000e+00    0,000000000e+00    0,000000000e+00    0,000000000e+00
      422000000   -2,819190547e-02   -3,219581768e-02   -2,665465474e-01   -6,944559216e-01    0,000000000e+00    0,000000000e+00    0,000000000e+00    0,000000000e+00
      436000000   -4,034145176e-02   -5,190152302e-02   -6,029859185e-01   -4,324016571e-01    0,000000000e+00    0,000000000e+00    0,000000000e+00    0,000000000e+00
      450000000   -6,703393161e-02   -4,379705712e-02   -7,397126555e-01   -2,170541510e-02    0,000000000e+00    0,000000000e+00    0,000000000e+00    0,000000000e+00
      464000000   -7,299348712e-02   -1,222078130e-02   -6,185386181e-01    3,968619704e-01    0,000000000e+00    0,000000000e+00    0,000000000e+00    0,000000000e+00
      478000000   -4,751497135e-02    1,141811442e-02   -2,825491726e-01    6,665335298e-01    0,000000000e+00    0,000000000e+00    0,000000000e+00    0,000000000e+00
      492000000   -1,612799056e-02    5,763826892e-03    1,374233663e-01    7,005305290e-01    0,000000000e+00    0,000000000e+00    0,000000000e+00    0,000000000e+00
      506000000   -2,877172315e-03   -1,571652479e-02    4,974399507e-01    5,019576550e-01    0,000000000e+00    0,000000000e+00    0,000000000e+00    0,000000000e+00
      520000000   -5,065391771e-03   -3,136203438e-02    6,866097450e-01    1,426371038e-01    0,000000000e+00    0,000000000e+00    0,000000000e+00    0,000000000e+00
      534000000   -3,496983321e-03   -3,774351999e-02    6,428376436e-01   -2,612934411e-01    0,000000000e+00    0,000000000e+00    0,000000000e+00    0,000000000e+00
      548000000    6,215204019e-03   -5,377317220e-02    3,809038997e-01   -5,660505295e-01    0,000000000e+00    0,000000000e+00    0,000000000e+00    0,000000000e+00
      562000000    2,779643517e-03   -8,958687633e-02    2,726991661e-03   -6,717802882e-01    0,000000000e+00    0,000000000e+00    0,000000000e+00    0,000000000e+00
      576000000   -3,375342861e-02   -1,241782606e-01   -3,677140176e-01   -5,573402047e-01    0,000000000e+00    0,000000000e+00    0,000000000e+00    0,000000000e+00
      590000000   -9,567385912e-02   -1,229016706e-01   -6,203783154e-01   -2,623870373e-01    0,000000000e+00    0,000000000e+00    0,000000000e+00    0,000000000e+00
      604000000   -1,390466392e-01   -7,215818763e-02   -6,639546156e-01    1,368698031e-01    0,000000000e+00    0,000000000e+00    0,000000000e+00    0,000000000e+00
      618000000   -1,288776845e-01   -9,724931791e-03   -4,648862183e-01    4,922320247e-01    0,000000000e+00    0,000000000e+00    0,000000000e+00    0,000000000e+00
      632000000   -8,427279443e-02    1,635563001e-02   -1,001112238e-01    6,619186401e-01    0,000000000e+00    0,000000000e+00    0,000000000e+00    0,000000000e+00
      646000000   -5,200663581e-02   -2,282017667e-04    2,850778103e-01    5,941326618e-01    0,000000000e+00    0,000000000e+00    0,000000000e+00    0,000000000e+00
      660000000   -5,293416977e-02   -2,148404345e-02    5,640909672e-01    3,227018118e-01    0,000000000e+00    0,000000000e+00    0,000000000e+00    0,000000000e+00
      674000000   -7,018881291e-02   -1,683787443e-02    6,409497261e-01   -6,334115565e-02    0,000000000e+00    0,000000000e+00    0,000000000e+00    0,000000000e+00
      688000000   -6,670723110e-02    8,731621318e-03    4,708507061e-01   -4,240784347e-01    0,000000000e+00    0,000000000e+00    0,000000000e+00    0,000000000e+00
      702000000   -3,588449955e-02    2,646750771e-02    1,201823652e-01   -6,059986949e-01    0,000000000e+00    0,000000000e+00    0,000000000e+00    0,000000000e+00
      716000000    4,213625565e-03    1,600563899e-02   -2,599790394e-01   -5,439100862e-01    0,000000000e+00    0,000000000e+00    0,000000000e+00    0,000000000e+00
      730000000    3,632903844e-02   -1,414036658e-02   -5,217219591e-01   -2,711673081e-01    0,000000000e+00    0,000000000e+00    0,000000000e+00    0,000000000e+00
      744000000    6,285908818e-02   -6,495989114e-02   -5,604852438e-01    9,831966460e-02    0,000000000e+00    0,000000000e+00    0,000000000e+00    0,000000000e+00
      758000000    6,154411286e-02   -1,521445662e-01   -3,659519255e-01    4,000066817e-01    0,000000000e+00    0,000000000e+00    0,000000000e+00    0,000000000e+00
      772000000   -1,687597670e-02   -2,555535734e-01   -4,552514851e-02    5,093179345e-01    0,000000000e+00    0,000000000e+00    0,000000000e+00    0,000000000e+00
      786000000   -2,024300992e-01   -2,920206785e-01    2,588492334e-01    3,992252052e-01    0,000000000e+00    0,000000000e+00    0,000000000e+00    0,000000000e+00
      800000000   -4,072383940e-01   -1,268052459e-01    4,068816006e-01    1,179653481e-01    0,000000000e+00    0,000000000e+00    0,000000000e+00    0,000000000e+00
      814000000   -3,770362139e-01    2,013325840e-01    2,965413630e-01   -1,510450095e-01    0,000000000e+00    0,000000000e+00    0,000000000e+00    0,000000000e+00
      828000000   -6,232509390e-02    3,469956219e-01    8,277039230e-02   -1,902497262e-01    0,000000000e+00    0,000000000e+00    0,000000000e+00    0,000000000e+00
      842000000    2,116161287e-01    1,848402917e-01   -3,172375960e-03   -9,291367978e-02    0,000000000e+00    0,000000000e+00    0,000000000e+00    0,000000000e+00
      856000000    2,657957077e-01   -1,063971668e-01    3,594277799e-02   -3,703675419e-02    0,000000000e+00    0,000000000e+00    0,000000000e+00    0,000000000e+00
      870000000    8,220826089e-02   -3,516744375e-01    8,922147751e-02   -9,795702249e-02    0,000000000e+00    0,000000000e+00    0,000000000e+00    0,000000000e+00
      884000000   -2,681274712e-01   -3,558122516e-01    1,065385994e-02   -2,283605784e-01    0,000000000e+00    0,000000000e+00    0,000000000e+00    0,000000000e+00
      898000000   -4,574945271e-01   -1,398267411e-02   -2,150884718e-01   -2,108392268e-01    0,000000000e+00    0,000000000e+00    0,000000000e+00    0,000000000e+00
      912000000   -2,359653413e-01    2,779823840e-01   -3,307281137e-01    7,866553217e-02    0,000000000e+00    0,000000000e+00    0,000000000e+00    0,000000000e+00
      926000000    5,599870533e-02    2,609938681e-01   -2,085273564e-01    2,611322701e-01    0,000000000e+00    0,000000000e+00    0,000000000e+00    0,000000000e+00
      940000000    2,115139514e-01    8,509741724e-02   -3,080360591e-02    3,247363567e-01    0,000000000e+00    0,000000000e+00    0,000000000e+00    0,000000000e+00
      954000000    2,189383209e-01   -1,237542406e-01    1,292361021e-01    3,015830219e-01    0,000000000e+00    0,000000000e+00    0,000000000e+00    0,000000000e+00
      968000000    1,194919199e-01   -2,969903052e-01    2,704204619e-01    2,142530382e-01    0,000000000e+00    0,000000000e+00    0,000000000e+00    0,000000000e+00
      982000000   -7,407684624e-02   -3,854678273e-01    3,612062335e-01    6,212595850e-02    0,000000000e+00    0,000000000e+00    0,000000000e+00    0,000000000e+00
      996000000   -3,087801933e-01   -3,302212358e-01    3,626050949e-01   -1,451809704e-01    0,000000000e+00    0,000000000e+00    0,000000000e+00    0,000000000e+00
     1010000000   -4,609234035e-01   -1,142794564e-01    2,193207294e-01   -3,346277177e-01    0,000000000e+00    0,000000000e+00    0,000000000e+00    0,000000000e+00
     1024000000   -4,121569097e-01    1,450843513e-01   -3,272939846e-02   -3,843668103e-01    0,000000000e+00    0,000000000e+00    0,000000000e+00    0,000000000e+00
     1038000000   -2,229288667e-01    2,923023105e-01   -2,436979115e-01   -2,579934299e-01    0,000000000e+00    0,000000000e+00    0,000000000e+00    0,000000000e+00
     1052000000   -1,469389070e-02    2,830200791e-01   -3,098371625e-01   -4,730855674e-02    0,000000000e+00    0,000000000e+00    0,000000000e+00    0,000000000e+00
     1066000000    1,347535551e-01    1,681430489e-01   -2,539803088e-01    1,377756447e-01    0,000000000e+00    0,000000000e+00    0,000000000e+00    0,000000000e+00
     1080000000    1,950864792e-01    1,085312385e-02   -1,138257608e-01    2,553719878e-01    0,000000000e+00    0,000000000e+00    0,000000000e+00    0,000000000e+00
     1094000000    1,575901359e-01   -1,621208489e-01    5,988872796e-02    2,908231020e-01    0,000000000e+00    0,000000000e+00    0,000000000e+00    0,000000000e+00
     1108000000    1,488601137e-02   -2,973586917e-01    2,613919675e-01    2,337082624e-01    0,000000000e+00    0,000000000e+00    0,000000000e+00    0,000000000e+00
     1122000000   -2,147980332e-01   -2,848783731e-01    4,395172298e-01    2,212071791e-02    0,000000000e+00    0,000000000e+00    0,000000000e+00    0,000000000e+00
     1136000000   -3,223507404e-01   -3,212330863e-02    4,029695392e-01   -3,437709808e-01    0,000000000e+00    0,000000000e+00    0,000000000e+00    0,000000000e+00
     1150000000   -1,016348526e-01    1,375261694e-01    4,815590009e-02   -5,329324007e-01    0,000000000e+00    0,000000000e+00    0,000000000e+00    0,000000000e+00
     1164000000    8,450793475e-02   -2,202555910e-02   -2,537216544e-01   -4,038760662e-01    0,000000000e+00    0,000000000e+00    0,000000000e+00    0,000000000e+00
     1178000000    2,470654063e-02   -2,513811886e-01   -3,730375469e-01   -1,760423183e-01    0,000000000e+00    0,000000000e+00    0,000000000e+00    0,000000000e+00
     1192000000   -2,220574766e-01   -3,484207392e-01   -3,428207040e-01    3,950555250e-02    0,000000000e+00    0,000000000e+00    0,000000000e+00    0,000000000e+00
     1206000000   -4,785842001e-01   -1,772976667e-01   -1,914391816e-01    1,833765507e-01    0,000000000e+00    0,000000000e+00    0,000000000e+00    0,000000000e+00
     1220000000   -5,056975484e-01    1,404080838e-01   -1,189263351e-02    1,754724532e-01    0,000000000e+00    0,000000000e+00    0,000000000e+00    0,000000000e+00
     1234000000   -2,934672236e-01    3,434578776e-01    7,313439250e-02    8,263867348e-02    0,000000000e+00    0,000000000e+00    0,000000000e+00    0,000000000e+00
     1248000000   -6,007737666e-02    3,625848293e-01    7,026199996e-02   -5,778268096e-04    0,000000000e+00    0,000000000e+00    0,000000000e+00    0,000000000e+00
     1262000000    1,114699021e-01    2,608744800e-01    3,359074146e-02   -2,319221757e-02    0,000000000e+00    0,000000000e+00    0,000000000e+00    0,000000000e+00
     1276000000    2,044743896e-01    1,081008166e-01    7,310732268e-03   -9,012499824e-03    0,000000000e+00    0,000000000e+00    0,000000000e+00    0,000000000e+00
     1290000000    2,234239578e-01   -6,211431697e-02    1,261080708e-02    2,670474164e-02    0,000000000e+00    0,000000000e+00    0,000000000e+00    0,000000000e+00
     1304000000    1,668827981e-01   -2,331273407e-01    5,946810916e-02    5,690086633e-02    0,000000000e+00    0,000000000e+00    0,000000000e+00    0,000000000e+00
     1318000000    2,717334032e-02   -3,635912538e-01    1,707650572e-01    1,163166296e-02    0,000000000e+00    0,000000000e+00    0,000000000e+00    0,000000000e+00
     1332000000   -1,509035975e-01   -3,965487480e-01    9,528386593e-02   -1,760257632e-01    0,000000000e+00    0,000000000e+00    0,000000000e+00    0,000000000e+00
     1346000000   -3,616254628e-01   -3,949872255e-01   -5,934667587e-02   -2,880271897e-02    0,000000000e+00    0,000000000e+00    0,000000000e+00    0,000000000e+00
     1360000000   -5,887864232e-01   -2,028526515e-01    6,031078845e-02    8,961414546e-02    0,000000000e+00    0,000000000e+00    0,000000000e+00    0,000000000e+00
     1374000000   -6,256746650e-01    1,037992239e-01    1,936560720e-01    4,926384985e-02    0,000000000e+00    0,000000000e+00    0,000000000e+00    0,000000000e+00
     1388000000   -4,765470326e-01    3,457786739e-01    2,137456685e-01   -3,238264471e-02    0,000000000e+00    0,000000000e+00    0,000000000e+00    0,000000000e+00
     1402000000   -2,489495724e-01    4,397100806e-01    2,153294235e-01   -8,928719163e-02    0,000000000e+00    0,000000000e+00    0,000000000e+00    0,000000000e+00
     1416000000   -3,415274620e-02    4,119625986e-01    2,064263523e-01   -1,065459922e-01    0,000000000e+00    0,000000000e+00    0,000000000e+00    0,000000000e+00
     1430000000    1,099286973e-01    3,045294881e-01    1,782671809e-01   -9,052438289e-02    0,000000000e+00    0,000000000e+00    0,000000000e+00    0,000000000e+00
     1444000000    1,986548603e-01    1,571877450e-01    1,652006954e-01   -1,212224290e-01    0,000000000e+00    0,000000000e+00    0,000000000e+00    0,000000000e+00
     1458000000    2,275414467e-01   -1,754503697e-02    1,389726549e-01   -8,912802488e-02    0,000000000e+00    0,000000000e+00    0,000000000e+00    0,000000000e+00
     1472000000    1,921772659e-01   -1,972797960e-01    1,506188065e-01   -3,818923980e-02    0,000000000e+00    0,000000000e+00    0,000000000e+00    0,000000000e+00
     1486000000    6,187576801e-02   -3,580004275e-01    1,621814519e-01    2,356060036e-02    0,000000000e+00    0,000000000e+00    0,000000000e+00    0,000000000e+00
     1500000000   -1,671520472e-01   -4,878863394e-01    2,221886665e-01    8,518520743e-02    0,000000000e+00    0,000000000e+00    0,000000000e+00    0,000000000e+00
