! NanoVNA-App
! Date: 2025-09-25 15:41:27
! Start: 100MHz Stop: 1,5GHz Points: 101
! S-Parameter data: F S11 S21 S12 S22
# Hz S RI R 50
!     Frequency           S11_Real           S11_Imag           S21_Real           S21_Imag           S12_Real           S12_Imag           S22_Real           S22_Imag
      100000000   -2,869927697e-02   -4,245014396e-03    3,738982379e-01   -7,215254903e-01    0,000000000e+00    0,000000000e+00    0,000000000e+00    0,000000000e+00
      114000000   -1,648820378e-02    1,151524857e-02   -8,921977133e-02   -8,051505089e-01    0,000000000e+00    0,000000000e+00    0,000000000e+00    0,000000000e+00
      128000000    3,407977754e-03    1,068221964e-02   -5,143577456e-01   -6,201172471e-01    0,000000000e+00    0,000000000e+00    0,000000000e+00    0,000000000e+00
      142000000    1,468721684e-02   -2,657926641e-03   -7,667400241e-01   -2,365137339e-01    0,000000000e+00    0,000000000e+00    0,000000000e+00    0,000000000e+00
      156000000    1,486003399e-02   -1,461611595e-02   -7,641676664e-01    2,201881558e-01    0,000000000e+00    0,000000000e+00    0,000000000e+00    0,000000000e+00
      170000000    1,714453474e-02   -2,244662680e-02   -5,176114440e-01    6,042150855e-01    0,000000000e+00    0,000000000e+00    0,000000000e+00    0,000000000e+00
      184000000    2,136160806e-02   -3,713446483e-02   -1,013382450e-01    7,856733799e-01    0,000000000e+00    0,000000000e+00    0,000000000e+00    0,000000000e+00
      198000000    1,333073806e-02   -6,252833456e-02    3,430283666e-01    7,121883035e-01    0,000000000e+00    0,000000000e+00    0,000000000e+00    0,000000000e+00
      212000000   -1,835461333e-02   -8,126863837e-02    6,776437163e-01    4,096876383e-01    0,000000000e+00    0,000000000e+00    0,000000000e+00    0,000000000e+00
      226000000   -6,128839031e-02   -6,918266416e-02    7,953023911e-01   -3,056911565e-02    0,000000000e+00    0,000000000e+00    0,000000000e+00    0,000000000e+00
      240000000   -8,219812810e-02   -2,578717284e-02    6,457933187e-01   -4,669373631e-01    0,000000000e+00    0,000000000e+00    0,000000000e+00    0,000000000e+00
      254000000   -6,335291266e-02    1,688801870e-02    2,760820687e-01   -7,427574396e-01    0,000000000e+00    0,000000000e+00    0,000000000e+00    0,000000000e+00
      268000000   -2,392599359e-02    2,870589867e-02   -1,777501702e-01   -7,637216449e-01    0,000000000e+00    0,000000000e+00    0,000000000e+00    0,000000000e+00
      282000000    4,087361973e-03    1,199056674e-02   -5,614045858e-01   -5,352495313e-01    0,000000000e+00    0,000000000e+00    0,000000000e+00    0,000000000e+00
      296000000    9,882391430e-03   -7,638118695e-03   -7,593196034e-01   -1,395283639e-01    0,000000000e+00    0,000000000e+00    0,000000000e+00    0,000000000e+00
      310000000    1,158962958e-02   -1,627886482e-02   -7,123576999e-01    2,972418368e-01    0,000000000e+00    0,000000000e+00    0,000000000e+00    0,000000000e+00
      324000000    1,996988058e-02   -2,661995962e-02   -4,270141423e-01    6,371449232e-01    0,000000000e+00    0,000000000e+00    0,000000000e+00    0,000000000e+00
      338000000    2,590978146e-02   -5,214850232e-02   -9,413693100e-03    7,595897317e-01    0,000000000e+00    0,000000000e+00    0,000000000e+00    0,000000000e+00
      352000000    7,818306796e-03   -8,481603861e-02    4,069459438e-01    6,392205358e-01    0,000000000e+00    0,000000000e+00    0,000000000e+00    0,000000000e+00
      366000000   -3,442934528e-02   -9,552074224e-02    6,903745532e-01    3,118042648e-01    0,000000000e+00    0,000000000e+00    0,000000000e+00    0,000000000e+00
      380000000   -7,061821967e-02   -7,120954990e-02    7,477231026e-01   -1,254967451e-01    0,000000000e+00    0,000000000e+00    0,000000000e+00    0,000000000e+00
      394000000   -7,197561115e-02   -3,259609267e-02    5,461537242e-01   -5,226638317e-01    0,000000000e+00    0,000000000e+00    0,000000000e+00    0,000000000e+00
      408000000   -4,628688470e-02   -1,658431999e-02    1,613389850e-01   -7,321743369e-01    0,000000000e+00    0,000000000e+00    0,000000000e+00    0,000000000e+00
      422000000   -2,824472450e-02   -3,203174844e-02   -2,673662007e-01   -6,942490935e-01    0,000000000e+00    0,000000000e+00    0,000000000e+00    0,000000000e+00
      436000000   -4,023895040e-02   -5,185938999e-02   -6,033418179e-01   -4,319018722e-01    0,000000000e+00    0,000000000e+00    0,000000000e+00    0,000000000e+00
      450000000   -6,683285534e-02   -4,381056130e-02   -7,398116589e-01   -2,154600620e-02    0,000000000e+00    0,000000000e+00    0,000000000e+00    0,000000000e+00
      464000000   -7,288214564e-02   -1,199622545e-02   -6,182487011e-01    3,967314959e-01    0,000000000e+00    0,000000000e+00    0,000000000e+00    0,000000000e+00
      478000000   -4,722895101e-02    1,134859957e-02   -2,815288901e-01    6,670579910e-01    0,000000000e+00    0,000000000e+00    0,000000000e+00    0,000000000e+00
      492000000   -1,604575105e-02    6,033937447e-03    1,367236823e-01    7,007917762e-01    0,000000000e+00    0,000000000e+00    0,000000000e+00    0,000000000e+00
      506000000   -2,796490444e-03   -1,580941118e-02    4,974824488e-01    5,024023056e-01    0,000000000e+00    0,000000000e+00    0,000000000e+00    0,000000000e+00
      520000000   -5,181396380e-03   -3,171167895e-02    6,889474988e-01    1,413245946e-01    0,000000000e+00    0,000000000e+00    0,000000000e+00    0,000000000e+00
      534000000   -3,432451282e-03   -3,760528937e-02    6,431391239e-01   -2,618502378e-01    0,000000000e+00    0,000000000e+00    0,000000000e+00    0,000000000e+00
      548000000    6,447286811e-03   -5,379201844e-02    3,812845051e-01   -5,655674934e-01    0,000000000e+00    0,000000000e+00    0,000000000e+00    0,000000000e+00
      562000000    3,170982003e-03   -8,915096521e-02    3,486667294e-03   -6,709691286e-01    0,000000000e+00    0,000000000e+00    0,000000000e+00    0,000000000e+00
      576000000   -3,432812542e-02   -1,243444160e-01   -3,675518930e-01   -5,577628613e-01    0,000000000e+00    0,000000000e+00    0,000000000e+00    0,000000000e+00
      590000000   -9,574918449e-02   -1,225493252e-01   -6,182672977e-01   -2,641589940e-01    0,000000000e+00    0,000000000e+00    0,000000000e+00    0,000000000e+00
      604000000   -1,392725259e-01   -7,236993313e-02   -6,641095877e-01    1,365987360e-01    0,000000000e+00    0,000000000e+00    0,000000000e+00    0,000000000e+00
      618000000   -1,291158497e-01   -1,045487355e-02   -4,645646811e-01    4,928686619e-01    0,000000000e+00    0,000000000e+00    0,000000000e+00    0,000000000e+00
      632000000   -8,514581621e-02    1,613816433e-02   -1,007315144e-01    6,615539193e-01    0,000000000e+00    0,000000000e+00    0,000000000e+00    0,000000000e+00
      646000000   -5,158463866e-02    8,458464872e-04    2,855489552e-01    5,934168100e-01    0,000000000e+00    0,000000000e+00    0,000000000e+00    0,000000000e+00
      660000000   -5,363404751e-02   -2,022458240e-02    5,643820763e-01    3,233230412e-01    0,000000000e+00    0,000000000e+00    0,000000000e+00    0,000000000e+00
      674000000   -7,024141401e-02   -1,627181470e-02    6,408067346e-01   -6,324713677e-02    0,000000000e+00    0,000000000e+00    0,000000000e+00    0,000000000e+00
      688000000   -6,741148233e-02    8,956275880e-03    4,703441858e-01   -4,231863022e-01    0,000000000e+00    0,000000000e+00    0,000000000e+00    0,000000000e+00
      702000000   -3,637587279e-02    2,522485889e-02    1,273304969e-01   -6,086539030e-01    0,000000000e+00    0,000000000e+00    0,000000000e+00    0,000000000e+00
      716000000    3,160903696e-03    1,685133204e-02   -2,583151460e-01   -5,448527336e-01    0,000000000e+00    0,000000000e+00    0,000000000e+00    0,000000000e+00
      730000000    3,628343716e-02   -1,366850734e-02   -5,214626193e-01   -2,713911533e-01    0,000000000e+00    0,000000000e+00    0,000000000e+00    0,000000000e+00
      744000000    6,185095012e-02   -6,585177779e-02   -5,602256656e-01    9,886082262e-02    0,000000000e+00    0,000000000e+00    0,000000000e+00    0,000000000e+00
      758000000    6,137330458e-02   -1,515048891e-01   -3,662533164e-01    3,998810351e-01    0,000000000e+00    0,000000000e+00    0,000000000e+00    0,000000000e+00
      772000000   -1,792261750e-02   -2,560500205e-01   -4,514762759e-02    5,092440248e-01    0,000000000e+00    0,000000000e+00    0,000000000e+00    0,000000000e+00
      786000000   -2,029286474e-01   -2,915344238e-01    2,597684860e-01    3,990213871e-01    0,000000000e+00    0,000000000e+00    0,000000000e+00    0,000000000e+00
      800000000   -4,073135853e-01   -1,264850199e-01    4,073718190e-01    1,184459776e-01    0,000000000e+00    0,000000000e+00    0,000000000e+00    0,000000000e+00
      814000000   -3,764849007e-01    2,012777179e-01    2,957158983e-01   -1,507181823e-01    0,000000000e+00    0,000000000e+00    0,000000000e+00    0,000000000e+00
      828000000   -6,260252744e-02    3,472540677e-01    8,259370923e-02   -1,906391829e-01    0,000000000e+00    0,000000000e+00    0,000000000e+00    0,000000000e+00
      842000000    2,121245861e-01    1,857966185e-01   -3,178942250e-03   -9,300247580e-02    0,000000000e+00    0,000000000e+00    0,000000000e+00    0,000000000e+00
      856000000    2,661222816e-01   -1,064127237e-01    3,654806688e-02   -3,680931404e-02    0,000000000e+00    0,000000000e+00    0,000000000e+00    0,000000000e+00
      870000000    8,252521604e-02   -3,511612713e-01    8,861491829e-02   -9,714986384e-02    0,000000000e+00    0,000000000e+00    0,000000000e+00    0,000000000e+00
      884000000   -2,676464915e-01   -3,561056554e-01    1,211533695e-02   -2,280723155e-01    0,000000000e+00    0,000000000e+00    0,000000000e+00    0,000000000e+00
      898000000   -4,572713673e-01   -1,412296388e-02   -2,153615206e-01   -2,102703601e-01    0,000000000e+00    0,000000000e+00    0,000000000e+00    0,000000000e+00
      912000000   -2,358444929e-01    2,788554728e-01   -3,412504494e-01    7,737123966e-02    0,000000000e+00    0,000000000e+00    0,000000000e+00    0,000000000e+00
      926000000    5,658616126e-02    2,612256408e-01   -2,077710629e-01    2,625200450e-01    0,000000000e+00    0,000000000e+00    0,000000000e+00    0,000000000e+00
      940000000    2,091004997e-01    8,670634031e-02   -3,059038520e-02    3,251066208e-01    0,000000000e+00    0,000000000e+00    0,000000000e+00    0,000000000e+00
      954000000    2,205100656e-01   -1,198458001e-01    1,315104067e-01    3,035763204e-01    0,000000000e+00    0,000000000e+00    0,000000000e+00    0,000000000e+00
      968000000    1,191705614e-01   -2,945763171e-01    2,685393095e-01    2,141817659e-01    0,000000000e+00    0,000000000e+00    0,000000000e+00    0,000000000e+00
      982000000   -7,974613458e-02   -3,858849108e-01    3,607650697e-01    6,253949553e-02    0,000000000e+00    0,000000000e+00    0,000000000e+00    0,000000000e+00
      996000000   -3,092324734e-01   -3,292374015e-01    3,617319465e-01   -1,449235231e-01    0,000000000e+00    0,000000000e+00    0,000000000e+00    0,000000000e+00
     1010000000   -4,617964327e-01   -1,136986986e-01    2,204963863e-01   -3,350830376e-01    0,000000000e+00    0,000000000e+00    0,000000000e+00    0,000000000e+00
     1024000000   -4,137883186e-01    1,409356892e-01   -3,097915836e-02   -3,858197927e-01    0,000000000e+00    0,000000000e+00    0,000000000e+00    0,000000000e+00
     1038000000   -2,206236124e-01    2,924756408e-01   -2,418934256e-01   -2,566233575e-01    0,000000000e+00    0,000000000e+00    0,000000000e+00    0,000000000e+00
     1052000000   -1,365524717e-02    2,774444818e-01   -3,100467026e-01   -4,598896205e-02    0,000000000e+00    0,000000000e+00    0,000000000e+00    0,000000000e+00
     1066000000    1,329107434e-01    1,668008864e-01   -2,476527393e-01    1,369953901e-01    0,000000000e+00    0,000000000e+00    0,000000000e+00    0,000000000e+00
     1080000000    1,958259940e-01    7,688557263e-03   -1,178076416e-01    2,539566159e-01    0,000000000e+00    0,000000000e+00    0,000000000e+00    0,000000000e+00
     1094000000    1,605064124e-01   -1,606265604e-01    5,933093280e-02    2,932270467e-01    0,000000000e+00    0,000000000e+00    0,000000000e+00    0,000000000e+00
     1108000000    1,920377836e-02   -2,927688658e-01    2,596212029e-01    2,331041247e-01    0,000000000e+00    0,000000000e+00    0,000000000e+00    0,000000000e+00
     1122000000   -2,169957459e-01   -2,815032601e-01    4,399683475e-01    2,290474065e-02    0,000000000e+00    0,000000000e+00    0,000000000e+00    0,000000000e+00
     1136000000   -3,298422694e-01   -3,231206164e-02    4,011205435e-01   -3,445014656e-01    0,000000000e+00    0,000000000e+00    0,000000000e+00    0,000000000e+00
     1150000000   -1,054108217e-01    1,435525864e-01    4,978597537e-02   -5,294455290e-01    0,000000000e+00    0,000000000e+00    0,000000000e+00    0,000000000e+00
     1164000000    8,274938166e-02   -1,587694697e-02   -2,545469999e-01   -4,006268084e-01    0,000000000e+00    0,000000000e+00    0,000000000e+00    0,000000000e+00
     1178000000    2,916406840e-02   -2,520957291e-01   -3,724269569e-01   -1,819228530e-01    0,000000000e+00    0,000000000e+00    0,000000000e+00    0,000000000e+00
     1192000000   -2,199409753e-01   -3,477081656e-01   -3,394839466e-01    4,204288498e-02    0,000000000e+00    0,000000000e+00    0,000000000e+00    0,000000000e+00
     1206000000   -4,792510271e-01   -1,804045588e-01   -1,892930716e-01    1,869949549e-01    0,000000000e+00    0,000000000e+00    0,000000000e+00    0,000000000e+00
     1220000000   -5,036952496e-01    1,424772739e-01   -8,896322921e-03    1,769874990e-01    0,000000000e+00    0,000000000e+00    0,000000000e+00    0,000000000e+00
     1234000000   -3,034966290e-01    3,410031796e-01    7,271026075e-02    7,844614238e-02    0,000000000e+00    0,000000000e+00    0,000000000e+00    0,000000000e+00
     1248000000   -5,937640369e-02    3,617577255e-01    6,688145548e-02    2,698987722e-03    0,000000000e+00    0,000000000e+00    0,000000000e+00    0,000000000e+00
     1262000000    1,133629605e-01    2,623487711e-01    2,901968546e-02   -2,523311600e-02    0,000000000e+00    0,000000000e+00    0,000000000e+00    0,000000000e+00
     1276000000    2,045821249e-01    1,045973897e-01    9,582134895e-03   -9,470069781e-03    0,000000000e+00    0,000000000e+00    0,000000000e+00    0,000000000e+00
     1290000000    2,201278806e-01   -6,241551042e-02    9,173594415e-03    2,610808797e-02    0,000000000e+00    0,000000000e+00    0,000000000e+00    0,000000000e+00
     1304000000    1,658404171e-01   -2,305999696e-01    6,159797683e-02    6,315922737e-02    0,000000000e+00    0,000000000e+00    0,000000000e+00    0,000000000e+00
     1318000000    2,509533241e-02   -3,624736369e-01    1,712992340e-01    2,223181166e-02    0,000000000e+00    0,000000000e+00    0,000000000e+00    0,000000000e+00
     1332000000   -1,483005285e-01   -3,957098722e-01    9,735716134e-02   -1,885228902e-01    0,000000000e+00    0,000000000e+00    0,000000000e+00    0,000000000e+00
     1346000000   -3,614396155e-01   -3,911822438e-01   -5,982869864e-02   -3,040361591e-02    0,000000000e+00    0,000000000e+00    0,000000000e+00    0,000000000e+00
     1360000000   -5,892311335e-01   -1,998776346e-01    5,312027782e-02    9,113640338e-02    0,000000000e+00    0,000000000e+00    0,000000000e+00    0,000000000e+00
     1374000000   -6,250405312e-01    1,074663401e-01    1,892222911e-01    5,779102072e-02    0,000000000e+00    0,000000000e+00    0,000000000e+00    0,000000000e+00
     1388000000   -4,789035618e-01    3,518268764e-01    2,236794978e-01   -2,807624824e-02    0,000000000e+00    0,000000000e+00    0,000000000e+00    0,000000000e+00
     1402000000   -2,461864501e-01    4,390366971e-01    2,157210112e-01   -6,879955530e-02    0,000000000e+00    0,000000000e+00    0,000000000e+00    0,000000000e+00
     1416000000   -4,146053642e-02    4,101204574e-01    1,853425354e-01   -1,062007621e-01    0,000000000e+00    0,000000000e+00    0,000000000e+00    0,000000000e+00
     1430000000    1,111534014e-01    3,107729852e-01    1,993075311e-01   -1,023149788e-01    0,000000000e+00    0,000000000e+00    0,000000000e+00    0,000000000e+00
     1444000000    2,002202421e-01    1,542671323e-01    1,613394320e-01   -1,165308356e-01    0,000000000e+00    0,000000000e+00    0,000000000e+00    0,000000000e+00
     1458000000    2,267180532e-01   -1,053577941e-02    1,431379020e-01   -8,814054728e-02    0,000000000e+00    0,000000000e+00    0,000000000e+00    0,000000000e+00
     1472000000    1,881521642e-01   -1,959203333e-01    1,385359317e-01   -5,436100811e-02    0,000000000e+00    0,000000000e+00    0,000000000e+00    0,000000000e+00
     1486000000    7,051632553e-02   -3,647127748e-01    1,767707616e-01    1,523230970e-02    0,000000000e+00    0,000000000e+00    0,000000000e+00    0,000000000e+00
     1500000000   -1,666531265e-01   -4,869506359e-01    2,240276635e-01    7,721979916e-02    0,000000000e+00    0,000000000e+00    0,000000000e+00    0,000000000e+00
