! NanoVNA-App
! Date: 2025-09-25 15:45:20
! Start: 100MHz Stop: 1,5GHz Points: 101
! S-Parameter data: F S11 S21 S12 S22
# Hz S RI R 50
!     Frequency           S11_Real           S11_Imag           S21_Real           S21_Imag           S12_Real           S12_Imag           S22_Real           S22_Imag
      100000000   -2,878236584e-02   -4,251716658e-03    3,739627600e-01   -7,215488553e-01    0,000000000e+00    0,000000000e+00    0,000000000e+00    0,000000000e+00
      114000000   -1,658580638e-02    1,148212794e-02   -8,906910568e-02   -8,052815795e-01    0,000000000e+00    0,000000000e+00    0,000000000e+00    0,000000000e+00
      128000000    3,344310680e-03    1,066041738e-02   -5,144817829e-01   -6,203318834e-01    0,000000000e+00    0,000000000e+00    0,000000000e+00    0,000000000e+00
      142000000    1,463416405e-02   -2,667724621e-03   -7,668334246e-01   -2,365648746e-01    0,000000000e+00    0,000000000e+00    0,000000000e+00    0,000000000e+00
      156000000    1,546009909e-02   -1,449250057e-02   -7,672579885e-01    2,226687968e-01    0,000000000e+00    0,000000000e+00    0,000000000e+00    0,000000000e+00
      170000000    1,706625894e-02   -2,246325463e-02   -5,181573629e-01    6,043845415e-01    0,000000000e+00    0,000000000e+00    0,000000000e+00    0,000000000e+00
      184000000    2,134239674e-02   -3,713735566e-02   -1,014045030e-01    7,858723402e-01    0,000000000e+00    0,000000000e+00    0,000000000e+00    0,000000000e+00
      198000000    1,325563714e-02   -6,248140335e-02    3,429188728e-01    7,120567560e-01    0,000000000e+00    0,000000000e+00    0,000000000e+00    0,000000000e+00
      212000000   -1,841873303e-02   -8,130363375e-02    6,778119802e-01    4,099126458e-01    0,000000000e+00    0,000000000e+00    0,000000000e+00    0,000000000e+00
      226000000   -6,137591228e-02   -6,924893707e-02    7,953628302e-01   -3,037846833e-02    0,000000000e+00    0,000000000e+00    0,000000000e+00    0,000000000e+00
      240000000   -8,226495981e-02   -2,579564601e-02    6,456356049e-01   -4,665525556e-01    0,000000000e+00    0,000000000e+00    0,000000000e+00    0,000000000e+00
      254000000   -6,344296038e-02    1,700036228e-02    2,764612138e-01   -7,427595258e-01    0,000000000e+00    0,000000000e+00    0,000000000e+00    0,000000000e+00
      268000000   -2,393309027e-02    2,882039733e-02   -1,778922528e-01   -7,637239099e-01    0,000000000e+00    0,000000000e+00    0,000000000e+00    0,000000000e+00
      282000000    4,111662507e-03    1,205668133e-02   -5,614157915e-01   -5,353164077e-01    0,000000000e+00    0,000000000e+00    0,000000000e+00    0,000000000e+00
      296000000    9,927800857e-03   -7,600851357e-03   -7,595334053e-01   -1,397658139e-01    0,000000000e+00    0,000000000e+00    0,000000000e+00    0,000000000e+00
      310000000    1,148292515e-02   -1,609866135e-02   -7,112323642e-01    2,978710234e-01    0,000000000e+00    0,000000000e+00    0,000000000e+00    0,000000000e+00
      324000000    2,015305124e-02   -2,655716985e-02   -4,267829061e-01    6,375887990e-01    0,000000000e+00    0,000000000e+00    0,000000000e+00    0,000000000e+00
      338000000    2,586314455e-02   -5,243054777e-02   -9,903784841e-03    7,611832023e-01    0,000000000e+00    0,000000000e+00    0,000000000e+00    0,000000000e+00
      352000000    7,555900607e-03   -8,447708935e-02    4,059771597e-01    6,394717693e-01    0,000000000e+00    0,000000000e+00    0,000000000e+00    0,000000000e+00
      366000000   -3,434504569e-02   -9,572637826e-02    6,903771758e-01    3,110471964e-01    0,000000000e+00    0,000000000e+00    0,000000000e+00    0,000000000e+00
      380000000   -7,030823082e-02   -7,107950747e-02    7,475071549e-01   -1,250629723e-01    0,000000000e+00    0,000000000e+00    0,000000000e+00    0,000000000e+00
      394000000   -7,232271880e-02   -3,249517083e-02    5,468034744e-01   -5,202940702e-01    0,000000000e+00    0,000000000e+00    0,000000000e+00    0,000000000e+00
      408000000   -4,642164707e-02   -1,618027128e-02    1,610127389e-01   -7,318288088e-01    0,000000000e+00    0,000000000e+00    0,000000000e+00    0,000000000e+00
      422000000   -2,834854089e-02   -3,211973980e-02   -2,678449452e-01   -6,939779520e-01    0,000000000e+00    0,000000000e+00    0,000000000e+00    0,000000000e+00
      436000000   -4,026629776e-02   -5,167184025e-02   -6,022205949e-01   -4,319520593e-01    0,000000000e+00    0,000000000e+00    0,000000000e+00    0,000000000e+00
      450000000   -6,704681367e-02   -4,385819286e-02   -7,401412725e-01   -2,146536671e-02    0,000000000e+00    0,000000000e+00    0,000000000e+00    0,000000000e+00
      464000000   -7,274989784e-02   -1,178764086e-02   -6,182061434e-01    3,961308300e-01    0,000000000e+00    0,000000000e+00    0,000000000e+00    0,000000000e+00
      478000000   -4,763529450e-02    1,128809061e-02   -2,831739187e-01    6,674401760e-01    0,000000000e+00    0,000000000e+00    0,000000000e+00    0,000000000e+00
      492000000   -1,568599977e-02    5,625614896e-03    1,370457113e-01    7,005220652e-01    0,000000000e+00    0,000000000e+00    0,000000000e+00    0,000000000e+00
      506000000   -2,549420809e-03   -1,556881331e-02    4,974971712e-01    5,024039149e-01    0,000000000e+00    0,000000000e+00    0,000000000e+00    0,000000000e+00
      520000000   -5,183627363e-03   -3,160850704e-02    6,888310909e-01    1,413923651e-01    0,000000000e+00    0,000000000e+00    0,000000000e+00    0,000000000e+00
      534000000   -3,628720064e-03   -3,803147003e-02    6,429892778e-01   -2,617323101e-01    0,000000000e+00    0,000000000e+00    0,000000000e+00    0,000000000e+00
      548000000    6,283533759e-03   -5,365093052e-02    3,812584579e-01   -5,659946203e-01    0,000000000e+00    0,000000000e+00    0,000000000e+00    0,000000000e+00
      562000000    3,069753060e-03   -8,910144120e-02    3,564192215e-03   -6,710650921e-01    0,000000000e+00    0,000000000e+00    0,000000000e+00    0,000000000e+00
      576000000   -3,427650779e-02   -1,242589504e-01   -3,680358827e-01   -5,576030612e-01    0,000000000e+00    0,000000000e+00    0,000000000e+00    0,000000000e+00
      590000000   -9,553541988e-02   -1,227080449e-01   -6,191782355e-01   -2,629093230e-01    0,000000000e+00    0,000000000e+00    0,000000000e+00    0,000000000e+00
      604000000   -1,389189959e-01   -7,216128707e-02   -6,642028689e-01    1,370274127e-01    0,000000000e+00    0,000000000e+00    0,000000000e+00    0,000000000e+00
      618000000   -1,289050579e-01   -9,967315011e-03   -4,641419947e-01    4,929304719e-01    0,000000000e+00    0,000000000e+00    0,000000000e+00    0,000000000e+00
      632000000   -8,467431366e-02    1,552622486e-02   -1,006954610e-01    6,627864838e-01    0,000000000e+00    0,000000000e+00    0,000000000e+00    0,000000000e+00
      646000000   -5,244105682e-02    1,050521038e-03    2,849713862e-01    5,947934389e-01    0,000000000e+00    0,000000000e+00    0,000000000e+00    0,000000000e+00
      660000000   -5,293334275e-02   -2,053497545e-02    5,646857023e-01    3,235276043e-01    0,000000000e+00    0,000000000e+00    0,000000000e+00    0,000000000e+00
      674000000   -6,999176741e-02   -1,710638404e-02    6,408829689e-01   -6,277769059e-02    0,000000000e+00    0,000000000e+00    0,000000000e+00    0,000000000e+00
      688000000   -6,713276356e-02    9,625853971e-03    4,710794091e-01   -4,233616889e-01    0,000000000e+00    0,000000000e+00    0,000000000e+00    0,000000000e+00
      702000000   -3,678490967e-02    2,564579062e-02    1,257386953e-01   -6,052678227e-01    0,000000000e+00    0,000000000e+00    0,000000000e+00    0,000000000e+00
      716000000    3,825454507e-03    1,675881445e-02   -2,589540780e-01   -5,450817943e-01    0,000000000e+00    0,000000000e+00    0,000000000e+00    0,000000000e+00
      730000000    3,651786596e-02   -1,309900638e-02   -5,218585134e-01   -2,716723382e-01    0,000000000e+00    0,000000000e+00    0,000000000e+00    0,000000000e+00
      744000000    6,158267707e-02   -6,505260617e-02   -5,607837439e-01    9,822432697e-02    0,000000000e+00    0,000000000e+00    0,000000000e+00    0,000000000e+00
      758000000    6,109076366e-02   -1,519935876e-01   -3,665956557e-01    4,006089866e-01    0,000000000e+00    0,000000000e+00    0,000000000e+00    0,000000000e+00
      772000000   -1,689469814e-02   -2,552694380e-01   -4,590519145e-02    5,091081858e-01    0,000000000e+00    0,000000000e+00    0,000000000e+00    0,000000000e+00
      786000000   -2,024469674e-01   -2,913818955e-01    2,592492104e-01    3,997198343e-01    0,000000000e+00    0,000000000e+00    0,000000000e+00    0,000000000e+00
      800000000   -4,076500833e-01   -1,282724291e-01    4,077648520e-01    1,191452667e-01    0,000000000e+00    0,000000000e+00    0,000000000e+00    0,000000000e+00
      814000000   -3,764401376e-01    2,005477697e-01    2,970887125e-01   -1,509702355e-01    0,000000000e+00    0,000000000e+00    0,000000000e+00    0,000000000e+00
      828000000   -6,386473775e-02    3,462765515e-01    8,292378485e-02   -1,912697554e-01    0,000000000e+00    0,000000000e+00    0,000000000e+00    0,000000000e+00
      842000000    2,113334835e-01    1,860186011e-01   -4,085083492e-03   -9,406861663e-02    0,000000000e+00    0,000000000e+00    0,000000000e+00    0,000000000e+00
      856000000    2,661945522e-01   -1,054406390e-01    3,540749475e-02   -3,731101379e-02    0,000000000e+00    0,000000000e+00    0,000000000e+00    0,000000000e+00
      870000000    8,257188648e-02   -3,511218727e-01    8,813778311e-02   -9,731066227e-02    0,000000000e+00    0,000000000e+00    0,000000000e+00    0,000000000e+00
      884000000   -2,677709162e-01   -3,555620313e-01    1,175988559e-02   -2,266517282e-01    0,000000000e+00    0,000000000e+00    0,000000000e+00    0,000000000e+00
      898000000   -4,573251903e-01   -1,467033662e-02   -2,140960097e-01   -2,098558992e-01    0,000000000e+00    0,000000000e+00    0,000000000e+00    0,000000000e+00
      912000000   -2,362660170e-01    2,793025374e-01   -3,298109174e-01    6,315410882e-02    0,000000000e+00    0,000000000e+00    0,000000000e+00    0,000000000e+00
      926000000    5,412235856e-02    2,610109448e-01   -2,114844918e-01    2,619344890e-01    0,000000000e+00    0,000000000e+00    0,000000000e+00    0,000000000e+00
      940000000    2,079401761e-01    8,273930103e-02   -3,183763102e-02    3,245450556e-01    0,000000000e+00    0,000000000e+00    0,000000000e+00    0,000000000e+00
      954000000    2,192163318e-01   -1,212960109e-01    1,310581714e-01    3,015264273e-01    0,000000000e+00    0,000000000e+00    0,000000000e+00    0,000000000e+00
      968000000    1,161654517e-01   -2,959498167e-01    2,673154175e-01    2,131262571e-01    0,000000000e+00    0,000000000e+00    0,000000000e+00    0,000000000e+00
      982000000   -7,846307009e-02   -3,877591193e-01    3,623939157e-01    6,186224520e-02    0,000000000e+00    0,000000000e+00    0,000000000e+00    0,000000000e+00
      996000000   -3,120599389e-01   -3,271588087e-01    3,621900380e-01   -1,434539109e-01    0,000000000e+00    0,000000000e+00    0,000000000e+00    0,000000000e+00
     1010000000   -4,575061500e-01   -1,177817658e-01    2,195862383e-01   -3,349296749e-01    0,000000000e+00    0,000000000e+00    0,000000000e+00    0,000000000e+00
     1024000000   -4,205135703e-01    1,424743831e-01   -3,138211742e-02   -3,852860928e-01    0,000000000e+00    0,000000000e+00    0,000000000e+00    0,000000000e+00
     1038000000   -2,257380635e-01    2,861102223e-01   -2,406713814e-01   -2,563892007e-01    0,000000000e+00    0,000000000e+00    0,000000000e+00    0,000000000e+00
     1052000000   -1,541831624e-02    2,777297199e-01   -3,110868633e-01   -4,665520042e-02    0,000000000e+00    0,000000000e+00    0,000000000e+00    0,000000000e+00
     1066000000    1,297763735e-01    1,702938527e-01   -2,518951595e-01    1,384405941e-01    0,000000000e+00    0,000000000e+00    0,000000000e+00    0,000000000e+00
     1080000000    1,922546178e-01    6,826535333e-03   -1,152993068e-01    2,540313303e-01    0,000000000e+00    0,000000000e+00    0,000000000e+00    0,000000000e+00
     1094000000    1,610894203e-01   -1,656907350e-01    5,911872908e-02    2,929777205e-01    0,000000000e+00    0,000000000e+00    0,000000000e+00    0,000000000e+00
     1108000000    1,458009053e-02   -2,971900105e-01    2,604834437e-01    2,352987230e-01    0,000000000e+00    0,000000000e+00    0,000000000e+00    0,000000000e+00
     1122000000   -2,132939547e-01   -2,799474001e-01    4,401585162e-01    2,286381461e-02    0,000000000e+00    0,000000000e+00    0,000000000e+00    0,000000000e+00
     1136000000   -3,227706552e-01   -3,423340246e-02    3,987676203e-01   -3,460946977e-01    0,000000000e+00    0,000000000e+00    0,000000000e+00    0,000000000e+00
     1150000000   -1,030453891e-01    1,400954574e-01    4,696413130e-02   -5,311360359e-01    0,000000000e+00    0,000000000e+00    0,000000000e+00    0,000000000e+00
     1164000000    8,590307087e-02   -1,771529950e-02   -2,526665926e-01   -4,040274322e-01    0,000000000e+00    0,000000000e+00    0,000000000e+00    0,000000000e+00
     1178000000    3,104152903e-02   -2,519359291e-01   -3,689868748e-01   -1,778290421e-01    0,000000000e+00    0,000000000e+00    0,000000000e+00    0,000000000e+00
     1192000000   -2,191529125e-01   -3,466232717e-01   -3,421829343e-01    4,318027943e-02    0,000000000e+00    0,000000000e+00    0,000000000e+00    0,000000000e+00
     1206000000   -4,791615307e-01   -1,790091246e-01   -1,883946210e-01    1,851572096e-01    0,000000000e+00    0,000000000e+00    0,000000000e+00    0,000000000e+00
     1220000000   -5,056117177e-01    1,401086748e-01   -1,375660300e-02    1,776483804e-01    0,000000000e+00    0,000000000e+00    0,000000000e+00    0,000000000e+00
     1234000000   -2,964877188e-01    3,387806714e-01    7,712135464e-02    8,131820709e-02    0,000000000e+00    0,000000000e+00    0,000000000e+00    0,000000000e+00
     1248000000   -6,227436289e-02    3,563817143e-01    6,721860170e-02   -3,246767912e-03    0,000000000e+00    0,000000000e+00    0,000000000e+00    0,000000000e+00
     1262000000    1,089817584e-01    2,566866279e-01    2,612975612e-02   -2,796348743e-02    0,000000000e+00    0,000000000e+00    0,000000000e+00    0,000000000e+00
     1276000000    1,979984045e-01    1,100633144e-01    5,865811836e-03   -8,824916556e-03    0,000000000e+00    0,000000000e+00    0,000000000e+00    0,000000000e+00
     1290000000    2,195859253e-01   -6,602071226e-02    9,145941585e-03    2,579422854e-02    0,000000000e+00    0,000000000e+00    0,000000000e+00    0,000000000e+00
     1304000000    1,669345200e-01   -2,304134965e-01    5,698750541e-02    6,091009080e-02    0,000000000e+00    0,000000000e+00    0,000000000e+00    0,000000000e+00
     1318000000    2,680842392e-02   -3,620591760e-01    1,741264910e-01    2,182410099e-02    0,000000000e+00    0,000000000e+00    0,000000000e+00    0,000000000e+00
     1332000000   -1,560960114e-01   -4,031662047e-01    1,021167859e-01   -1,829511821e-01    0,000000000e+00    0,000000000e+00    0,000000000e+00    0,000000000e+00
     1346000000   -3,620908558e-01   -3,877821267e-01   -6,198011711e-02   -2,118582465e-02    0,000000000e+00    0,000000000e+00    0,000000000e+00    0,000000000e+00
     1360000000   -5,894901156e-01   -2,100936472e-01    5,828066543e-02    8,084114641e-02    0,000000000e+00    0,000000000e+00    0,000000000e+00    0,000000000e+00
     1374000000   -6,230699420e-01    1,016683802e-01    1,762920469e-01    4,236588627e-02    0,000000000e+00    0,000000000e+00    0,000000000e+00    0,000000000e+00
     1388000000   -4,761408865e-01    3,548470736e-01    2,052674592e-01   -2,093858644e-02    0,000000000e+00    0,000000000e+00    0,000000000e+00    0,000000000e+00
     1402000000   -2,481943220e-01    4,477358460e-01    2,148021013e-01   -7,332026213e-02    0,000000000e+00    0,000000000e+00    0,000000000e+00    0,000000000e+00
     1416000000   -4,438314587e-02    4,050531685e-01    1,884507984e-01   -1,042461768e-01    0,000000000e+00    0,000000000e+00    0,000000000e+00    0,000000000e+00
     1430000000    1,248746291e-01    3,084445894e-01    1,853395998e-01   -1,378861070e-01    0,000000000e+00    0,000000000e+00    0,000000000e+00    0,000000000e+00
     1444000000    2,024552673e-01    1,582140326e-01    1,738630235e-01   -1,059080660e-01    0,000000000e+00    0,000000000e+00    0,000000000e+00    0,000000000e+00
     1458000000    2,297839075e-01   -1,238943357e-02    1,520557553e-01   -8,078431338e-02    0,000000000e+00    0,000000000e+00    0,000000000e+00    0,000000000e+00
     1472000000    1,916671395e-01   -1,968009621e-01    1,395478845e-01   -5,393021554e-02    0,000000000e+00    0,000000000e+00    0,000000000e+00    0,000000000e+00
     1486000000    7,250558585e-02   -3,658562303e-01    1,739179939e-01    1,218499895e-02    0,000000000e+00    0,000000000e+00    0,000000000e+00    0,000000000e+00
     1500000000   -1,589917392e-01   -4,892151952e-01    2,262010425e-01    7,605992258e-02    0,000000000e+00    0,000000000e+00    0,000000000e+00    0,000000000e+00
