! NanoVNA-App
! Date: 2025-09-25 15:40:50
! Start: 100MHz Stop: 1,5GHz Points: 101
! S-Parameter data: F S11 S21 S12 S22
# Hz S RI R 50
!     Frequency           S11_Real           S11_Imag           S21_Real           S21_Imag           S12_Real           S12_Imag           S22_Real           S22_Imag
      100000000   -2,870155498e-02   -4,240549635e-03    3,739171326e-01   -7,215434909e-01    0,000000000e+00    0,000000000e+00    0,000000000e+00    0,000000000e+00
      114000000   -1,649333723e-02    1,145782880e-02   -8,914247155e-02   -8,050425649e-01    0,000000000e+00    0,000000000e+00    0,000000000e+00    0,000000000e+00
      128000000    3,439869033e-03    1,068327483e-02   -5,142809749e-01   -6,200529933e-01    0,000000000e+00    0,000000000e+00    0,000000000e+00    0,000000000e+00
      142000000    1,466517616e-02   -2,629956463e-03   -7,669131160e-01   -2,364679873e-01    0,000000000e+00    0,000000000e+00    0,000000000e+00    0,000000000e+00
      156000000    1,627903245e-02   -1,419037301e-02   -7,693282366e-01    2,241050005e-01    0,000000000e+00    0,000000000e+00    0,000000000e+00    0,000000000e+00
      170000000    1,715630293e-02   -2,244765684e-02   -5,177414417e-01    6,042956710e-01    0,000000000e+00    0,000000000e+00    0,000000000e+00    0,000000000e+00
      184000000    2,137370780e-02   -3,717585653e-02   -1,011090130e-01    7,860257030e-01    0,000000000e+00    0,000000000e+00    0,000000000e+00    0,000000000e+00
      198000000    1,324720401e-02   -6,252879649e-02    3,428957164e-01    7,122679949e-01    0,000000000e+00    0,000000000e+00    0,000000000e+00    0,000000000e+00
      212000000   -1,843670197e-02   -8,131799102e-02    6,778715849e-01    4,098613858e-01    0,000000000e+00    0,000000000e+00    0,000000000e+00    0,000000000e+00
      226000000   -6,129936129e-02   -6,921546906e-02    7,953932285e-01   -3,049519472e-02    0,000000000e+00    0,000000000e+00    0,000000000e+00    0,000000000e+00
      240000000   -8,218094707e-02   -2,581325732e-02    6,456840038e-01   -4,668938220e-01    0,000000000e+00    0,000000000e+00    0,000000000e+00    0,000000000e+00
      254000000   -6,336248666e-02    1,689428277e-02    2,759725749e-01   -7,429965138e-01    0,000000000e+00    0,000000000e+00    0,000000000e+00    0,000000000e+00
      268000000   -2,392683178e-02    2,872833610e-02   -1,777063906e-01   -7,637319565e-01    0,000000000e+00    0,000000000e+00    0,000000000e+00    0,000000000e+00
      282000000    4,039392341e-03    1,210563257e-02   -5,613892078e-01   -5,353323817e-01    0,000000000e+00    0,000000000e+00    0,000000000e+00    0,000000000e+00
      296000000    9,895387106e-03   -7,573897950e-03   -7,593746185e-01   -1,394345760e-01    0,000000000e+00    0,000000000e+00    0,000000000e+00    0,000000000e+00
      310000000    1,154463738e-02   -1,595844515e-02   -7,111120820e-01    2,975931466e-01    0,000000000e+00    0,000000000e+00    0,000000000e+00    0,000000000e+00
      324000000    2,002290450e-02   -2,648735978e-02   -4,273026288e-01    6,376197338e-01    0,000000000e+00    0,000000000e+00    0,000000000e+00    0,000000000e+00
      338000000    2,576418594e-02   -5,235677958e-02   -9,627542458e-03    7,639098763e-01    0,000000000e+00    0,000000000e+00    0,000000000e+00    0,000000000e+00
      352000000    7,403288968e-03   -8,459842205e-02    4,066525996e-01    6,388984323e-01    0,000000000e+00    0,000000000e+00    0,000000000e+00    0,000000000e+00
      366000000   -3,433627263e-02   -9,550558031e-02    6,902792454e-01    3,110741973e-01    0,000000000e+00    0,000000000e+00    0,000000000e+00    0,000000000e+00
      380000000   -7,022198290e-02   -7,116511464e-02    7,469470501e-01   -1,259836853e-01    0,000000000e+00    0,000000000e+00    0,000000000e+00    0,000000000e+00
      394000000   -7,207068801e-02   -3,245816752e-02    5,471526980e-01   -5,219351053e-01    0,000000000e+00    0,000000000e+00    0,000000000e+00    0,000000000e+00
      408000000   -4,637571797e-02   -1,636949182e-02    1,612532735e-01   -7,310537100e-01    0,000000000e+00    0,000000000e+00    0,000000000e+00    0,000000000e+00
      422000000   -2,802604809e-02   -3,196218982e-02   -2,671442628e-01   -6,945670247e-01    0,000000000e+00    0,000000000e+00    0,000000000e+00    0,000000000e+00
      436000000   -4,050388187e-02   -5,148370937e-02   -6,033798456e-01   -4,318098724e-01    0,000000000e+00    0,000000000e+00    0,000000000e+00    0,000000000e+00
      450000000   -6,688088179e-02   -4,384090379e-02   -7,393955588e-01   -2,204164118e-02    0,000000000e+00    0,000000000e+00    0,000000000e+00    0,000000000e+00
      464000000   -7,315621525e-02   -1,183208544e-02   -6,180937290e-01    3,970008492e-01    0,000000000e+00    0,000000000e+00    0,000000000e+00    0,000000000e+00
      478000000   -4,723196477e-02    1,138482802e-02   -2,824641168e-01    6,663980484e-01    0,000000000e+00    0,000000000e+00    0,000000000e+00    0,000000000e+00
      492000000   -1,582301594e-02    5,491999444e-03    1,376933903e-01    7,009318471e-01    0,000000000e+00    0,000000000e+00    0,000000000e+00    0,000000000e+00
      506000000   -2,863164525e-03   -1,562066004e-02    4,977265894e-01    5,024746656e-01    0,000000000e+00    0,000000000e+00    0,000000000e+00    0,000000000e+00
      520000000   -4,846671596e-03   -3,183355555e-02    6,887195110e-01    1,421454549e-01    0,000000000e+00    0,000000000e+00    0,000000000e+00    0,000000000e+00
      534000000   -3,317330265e-03   -3,778090328e-02    6,432713866e-01   -2,615165412e-01    0,000000000e+00    0,000000000e+00    0,000000000e+00    0,000000000e+00
      548000000    6,471283734e-03   -5,419011787e-02    3,820270002e-01   -5,663971305e-01    0,000000000e+00    0,000000000e+00    0,000000000e+00    0,000000000e+00
      562000000    3,593617585e-03   -8,960472792e-02    3,121318761e-03   -6,706332564e-01    0,000000000e+00    0,000000000e+00    0,000000000e+00    0,000000000e+00
      576000000   -3,404691815e-02   -1,244869381e-01   -3,683156967e-01   -5,568549037e-01    0,000000000e+00    0,000000000e+00    0,000000000e+00    0,000000000e+00
      590000000   -9,567213058e-02   -1,225427389e-01   -6,201757193e-01   -2,624505162e-01    0,000000000e+00    0,000000000e+00    0,000000000e+00    0,000000000e+00
      604000000   -1,386272311e-01   -7,233225554e-02   -6,635417938e-01    1,367130578e-01    0,000000000e+00    0,000000000e+00    0,000000000e+00    0,000000000e+00
      618000000   -1,287627518e-01   -1,010299195e-02   -4,639744461e-01    4,924263954e-01    0,000000000e+00    0,000000000e+00    0,000000000e+00    0,000000000e+00
      632000000   -8,415609598e-02    1,605621353e-02   -9,967339784e-02    6,616771221e-01    0,000000000e+00    0,000000000e+00    0,000000000e+00    0,000000000e+00
      646000000   -5,208526179e-02   -4,452430403e-06    2,855466008e-01    5,940465927e-01    0,000000000e+00    0,000000000e+00    0,000000000e+00    0,000000000e+00
      660000000   -5,392237008e-02   -2,011765726e-02    5,645983219e-01    3,237594962e-01    0,000000000e+00    0,000000000e+00    0,000000000e+00    0,000000000e+00
      674000000   -6,902993470e-02   -1,669815555e-02    6,405445933e-01   -6,320430338e-02    0,000000000e+00    0,000000000e+00    0,000000000e+00    0,000000000e+00
      688000000   -6,631370634e-02    9,176384658e-03    4,705474973e-01   -4,240740836e-01    0,000000000e+00    0,000000000e+00    0,000000000e+00    0,000000000e+00
      702000000   -3,589558229e-02    2,569220774e-02    1,190714091e-01   -6,040267348e-01    0,000000000e+00    0,000000000e+00    0,000000000e+00    0,000000000e+00
      716000000    3,634600667e-03    1,568008587e-02   -2,596635222e-01   -5,449244380e-01    0,000000000e+00    0,000000000e+00    0,000000000e+00    0,000000000e+00
      730000000    3,728833050e-02   -1,412880886e-02   -5,220188498e-01   -2,712290287e-01    0,000000000e+00    0,000000000e+00    0,000000000e+00    0,000000000e+00
      744000000    6,318700314e-02   -6,511014700e-02   -5,601337552e-01    9,864632040e-02    0,000000000e+00    0,000000000e+00    0,000000000e+00    0,000000000e+00
      758000000    6,144688651e-02   -1,517274529e-01   -3,657085598e-01    4,005425274e-01    0,000000000e+00    0,000000000e+00    0,000000000e+00    0,000000000e+00
      772000000   -1,761721261e-02   -2,555309236e-01   -4,479400069e-02    5,093112588e-01    0,000000000e+00    0,000000000e+00    0,000000000e+00    0,000000000e+00
      786000000   -2,023544908e-01   -2,910127640e-01    2,592998147e-01    3,990464211e-01    0,000000000e+00    0,000000000e+00    0,000000000e+00    0,000000000e+00
      800000000   -4,081009030e-01   -1,261457205e-01    4,067399204e-01    1,180332452e-01    0,000000000e+00    0,000000000e+00    0,000000000e+00    0,000000000e+00
      814000000   -3,772616088e-01    2,024347782e-01    2,962214351e-01   -1,510280818e-01    0,000000000e+00    0,000000000e+00    0,000000000e+00    0,000000000e+00
      828000000   -6,125837564e-02    3,479367197e-01    8,220107108e-02   -1,902728677e-01    0,000000000e+00    0,000000000e+00    0,000000000e+00    0,000000000e+00
      842000000    2,122327983e-01    1,855467409e-01   -2,986913780e-03   -9,275151044e-02    0,000000000e+00    0,000000000e+00    0,000000000e+00    0,000000000e+00
      856000000    2,659004331e-01   -1,059051380e-01    3,687640652e-02   -3,676572442e-02    0,000000000e+00    0,000000000e+00    0,000000000e+00    0,000000000e+00
      870000000    8,179648221e-02   -3,514206409e-01    8,893147856e-02   -9,752777219e-02    0,000000000e+00    0,000000000e+00    0,000000000e+00    0,000000000e+00
      884000000   -2,680630982e-01   -3,559061587e-01    1,071043313e-02   -2,281414270e-01    0,000000000e+00    0,000000000e+00    0,000000000e+00    0,000000000e+00
      898000000   -4,579269886e-01   -1,359373238e-02   -2,158280015e-01   -2,097005844e-01    0,000000000e+00    0,000000000e+00    0,000000000e+00    0,000000000e+00
      912000000   -2,352139801e-01    2,786328793e-01   -3,447376192e-01    7,186380029e-02    0,000000000e+00    0,000000000e+00    0,000000000e+00    0,000000000e+00
      926000000    5,605542660e-02    2,624434233e-01   -2,107802182e-01    2,637662590e-01    0,000000000e+00    0,000000000e+00    0,000000000e+00    0,000000000e+00
      940000000    2,089607865e-01    8,274119347e-02   -3,199311718e-02    3,251000941e-01    0,000000000e+00    0,000000000e+00    0,000000000e+00    0,000000000e+00
      954000000    2,234448791e-01   -1,223730445e-01    1,326230168e-01    3,017325699e-01    0,000000000e+00    0,000000000e+00    0,000000000e+00    0,000000000e+00
      968000000    1,184843779e-01   -2,942718565e-01    2,688452601e-01    2,147206217e-01    0,000000000e+00    0,000000000e+00    0,000000000e+00    0,000000000e+00
      982000000   -7,650770247e-02   -3,816766441e-01    3,603827953e-01    6,269355118e-02    0,000000000e+00    0,000000000e+00    0,000000000e+00    0,000000000e+00
      996000000   -3,094107807e-01   -3,341077566e-01    3,627434969e-01   -1,419562846e-01    0,000000000e+00    0,000000000e+00    0,000000000e+00    0,000000000e+00
     1010000000   -4,580019414e-01   -1,140877455e-01    2,193786055e-01   -3,351824880e-01    0,000000000e+00    0,000000000e+00    0,000000000e+00    0,000000000e+00
     1024000000   -4,179195166e-01    1,397558749e-01   -3,259754181e-02   -3,841532767e-01    0,000000000e+00    0,000000000e+00    0,000000000e+00    0,000000000e+00
     1038000000   -2,212453485e-01    2,859621048e-01   -2,420964241e-01   -2,563759983e-01    0,000000000e+00    0,000000000e+00    0,000000000e+00    0,000000000e+00
     1052000000   -1,630033925e-02    2,797640264e-01   -3,104301989e-01   -4,746945202e-02    0,000000000e+00    0,000000000e+00    0,000000000e+00    0,000000000e+00
     1066000000    1,298580170e-01    1,670237780e-01   -2,501965165e-01    1,379100233e-01    0,000000000e+00    0,000000000e+00    0,000000000e+00    0,000000000e+00
     1080000000    1,932864487e-01    1,118136384e-02   -1,140347496e-01    2,529577315e-01    0,000000000e+00    0,000000000e+00    0,000000000e+00    0,000000000e+00
     1094000000    1,624002308e-01   -1,650757492e-01    6,184147298e-02    2,943087220e-01    0,000000000e+00    0,000000000e+00    0,000000000e+00    0,000000000e+00
     1108000000    2,209947072e-02   -2,948830724e-01    2,598983943e-01    2,326499224e-01    0,000000000e+00    0,000000000e+00    0,000000000e+00    0,000000000e+00
     1122000000   -2,133361250e-01   -2,784412205e-01    4,359328747e-01    2,407521941e-02    0,000000000e+00    0,000000000e+00    0,000000000e+00    0,000000000e+00
     1136000000   -3,295254707e-01   -2,556006238e-02    4,007098675e-01   -3,478409052e-01    0,000000000e+00    0,000000000e+00    0,000000000e+00    0,000000000e+00
     1150000000   -1,064490303e-01    1,412326247e-01    4,721995071e-02   -5,289684534e-01    0,000000000e+00    0,000000000e+00    0,000000000e+00    0,000000000e+00
     1164000000    8,244378865e-02   -1,798189245e-02   -2,520416975e-01   -3,992201686e-01    0,000000000e+00    0,000000000e+00    0,000000000e+00    0,000000000e+00
     1178000000    2,783413045e-02   -2,497836202e-01   -3,693057597e-01   -1,778976321e-01    0,000000000e+00    0,000000000e+00    0,000000000e+00    0,000000000e+00
     1192000000   -2,226522863e-01   -3,501814604e-01   -3,439408243e-01    3,667182848e-02    0,000000000e+00    0,000000000e+00    0,000000000e+00    0,000000000e+00
     1206000000   -4,827785492e-01   -1,805001348e-01   -1,942544281e-01    1,818293482e-01    0,000000000e+00    0,000000000e+00    0,000000000e+00    0,000000000e+00
     1220000000   -5,080046058e-01    1,377094537e-01   -9,122173302e-03    1,726412624e-01    0,000000000e+00    0,000000000e+00    0,000000000e+00    0,000000000e+00
     1234000000   -3,007545769e-01    3,398343325e-01    7,650789618e-02    7,770389318e-02    0,000000000e+00    0,000000000e+00    0,000000000e+00    0,000000000e+00
     1248000000   -6,294200569e-02    3,581654131e-01    7,075221837e-02    1,334499335e-03    0,000000000e+00    0,000000000e+00    0,000000000e+00    0,000000000e+00
     1262000000    1,136817858e-01    2,593550086e-01    3,276758641e-02   -2,679563314e-02    0,000000000e+00    0,000000000e+00    0,000000000e+00    0,000000000e+00
     1276000000    2,040049732e-01    1,117930934e-01    4,491616040e-03   -5,604297388e-03    0,000000000e+00    0,000000000e+00    0,000000000e+00    0,000000000e+00
     1290000000    2,249852866e-01   -6,394103169e-02    1,042111591e-02    2,580325678e-02    0,000000000e+00    0,000000000e+00    0,000000000e+00    0,000000000e+00
     1304000000    1,651384085e-01   -2,339077890e-01    6,280459464e-02    5,844525248e-02    0,000000000e+00    0,000000000e+00    0,000000000e+00    0,000000000e+00
     1318000000    2,705877833e-02   -3,651009202e-01    1,731592417e-01    1,642287523e-02    0,000000000e+00    0,000000000e+00    0,000000000e+00    0,000000000e+00
     1332000000   -1,530096084e-01   -3,938362002e-01    9,745217860e-02   -1,786762625e-01    0,000000000e+00    0,000000000e+00    0,000000000e+00    0,000000000e+00
     1346000000   -3,624529541e-01   -3,911149800e-01   -4,756576195e-02   -2,133698389e-02    0,000000000e+00    0,000000000e+00    0,000000000e+00    0,000000000e+00
     1360000000   -5,822123885e-01   -1,987913996e-01    6,000282615e-02    9,512291104e-02    0,000000000e+00    0,000000000e+00    0,000000000e+00    0,000000000e+00
     1374000000   -6,285246611e-01    1,073515639e-01    1,769129336e-01    5,653040484e-02    0,000000000e+00    0,000000000e+00    0,000000000e+00    0,000000000e+00
     1388000000   -4,696814418e-01    3,526480496e-01    2,287141234e-01   -2,880190685e-02    0,000000000e+00    0,000000000e+00    0,000000000e+00    0,000000000e+00
     1402000000   -2,454895079e-01    4,493821859e-01    2,166935652e-01   -7,112026960e-02    0,000000000e+00    0,000000000e+00    0,000000000e+00    0,000000000e+00
     1416000000   -3,999578953e-02    4,172239006e-01    1,880750507e-01   -1,004862413e-01    0,000000000e+00    0,000000000e+00    0,000000000e+00    0,000000000e+00
     1430000000    1,112983823e-01    3,009438515e-01    1,813741028e-01   -9,756945074e-02    0,000000000e+00    0,000000000e+00    0,000000000e+00    0,000000000e+00
     1444000000    2,009835094e-01    1,549566835e-01    1,692219824e-01   -1,027591974e-01    0,000000000e+00    0,000000000e+00    0,000000000e+00    0,000000000e+00
     1458000000    2,293014079e-01   -8,298522793e-03    1,511860937e-01   -7,677365839e-02    0,000000000e+00    0,000000000e+00    0,000000000e+00    0,000000000e+00
     1472000000    1,918619424e-01   -1,947749555e-01    1,411009431e-01   -4,073829576e-02    0,000000000e+00    0,000000000e+00    0,000000000e+00    0,000000000e+00
     1486000000    6,611286104e-02   -3,617678583e-01    1,743275970e-01    2,348632924e-02    0,000000000e+00    0,000000000e+00    0,000000000e+00    0,000000000e+00
     1500000000   -1,613365710e-01   -4,904862046e-01    2,373023331e-01    7,214152813e-02    0,000000000e+00    0,000000000e+00    0,000000000e+00    0,000000000e+00
