! NanoVNA-App
! Date: 2025-09-25 15:42:45
! Start: 100MHz Stop: 1,5GHz Points: 101
! S-Parameter data: F S11 S21 S12 S22
# Hz S RI R 50
!     Frequency           S11_Real           S11_Imag           S21_Real           S21_Imag           S12_Real           S12_Imag           S22_Real           S22_Imag
      100000000   -2,875682712e-02   -4,257415887e-03    3,739975691e-01   -7,215704918e-01    0,000000000e+00    0,000000000e+00    0,000000000e+00    0,000000000e+00
      114000000   -1,654565521e-02    1,147493441e-02   -8,896869421e-02   -8,052144647e-01    0,000000000e+00    0,000000000e+00    0,000000000e+00    0,000000000e+00
      128000000    3,386350814e-03    1,068504062e-02   -5,145502687e-01   -6,202201843e-01    0,000000000e+00    0,000000000e+00    0,000000000e+00    0,000000000e+00
      142000000    1,462841965e-02   -2,646001056e-03   -7,667680383e-01   -2,364140451e-01    0,000000000e+00    0,000000000e+00    0,000000000e+00    0,000000000e+00
      156000000    1,618913189e-02   -1,422777772e-02   -7,695720196e-01    2,241791636e-01    0,000000000e+00    0,000000000e+00    0,000000000e+00    0,000000000e+00
      170000000    1,710843854e-02   -2,250942774e-02   -5,177575946e-01    6,043685675e-01    0,000000000e+00    0,000000000e+00    0,000000000e+00    0,000000000e+00
      184000000    2,133416384e-02   -3,714922071e-02   -1,014266983e-01    7,859796882e-01    0,000000000e+00    0,000000000e+00    0,000000000e+00    0,000000000e+00
      198000000    1,318454556e-02   -6,250914931e-02    3,431571722e-01    7,120750546e-01    0,000000000e+00    0,000000000e+00    0,000000000e+00    0,000000000e+00
      212000000   -1,844969392e-02   -8,128508180e-02    6,777231097e-01    4,097001553e-01    0,000000000e+00    0,000000000e+00    0,000000000e+00    0,000000000e+00
      226000000   -6,134923175e-02   -6,925533712e-02    7,953510880e-01   -3,042414039e-02    0,000000000e+00    0,000000000e+00    0,000000000e+00    0,000000000e+00
      240000000   -8,228018880e-02   -2,578082494e-02    6,460254788e-01   -4,668476582e-01    0,000000000e+00    0,000000000e+00    0,000000000e+00    0,000000000e+00
      254000000   -6,344775110e-02    1,695040986e-02    2,763151824e-01   -7,427885532e-01    0,000000000e+00    0,000000000e+00    0,000000000e+00    0,000000000e+00
      268000000   -2,396976016e-02    2,874260210e-02   -1,776700914e-01   -7,640199661e-01    0,000000000e+00    0,000000000e+00    0,000000000e+00    0,000000000e+00
      282000000    4,039583728e-03    1,212733332e-02   -5,617744327e-01   -5,357101560e-01    0,000000000e+00    0,000000000e+00    0,000000000e+00    0,000000000e+00
      296000000    9,906323627e-03   -7,587787230e-03   -7,595109940e-01   -1,395656168e-01    0,000000000e+00    0,000000000e+00    0,000000000e+00    0,000000000e+00
      310000000    1,158937998e-02   -1,581250131e-02   -7,125046253e-01    2,983941436e-01    0,000000000e+00    0,000000000e+00    0,000000000e+00    0,000000000e+00
      324000000    2,008996159e-02   -2,668984421e-02   -4,265587628e-01    6,364294887e-01    0,000000000e+00    0,000000000e+00    0,000000000e+00    0,000000000e+00
      338000000    2,563183941e-02   -5,247261003e-02   -6,396042183e-03    7,620673180e-01    0,000000000e+00    0,000000000e+00    0,000000000e+00    0,000000000e+00
      352000000    7,288140245e-03   -8,486299962e-02    4,063227773e-01    6,390441060e-01    0,000000000e+00    0,000000000e+00    0,000000000e+00    0,000000000e+00
      366000000   -3,432231769e-02   -9,547796845e-02    6,905363798e-01    3,110742271e-01    0,000000000e+00    0,000000000e+00    0,000000000e+00    0,000000000e+00
      380000000   -7,031637430e-02   -7,101277262e-02    7,475108504e-01   -1,254398525e-01    0,000000000e+00    0,000000000e+00    0,000000000e+00    0,000000000e+00
      394000000   -7,214674354e-02   -3,261928633e-02    5,467510223e-01   -5,220669508e-01    0,000000000e+00    0,000000000e+00    0,000000000e+00    0,000000000e+00
      408000000   -4,635896906e-02   -1,642910019e-02    1,610696614e-01   -7,315250635e-01    0,000000000e+00    0,000000000e+00    0,000000000e+00    0,000000000e+00
      422000000   -2,824401855e-02   -3,235725686e-02   -2,672175467e-01   -6,948056221e-01    0,000000000e+00    0,000000000e+00    0,000000000e+00    0,000000000e+00
      436000000   -4,047612846e-02   -5,195005983e-02   -6,038578749e-01   -4,324074686e-01    0,000000000e+00    0,000000000e+00    0,000000000e+00    0,000000000e+00
      450000000   -6,730003655e-02   -4,350262880e-02   -7,401330471e-01   -2,174610645e-02    0,000000000e+00    0,000000000e+00    0,000000000e+00    0,000000000e+00
      464000000   -7,290656120e-02   -1,184472069e-02   -6,181745529e-01    3,965569139e-01    0,000000000e+00    0,000000000e+00    0,000000000e+00    0,000000000e+00
      478000000   -4,763276502e-02    1,120765135e-02   -2,828710675e-01    6,669346690e-01    0,000000000e+00    0,000000000e+00    0,000000000e+00    0,000000000e+00
      492000000   -1,589018293e-02    5,917026661e-03    1,369162798e-01    7,019908428e-01    0,000000000e+00    0,000000000e+00    0,000000000e+00    0,000000000e+00
      506000000   -2,940981183e-03   -1,567010395e-02    4,976901114e-01    5,025734305e-01    0,000000000e+00    0,000000000e+00    0,000000000e+00    0,000000000e+00
      520000000   -4,809286911e-03   -3,136408329e-02    6,885759830e-01    1,420062780e-01    0,000000000e+00    0,000000000e+00    0,000000000e+00    0,000000000e+00
      534000000   -3,782939399e-03   -3,777872026e-02    6,427051425e-01   -2,616001964e-01    0,000000000e+00    0,000000000e+00    0,000000000e+00    0,000000000e+00
      548000000    6,630574819e-03   -5,393089727e-02    3,822599649e-01   -5,665298700e-01    0,000000000e+00    0,000000000e+00    0,000000000e+00    0,000000000e+00
      562000000    3,496402642e-03   -8,948708326e-02    3,162230365e-03   -6,710227728e-01    0,000000000e+00    0,000000000e+00    0,000000000e+00    0,000000000e+00
      576000000   -3,410799801e-02   -1,246417463e-01   -3,676129282e-01   -5,579700470e-01    0,000000000e+00    0,000000000e+00    0,000000000e+00    0,000000000e+00
      590000000   -9,575165808e-02   -1,229534969e-01   -6,200144887e-01   -2,661111951e-01    0,000000000e+00    0,000000000e+00    0,000000000e+00    0,000000000e+00
      604000000   -1,390480399e-01   -7,206450403e-02   -6,643241644e-01    1,371042430e-01    0,000000000e+00    0,000000000e+00    0,000000000e+00    0,000000000e+00
      618000000   -1,297820956e-01   -1,033160556e-02   -4,645167589e-01    4,924523830e-01    0,000000000e+00    0,000000000e+00    0,000000000e+00    0,000000000e+00
      632000000   -8,427516371e-02    1,627331041e-02   -1,000209376e-01    6,628777385e-01    0,000000000e+00    0,000000000e+00    0,000000000e+00    0,000000000e+00
      646000000   -5,209497735e-02    7,143882976e-05    2,854904532e-01    5,934801102e-01    0,000000000e+00    0,000000000e+00    0,000000000e+00    0,000000000e+00
      660000000   -5,303370580e-02   -2,082457952e-02    5,640314817e-01    3,235365450e-01    0,000000000e+00    0,000000000e+00    0,000000000e+00    0,000000000e+00
      674000000   -6,891027093e-02   -1,663079113e-02    6,405300498e-01   -6,308216602e-02    0,000000000e+00    0,000000000e+00    0,000000000e+00    0,000000000e+00
      688000000   -6,755109131e-02    8,976229466e-03    4,708639979e-01   -4,237954617e-01    0,000000000e+00    0,000000000e+00    0,000000000e+00    0,000000000e+00
      702000000   -3,537388146e-02    2,667320520e-02    1,218175292e-01   -6,074133515e-01    0,000000000e+00    0,000000000e+00    0,000000000e+00    0,000000000e+00
      716000000    4,278627224e-03    1,594825462e-02   -2,602587342e-01   -5,453833938e-01    0,000000000e+00    0,000000000e+00    0,000000000e+00    0,000000000e+00
      730000000    3,742091730e-02   -1,364961080e-02   -5,217837095e-01   -2,714672685e-01    0,000000000e+00    0,000000000e+00    0,000000000e+00    0,000000000e+00
      744000000    6,247106940e-02   -6,578127295e-02   -5,601529479e-01    9,847170860e-02    0,000000000e+00    0,000000000e+00    0,000000000e+00    0,000000000e+00
      758000000    6,113513932e-02   -1,512582898e-01   -3,662425280e-01    4,003482163e-01    0,000000000e+00    0,000000000e+00    0,000000000e+00    0,000000000e+00
      772000000   -1,629927568e-02   -2,560018301e-01   -4,665195942e-02    5,092809796e-01    0,000000000e+00    0,000000000e+00    0,000000000e+00    0,000000000e+00
      786000000   -2,019894570e-01   -2,907524109e-01    2,591162324e-01    3,988793492e-01    0,000000000e+00    0,000000000e+00    0,000000000e+00    0,000000000e+00
      800000000   -4,080235362e-01   -1,281326711e-01    4,073085785e-01    1,188747212e-01    0,000000000e+00    0,000000000e+00    0,000000000e+00    0,000000000e+00
      814000000   -3,772676885e-01    2,024160326e-01    2,963314950e-01   -1,511688083e-01    0,000000000e+00    0,000000000e+00    0,000000000e+00    0,000000000e+00
      828000000   -6,198461354e-02    3,485338986e-01    8,274599910e-02   -1,907138973e-01    0,000000000e+00    0,000000000e+00    0,000000000e+00    0,000000000e+00
      842000000    2,120135427e-01    1,850889474e-01   -3,780325409e-03   -9,367487580e-02    0,000000000e+00    0,000000000e+00    0,000000000e+00    0,000000000e+00
      856000000    2,661530674e-01   -1,058933809e-01    3,591329604e-02   -3,688108921e-02    0,000000000e+00    0,000000000e+00    0,000000000e+00    0,000000000e+00
      870000000    8,335205913e-02   -3,515439630e-01    8,877635002e-02   -9,726393968e-02    0,000000000e+00    0,000000000e+00    0,000000000e+00    0,000000000e+00
      884000000   -2,674892843e-01   -3,564990163e-01    1,073562074e-02   -2,281143069e-01    0,000000000e+00    0,000000000e+00    0,000000000e+00    0,000000000e+00
      898000000   -4,585794806e-01   -1,316526532e-02   -2,157916129e-01   -2,095877230e-01    0,000000000e+00    0,000000000e+00    0,000000000e+00    0,000000000e+00
      912000000   -2,348206788e-01    2,783772945e-01   -3,320592940e-01    8,135534078e-02    0,000000000e+00    0,000000000e+00    0,000000000e+00    0,000000000e+00
      926000000    5,492471531e-02    2,626496553e-01   -2,105109096e-01    2,658338845e-01    0,000000000e+00    0,000000000e+00    0,000000000e+00    0,000000000e+00
      940000000    2,069310695e-01    8,547712862e-02   -3,200544044e-02    3,257150948e-01    0,000000000e+00    0,000000000e+00    0,000000000e+00    0,000000000e+00
      954000000    2,183880657e-01   -1,215696409e-01    1,313082427e-01    3,013060987e-01    0,000000000e+00    0,000000000e+00    0,000000000e+00    0,000000000e+00
      968000000    1,162044108e-01   -2,978084385e-01    2,676666379e-01    2,142285705e-01    0,000000000e+00    0,000000000e+00    0,000000000e+00    0,000000000e+00
      982000000   -8,010476083e-02   -3,829413354e-01    3,595828414e-01    6,239337474e-02    0,000000000e+00    0,000000000e+00    0,000000000e+00    0,000000000e+00
      996000000   -3,075585067e-01   -3,324468732e-01    3,614678979e-01   -1,430954933e-01    0,000000000e+00    0,000000000e+00    0,000000000e+00    0,000000000e+00
     1010000000   -4,578438401e-01   -1,176363751e-01    2,185947150e-01   -3,333198428e-01    0,000000000e+00    0,000000000e+00    0,000000000e+00    0,000000000e+00
     1024000000   -4,182885885e-01    1,401371956e-01   -3,199059889e-02   -3,842387199e-01    0,000000000e+00    0,000000000e+00    0,000000000e+00    0,000000000e+00
     1038000000   -2,233586758e-01    2,867269516e-01   -2,435029447e-01   -2,565551996e-01    0,000000000e+00    0,000000000e+00    0,000000000e+00    0,000000000e+00
     1052000000   -1,561114099e-02    2,820463777e-01   -3,102895021e-01   -4,753641039e-02    0,000000000e+00    0,000000000e+00    0,000000000e+00    0,000000000e+00
     1066000000    1,337304264e-01    1,684040576e-01   -2,491298467e-01    1,394030005e-01    0,000000000e+00    0,000000000e+00    0,000000000e+00    0,000000000e+00
     1080000000    1,927157193e-01    6,294239312e-03   -1,145240963e-01    2,566841841e-01    0,000000000e+00    0,000000000e+00    0,000000000e+00    0,000000000e+00
     1094000000    1,620225012e-01   -1,598215401e-01    5,958115682e-02    2,927149534e-01    0,000000000e+00    0,000000000e+00    0,000000000e+00    0,000000000e+00
     1108000000    1,500229165e-02   -2,935735285e-01    2,614034116e-01    2,341840416e-01    0,000000000e+00    0,000000000e+00    0,000000000e+00    0,000000000e+00
     1122000000   -2,184847444e-01   -2,817077041e-01    4,392780066e-01    2,623306774e-02    0,000000000e+00    0,000000000e+00    0,000000000e+00    0,000000000e+00
     1136000000   -3,282018304e-01   -3,344801813e-02    3,976759315e-01   -3,456715047e-01    0,000000000e+00    0,000000000e+00    0,000000000e+00    0,000000000e+00
     1150000000   -1,069513783e-01    1,345648766e-01    4,951550812e-02   -5,301620960e-01    0,000000000e+00    0,000000000e+00    0,000000000e+00    0,000000000e+00
     1164000000    8,654846251e-02   -1,935970783e-02   -2,524779737e-01   -4,055002630e-01    0,000000000e+00    0,000000000e+00    0,000000000e+00    0,000000000e+00
     1178000000    3,195863590e-02   -2,503118515e-01   -3,687919378e-01   -1,753418446e-01    0,000000000e+00    0,000000000e+00    0,000000000e+00    0,000000000e+00
     1192000000   -2,192354351e-01   -3,472430110e-01   -3,397974670e-01    4,143774509e-02    0,000000000e+00    0,000000000e+00    0,000000000e+00    0,000000000e+00
     1206000000   -4,800364375e-01   -1,796968430e-01   -1,926283836e-01    1,828417480e-01    0,000000000e+00    0,000000000e+00    0,000000000e+00    0,000000000e+00
     1220000000   -4,991804659e-01    1,330314726e-01   -9,911867790e-03    1,717394590e-01    0,000000000e+00    0,000000000e+00    0,000000000e+00    0,000000000e+00
     1234000000   -2,972098291e-01    3,442547619e-01    7,730928808e-02    7,817329466e-02    0,000000000e+00    0,000000000e+00    0,000000000e+00    0,000000000e+00
     1248000000   -5,867453292e-02    3,608244658e-01    6,727080792e-02    7,020728197e-03    0,000000000e+00    0,000000000e+00    0,000000000e+00    0,000000000e+00
     1262000000    1,093398631e-01    2,641675770e-01    2,768347599e-02   -2,206205018e-02    0,000000000e+00    0,000000000e+00    0,000000000e+00    0,000000000e+00
     1276000000    1,989007890e-01    1,075616330e-01    1,959053567e-03   -1,242159959e-02    0,000000000e+00    0,000000000e+00    0,000000000e+00    0,000000000e+00
     1290000000    2,181980014e-01   -6,537555158e-02    8,637824096e-03    2,737788297e-02    0,000000000e+00    0,000000000e+00    0,000000000e+00    0,000000000e+00
     1304000000    1,657074243e-01   -2,330071181e-01    6,428482383e-02    5,687349290e-02    0,000000000e+00    0,000000000e+00    0,000000000e+00    0,000000000e+00
     1318000000    2,339375950e-02   -3,616725206e-01    1,706323475e-01    1,834959537e-02    0,000000000e+00    0,000000000e+00    0,000000000e+00    0,000000000e+00
     1332000000   -1,456830800e-01   -3,922168911e-01    1,088808924e-01   -1,758585274e-01    0,000000000e+00    0,000000000e+00    0,000000000e+00    0,000000000e+00
     1346000000   -3,560342193e-01   -3,887529075e-01   -5,565854907e-02   -1,656901464e-02    0,000000000e+00    0,000000000e+00    0,000000000e+00    0,000000000e+00
     1360000000   -5,913223028e-01   -2,009038180e-01    5,487316474e-02    9,090173244e-02    0,000000000e+00    0,000000000e+00    0,000000000e+00    0,000000000e+00
     1374000000   -6,312513351e-01    9,908920527e-02    1,830138266e-01    4,258594662e-02    0,000000000e+00    0,000000000e+00    0,000000000e+00    0,000000000e+00
     1388000000   -4,742563367e-01    3,504029214e-01    2,194986343e-01   -3,775620088e-02    0,000000000e+00    0,000000000e+00    0,000000000e+00    0,000000000e+00
     1402000000   -2,522954345e-01    4,471806288e-01    1,998439431e-01   -7,949542999e-02    0,000000000e+00    0,000000000e+00    0,000000000e+00    0,000000000e+00
     1416000000   -3,523269668e-02    4,139853418e-01    1,986250579e-01   -9,622739255e-02    0,000000000e+00    0,000000000e+00    0,000000000e+00    0,000000000e+00
     1430000000    1,126189232e-01    3,053952456e-01    2,165033221e-01   -1,396601498e-01    0,000000000e+00    0,000000000e+00    0,000000000e+00    0,000000000e+00
     1444000000    2,000658065e-01    1,579175591e-01    1,552338302e-01   -1,053900197e-01    0,000000000e+00    0,000000000e+00    0,000000000e+00    0,000000000e+00
     1458000000    2,334157526e-01   -1,296551432e-02    1,532030106e-01   -8,428772539e-02    0,000000000e+00    0,000000000e+00    0,000000000e+00    0,000000000e+00
     1472000000    1,933458149e-01   -1,981546134e-01    1,470515579e-01   -4,964275286e-02    0,000000000e+00    0,000000000e+00    0,000000000e+00    0,000000000e+00
     1486000000    7,031013817e-02   -3,652437329e-01    1,759523898e-01    2,916064486e-02    0,000000000e+00    0,000000000e+00    0,000000000e+00    0,000000000e+00
     1500000000   -1,547866613e-01   -4,951236844e-01    2,299415022e-01    6,117774919e-02    0,000000000e+00    0,000000000e+00    0,000000000e+00    0,000000000e+00
