! NanoVNA-App
! Date: 2025-09-25 15:43:45
! Start: 100MHz Stop: 1,5GHz Points: 101
! S-Parameter data: F S11 S21 S12 S22
# Hz S RI R 50
!     Frequency           S11_Real           S11_Imag           S21_Real           S21_Imag           S12_Real           S12_Imag           S22_Real           S22_Imag
      100000000   -2,874515764e-02   -4,252564628e-03    3,738977313e-01   -7,215642929e-01    0,000000000e+00    0,000000000e+00    0,000000000e+00    0,000000000e+00
      114000000   -1,651484519e-02    1,150532812e-02   -8,922395110e-02   -8,051604629e-01    0,000000000e+00    0,000000000e+00    0,000000000e+00    0,000000000e+00
      128000000    3,392353421e-03    1,071302500e-02   -5,145727396e-01   -6,203429699e-01    0,000000000e+00    0,000000000e+00    0,000000000e+00    0,000000000e+00
      142000000    1,466494612e-02   -2,644217340e-03   -7,667804360e-01   -2,364709675e-01    0,000000000e+00    0,000000000e+00    0,000000000e+00    0,000000000e+00
      156000000    1,602284797e-02   -1,425734162e-02   -7,685811520e-01    2,236122638e-01    0,000000000e+00    0,000000000e+00    0,000000000e+00    0,000000000e+00
      170000000    1,715276390e-02   -2,247106843e-02   -5,180926919e-01    6,044098139e-01    0,000000000e+00    0,000000000e+00    0,000000000e+00    0,000000000e+00
      184000000    2,137786150e-02   -3,715418652e-02   -1,013864800e-01    7,857275009e-01    0,000000000e+00    0,000000000e+00    0,000000000e+00    0,000000000e+00
      198000000    1,321864221e-02   -6,253160536e-02    3,430040479e-01    7,122570276e-01    0,000000000e+00    0,000000000e+00    0,000000000e+00    0,000000000e+00
      212000000   -1,845300943e-02   -8,126585186e-02    6,779825687e-01    4,098903239e-01    0,000000000e+00    0,000000000e+00    0,000000000e+00    0,000000000e+00
      226000000   -6,138572097e-02   -6,922372431e-02    7,953854203e-01   -3,044829145e-02    0,000000000e+00    0,000000000e+00    0,000000000e+00    0,000000000e+00
      240000000   -8,219636232e-02   -2,583605982e-02    6,457189322e-01   -4,666922390e-01    0,000000000e+00    0,000000000e+00    0,000000000e+00    0,000000000e+00
      254000000   -6,340146065e-02    1,694168709e-02    2,762031853e-01   -7,428516746e-01    0,000000000e+00    0,000000000e+00    0,000000000e+00    0,000000000e+00
      268000000   -2,392472327e-02    2,877968922e-02   -1,778324246e-01   -7,639845610e-01    0,000000000e+00    0,000000000e+00    0,000000000e+00    0,000000000e+00
      282000000    4,081159830e-03    1,213514712e-02   -5,614715815e-01   -5,354335904e-01    0,000000000e+00    0,000000000e+00    0,000000000e+00    0,000000000e+00
      296000000    9,883556515e-03   -7,607428823e-03   -7,594654560e-01   -1,396052241e-01    0,000000000e+00    0,000000000e+00    0,000000000e+00    0,000000000e+00
      310000000    1,145747583e-02   -1,599979773e-02   -7,110882401e-01    2,984720469e-01    0,000000000e+00    0,000000000e+00    0,000000000e+00    0,000000000e+00
      324000000    2,013401687e-02   -2,685933560e-02   -4,267145693e-01    6,379550099e-01    0,000000000e+00    0,000000000e+00    0,000000000e+00    0,000000000e+00
      338000000    2,590396814e-02   -5,226005614e-02   -9,281056933e-03    7,614568472e-01    0,000000000e+00    0,000000000e+00    0,000000000e+00    0,000000000e+00
      352000000    7,538435515e-03   -8,500131965e-02    4,066052735e-01    6,381506920e-01    0,000000000e+00    0,000000000e+00    0,000000000e+00    0,000000000e+00
      366000000   -3,417704254e-02   -9,550955147e-02    6,901817918e-01    3,105678856e-01    0,000000000e+00    0,000000000e+00    0,000000000e+00    0,000000000e+00
      380000000   -7,047494501e-02   -7,108468562e-02    7,471594810e-01   -1,259211898e-01    0,000000000e+00    0,000000000e+00    0,000000000e+00    0,000000000e+00
      394000000   -7,196656615e-02   -3,268668801e-02    5,469151735e-01   -5,218074322e-01    0,000000000e+00    0,000000000e+00    0,000000000e+00    0,000000000e+00
      408000000   -4,626584053e-02   -1,647032797e-02    1,625204384e-01   -7,317964435e-01    0,000000000e+00    0,000000000e+00    0,000000000e+00    0,000000000e+00
      422000000   -2,819999121e-02   -3,209663928e-02   -2,672080100e-01   -6,943814754e-01    0,000000000e+00    0,000000000e+00    0,000000000e+00    0,000000000e+00
      436000000   -4,046221823e-02   -5,166127905e-02   -6,031997800e-01   -4,318152070e-01    0,000000000e+00    0,000000000e+00    0,000000000e+00    0,000000000e+00
      450000000   -6,689488888e-02   -4,356514663e-02   -7,396348119e-01   -2,176212147e-02    0,000000000e+00    0,000000000e+00    0,000000000e+00    0,000000000e+00
      464000000   -7,309033722e-02   -1,161021553e-02   -6,184810996e-01    3,969875872e-01    0,000000000e+00    0,000000000e+00    0,000000000e+00    0,000000000e+00
      478000000   -4,740106687e-02    1,109068375e-02   -2,828902602e-01    6,671802402e-01    0,000000000e+00    0,000000000e+00    0,000000000e+00    0,000000000e+00
      492000000   -1,595799252e-02    5,509188864e-03    1,368390918e-01    7,007050514e-01    0,000000000e+00    0,000000000e+00    0,000000000e+00    0,000000000e+00
      506000000   -2,661568578e-03   -1,577972248e-02    4,975093007e-01    5,021947622e-01    0,000000000e+00    0,000000000e+00    0,000000000e+00    0,000000000e+00
      520000000   -4,934748169e-03   -3,136061132e-02    6,870374084e-01    1,404813081e-01    0,000000000e+00    0,000000000e+00    0,000000000e+00    0,000000000e+00
      534000000   -3,958844114e-03   -3,796323761e-02    6,428619027e-01   -2,617759705e-01    0,000000000e+00    0,000000000e+00    0,000000000e+00    0,000000000e+00
      548000000    6,309739314e-03   -5,392988026e-02    3,810071945e-01   -5,665179491e-01    0,000000000e+00    0,000000000e+00    0,000000000e+00    0,000000000e+00
      562000000    3,420220455e-03   -8,975069225e-02    2,574321814e-03   -6,715835929e-01    0,000000000e+00    0,000000000e+00    0,000000000e+00    0,000000000e+00
      576000000   -3,420598432e-02   -1,239970326e-01   -3,677693903e-01   -5,569236279e-01    0,000000000e+00    0,000000000e+00    0,000000000e+00    0,000000000e+00
      590000000   -9,589575976e-02   -1,224705130e-01   -6,209893227e-01   -2,650682628e-01    0,000000000e+00    0,000000000e+00    0,000000000e+00    0,000000000e+00
      604000000   -1,387063563e-01   -7,249499112e-02   -6,637935042e-01    1,373042464e-01    0,000000000e+00    0,000000000e+00    0,000000000e+00    0,000000000e+00
      618000000   -1,298267394e-01   -9,849608876e-03   -4,639876783e-01    4,924053252e-01    0,000000000e+00    0,000000000e+00    0,000000000e+00    0,000000000e+00
      632000000   -8,449062705e-02    1,653335802e-02   -9,995089471e-02    6,627347469e-01    0,000000000e+00    0,000000000e+00    0,000000000e+00    0,000000000e+00
      646000000   -5,217343196e-02    1,080212882e-03    2,853933871e-01    5,943209529e-01    0,000000000e+00    0,000000000e+00    0,000000000e+00    0,000000000e+00
      660000000   -5,326754227e-02   -2,106844634e-02    5,641871095e-01    3,234606087e-01    0,000000000e+00    0,000000000e+00    0,000000000e+00    0,000000000e+00
      674000000   -6,918870658e-02   -1,658659428e-02    6,406927109e-01   -6,298314035e-02    0,000000000e+00    0,000000000e+00    0,000000000e+00    0,000000000e+00
      688000000   -6,722621620e-02    8,499053307e-03    4,713126719e-01   -4,242365956e-01    0,000000000e+00    0,000000000e+00    0,000000000e+00    0,000000000e+00
      702000000   -3,667494282e-02    2,626707219e-02    1,235964447e-01   -6,023506522e-01    0,000000000e+00    0,000000000e+00    0,000000000e+00    0,000000000e+00
      716000000    2,848263830e-03    1,638082601e-02   -2,587404549e-01   -5,450395346e-01    0,000000000e+00    0,000000000e+00    0,000000000e+00    0,000000000e+00
      730000000    3,609433770e-02   -1,380567253e-02   -5,211686492e-01   -2,712364495e-01    0,000000000e+00    0,000000000e+00    0,000000000e+00    0,000000000e+00
      744000000    6,258358061e-02   -6,467743963e-02   -5,603179932e-01    9,835758805e-02    0,000000000e+00    0,000000000e+00    0,000000000e+00    0,000000000e+00
      758000000    6,069081277e-02   -1,521857828e-01   -3,657876253e-01    3,999381065e-01    0,000000000e+00    0,000000000e+00    0,000000000e+00    0,000000000e+00
      772000000   -1,754852384e-02   -2,552606165e-01   -4,542792961e-02    5,090503097e-01    0,000000000e+00    0,000000000e+00    0,000000000e+00    0,000000000e+00
      786000000   -2,027577311e-01   -2,913600504e-01    2,602238059e-01    3,991921842e-01    0,000000000e+00    0,000000000e+00    0,000000000e+00    0,000000000e+00
      800000000   -4,077652395e-01   -1,269248724e-01    4,076130092e-01    1,188566238e-01    0,000000000e+00    0,000000000e+00    0,000000000e+00    0,000000000e+00
      814000000   -3,767566085e-01    2,018623799e-01    2,969786227e-01   -1,516027898e-01    0,000000000e+00    0,000000000e+00    0,000000000e+00    0,000000000e+00
      828000000   -6,346362829e-02    3,475615978e-01    8,240008354e-02   -1,906426549e-01    0,000000000e+00    0,000000000e+00    0,000000000e+00    0,000000000e+00
      842000000    2,117312700e-01    1,857493967e-01   -3,621924901e-03   -9,334778041e-02    0,000000000e+00    0,000000000e+00    0,000000000e+00    0,000000000e+00
      856000000    2,660701573e-01   -1,054136604e-01    3,562845290e-02   -3,689374775e-02    0,000000000e+00    0,000000000e+00    0,000000000e+00    0,000000000e+00
      870000000    8,258392662e-02   -3,519967794e-01    8,821092546e-02   -9,683439881e-02    0,000000000e+00    0,000000000e+00    0,000000000e+00    0,000000000e+00
      884000000   -2,666171193e-01   -3,564784229e-01    1,228789799e-02   -2,276101559e-01    0,000000000e+00    0,000000000e+00    0,000000000e+00    0,000000000e+00
      898000000   -4,570581019e-01   -1,375104859e-02   -2,148983479e-01   -2,101475447e-01    0,000000000e+00    0,000000000e+00    0,000000000e+00    0,000000000e+00
      912000000   -2,347996235e-01    2,788183689e-01   -3,366361558e-01    7,973236591e-02    0,000000000e+00    0,000000000e+00    0,000000000e+00    0,000000000e+00
      926000000    5,448235944e-02    2,624119520e-01   -2,107040584e-01    2,616837025e-01    0,000000000e+00    0,000000000e+00    0,000000000e+00    0,000000000e+00
      940000000    2,081477791e-01    8,372458071e-02   -3,241810203e-02    3,249620497e-01    0,000000000e+00    0,000000000e+00    0,000000000e+00    0,000000000e+00
      954000000    2,209369391e-01   -1,244077161e-01    1,316177696e-01    3,002930284e-01    0,000000000e+00    0,000000000e+00    0,000000000e+00    0,000000000e+00
      968000000    1,159119681e-01   -2,944275737e-01    2,669042945e-01    2,141636312e-01    0,000000000e+00    0,000000000e+00    0,000000000e+00    0,000000000e+00
      982000000   -7,512507588e-02   -3,828539848e-01    3,608981669e-01    6,314728409e-02    0,000000000e+00    0,000000000e+00    0,000000000e+00    0,000000000e+00
      996000000   -3,108203709e-01   -3,292747140e-01    3,638543785e-01   -1,425032467e-01    0,000000000e+00    0,000000000e+00    0,000000000e+00    0,000000000e+00
     1010000000   -4,642306268e-01   -1,157308742e-01    2,189845294e-01   -3,347755373e-01    0,000000000e+00    0,000000000e+00    0,000000000e+00    0,000000000e+00
     1024000000   -4,119131267e-01    1,438887566e-01   -3,202137351e-02   -3,864634931e-01    0,000000000e+00    0,000000000e+00    0,000000000e+00    0,000000000e+00
     1038000000   -2,257147431e-01    2,870681584e-01   -2,432662398e-01   -2,538293898e-01    0,000000000e+00    0,000000000e+00    0,000000000e+00    0,000000000e+00
     1052000000   -1,355108898e-02    2,771524787e-01   -3,093175590e-01   -4,609060287e-02    0,000000000e+00    0,000000000e+00    0,000000000e+00    0,000000000e+00
     1066000000    1,304403096e-01    1,700816900e-01   -2,496714890e-01    1,370105743e-01    0,000000000e+00    0,000000000e+00    0,000000000e+00    0,000000000e+00
     1080000000    1,965644062e-01    8,872397244e-03   -1,175833270e-01    2,563180923e-01    0,000000000e+00    0,000000000e+00    0,000000000e+00    0,000000000e+00
     1094000000    1,594574749e-01   -1,605326682e-01    6,156242639e-02    2,912853956e-01    0,000000000e+00    0,000000000e+00    0,000000000e+00    0,000000000e+00
     1108000000    2,139894664e-02   -2,982964218e-01    2,591158748e-01    2,367338836e-01    0,000000000e+00    0,000000000e+00    0,000000000e+00    0,000000000e+00
     1122000000   -2,091793567e-01   -2,815936208e-01    4,401489496e-01    2,679562010e-02    0,000000000e+00    0,000000000e+00    0,000000000e+00    0,000000000e+00
     1136000000   -3,283853531e-01   -2,442583069e-02    4,023706913e-01   -3,459125757e-01    0,000000000e+00    0,000000000e+00    0,000000000e+00    0,000000000e+00
     1150000000   -1,111315042e-01    1,389601082e-01    4,671766609e-02   -5,277349353e-01    0,000000000e+00    0,000000000e+00    0,000000000e+00    0,000000000e+00
     1164000000    8,132781833e-02   -1,824103668e-02   -2,521846592e-01   -4,047281444e-01    0,000000000e+00    0,000000000e+00    0,000000000e+00    0,000000000e+00
     1178000000    2,908905968e-02   -2,507565618e-01   -3,689437211e-01   -1,777238399e-01    0,000000000e+00    0,000000000e+00    0,000000000e+00    0,000000000e+00
     1192000000   -2,248523831e-01   -3,486165106e-01   -3,418169916e-01    4,083993286e-02    0,000000000e+00    0,000000000e+00    0,000000000e+00    0,000000000e+00
     1206000000   -4,844674468e-01   -1,848125160e-01   -1,850188375e-01    1,841215491e-01    0,000000000e+00    0,000000000e+00    0,000000000e+00    0,000000000e+00
     1220000000   -5,017900467e-01    1,336922646e-01   -1,132844482e-02    1,716948450e-01    0,000000000e+00    0,000000000e+00    0,000000000e+00    0,000000000e+00
     1234000000   -3,064651489e-01    3,446275294e-01    7,360678911e-02    8,090240508e-02    0,000000000e+00    0,000000000e+00    0,000000000e+00    0,000000000e+00
     1248000000   -6,165482104e-02    3,646803796e-01    6,941177696e-02   -3,583045909e-04    0,000000000e+00    0,000000000e+00    0,000000000e+00    0,000000000e+00
     1262000000    1,096138805e-01    2,618238926e-01    3,147185594e-02   -2,147341520e-02    0,000000000e+00    0,000000000e+00    0,000000000e+00    0,000000000e+00
     1276000000    2,065253407e-01    1,026760861e-01    7,642908953e-03   -1,309940498e-02    0,000000000e+00    0,000000000e+00    0,000000000e+00    0,000000000e+00
     1290000000    2,181743532e-01   -6,268674880e-02    1,030353457e-02    2,407548390e-02    0,000000000e+00    0,000000000e+00    0,000000000e+00    0,000000000e+00
     1304000000    1,667490155e-01   -2,292972952e-01    6,155094132e-02    5,895227939e-02    0,000000000e+00    0,000000000e+00    0,000000000e+00    0,000000000e+00
     1318000000    2,765830979e-02   -3,629567921e-01    1,719796062e-01    1,792807877e-02    0,000000000e+00    0,000000000e+00    0,000000000e+00    0,000000000e+00
     1332000000   -1,546456218e-01   -4,003129900e-01    1,022162139e-01   -1,914772689e-01    0,000000000e+00    0,000000000e+00    0,000000000e+00    0,000000000e+00
     1346000000   -3,591414690e-01   -3,943386376e-01   -5,465992540e-02   -3,253708035e-02    0,000000000e+00    0,000000000e+00    0,000000000e+00    0,000000000e+00
     1360000000   -5,921463966e-01   -2,058468759e-01    5,873101205e-02    8,201499283e-02    0,000000000e+00    0,000000000e+00    0,000000000e+00    0,000000000e+00
     1374000000   -6,325327754e-01    9,751168638e-02    1,767788380e-01    4,200225323e-02    0,000000000e+00    0,000000000e+00    0,000000000e+00    0,000000000e+00
     1388000000   -4,702586532e-01    3,490530550e-01    2,216055244e-01   -3,729701415e-02    0,000000000e+00    0,000000000e+00    0,000000000e+00    0,000000000e+00
     1402000000   -2,488711178e-01    4,455264509e-01    2,083877176e-01   -7,899648696e-02    0,000000000e+00    0,000000000e+00    0,000000000e+00    0,000000000e+00
     1416000000   -4,155253246e-02    4,102549553e-01    1,920968145e-01   -1,100290194e-01    0,000000000e+00    0,000000000e+00    0,000000000e+00    0,000000000e+00
     1430000000    1,099864319e-01    2,991018891e-01    1,745713055e-01   -1,012449861e-01    0,000000000e+00    0,000000000e+00    0,000000000e+00    0,000000000e+00
     1444000000    2,031442076e-01    1,555043012e-01    1,721391380e-01   -1,091577858e-01    0,000000000e+00    0,000000000e+00    0,000000000e+00    0,000000000e+00
     1458000000    2,254544199e-01   -1,142666023e-02    1,460358649e-01   -8,633597940e-02    0,000000000e+00    0,000000000e+00    0,000000000e+00    0,000000000e+00
     1472000000    1,888901740e-01   -1,926023364e-01    1,385516673e-01   -4,336814582e-02    0,000000000e+00    0,000000000e+00    0,000000000e+00    0,000000000e+00
     1486000000    6,349966675e-02   -3,642985821e-01    1,565393060e-01    4,344959743e-03    0,000000000e+00    0,000000000e+00    0,000000000e+00    0,000000000e+00
     1500000000   -1,600469053e-01   -4,872468114e-01    2,220951468e-01    8,519333601e-02    0,000000000e+00    0,000000000e+00    0,000000000e+00    0,000000000e+00
