! NanoVNA-App
! Date: 2025-09-25 15:44:54
! Start: 100MHz Stop: 1,5GHz Points: 101
! S-Parameter data: F S11 S21 S12 S22
# Hz S RI R 50
!     Frequency           S11_Real           S11_Imag           S21_Real           S21_Imag           S12_Real           S12_Imag           S22_Real           S22_Imag
      100000000   -2,876142599e-02   -4,257172812e-03    3,739604354e-01   -7,215926051e-01    0,000000000e+00    0,000000000e+00    0,000000000e+00    0,000000000e+00
      114000000   -1,652939431e-02    1,151084248e-02   -8,892775327e-02   -8,052029014e-01    0,000000000e+00    0,000000000e+00    0,000000000e+00    0,000000000e+00
      128000000    3,431596328e-03    1,071080379e-02   -5,143876076e-01   -6,202442050e-01    0,000000000e+00    0,000000000e+00    0,000000000e+00    0,000000000e+00
      142000000    1,468001306e-02   -2,674815711e-03   -7,668375969e-01   -2,366192937e-01    0,000000000e+00    0,000000000e+00    0,000000000e+00    0,000000000e+00
      156000000    1,559828408e-02   -1,448427606e-02   -7,671825290e-01    2,226545662e-01    0,000000000e+00    0,000000000e+00    0,000000000e+00    0,000000000e+00
      170000000    1,712198555e-02   -2,248901874e-02   -5,179971457e-01    6,045647264e-01    0,000000000e+00    0,000000000e+00    0,000000000e+00    0,000000000e+00
      184000000    2,127854340e-02   -3,715904430e-02   -1,016041264e-01    7,854686975e-01    0,000000000e+00    0,000000000e+00    0,000000000e+00    0,000000000e+00
      198000000    1,325738057e-02   -6,254463643e-02    3,432990909e-01    7,120504975e-01    0,000000000e+00    0,000000000e+00    0,000000000e+00    0,000000000e+00
      212000000   -1,837368309e-02   -8,127242327e-02    6,779038310e-01    4,100358486e-01    0,000000000e+00    0,000000000e+00    0,000000000e+00    0,000000000e+00
      226000000   -6,134680286e-02   -6,926739216e-02    7,953655124e-01   -3,036307357e-02    0,000000000e+00    0,000000000e+00    0,000000000e+00    0,000000000e+00
      240000000   -8,231381327e-02   -2,582283132e-02    6,460107565e-01   -4,665234089e-01    0,000000000e+00    0,000000000e+00    0,000000000e+00    0,000000000e+00
      254000000   -6,337969750e-02    1,695475169e-02    2,761401236e-01   -7,425891757e-01    0,000000000e+00    0,000000000e+00    0,000000000e+00    0,000000000e+00
      268000000   -2,387904190e-02    2,886757813e-02   -1,777077019e-01   -7,635864615e-01    0,000000000e+00    0,000000000e+00    0,000000000e+00    0,000000000e+00
      282000000    4,127494060e-03    1,211150456e-02   -5,614897609e-01   -5,354740024e-01    0,000000000e+00    0,000000000e+00    0,000000000e+00    0,000000000e+00
      296000000    9,940447286e-03   -7,681864314e-03   -7,596728802e-01   -1,397129297e-01    0,000000000e+00    0,000000000e+00    0,000000000e+00    0,000000000e+00
      310000000    1,152453106e-02   -1,606595144e-02   -7,127593756e-01    2,970528305e-01    0,000000000e+00    0,000000000e+00    0,000000000e+00    0,000000000e+00
      324000000    1,996679045e-02   -2,664042637e-02   -4,262891412e-01    6,376164556e-01    0,000000000e+00    0,000000000e+00    0,000000000e+00    0,000000000e+00
      338000000    2,602252923e-02   -5,219097808e-02   -9,233561344e-03    7,596616149e-01    0,000000000e+00    0,000000000e+00    0,000000000e+00    0,000000000e+00
      352000000    7,551892661e-03   -8,486545831e-02    4,047989547e-01    6,390239000e-01    0,000000000e+00    0,000000000e+00    0,000000000e+00    0,000000000e+00
      366000000   -3,473155573e-02   -9,551791102e-02    6,896951199e-01    3,110704124e-01    0,000000000e+00    0,000000000e+00    0,000000000e+00    0,000000000e+00
      380000000   -7,018797845e-02   -7,096979022e-02    7,472035289e-01   -1,254000664e-01    0,000000000e+00    0,000000000e+00    0,000000000e+00    0,000000000e+00
      394000000   -7,219989598e-02   -3,262458369e-02    5,456063747e-01   -5,201717019e-01    0,000000000e+00    0,000000000e+00    0,000000000e+00    0,000000000e+00
      408000000   -4,621855170e-02   -1,643270068e-02    1,633603424e-01   -7,324368358e-01    0,000000000e+00    0,000000000e+00    0,000000000e+00    0,000000000e+00
      422000000   -2,841522917e-02   -3,203973547e-02   -2,676102519e-01   -6,936432719e-01    0,000000000e+00    0,000000000e+00    0,000000000e+00    0,000000000e+00
      436000000   -4,070166498e-02   -5,179458857e-02   -6,037086844e-01   -4,320089519e-01    0,000000000e+00    0,000000000e+00    0,000000000e+00    0,000000000e+00
      450000000   -6,707394868e-02   -4,409638420e-02   -7,400313020e-01   -2,237931453e-02    0,000000000e+00    0,000000000e+00    0,000000000e+00    0,000000000e+00
      464000000   -7,290511578e-02   -1,189171337e-02   -6,180272102e-01    3,969058394e-01    0,000000000e+00    0,000000000e+00    0,000000000e+00    0,000000000e+00
      478000000   -4,790471494e-02    1,139623113e-02   -2,825018764e-01    6,671743989e-01    0,000000000e+00    0,000000000e+00    0,000000000e+00    0,000000000e+00
      492000000   -1,598670334e-02    5,629879888e-03    1,367916465e-01    7,006946802e-01    0,000000000e+00    0,000000000e+00    0,000000000e+00    0,000000000e+00
      506000000   -2,742088633e-03   -1,583400182e-02    4,974866211e-01    5,021234751e-01    0,000000000e+00    0,000000000e+00    0,000000000e+00    0,000000000e+00
      520000000   -4,812791944e-03   -3,104737215e-02    6,874855161e-01    1,422238499e-01    0,000000000e+00    0,000000000e+00    0,000000000e+00    0,000000000e+00
      534000000   -3,777560778e-03   -3,801360726e-02    6,434242129e-01   -2,623305321e-01    0,000000000e+00    0,000000000e+00    0,000000000e+00    0,000000000e+00
      548000000    6,336905994e-03   -5,385172367e-02    3,815582395e-01   -5,660142899e-01    0,000000000e+00    0,000000000e+00    0,000000000e+00    0,000000000e+00
      562000000    3,467930015e-03   -8,961720765e-02    3,085091943e-03   -6,714956760e-01    0,000000000e+00    0,000000000e+00    0,000000000e+00    0,000000000e+00
      576000000   -3,419487551e-02   -1,237952411e-01   -3,681098223e-01   -5,566560626e-01    0,000000000e+00    0,000000000e+00    0,000000000e+00    0,000000000e+00
      590000000   -9,565420449e-02   -1,226892471e-01   -6,181356907e-01   -2,651118040e-01    0,000000000e+00    0,000000000e+00    0,000000000e+00    0,000000000e+00
      604000000   -1,386588812e-01   -7,218135148e-02   -6,639611721e-01    1,366501749e-01    0,000000000e+00    0,000000000e+00    0,000000000e+00    0,000000000e+00
      618000000   -1,290747821e-01   -9,805864654e-03   -4,643497765e-01    4,937546551e-01    0,000000000e+00    0,000000000e+00    0,000000000e+00    0,000000000e+00
      632000000   -8,462594450e-02    1,551719755e-02   -1,002482623e-01    6,629675627e-01    0,000000000e+00    0,000000000e+00    0,000000000e+00    0,000000000e+00
      646000000   -5,226602778e-02    8,411345189e-04    2,844549417e-01    5,948656797e-01    0,000000000e+00    0,000000000e+00    0,000000000e+00    0,000000000e+00
      660000000   -5,307091773e-02   -2,014478669e-02    5,647843480e-01    3,239767551e-01    0,000000000e+00    0,000000000e+00    0,000000000e+00    0,000000000e+00
      674000000   -6,988916546e-02   -1,721451618e-02    6,408728957e-01   -6,299738586e-02    0,000000000e+00    0,000000000e+00    0,000000000e+00    0,000000000e+00
      688000000   -6,711642444e-02    9,872284718e-03    4,711526632e-01   -4,243186116e-01    0,000000000e+00    0,000000000e+00    0,000000000e+00    0,000000000e+00
      702000000   -3,588063270e-02    2,562324703e-02    1,264277995e-01   -6,032204032e-01    0,000000000e+00    0,000000000e+00    0,000000000e+00    0,000000000e+00
      716000000    4,254566971e-03    1,608129218e-02   -2,601089478e-01   -5,446109176e-01    0,000000000e+00    0,000000000e+00    0,000000000e+00    0,000000000e+00
      730000000    3,668159619e-02   -1,442911476e-02   -5,214564800e-01   -2,714994550e-01    0,000000000e+00    0,000000000e+00    0,000000000e+00    0,000000000e+00
      744000000    6,203087047e-02   -6,468603015e-02   -5,604084730e-01    9,838710725e-02    0,000000000e+00    0,000000000e+00    0,000000000e+00    0,000000000e+00
      758000000    6,172002479e-02   -1,513923407e-01   -3,660691679e-01    4,001550376e-01    0,000000000e+00    0,000000000e+00    0,000000000e+00    0,000000000e+00
      772000000   -1,703681238e-02   -2,553819418e-01   -4,694445059e-02    5,087803006e-01    0,000000000e+00    0,000000000e+00    0,000000000e+00    0,000000000e+00
      786000000   -2,024352551e-01   -2,907469869e-01    2,593314350e-01    3,996127248e-01    0,000000000e+00    0,000000000e+00    0,000000000e+00    0,000000000e+00
      800000000   -4,066588581e-01   -1,271972805e-01    4,076170027e-01    1,188352779e-01    0,000000000e+00    0,000000000e+00    0,000000000e+00    0,000000000e+00
      814000000   -3,763685226e-01    2,018038779e-01    2,969816625e-01   -1,517892331e-01    0,000000000e+00    0,000000000e+00    0,000000000e+00    0,000000000e+00
      828000000   -6,347828358e-02    3,478365242e-01    8,194749802e-02   -1,909618229e-01    0,000000000e+00    0,000000000e+00    0,000000000e+00    0,000000000e+00
      842000000    2,110116333e-01    1,856009960e-01   -4,057256971e-03   -9,380625933e-02    0,000000000e+00    0,000000000e+00    0,000000000e+00    0,000000000e+00
      856000000    2,666727602e-01   -1,054935530e-01    3,532928228e-02   -3,735610843e-02    0,000000000e+00    0,000000000e+00    0,000000000e+00    0,000000000e+00
      870000000    8,305680752e-02   -3,502445221e-01    8,787505329e-02   -9,667947888e-02    0,000000000e+00    0,000000000e+00    0,000000000e+00    0,000000000e+00
      884000000   -2,669306099e-01   -3,567646444e-01    1,139291469e-02   -2,272356302e-01    0,000000000e+00    0,000000000e+00    0,000000000e+00    0,000000000e+00
      898000000   -4,586114287e-01   -1,397855487e-02   -2,150235474e-01   -2,094385028e-01    0,000000000e+00    0,000000000e+00    0,000000000e+00    0,000000000e+00
      912000000   -2,351510972e-01    2,783140540e-01   -3,288372159e-01    7,460787147e-02    0,000000000e+00    0,000000000e+00    0,000000000e+00    0,000000000e+00
      926000000    5,498377606e-02    2,637941241e-01   -2,118519843e-01    2,637031674e-01    0,000000000e+00    0,000000000e+00    0,000000000e+00    0,000000000e+00
      940000000    2,110077739e-01    8,355559409e-02   -3,072416969e-02    3,247233331e-01    0,000000000e+00    0,000000000e+00    0,000000000e+00    0,000000000e+00
      954000000    2,238811105e-01   -1,208362132e-01    1,308345199e-01    3,014587462e-01    0,000000000e+00    0,000000000e+00    0,000000000e+00    0,000000000e+00
      968000000    1,175165698e-01   -2,965956330e-01    2,670257092e-01    2,141387165e-01    0,000000000e+00    0,000000000e+00    0,000000000e+00    0,000000000e+00
      982000000   -7,846543938e-02   -3,874073327e-01    3,611271083e-01    6,307704002e-02    0,000000000e+00    0,000000000e+00    0,000000000e+00    0,000000000e+00
      996000000   -3,082850575e-01   -3,330101073e-01    3,635858893e-01   -1,429629922e-01    0,000000000e+00    0,000000000e+00    0,000000000e+00    0,000000000e+00
     1010000000   -4,574316144e-01   -1,167665794e-01    2,190057486e-01   -3,361402452e-01    0,000000000e+00    0,000000000e+00    0,000000000e+00    0,000000000e+00
     1024000000   -4,152829349e-01    1,450797319e-01   -3,067900985e-02   -3,853391707e-01    0,000000000e+00    0,000000000e+00    0,000000000e+00    0,000000000e+00
     1038000000   -2,221663296e-01    2,867172956e-01   -2,430984080e-01   -2,550089657e-01    0,000000000e+00    0,000000000e+00    0,000000000e+00    0,000000000e+00
     1052000000   -1,051312126e-02    2,810409367e-01   -3,126917779e-01   -4,669002071e-02    0,000000000e+00    0,000000000e+00    0,000000000e+00    0,000000000e+00
     1066000000    1,318143904e-01    1,674507558e-01   -2,517066002e-01    1,386882812e-01    0,000000000e+00    0,000000000e+00    0,000000000e+00    0,000000000e+00
     1080000000    1,965613812e-01    6,381249055e-03   -1,166174114e-01    2,539681494e-01    0,000000000e+00    0,000000000e+00    0,000000000e+00    0,000000000e+00
     1094000000    1,619392186e-01   -1,609234065e-01    5,806798860e-02    2,918122709e-01    0,000000000e+00    0,000000000e+00    0,000000000e+00    0,000000000e+00
     1108000000    1,787917875e-02   -2,935967743e-01    2,613677979e-01    2,345424592e-01    0,000000000e+00    0,000000000e+00    0,000000000e+00    0,000000000e+00
     1122000000   -2,156042308e-01   -2,798117101e-01    4,376161098e-01    2,470682748e-02    0,000000000e+00    0,000000000e+00    0,000000000e+00    0,000000000e+00
     1136000000   -3,296716213e-01   -3,104105592e-02    4,034136236e-01   -3,470051587e-01    0,000000000e+00    0,000000000e+00    0,000000000e+00    0,000000000e+00
     1150000000   -1,094425321e-01    1,369652748e-01    4,790140316e-02   -5,305218101e-01    0,000000000e+00    0,000000000e+00    0,000000000e+00    0,000000000e+00
     1164000000    8,751711994e-02   -1,819669269e-02   -2,520665228e-01   -4,035113156e-01    0,000000000e+00    0,000000000e+00    0,000000000e+00    0,000000000e+00
     1178000000    2,625775523e-02   -2,528738379e-01   -3,725565374e-01   -1,791730821e-01    0,000000000e+00    0,000000000e+00    0,000000000e+00    0,000000000e+00
     1192000000   -2,204711288e-01   -3,470313847e-01   -3,386003971e-01    4,178220779e-02    0,000000000e+00    0,000000000e+00    0,000000000e+00    0,000000000e+00
     1206000000   -4,794673324e-01   -1,845858693e-01   -1,867377609e-01    1,843590736e-01    0,000000000e+00    0,000000000e+00    0,000000000e+00    0,000000000e+00
     1220000000   -5,069054365e-01    1,384068727e-01   -1,216908637e-02    1,773693562e-01    0,000000000e+00    0,000000000e+00    0,000000000e+00    0,000000000e+00
     1234000000   -2,970526218e-01    3,431237936e-01    7,223588973e-02    7,908204943e-02    0,000000000e+00    0,000000000e+00    0,000000000e+00    0,000000000e+00
     1248000000   -6,021202356e-02    3,625090420e-01    6,735927612e-02   -3,998970205e-04    0,000000000e+00    0,000000000e+00    0,000000000e+00    0,000000000e+00
     1262000000    1,088035479e-01    2,545520961e-01    3,154823557e-02   -2,453534491e-02    0,000000000e+00    0,000000000e+00    0,000000000e+00    0,000000000e+00
     1276000000    2,064565569e-01    1,075160727e-01    1,368223038e-02   -1,272167917e-02    0,000000000e+00    0,000000000e+00    0,000000000e+00    0,000000000e+00
     1290000000    2,219622284e-01   -6,118866801e-02    1,284010801e-02    2,448059618e-02    0,000000000e+00    0,000000000e+00    0,000000000e+00    0,000000000e+00
     1304000000    1,671659201e-01   -2,342521399e-01    6,622567773e-02    5,492236093e-02    0,000000000e+00    0,000000000e+00    0,000000000e+00    0,000000000e+00
     1318000000    2,914857678e-02   -3,605048656e-01    1,688631326e-01    1,659206487e-02    0,000000000e+00    0,000000000e+00    0,000000000e+00    0,000000000e+00
     1332000000   -1,517468691e-01   -3,976588547e-01    1,034956425e-01   -1,882824749e-01    0,000000000e+00    0,000000000e+00    0,000000000e+00    0,000000000e+00
     1346000000   -3,670387268e-01   -3,856116235e-01   -6,257911772e-02   -2,337283269e-02    0,000000000e+00    0,000000000e+00    0,000000000e+00    0,000000000e+00
     1360000000   -5,830031633e-01   -2,033065557e-01    7,389684021e-02    9,277306497e-02    0,000000000e+00    0,000000000e+00    0,000000000e+00    0,000000000e+00
     1374000000   -6,284076571e-01    1,036400273e-01    1,678781658e-01    3,955995664e-02    0,000000000e+00    0,000000000e+00    0,000000000e+00    0,000000000e+00
     1388000000   -4,769883454e-01    3,573573232e-01    2,136343718e-01   -1,786695793e-02    0,000000000e+00    0,000000000e+00    0,000000000e+00    0,000000000e+00
     1402000000   -2,415148169e-01    4,460533261e-01    2,125328034e-01   -7,840777189e-02    0,000000000e+00    0,000000000e+00    0,000000000e+00    0,000000000e+00
     1416000000   -3,573159501e-02    4,131327271e-01    1,951594204e-01   -9,736629575e-02    0,000000000e+00    0,000000000e+00    0,000000000e+00    0,000000000e+00
     1430000000    1,134180799e-01    3,053715229e-01    1,881453246e-01   -1,043618619e-01    0,000000000e+00    0,000000000e+00    0,000000000e+00    0,000000000e+00
     1444000000    2,010793239e-01    1,595156640e-01    1,664851457e-01   -1,018893123e-01    0,000000000e+00    0,000000000e+00    0,000000000e+00    0,000000000e+00
     1458000000    2,337594628e-01   -1,472276356e-02    1,558335871e-01   -9,169427305e-02    0,000000000e+00    0,000000000e+00    0,000000000e+00    0,000000000e+00
     1472000000    1,907907128e-01   -1,962030977e-01    1,410669833e-01   -5,420017242e-02    0,000000000e+00    0,000000000e+00    0,000000000e+00    0,000000000e+00
     1486000000    7,186940312e-02   -3,667092323e-01    1,779128760e-01    1,328032278e-02    0,000000000e+00    0,000000000e+00    0,000000000e+00    0,000000000e+00
     1500000000   -1,655731797e-01   -4,925067723e-01    2,213780880e-01    7,971580327e-02    0,000000000e+00    0,000000000e+00    0,000000000e+00    0,000000000e+00
