! NanoVNA-App
! Date: 2025-09-25 15:41:19
! Start: 100MHz Stop: 1,5GHz Points: 101
! S-Parameter data: F S11 S21 S12 S22
# Hz S RI R 50
!     Frequency           S11_Real           S11_Imag           S21_Real           S21_Imag           S12_Real           S12_Imag           S22_Real           S22_Imag
      100000000   -2,872732095e-02   -4,264376592e-03    3,739371896e-01   -7,215604186e-01    0,000000000e+00    0,000000000e+00    0,000000000e+00    0,000000000e+00
      114000000   -1,648855209e-02    1,148182247e-02   -8,892412484e-02   -8,052404523e-01    0,000000000e+00    0,000000000e+00    0,000000000e+00    0,000000000e+00
      128000000    3,449411364e-03    1,067296416e-02   -5,144943595e-01   -6,201749444e-01    0,000000000e+00    0,000000000e+00    0,000000000e+00    0,000000000e+00
      142000000    1,466279011e-02   -2,631742042e-03   -7,667769790e-01   -2,364571989e-01    0,000000000e+00    0,000000000e+00    0,000000000e+00    0,000000000e+00
      156000000    1,633443125e-02   -1,411356125e-02   -7,693924904e-01    2,242075801e-01    0,000000000e+00    0,000000000e+00    0,000000000e+00    0,000000000e+00
      170000000    1,710736006e-02   -2,253649756e-02   -5,177156925e-01    6,041927934e-01    0,000000000e+00    0,000000000e+00    0,000000000e+00    0,000000000e+00
      184000000    2,132462151e-02   -3,719113767e-02   -1,015505120e-01    7,857713103e-01    0,000000000e+00    0,000000000e+00    0,000000000e+00    0,000000000e+00
      198000000    1,320059597e-02   -6,257404387e-02    3,428429961e-01    7,118945122e-01    0,000000000e+00    0,000000000e+00    0,000000000e+00    0,000000000e+00
      212000000   -1,843615249e-02   -8,121868968e-02    6,777784824e-01    4,099511504e-01    0,000000000e+00    0,000000000e+00    0,000000000e+00    0,000000000e+00
      226000000   -6,132374331e-02   -6,923208386e-02    7,953007817e-01   -3,037553094e-02    0,000000000e+00    0,000000000e+00    0,000000000e+00    0,000000000e+00
      240000000   -8,216855675e-02   -2,584123984e-02    6,458284855e-01   -4,667966366e-01    0,000000000e+00    0,000000000e+00    0,000000000e+00    0,000000000e+00
      254000000   -6,337059289e-02    1,688997634e-02    2,759346366e-01   -7,429205775e-01    0,000000000e+00    0,000000000e+00    0,000000000e+00    0,000000000e+00
      268000000   -2,400278300e-02    2,872930467e-02   -1,777859032e-01   -7,640933394e-01    0,000000000e+00    0,000000000e+00    0,000000000e+00    0,000000000e+00
      282000000    4,017465748e-03    1,198854111e-02   -5,617987514e-01   -5,356237888e-01    0,000000000e+00    0,000000000e+00    0,000000000e+00    0,000000000e+00
      296000000    9,874862619e-03   -7,607402280e-03   -7,594911456e-01   -1,395438910e-01    0,000000000e+00    0,000000000e+00    0,000000000e+00    0,000000000e+00
      310000000    1,149555203e-02   -1,584742963e-02   -7,129921913e-01    2,984359264e-01    0,000000000e+00    0,000000000e+00    0,000000000e+00    0,000000000e+00
      324000000    2,009721287e-02   -2,673370019e-02   -4,270946383e-01    6,374816895e-01    0,000000000e+00    0,000000000e+00    0,000000000e+00    0,000000000e+00
      338000000    2,569032088e-02   -5,238329247e-02   -9,699700400e-03    7,590615153e-01    0,000000000e+00    0,000000000e+00    0,000000000e+00    0,000000000e+00
      352000000    7,305138279e-03   -8,472595364e-02    4,060745537e-01    6,404963136e-01    0,000000000e+00    0,000000000e+00    0,000000000e+00    0,000000000e+00
      366000000   -3,456523642e-02   -9,538125992e-02    6,898077130e-01    3,111396432e-01    0,000000000e+00    0,000000000e+00    0,000000000e+00    0,000000000e+00
      380000000   -7,045815140e-02   -7,119353861e-02    7,466078401e-01   -1,255891770e-01    0,000000000e+00    0,000000000e+00    0,000000000e+00    0,000000000e+00
      394000000   -7,230101526e-02   -3,256327286e-02    5,457105637e-01   -5,207201838e-01    0,000000000e+00    0,000000000e+00    0,000000000e+00    0,000000000e+00
      408000000   -4,622116685e-02   -1,639345288e-02    1,609399021e-01   -7,310481668e-01    0,000000000e+00    0,000000000e+00    0,000000000e+00    0,000000000e+00
      422000000   -2,849685773e-02   -3,201436996e-02   -2,675836384e-01   -6,942722797e-01    0,000000000e+00    0,000000000e+00    0,000000000e+00    0,000000000e+00
      436000000   -4,041105136e-02   -5,185025185e-02   -6,029487848e-01   -4,323552847e-01    0,000000000e+00    0,000000000e+00    0,000000000e+00    0,000000000e+00
      450000000   -6,726292521e-02   -4,351806268e-02   -7,398819923e-01   -2,169951238e-02    0,000000000e+00    0,000000000e+00    0,000000000e+00    0,000000000e+00
      464000000   -7,292870432e-02   -1,194785442e-02   -6,178691387e-01    3,968618512e-01    0,000000000e+00    0,000000000e+00    0,000000000e+00    0,000000000e+00
      478000000   -4,769609869e-02    1,092937589e-02   -2,831636667e-01    6,666599512e-01    0,000000000e+00    0,000000000e+00    0,000000000e+00    0,000000000e+00
      492000000   -1,574096829e-02    5,438161083e-03    1,379136890e-01    7,009292245e-01    0,000000000e+00    0,000000000e+00    0,000000000e+00    0,000000000e+00
      506000000   -2,833497012e-03   -1,567609236e-02    4,972726405e-01    5,028410554e-01    0,000000000e+00    0,000000000e+00    0,000000000e+00    0,000000000e+00
      520000000   -4,811611492e-03   -3,129607439e-02    6,863482594e-01    1,435217559e-01    0,000000000e+00    0,000000000e+00    0,000000000e+00    0,000000000e+00
      534000000   -3,415095620e-03   -3,784884512e-02    6,431956887e-01   -2,618337870e-01    0,000000000e+00    0,000000000e+00    0,000000000e+00    0,000000000e+00
      548000000    6,496730261e-03   -5,395965651e-02    3,814816475e-01   -5,662765503e-01    0,000000000e+00    0,000000000e+00    0,000000000e+00    0,000000000e+00
      562000000    3,057657974e-03   -8,952524513e-02    2,822014969e-03   -6,710663438e-01    0,000000000e+00    0,000000000e+00    0,000000000e+00    0,000000000e+00
      576000000   -3,405366838e-02   -1,247253865e-01   -3,675980270e-01   -5,569542646e-01    0,000000000e+00    0,000000000e+00    0,000000000e+00    0,000000000e+00
      590000000   -9,547836334e-02   -1,228533611e-01   -6,212029457e-01   -2,652982771e-01    0,000000000e+00    0,000000000e+00    0,000000000e+00    0,000000000e+00
      604000000   -1,389075965e-01   -7,206113636e-02   -6,638598442e-01    1,369889826e-01    0,000000000e+00    0,000000000e+00    0,000000000e+00    0,000000000e+00
      618000000   -1,290523112e-01   -1,035331562e-02   -4,640378952e-01    4,924208522e-01    0,000000000e+00    0,000000000e+00    0,000000000e+00    0,000000000e+00
      632000000   -8,396224678e-02    1,547155716e-02   -1,002404690e-01    6,629779935e-01    0,000000000e+00    0,000000000e+00    0,000000000e+00    0,000000000e+00
      646000000   -5,237099156e-02    2,736744646e-04    2,848670781e-01    5,937722921e-01    0,000000000e+00    0,000000000e+00    0,000000000e+00    0,000000000e+00
      660000000   -5,361831188e-02   -2,139925398e-02    5,647839904e-01    3,230725527e-01    0,000000000e+00    0,000000000e+00    0,000000000e+00    0,000000000e+00
      674000000   -7,023715228e-02   -1,626705565e-02    6,407000422e-01   -6,308139116e-02    0,000000000e+00    0,000000000e+00    0,000000000e+00    0,000000000e+00
      688000000   -6,759985536e-02    9,313357063e-03    4,710889757e-01   -4,241930544e-01    0,000000000e+00    0,000000000e+00    0,000000000e+00    0,000000000e+00
      702000000   -3,670344874e-02    2,509645559e-02    1,224662960e-01   -6,030117273e-01    0,000000000e+00    0,000000000e+00    0,000000000e+00    0,000000000e+00
      716000000    3,095686901e-03    1,565050706e-02   -2,594345808e-01   -5,447663069e-01    0,000000000e+00    0,000000000e+00    0,000000000e+00    0,000000000e+00
      730000000    3,628567606e-02   -1,334009971e-02   -5,220623016e-01   -2,714856565e-01    0,000000000e+00    0,000000000e+00    0,000000000e+00    0,000000000e+00
      744000000    6,169939041e-02   -6,490689516e-02   -5,604050159e-01    9,828096628e-02    0,000000000e+00    0,000000000e+00    0,000000000e+00    0,000000000e+00
      758000000    6,194844842e-02   -1,518383771e-01   -3,667241037e-01    3,999414146e-01    0,000000000e+00    0,000000000e+00    0,000000000e+00    0,000000000e+00
      772000000   -1,707113720e-02   -2,559148669e-01   -4,590028897e-02    5,087991357e-01    0,000000000e+00    0,000000000e+00    0,000000000e+00    0,000000000e+00
      786000000   -2,027707696e-01   -2,904494107e-01    2,595289052e-01    3,982798755e-01    0,000000000e+00    0,000000000e+00    0,000000000e+00    0,000000000e+00
      800000000   -4,079430997e-01   -1,262972951e-01    4,073590338e-01    1,184276938e-01    0,000000000e+00    0,000000000e+00    0,000000000e+00    0,000000000e+00
      814000000   -3,759177029e-01    2,013107538e-01    2,963459492e-01   -1,502959877e-01    0,000000000e+00    0,000000000e+00    0,000000000e+00    0,000000000e+00
      828000000   -6,195586920e-02    3,471673429e-01    8,194459230e-02   -1,905013919e-01    0,000000000e+00    0,000000000e+00    0,000000000e+00    0,000000000e+00
      842000000    2,118213326e-01    1,859779358e-01   -3,246688517e-03   -9,325596690e-02    0,000000000e+00    0,000000000e+00    0,000000000e+00    0,000000000e+00
      856000000    2,659955323e-01   -1,055390090e-01    3,634477407e-02   -3,650794923e-02    0,000000000e+00    0,000000000e+00    0,000000000e+00    0,000000000e+00
      870000000    8,232199401e-02   -3,510472775e-01    8,906364441e-02   -9,741303325e-02    0,000000000e+00    0,000000000e+00    0,000000000e+00    0,000000000e+00
      884000000   -2,678118348e-01   -3,544900715e-01    1,148785092e-02   -2,275857031e-01    0,000000000e+00    0,000000000e+00    0,000000000e+00    0,000000000e+00
      898000000   -4,567270875e-01   -1,334957313e-02   -2,152349353e-01   -2,097132057e-01    0,000000000e+00    0,000000000e+00    0,000000000e+00    0,000000000e+00
      912000000   -2,354788631e-01    2,782424092e-01   -3,378492594e-01    6,243320927e-02    0,000000000e+00    0,000000000e+00    0,000000000e+00    0,000000000e+00
      926000000    5,685444176e-02    2,614733577e-01   -2,079712600e-01    2,610492408e-01    0,000000000e+00    0,000000000e+00    0,000000000e+00    0,000000000e+00
      940000000    2,077850401e-01    8,551081270e-02   -3,186453879e-02    3,248020411e-01    0,000000000e+00    0,000000000e+00    0,000000000e+00    0,000000000e+00
      954000000    2,216583788e-01   -1,196966767e-01    1,312963814e-01    3,010326922e-01    0,000000000e+00    0,000000000e+00    0,000000000e+00    0,000000000e+00
      968000000    1,181983948e-01   -2,927427292e-01    2,686397433e-01    2,136198878e-01    0,000000000e+00    0,000000000e+00    0,000000000e+00    0,000000000e+00
      982000000   -7,999854535e-02   -3,855974078e-01    3,594227731e-01    6,187361106e-02    0,000000000e+00    0,000000000e+00    0,000000000e+00    0,000000000e+00
      996000000   -3,132487535e-01   -3,315220177e-01    3,612808287e-01   -1,433725059e-01    0,000000000e+00    0,000000000e+00    0,000000000e+00    0,000000000e+00
     1010000000   -4,588462710e-01   -1,131431535e-01    2,191905826e-01   -3,351228833e-01    0,000000000e+00    0,000000000e+00    0,000000000e+00    0,000000000e+00
     1024000000   -4,147239327e-01    1,412717402e-01   -3,124352917e-02   -3,865917921e-01    0,000000000e+00    0,000000000e+00    0,000000000e+00    0,000000000e+00
     1038000000   -2,260638773e-01    2,912692428e-01   -2,416075021e-01   -2,576795220e-01    0,000000000e+00    0,000000000e+00    0,000000000e+00    0,000000000e+00
     1052000000   -1,746716723e-02    2,801589370e-01   -3,098466992e-01   -4,774000123e-02    0,000000000e+00    0,000000000e+00    0,000000000e+00    0,000000000e+00
     1066000000    1,326208413e-01    1,712370515e-01   -2,525981069e-01    1,392896473e-01    0,000000000e+00    0,000000000e+00    0,000000000e+00    0,000000000e+00
     1080000000    1,963024139e-01    7,284692489e-03   -1,154505238e-01    2,571694255e-01    0,000000000e+00    0,000000000e+00    0,000000000e+00    0,000000000e+00
     1094000000    1,631382555e-01   -1,628547460e-01    6,178806722e-02    2,923382521e-01    0,000000000e+00    0,000000000e+00    0,000000000e+00    0,000000000e+00
     1108000000    1,941854134e-02   -2,942027748e-01    2,613736689e-01    2,348960489e-01    0,000000000e+00    0,000000000e+00    0,000000000e+00    0,000000000e+00
     1122000000   -2,128556818e-01   -2,785608768e-01    4,358632863e-01    2,305210195e-02    0,000000000e+00    0,000000000e+00    0,000000000e+00    0,000000000e+00
     1136000000   -3,274147213e-01   -2,762109786e-02    4,002195001e-01   -3,476136625e-01    0,000000000e+00    0,000000000e+00    0,000000000e+00    0,000000000e+00
     1150000000   -1,018832475e-01    1,371730119e-01    4,980545118e-02   -5,305136442e-01    0,000000000e+00    0,000000000e+00    0,000000000e+00    0,000000000e+00
     1164000000    8,307096362e-02   -1,988561824e-02   -2,538386285e-01   -4,032352269e-01    0,000000000e+00    0,000000000e+00    0,000000000e+00    0,000000000e+00
     1178000000    2,715691365e-02   -2,514135838e-01   -3,687138855e-01   -1,766615957e-01    0,000000000e+00    0,000000000e+00    0,000000000e+00    0,000000000e+00
     1192000000   -2,207465023e-01   -3,478407562e-01   -3,411379755e-01    3,862627596e-02    0,000000000e+00    0,000000000e+00    0,000000000e+00    0,000000000e+00
     1206000000   -4,825744629e-01   -1,813134700e-01   -1,933124214e-01    1,818775833e-01    0,000000000e+00    0,000000000e+00    0,000000000e+00    0,000000000e+00
     1220000000   -5,052487850e-01    1,352891326e-01   -1,156375650e-02    1,722137779e-01    0,000000000e+00    0,000000000e+00    0,000000000e+00    0,000000000e+00
     1234000000   -3,028296232e-01    3,393849730e-01    7,419354469e-02    7,765407860e-02    0,000000000e+00    0,000000000e+00    0,000000000e+00    0,000000000e+00
     1248000000   -6,631288677e-02    3,573470414e-01    6,445561349e-02    3,995820414e-03    0,000000000e+00    0,000000000e+00    0,000000000e+00    0,000000000e+00
     1262000000    1,145418808e-01    2,606228590e-01    3,366563469e-02   -2,140605263e-02    0,000000000e+00    0,000000000e+00    0,000000000e+00    0,000000000e+00
     1276000000    1,999542117e-01    1,040210128e-01    6,764481775e-03   -9,414521046e-03    0,000000000e+00    0,000000000e+00    0,000000000e+00    0,000000000e+00
     1290000000    2,211429030e-01   -5,931667238e-02    9,749216028e-03    2,746590599e-02    0,000000000e+00    0,000000000e+00    0,000000000e+00    0,000000000e+00
     1304000000    1,659379005e-01   -2,347093374e-01    6,426811218e-02    5,375600606e-02    0,000000000e+00    0,000000000e+00    0,000000000e+00    0,000000000e+00
     1318000000    2,594963275e-02   -3,632373810e-01    1,730957627e-01    1,394949574e-02    0,000000000e+00    0,000000000e+00    0,000000000e+00    0,000000000e+00
     1332000000   -1,490007639e-01   -3,950913548e-01    9,925210476e-02   -1,733158678e-01    0,000000000e+00    0,000000000e+00    0,000000000e+00    0,000000000e+00
     1346000000   -3,596398830e-01   -3,965272307e-01   -5,212989077e-02   -2,557614632e-02    0,000000000e+00    0,000000000e+00    0,000000000e+00    0,000000000e+00
     1360000000   -5,960133076e-01   -2,030122429e-01    5,655537173e-02    9,174413234e-02    0,000000000e+00    0,000000000e+00    0,000000000e+00    0,000000000e+00
     1374000000   -6,214696765e-01    1,082519516e-01    1,823003888e-01    4,389686882e-02    0,000000000e+00    0,000000000e+00    0,000000000e+00    0,000000000e+00
     1388000000   -4,792354107e-01    3,469929099e-01    2,242638916e-01   -3,142339364e-02    0,000000000e+00    0,000000000e+00    0,000000000e+00    0,000000000e+00
     1402000000   -2,421829104e-01    4,509001970e-01    2,049368769e-01   -6,718468666e-02    0,000000000e+00    0,000000000e+00    0,000000000e+00    0,000000000e+00
     1416000000   -4,092281684e-02    4,122275114e-01    1,824984401e-01   -9,985725582e-02    0,000000000e+00    0,000000000e+00    0,000000000e+00    0,000000000e+00
     1430000000    1,104672551e-01    3,039034903e-01    1,782702059e-01   -1,017712951e-01    0,000000000e+00    0,000000000e+00    0,000000000e+00    0,000000000e+00
     1444000000    2,013961226e-01    1,557835639e-01    1,679499149e-01   -1,151703596e-01    0,000000000e+00    0,000000000e+00    0,000000000e+00    0,000000000e+00
     1458000000    2,331449538e-01   -1,506858319e-02    1,508471817e-01   -8,890953660e-02    0,000000000e+00    0,000000000e+00    0,000000000e+00    0,000000000e+00
     1472000000    1,865450144e-01   -1,944447458e-01    1,354955286e-01   -4,616529122e-02    0,000000000e+00    0,000000000e+00    0,000000000e+00    0,000000000e+00
     1486000000    6,299217790e-02   -3,636447489e-01    1,637445539e-01    3,238386661e-02    0,000000000e+00    0,000000000e+00    0,000000000e+00    0,000000000e+00
     1500000000   -1,591079980e-01   -4,898737669e-01    2,288951874e-01    7,588478178e-02    0,000000000e+00    0,000000000e+00    0,000000000e+00    0,000000000e+00
