! NanoVNA-App
! Date: 2025-09-25 15:41:18
! Start: 100MHz Stop: 1,5GHz Points: 101
! S-Parameter data: F S11 S21 S12 S22
# Hz S RI R 50
!     Frequency           S11_Real           S11_Imag           S21_Real           S21_Imag           S12_Real           S12_Imag           S22_Real           S22_Imag
      100000000   -2,871967480e-02   -4,247241188e-03    3,739081919e-01   -7,215634584e-01    0,000000000e+00    0,000000000e+00    0,000000000e+00    0,000000000e+00
      114000000   -1,652771235e-02    1,148894802e-02   -8,904916793e-02   -8,051742911e-01    0,000000000e+00    0,000000000e+00    0,000000000e+00    0,000000000e+00
      128000000    3,370662685e-03    1,063051168e-02   -5,143561959e-01   -6,200411320e-01    0,000000000e+00    0,000000000e+00    0,000000000e+00    0,000000000e+00
      142000000    1,466565952e-02   -2,640415914e-03   -7,670277953e-01   -2,365267724e-01    0,000000000e+00    0,000000000e+00    0,000000000e+00    0,000000000e+00
      156000000    1,645063050e-02   -1,413445827e-02   -7,719694376e-01    2,245447934e-01    0,000000000e+00    0,000000000e+00    0,000000000e+00    0,000000000e+00
      170000000    1,715107821e-02   -2,245771512e-02   -5,179736614e-01    6,046521664e-01    0,000000000e+00    0,000000000e+00    0,000000000e+00    0,000000000e+00
      184000000    2,135994099e-02   -3,714835644e-02   -1,011658162e-01    7,857742906e-01    0,000000000e+00    0,000000000e+00    0,000000000e+00    0,000000000e+00
      198000000    1,323946193e-02   -6,251066923e-02    3,430570662e-01    7,122170329e-01    0,000000000e+00    0,000000000e+00    0,000000000e+00    0,000000000e+00
      212000000   -1,843698323e-02   -8,130116761e-02    6,778596640e-01    4,099725485e-01    0,000000000e+00    0,000000000e+00    0,000000000e+00    0,000000000e+00
      226000000   -6,129694730e-02   -6,925552338e-02    7,953018546e-01   -3,048869222e-02    0,000000000e+00    0,000000000e+00    0,000000000e+00    0,000000000e+00
      240000000   -8,222512156e-02   -2,583988383e-02    6,458914876e-01   -4,667524397e-01    0,000000000e+00    0,000000000e+00    0,000000000e+00    0,000000000e+00
      254000000   -6,337679923e-02    1,688575931e-02    2,761633098e-01   -7,429956198e-01    0,000000000e+00    0,000000000e+00    0,000000000e+00    0,000000000e+00
      268000000   -2,392558195e-02    2,869500592e-02   -1,777839810e-01   -7,642012835e-01    0,000000000e+00    0,000000000e+00    0,000000000e+00    0,000000000e+00
      282000000    4,064785782e-03    1,207931805e-02   -5,611333847e-01   -5,353372097e-01    0,000000000e+00    0,000000000e+00    0,000000000e+00    0,000000000e+00
      296000000    9,815396741e-03   -7,514618337e-03   -7,591913342e-01   -1,394651979e-01    0,000000000e+00    0,000000000e+00    0,000000000e+00    0,000000000e+00
      310000000    1,145817060e-02   -1,585185528e-02   -7,118932009e-01    2,971854210e-01    0,000000000e+00    0,000000000e+00    0,000000000e+00    0,000000000e+00
      324000000    2,001253143e-02   -2,681478485e-02   -4,277401268e-01    6,380200982e-01    0,000000000e+00    0,000000000e+00    0,000000000e+00    0,000000000e+00
      338000000    2,588866465e-02   -5,208473280e-02   -6,365807727e-03    7,609453797e-01    0,000000000e+00    0,000000000e+00    0,000000000e+00    0,000000000e+00
      352000000    7,585043553e-03   -8,487429470e-02    4,057739675e-01    6,388955712e-01    0,000000000e+00    0,000000000e+00    0,000000000e+00    0,000000000e+00
      366000000   -3,444348648e-02   -9,539947659e-02    6,898652315e-01    3,112127483e-01    0,000000000e+00    0,000000000e+00    0,000000000e+00    0,000000000e+00
      380000000   -7,034688443e-02   -7,098334283e-02    7,474606037e-01   -1,252532303e-01    0,000000000e+00    0,000000000e+00    0,000000000e+00    0,000000000e+00
      394000000   -7,210787386e-02   -3,280835599e-02    5,464163423e-01   -5,218887329e-01    0,000000000e+00    0,000000000e+00    0,000000000e+00    0,000000000e+00
      408000000   -4,637495801e-02   -1,633199118e-02    1,612071693e-01   -7,311559916e-01    0,000000000e+00    0,000000000e+00    0,000000000e+00    0,000000000e+00
      422000000   -2,853643522e-02   -3,227458894e-02   -2,670879364e-01   -6,938645840e-01    0,000000000e+00    0,000000000e+00    0,000000000e+00    0,000000000e+00
      436000000   -4,026509449e-02   -5,154211074e-02   -6,031097174e-01   -4,315303862e-01    0,000000000e+00    0,000000000e+00    0,000000000e+00    0,000000000e+00
      450000000   -6,720478088e-02   -4,377089068e-02   -7,396746278e-01   -2,157949843e-02    0,000000000e+00    0,000000000e+00    0,000000000e+00    0,000000000e+00
      464000000   -7,306257635e-02   -1,197687443e-02   -6,183028221e-01    3,962956965e-01    0,000000000e+00    0,000000000e+00    0,000000000e+00    0,000000000e+00
      478000000   -4,774714634e-02    1,152134687e-02   -2,824502289e-01    6,670501828e-01    0,000000000e+00    0,000000000e+00    0,000000000e+00    0,000000000e+00
      492000000   -1,563282683e-02    5,704299081e-03    1,368912458e-01    7,008247972e-01    0,000000000e+00    0,000000000e+00    0,000000000e+00    0,000000000e+00
      506000000   -2,131669316e-03   -1,553590130e-02    4,978008270e-01    5,024836063e-01    0,000000000e+00    0,000000000e+00    0,000000000e+00    0,000000000e+00
      520000000   -4,744150210e-03   -3,132830560e-02    6,866953373e-01    1,420364082e-01    0,000000000e+00    0,000000000e+00    0,000000000e+00    0,000000000e+00
      534000000   -3,511928255e-03   -3,792519122e-02    6,428186893e-01   -2,616586089e-01    0,000000000e+00    0,000000000e+00    0,000000000e+00    0,000000000e+00
      548000000    6,247662008e-03   -5,364505574e-02    3,812797964e-01   -5,663478374e-01    0,000000000e+00    0,000000000e+00    0,000000000e+00    0,000000000e+00
      562000000    3,217378166e-03   -8,922410011e-02    3,025547834e-03   -6,715744734e-01    0,000000000e+00    0,000000000e+00    0,000000000e+00    0,000000000e+00
      576000000   -3,422350436e-02   -1,245675683e-01   -3,672032356e-01   -5,572779775e-01    0,000000000e+00    0,000000000e+00    0,000000000e+00    0,000000000e+00
      590000000   -9,570989013e-02   -1,227900386e-01   -6,210042238e-01   -2,650564313e-01    0,000000000e+00    0,000000000e+00    0,000000000e+00    0,000000000e+00
      604000000   -1,388312876e-01   -7,193134725e-02   -6,638525724e-01    1,367323250e-01    0,000000000e+00    0,000000000e+00    0,000000000e+00    0,000000000e+00
      618000000   -1,293221861e-01   -9,547330439e-03   -4,645022750e-01    4,921549559e-01    0,000000000e+00    0,000000000e+00    0,000000000e+00    0,000000000e+00
      632000000   -8,509133756e-02    1,605835743e-02   -1,002065316e-01    6,625391245e-01    0,000000000e+00    0,000000000e+00    0,000000000e+00    0,000000000e+00
      646000000   -5,259339511e-02    6,085466011e-04    2,856089771e-01    5,939748287e-01    0,000000000e+00    0,000000000e+00    0,000000000e+00    0,000000000e+00
      660000000   -5,413617194e-02   -2,152237296e-02    5,645661950e-01    3,224405944e-01    0,000000000e+00    0,000000000e+00    0,000000000e+00    0,000000000e+00
      674000000   -6,969796866e-02   -1,723678596e-02    6,406795382e-01   -6,343117356e-02    0,000000000e+00    0,000000000e+00    0,000000000e+00    0,000000000e+00
      688000000   -6,671214849e-02    8,703093976e-03    4,709745944e-01   -4,241834283e-01    0,000000000e+00    0,000000000e+00    0,000000000e+00    0,000000000e+00
      702000000   -3,642116114e-02    2,555939183e-02    1,191792265e-01   -6,080646515e-01    0,000000000e+00    0,000000000e+00    0,000000000e+00    0,000000000e+00
      716000000    3,368618200e-03    1,695047691e-02   -2,594909668e-01   -5,454147458e-01    0,000000000e+00    0,000000000e+00    0,000000000e+00    0,000000000e+00
      730000000    3,737303242e-02   -1,358288527e-02   -5,221893191e-01   -2,713048756e-01    0,000000000e+00    0,000000000e+00    0,000000000e+00    0,000000000e+00
      744000000    6,264660507e-02   -6,583159417e-02   -5,605296493e-01    9,871672094e-02    0,000000000e+00    0,000000000e+00    0,000000000e+00    0,000000000e+00
      758000000    6,082812324e-02   -1,518030614e-01   -3,662218750e-01    3,999030888e-01    0,000000000e+00    0,000000000e+00    0,000000000e+00    0,000000000e+00
      772000000   -1,719030365e-02   -2,558810711e-01   -4,628637806e-02    5,086306930e-01    0,000000000e+00    0,000000000e+00    0,000000000e+00    0,000000000e+00
      786000000   -2,032364458e-01   -2,913215160e-01    2,599281073e-01    3,995155394e-01    0,000000000e+00    0,000000000e+00    0,000000000e+00    0,000000000e+00
      800000000   -4,079709053e-01   -1,258326620e-01    4,064457417e-01    1,183928624e-01    0,000000000e+00    0,000000000e+00    0,000000000e+00    0,000000000e+00
      814000000   -3,770493269e-01    2,023503631e-01    2,958593667e-01   -1,508001089e-01    0,000000000e+00    0,000000000e+00    0,000000000e+00    0,000000000e+00
      828000000   -6,287822127e-02    3,475005925e-01    8,221895993e-02   -1,908026785e-01    0,000000000e+00    0,000000000e+00    0,000000000e+00    0,000000000e+00
      842000000    2,119086236e-01    1,858061552e-01   -3,712529782e-03   -9,276297688e-02    0,000000000e+00    0,000000000e+00    0,000000000e+00    0,000000000e+00
      856000000    2,658856809e-01   -1,061064303e-01    3,671062365e-02   -3,695802763e-02    0,000000000e+00    0,000000000e+00    0,000000000e+00    0,000000000e+00
      870000000    8,236040175e-02   -3,518004417e-01    8,878930658e-02   -9,791456908e-02    0,000000000e+00    0,000000000e+00    0,000000000e+00    0,000000000e+00
      884000000   -2,671255469e-01   -3,565865159e-01    1,259465981e-02   -2,287433445e-01    0,000000000e+00    0,000000000e+00    0,000000000e+00    0,000000000e+00
      898000000   -4,581376314e-01   -1,377423014e-02   -2,158794105e-01   -2,097491026e-01    0,000000000e+00    0,000000000e+00    0,000000000e+00    0,000000000e+00
      912000000   -2,352425009e-01    2,792703807e-01   -3,426621258e-01    7,289813459e-02    0,000000000e+00    0,000000000e+00    0,000000000e+00    0,000000000e+00
      926000000    5,603619665e-02    2,622341216e-01   -2,097480595e-01    2,630138993e-01    0,000000000e+00    0,000000000e+00    0,000000000e+00    0,000000000e+00
      940000000    2,093439549e-01    8,308406919e-02   -3,121204488e-02    3,257237673e-01    0,000000000e+00    0,000000000e+00    0,000000000e+00    0,000000000e+00
      954000000    2,222729623e-01   -1,240075380e-01    1,318325698e-01    3,018794358e-01    0,000000000e+00    0,000000000e+00    0,000000000e+00    0,000000000e+00
      968000000    1,152818352e-01   -2,963898480e-01    2,695885003e-01    2,142860293e-01    0,000000000e+00    0,000000000e+00    0,000000000e+00    0,000000000e+00
      982000000   -7,799376547e-02   -3,870475590e-01    3,605065942e-01    6,260780245e-02    0,000000000e+00    0,000000000e+00    0,000000000e+00    0,000000000e+00
      996000000   -3,133097589e-01   -3,297454417e-01    3,627729118e-01   -1,439497918e-01    0,000000000e+00    0,000000000e+00    0,000000000e+00    0,000000000e+00
     1010000000   -4,572135806e-01   -1,154168919e-01    2,185071111e-01   -3,374287188e-01    0,000000000e+00    0,000000000e+00    0,000000000e+00    0,000000000e+00
     1024000000   -4,127803445e-01    1,458927989e-01   -3,095023520e-02   -3,876696527e-01    0,000000000e+00    0,000000000e+00    0,000000000e+00    0,000000000e+00
     1038000000   -2,240097076e-01    2,868450582e-01   -2,413135320e-01   -2,562559843e-01    0,000000000e+00    0,000000000e+00    0,000000000e+00    0,000000000e+00
     1052000000   -1,562720910e-02    2,824486792e-01   -3,101895750e-01   -4,826126620e-02    0,000000000e+00    0,000000000e+00    0,000000000e+00    0,000000000e+00
     1066000000    1,336606890e-01    1,694338024e-01   -2,514895499e-01    1,384777725e-01    0,000000000e+00    0,000000000e+00    0,000000000e+00    0,000000000e+00
     1080000000    1,923163682e-01    9,636781178e-03   -1,158912107e-01    2,530508935e-01    0,000000000e+00    0,000000000e+00    0,000000000e+00    0,000000000e+00
     1094000000    1,571226418e-01   -1,608891487e-01    6,142489985e-02    2,913475931e-01    0,000000000e+00    0,000000000e+00    0,000000000e+00    0,000000000e+00
     1108000000    1,602905057e-02   -2,962436080e-01    2,599776387e-01    2,349925637e-01    0,000000000e+00    0,000000000e+00    0,000000000e+00    0,000000000e+00
     1122000000   -2,146843374e-01   -2,769352198e-01    4,405339062e-01    2,359383926e-02    0,000000000e+00    0,000000000e+00    0,000000000e+00    0,000000000e+00
     1136000000   -3,235231340e-01   -3,269095346e-02    3,983487189e-01   -3,454678953e-01    0,000000000e+00    0,000000000e+00    0,000000000e+00    0,000000000e+00
     1150000000   -1,088484749e-01    1,378396600e-01    4,872951284e-02   -5,314639807e-01    0,000000000e+00    0,000000000e+00    0,000000000e+00    0,000000000e+00
     1164000000    8,593197167e-02   -1,567916013e-02   -2,517158389e-01   -4,038145840e-01    0,000000000e+00    0,000000000e+00    0,000000000e+00    0,000000000e+00
     1178000000    2,694510296e-02   -2,480703890e-01   -3,737692237e-01   -1,768497378e-01    0,000000000e+00    0,000000000e+00    0,000000000e+00    0,000000000e+00
     1192000000   -2,235092074e-01   -3,467233777e-01   -3,425596058e-01    4,272319376e-02    0,000000000e+00    0,000000000e+00    0,000000000e+00    0,000000000e+00
     1206000000   -4,796793759e-01   -1,803910881e-01   -1,909978986e-01    1,833140850e-01    0,000000000e+00    0,000000000e+00    0,000000000e+00    0,000000000e+00
     1220000000   -5,007466674e-01    1,351472884e-01   -7,369127590e-03    1,742292345e-01    0,000000000e+00    0,000000000e+00    0,000000000e+00    0,000000000e+00
     1234000000   -2,978539467e-01    3,383805752e-01    7,375276089e-02    7,873123139e-02    0,000000000e+00    0,000000000e+00    0,000000000e+00    0,000000000e+00
     1248000000   -5,786453933e-02    3,636805713e-01    6,671182811e-02    1,705464674e-03    0,000000000e+00    0,000000000e+00    0,000000000e+00    0,000000000e+00
     1262000000    1,080150828e-01    2,575308383e-01    2,952905372e-02   -2,493554913e-02    0,000000000e+00    0,000000000e+00    0,000000000e+00    0,000000000e+00
     1276000000    2,024603933e-01    1,026708335e-01    6,316763349e-03   -1,151137147e-02    0,000000000e+00    0,000000000e+00    0,000000000e+00    0,000000000e+00
     1290000000    2,182718068e-01   -6,280687451e-02    8,884203620e-03    2,800500207e-02    0,000000000e+00    0,000000000e+00    0,000000000e+00    0,000000000e+00
     1304000000    1,652350426e-01   -2,353185266e-01    5,682705343e-02    5,791812018e-02    0,000000000e+00    0,000000000e+00    0,000000000e+00    0,000000000e+00
     1318000000    2,549937554e-02   -3,674836755e-01    1,691178828e-01    1,166478172e-02    0,000000000e+00    0,000000000e+00    0,000000000e+00    0,000000000e+00
     1332000000   -1,488362402e-01   -3,937505782e-01    9,552241117e-02   -1,794319898e-01    0,000000000e+00    0,000000000e+00    0,000000000e+00    0,000000000e+00
     1346000000   -3,567192554e-01   -3,950394690e-01   -5,289842561e-02   -2,434473298e-02    0,000000000e+00    0,000000000e+00    0,000000000e+00    0,000000000e+00
     1360000000   -5,910231471e-01   -2,081977874e-01    5,573642999e-02    8,373980224e-02    0,000000000e+00    0,000000000e+00    0,000000000e+00    0,000000000e+00
     1374000000   -6,369704008e-01    1,145783663e-01    1,775818169e-01    6,355559081e-02    0,000000000e+00    0,000000000e+00    0,000000000e+00    0,000000000e+00
     1388000000   -4,834017456e-01    3,514422774e-01    2,069552541e-01   -1,888220012e-02    0,000000000e+00    0,000000000e+00    0,000000000e+00    0,000000000e+00
     1402000000   -2,440809906e-01    4,453835189e-01    2,088367939e-01   -6,576251984e-02    0,000000000e+00    0,000000000e+00    0,000000000e+00    0,000000000e+00
     1416000000   -4,017213732e-02    4,112049639e-01    1,857708693e-01   -1,068973616e-01    0,000000000e+00    0,000000000e+00    0,000000000e+00    0,000000000e+00
     1430000000    1,062399298e-01    3,090655506e-01    2,078621686e-01   -8,818724751e-02    0,000000000e+00    0,000000000e+00    0,000000000e+00    0,000000000e+00
     1444000000    1,989804059e-01    1,592066735e-01    1,696115136e-01   -1,112795174e-01    0,000000000e+00    0,000000000e+00    0,000000000e+00    0,000000000e+00
     1458000000    2,289000601e-01   -1,354195364e-02    1,441087127e-01   -8,988369256e-02    0,000000000e+00    0,000000000e+00    0,000000000e+00    0,000000000e+00
     1472000000    1,967408955e-01   -1,986442506e-01    1,443900317e-01   -4,593444243e-02    0,000000000e+00    0,000000000e+00    0,000000000e+00    0,000000000e+00
     1486000000    6,826967001e-02   -3,609305322e-01    1,646865457e-01    2,056737244e-02    0,000000000e+00    0,000000000e+00    0,000000000e+00    0,000000000e+00
     1500000000   -1,634433270e-01   -4,908800125e-01    2,361930609e-01    7,053254545e-02    0,000000000e+00    0,000000000e+00    0,000000000e+00    0,000000000e+00
