! NanoVNA-App
! Date: 2025-09-25 15:39:34
! Start: 100MHz Stop: 1,5GHz Points: 101
! S-Parameter data: F S11 S21 S12 S22
# Hz S RI R 50
!     Frequency           S11_Real           S11_Imag           S21_Real           S21_Imag           S12_Real           S12_Imag           S22_Real           S22_Imag
      100000000   -2,865569293e-02   -4,232215695e-03    3,738644719e-01   -7,214715481e-01    0,000000000e+00    0,000000000e+00    0,000000000e+00    0,000000000e+00
      114000000   -1,645515114e-02    1,146536693e-02   -8,923225105e-02   -8,051139116e-01    0,000000000e+00    0,000000000e+00    0,000000000e+00    0,000000000e+00
      128000000    3,512738738e-03    1,068621129e-02   -5,144729614e-01   -6,202216148e-01    0,000000000e+00    0,000000000e+00    0,000000000e+00    0,000000000e+00
      142000000    1,471503917e-02   -2,634813311e-03   -7,666755319e-01   -2,362492532e-01    0,000000000e+00    0,000000000e+00    0,000000000e+00    0,000000000e+00
      156000000    1,523958985e-02   -1,469076704e-02   -7,665458322e-01    2,185368687e-01    0,000000000e+00    0,000000000e+00    0,000000000e+00    0,000000000e+00
      170000000    1,718192734e-02   -2,254591696e-02   -5,179398060e-01    6,046240926e-01    0,000000000e+00    0,000000000e+00    0,000000000e+00    0,000000000e+00
      184000000    2,143278718e-02   -3,722259775e-02   -1,013026088e-01    7,858737111e-01    0,000000000e+00    0,000000000e+00    0,000000000e+00    0,000000000e+00
      198000000    1,331336703e-02   -6,258966774e-02    3,432473838e-01    7,122650743e-01    0,000000000e+00    0,000000000e+00    0,000000000e+00    0,000000000e+00
      212000000   -1,834332570e-02   -8,127187192e-02    6,775936484e-01    4,097490609e-01    0,000000000e+00    0,000000000e+00    0,000000000e+00    0,000000000e+00
      226000000   -6,131536886e-02   -6,920238584e-02    7,953773141e-01   -3,056786209e-02    0,000000000e+00    0,000000000e+00    0,000000000e+00    0,000000000e+00
      240000000   -8,211186528e-02   -2,587993443e-02    6,458640695e-01   -4,667102098e-01    0,000000000e+00    0,000000000e+00    0,000000000e+00    0,000000000e+00
      254000000   -6,325473636e-02    1,683186926e-02    2,762115300e-01   -7,430596948e-01    0,000000000e+00    0,000000000e+00    0,000000000e+00    0,000000000e+00
      268000000   -2,382174507e-02    2,869064361e-02   -1,775739491e-01   -7,636364102e-01    0,000000000e+00    0,000000000e+00    0,000000000e+00    0,000000000e+00
      282000000    4,019459244e-03    1,200893708e-02   -5,616958141e-01   -5,356203318e-01    0,000000000e+00    0,000000000e+00    0,000000000e+00    0,000000000e+00
      296000000    9,959591553e-03   -7,538335398e-03   -7,594502568e-01   -1,394420713e-01    0,000000000e+00    0,000000000e+00    0,000000000e+00    0,000000000e+00
      310000000    1,161392592e-02   -1,597339846e-02   -7,120175958e-01    2,972420156e-01    0,000000000e+00    0,000000000e+00    0,000000000e+00    0,000000000e+00
      324000000    2,016250603e-02   -2,671596222e-02   -4,277831614e-01    6,367605925e-01    0,000000000e+00    0,000000000e+00    0,000000000e+00    0,000000000e+00
      338000000    2,584911138e-02   -5,231612921e-02   -6,190856919e-03    7,615531683e-01    0,000000000e+00    0,000000000e+00    0,000000000e+00    0,000000000e+00
      352000000    7,515180390e-03   -8,491714299e-02    4,059557021e-01    6,393547654e-01    0,000000000e+00    0,000000000e+00    0,000000000e+00    0,000000000e+00
      366000000   -3,444191441e-02   -9,536987543e-02    6,901946068e-01    3,110968471e-01    0,000000000e+00    0,000000000e+00    0,000000000e+00    0,000000000e+00
      380000000   -7,020433992e-02   -7,117206603e-02    7,467063665e-01   -1,255975962e-01    0,000000000e+00    0,000000000e+00    0,000000000e+00    0,000000000e+00
      394000000   -7,219241560e-02   -3,252636641e-02    5,470083356e-01   -5,214651227e-01    0,000000000e+00    0,000000000e+00    0,000000000e+00    0,000000000e+00
      408000000   -4,626445845e-02   -1,672714762e-02    1,604288220e-01   -7,314139009e-01    0,000000000e+00    0,000000000e+00    0,000000000e+00    0,000000000e+00
      422000000   -2,823781595e-02   -3,247908503e-02   -2,680736780e-01   -6,951560974e-01    0,000000000e+00    0,000000000e+00    0,000000000e+00    0,000000000e+00
      436000000   -4,050761089e-02   -5,164325982e-02   -6,027704477e-01   -4,317636490e-01    0,000000000e+00    0,000000000e+00    0,000000000e+00    0,000000000e+00
      450000000   -6,726882607e-02   -4,400524870e-02   -7,399316430e-01   -2,178522199e-02    0,000000000e+00    0,000000000e+00    0,000000000e+00    0,000000000e+00
      464000000   -7,292769104e-02   -1,225216035e-02   -6,176797152e-01    3,967529833e-01    0,000000000e+00    0,000000000e+00    0,000000000e+00    0,000000000e+00
      478000000   -4,762895778e-02    1,143404376e-02   -2,830171585e-01    6,673687100e-01    0,000000000e+00    0,000000000e+00    0,000000000e+00    0,000000000e+00
      492000000   -1,552081108e-02    5,737931002e-03    1,374965310e-01    7,000268698e-01    0,000000000e+00    0,000000000e+00    0,000000000e+00    0,000000000e+00
      506000000   -2,852836857e-03   -1,615501754e-02    4,978701472e-01    5,022404790e-01    0,000000000e+00    0,000000000e+00    0,000000000e+00    0,000000000e+00
      520000000   -5,176816136e-03   -3,187708184e-02    6,888945103e-01    1,421846747e-01    0,000000000e+00    0,000000000e+00    0,000000000e+00    0,000000000e+00
      534000000   -3,390933154e-03   -3,834710643e-02    6,430692077e-01   -2,618471086e-01    0,000000000e+00    0,000000000e+00    0,000000000e+00    0,000000000e+00
      548000000    6,927472539e-03   -5,385376140e-02    3,808070719e-01   -5,661656260e-01    0,000000000e+00    0,000000000e+00    0,000000000e+00    0,000000000e+00
      562000000    3,451653523e-03   -8,950173855e-02    2,388601424e-03   -6,718084216e-01    0,000000000e+00    0,000000000e+00    0,000000000e+00    0,000000000e+00
      576000000   -3,383949026e-02   -1,240037307e-01   -3,673733473e-01   -5,571686625e-01    0,000000000e+00    0,000000000e+00    0,000000000e+00    0,000000000e+00
      590000000   -9,571548551e-02   -1,229503751e-01   -6,189388633e-01   -2,653709352e-01    0,000000000e+00    0,000000000e+00    0,000000000e+00    0,000000000e+00
      604000000   -1,387117356e-01   -7,249297947e-02   -6,637095213e-01    1,364888549e-01    0,000000000e+00    0,000000000e+00    0,000000000e+00    0,000000000e+00
      618000000   -1,294346601e-01   -1,025138330e-02   -4,643767476e-01    4,927600324e-01    0,000000000e+00    0,000000000e+00    0,000000000e+00    0,000000000e+00
      632000000   -8,407618850e-02    1,619034261e-02   -1,004467756e-01    6,636092067e-01    0,000000000e+00    0,000000000e+00    0,000000000e+00    0,000000000e+00
      646000000   -5,214654654e-02    8,971510688e-04    2,860668600e-01    5,940151811e-01    0,000000000e+00    0,000000000e+00    0,000000000e+00    0,000000000e+00
      660000000   -5,413721129e-02   -2,123173885e-02    5,633597970e-01    3,228201568e-01    0,000000000e+00    0,000000000e+00    0,000000000e+00    0,000000000e+00
      674000000   -6,952174008e-02   -1,610452309e-02    6,407333612e-01   -6,306970865e-02    0,000000000e+00    0,000000000e+00    0,000000000e+00    0,000000000e+00
      688000000   -6,728099287e-02    8,515692316e-03    4,704491198e-01   -4,237346351e-01    0,000000000e+00    0,000000000e+00    0,000000000e+00    0,000000000e+00
      702000000   -3,581117839e-02    2,571407706e-02    1,208477840e-01   -6,088454127e-01    0,000000000e+00    0,000000000e+00    0,000000000e+00    0,000000000e+00
      716000000    4,287625663e-03    1,640028320e-02   -2,588878274e-01   -5,441938639e-01    0,000000000e+00    0,000000000e+00    0,000000000e+00    0,000000000e+00
      730000000    3,704508394e-02   -1,323131006e-02   -5,214186311e-01   -2,708855867e-01    0,000000000e+00    0,000000000e+00    0,000000000e+00    0,000000000e+00
      744000000    6,273046136e-02   -6,455910206e-02   -5,596861243e-01    9,858179092e-02    0,000000000e+00    0,000000000e+00    0,000000000e+00    0,000000000e+00
      758000000    6,170543656e-02   -1,521300226e-01   -3,660739660e-01    4,000611603e-01    0,000000000e+00    0,000000000e+00    0,000000000e+00    0,000000000e+00
      772000000   -1,767449267e-02   -2,563942075e-01   -4,608539492e-02    5,082594752e-01    0,000000000e+00    0,000000000e+00    0,000000000e+00    0,000000000e+00
      786000000   -2,023523599e-01   -2,911944091e-01    2,592254877e-01    3,975883424e-01    0,000000000e+00    0,000000000e+00    0,000000000e+00    0,000000000e+00
      800000000   -4,080733061e-01   -1,272030473e-01    4,070993960e-01    1,182664186e-01    0,000000000e+00    0,000000000e+00    0,000000000e+00    0,000000000e+00
      814000000   -3,761723340e-01    2,014638484e-01    2,961046398e-01   -1,506430954e-01    0,000000000e+00    0,000000000e+00    0,000000000e+00    0,000000000e+00
      828000000   -6,238004565e-02    3,474383056e-01    8,193777502e-02   -1,893931180e-01    0,000000000e+00    0,000000000e+00    0,000000000e+00    0,000000000e+00
      842000000    2,122425139e-01    1,850329787e-01   -2,953753574e-03   -9,222480655e-02    0,000000000e+00    0,000000000e+00    0,000000000e+00    0,000000000e+00
      856000000    2,658731341e-01   -1,062546447e-01    3,640997410e-02   -3,690283000e-02    0,000000000e+00    0,000000000e+00    0,000000000e+00    0,000000000e+00
      870000000    8,238705993e-02   -3,520232141e-01    8,894727379e-02   -9,812586755e-02    0,000000000e+00    0,000000000e+00    0,000000000e+00    0,000000000e+00
      884000000   -2,678256333e-01   -3,555757403e-01    1,135731768e-02   -2,286812216e-01    0,000000000e+00    0,000000000e+00    0,000000000e+00    0,000000000e+00
      898000000   -4,566602707e-01   -1,289677992e-02   -2,157012522e-01   -2,094961405e-01    0,000000000e+00    0,000000000e+00    0,000000000e+00    0,000000000e+00
      912000000   -2,344315499e-01    2,792293131e-01   -3,418785632e-01    7,701452076e-02    0,000000000e+00    0,000000000e+00    0,000000000e+00    0,000000000e+00
      926000000    5,510362610e-02    2,602442205e-01   -2,105189264e-01    2,617495358e-01    0,000000000e+00    0,000000000e+00    0,000000000e+00    0,000000000e+00
      940000000    2,084146440e-01    8,490289748e-02   -3,283470869e-02    3,260853589e-01    0,000000000e+00    0,000000000e+00    0,000000000e+00    0,000000000e+00
      954000000    2,190024853e-01   -1,222168654e-01    1,302556098e-01    2,995866835e-01    0,000000000e+00    0,000000000e+00    0,000000000e+00    0,000000000e+00
      968000000    1,162062287e-01   -2,926920354e-01    2,694407403e-01    2,137858868e-01    0,000000000e+00    0,000000000e+00    0,000000000e+00    0,000000000e+00
      982000000   -7,615318149e-02   -3,854557872e-01    3,600219488e-01    6,317146122e-02    0,000000000e+00    0,000000000e+00    0,000000000e+00    0,000000000e+00
      996000000   -3,122571111e-01   -3,330085576e-01    3,628472686e-01   -1,437914371e-01    0,000000000e+00    0,000000000e+00    0,000000000e+00    0,000000000e+00
     1010000000   -4,582403302e-01   -1,181615964e-01    2,174158543e-01   -3,349899650e-01    0,000000000e+00    0,000000000e+00    0,000000000e+00    0,000000000e+00
     1024000000   -4,189063907e-01    1,445773095e-01   -3,282581270e-02   -3,866338730e-01    0,000000000e+00    0,000000000e+00    0,000000000e+00    0,000000000e+00
     1038000000   -2,252874225e-01    2,873020172e-01   -2,409209460e-01   -2,572415173e-01    0,000000000e+00    0,000000000e+00    0,000000000e+00    0,000000000e+00
     1052000000   -1,444338541e-02    2,782258391e-01   -3,090452552e-01   -4,510470107e-02    0,000000000e+00    0,000000000e+00    0,000000000e+00    0,000000000e+00
     1066000000    1,310261637e-01    1,713192612e-01   -2,526758909e-01    1,380020678e-01    0,000000000e+00    0,000000000e+00    0,000000000e+00    0,000000000e+00
     1080000000    1,950646788e-01    6,015015300e-03   -1,161977202e-01    2,546576560e-01    0,000000000e+00    0,000000000e+00    0,000000000e+00    0,000000000e+00
     1094000000    1,615483165e-01   -1,608572006e-01    5,993477255e-02    2,910414636e-01    0,000000000e+00    0,000000000e+00    0,000000000e+00    0,000000000e+00
     1108000000    1,872755401e-02   -2,992760539e-01    2,575044036e-01    2,328808904e-01    0,000000000e+00    0,000000000e+00    0,000000000e+00    0,000000000e+00
     1122000000   -2,168875486e-01   -2,801839411e-01    4,433589876e-01    2,523396350e-02    0,000000000e+00    0,000000000e+00    0,000000000e+00    0,000000000e+00
     1136000000   -3,223632574e-01   -2,664863691e-02    4,001100957e-01   -3,446767628e-01    0,000000000e+00    0,000000000e+00    0,000000000e+00    0,000000000e+00
     1150000000   -1,057681516e-01    1,349148154e-01    4,721429572e-02   -5,324547291e-01    0,000000000e+00    0,000000000e+00    0,000000000e+00    0,000000000e+00
     1164000000    8,566129953e-02   -2,054310776e-02   -2,534349859e-01   -4,025663137e-01    0,000000000e+00    0,000000000e+00    0,000000000e+00    0,000000000e+00
     1178000000    2,516536787e-02   -2,517680526e-01   -3,720445335e-01   -1,765929013e-01    0,000000000e+00    0,000000000e+00    0,000000000e+00    0,000000000e+00
     1192000000   -2,238602191e-01   -3,471248746e-01   -3,407653570e-01    4,225070402e-02    0,000000000e+00    0,000000000e+00    0,000000000e+00    0,000000000e+00
     1206000000   -4,797558486e-01   -1,796391159e-01   -1,892266423e-01    1,878239810e-01    0,000000000e+00    0,000000000e+00    0,000000000e+00    0,000000000e+00
     1220000000   -5,011548400e-01    1,343812197e-01   -1,320808847e-02    1,721196771e-01    0,000000000e+00    0,000000000e+00    0,000000000e+00    0,000000000e+00
     1234000000   -2,955130935e-01    3,374957740e-01    7,193782926e-02    7,606433332e-02    0,000000000e+00    0,000000000e+00    0,000000000e+00    0,000000000e+00
     1248000000   -6,529892981e-02    3,587239385e-01    6,550817937e-02    2,043545479e-03    0,000000000e+00    0,000000000e+00    0,000000000e+00    0,000000000e+00
     1262000000    1,070066690e-01    2,553472817e-01    2,943912707e-02   -2,594206855e-02    0,000000000e+00    0,000000000e+00    0,000000000e+00    0,000000000e+00
     1276000000    2,025896609e-01    1,117845699e-01    4,781460855e-03   -3,824211657e-03    0,000000000e+00    0,000000000e+00    0,000000000e+00    0,000000000e+00
     1290000000    2,238899916e-01   -6,585168839e-02    1,315259933e-02    2,408334427e-02    0,000000000e+00    0,000000000e+00    0,000000000e+00    0,000000000e+00
     1304000000    1,648637056e-01   -2,338647842e-01    6,095914170e-02    5,909822881e-02    0,000000000e+00    0,000000000e+00    0,000000000e+00    0,000000000e+00
     1318000000    2,777246200e-02   -3,666591942e-01    1,707175672e-01    1,399378944e-02    0,000000000e+00    0,000000000e+00    0,000000000e+00    0,000000000e+00
     1332000000   -1,548433006e-01   -3,965718150e-01    9,289431572e-02   -1,814823747e-01    0,000000000e+00    0,000000000e+00    0,000000000e+00    0,000000000e+00
     1346000000   -3,627113700e-01   -3,943347633e-01   -5,781039968e-02   -3,017098084e-02    0,000000000e+00    0,000000000e+00    0,000000000e+00    0,000000000e+00
     1360000000   -5,821748376e-01   -1,983942986e-01    6,641200930e-02    9,312871099e-02    0,000000000e+00    0,000000000e+00    0,000000000e+00    0,000000000e+00
     1374000000   -6,270733476e-01    9,929230064e-02    1,762069762e-01    5,031739548e-02    0,000000000e+00    0,000000000e+00    0,000000000e+00    0,000000000e+00
     1388000000   -4,811820090e-01    3,580036163e-01    2,105198205e-01   -2,876325324e-02    0,000000000e+00    0,000000000e+00    0,000000000e+00    0,000000000e+00
     1402000000   -2,464507073e-01    4,413656592e-01    2,078752220e-01   -7,914295048e-02    0,000000000e+00    0,000000000e+00    0,000000000e+00    0,000000000e+00
     1416000000   -3,648958728e-02    4,088114202e-01    1,966678947e-01   -1,085962206e-01    0,000000000e+00    0,000000000e+00    0,000000000e+00    0,000000000e+00
     1430000000    1,011326611e-01    3,064488769e-01    1,579464674e-01   -1,082034633e-01    0,000000000e+00    0,000000000e+00    0,000000000e+00    0,000000000e+00
     1444000000    2,052836418e-01    1,513264626e-01    1,547245681e-01   -1,194555834e-01    0,000000000e+00    0,000000000e+00    0,000000000e+00    0,000000000e+00
     1458000000    2,351392508e-01   -1,563888229e-02    1,516136080e-01   -9,765782207e-02    0,000000000e+00    0,000000000e+00    0,000000000e+00    0,000000000e+00
     1472000000    1,863206923e-01   -1,994649470e-01    1,336266547e-01   -5,248495191e-02    0,000000000e+00    0,000000000e+00    0,000000000e+00    0,000000000e+00
     1486000000    7,580242306e-02   -3,690271974e-01    1,711761057e-01    8,916349150e-03    0,000000000e+00    0,000000000e+00    0,000000000e+00    0,000000000e+00
     1500000000   -1,633930653e-01   -4,975821972e-01    2,304263860e-01    7,695580274e-02    0,000000000e+00    0,000000000e+00    0,000000000e+00    0,000000000e+00
