! NanoVNA-App
! Date: 2025-09-25 15:40:48
! Start: 100MHz Stop: 1,5GHz Points: 101
! S-Parameter data: F S11 S21 S12 S22
# Hz S RI R 50
!     Frequency           S11_Real           S11_Imag           S21_Real           S21_Imag           S12_Real           S12_Imag           S22_Real           S22_Imag
      100000000   -2,870001271e-02   -4,237273242e-03    3,738713861e-01   -7,215515971e-01    0,000000000e+00    0,000000000e+00    0,000000000e+00    0,000000000e+00
      114000000   -1,649182290e-02    1,149820909e-02   -8,921685070e-02   -8,052170873e-01    0,000000000e+00    0,000000000e+00    0,000000000e+00    0,000000000e+00
      128000000    3,437747015e-03    1,075284649e-02   -5,146248937e-01   -6,203073859e-01    0,000000000e+00    0,000000000e+00    0,000000000e+00    0,000000000e+00
      142000000    1,466057543e-02   -2,632472897e-03   -7,669115663e-01   -2,363126129e-01    0,000000000e+00    0,000000000e+00    0,000000000e+00    0,000000000e+00
      156000000    1,638082974e-02   -1,408136077e-02   -7,698754668e-01    2,242884189e-01    0,000000000e+00    0,000000000e+00    0,000000000e+00    0,000000000e+00
      170000000    1,719054766e-02   -2,247938514e-02   -5,178033113e-01    6,044232845e-01    0,000000000e+00    0,000000000e+00    0,000000000e+00    0,000000000e+00
      184000000    2,140576392e-02   -3,717605770e-02   -1,011484563e-01    7,856272459e-01    0,000000000e+00    0,000000000e+00    0,000000000e+00    0,000000000e+00
      198000000    1,321655605e-02   -6,252164394e-02    3,430435956e-01    7,122594118e-01    0,000000000e+00    0,000000000e+00    0,000000000e+00    0,000000000e+00
      212000000   -1,844377257e-02   -8,129221946e-02    6,779515743e-01    4,097756445e-01    0,000000000e+00    0,000000000e+00    0,000000000e+00    0,000000000e+00
      226000000   -6,133328378e-02   -6,925567985e-02    7,953449488e-01   -3,048942052e-02    0,000000000e+00    0,000000000e+00    0,000000000e+00    0,000000000e+00
      240000000   -8,214806765e-02   -2,578707971e-02    6,457316875e-01   -4,667740166e-01    0,000000000e+00    0,000000000e+00    0,000000000e+00    0,000000000e+00
      254000000   -6,336631626e-02    1,690291800e-02    2,760658860e-01   -7,429172397e-01    0,000000000e+00    0,000000000e+00    0,000000000e+00    0,000000000e+00
      268000000   -2,388575673e-02    2,867609076e-02   -1,782060862e-01   -7,640937567e-01    0,000000000e+00    0,000000000e+00    0,000000000e+00    0,000000000e+00
      282000000    4,149271175e-03    1,208731718e-02   -5,614727736e-01   -5,356472731e-01    0,000000000e+00    0,000000000e+00    0,000000000e+00    0,000000000e+00
      296000000    9,994170628e-03   -7,543026935e-03   -7,594401836e-01   -1,395477355e-01    0,000000000e+00    0,000000000e+00    0,000000000e+00    0,000000000e+00
      310000000    1,164456550e-02   -1,610981673e-02   -7,117004991e-01    2,992318273e-01    0,000000000e+00    0,000000000e+00    0,000000000e+00    0,000000000e+00
      324000000    1,999363303e-02   -2,651181631e-02   -4,273537099e-01    6,371114254e-01    0,000000000e+00    0,000000000e+00    0,000000000e+00    0,000000000e+00
      338000000    2,578950860e-02   -5,229050666e-02   -6,462048274e-03    7,614897490e-01    0,000000000e+00    0,000000000e+00    0,000000000e+00    0,000000000e+00
      352000000    7,674918044e-03   -8,470808715e-02    4,064855874e-01    6,398914456e-01    0,000000000e+00    0,000000000e+00    0,000000000e+00    0,000000000e+00
      366000000   -3,447360918e-02   -9,545007348e-02    6,899979711e-01    3,118049204e-01    0,000000000e+00    0,000000000e+00    0,000000000e+00    0,000000000e+00
      380000000   -7,049848139e-02   -7,104788721e-02    7,472457886e-01   -1,254592240e-01    0,000000000e+00    0,000000000e+00    0,000000000e+00    0,000000000e+00
      394000000   -7,220168412e-02   -3,271678463e-02    5,455825925e-01   -5,219119191e-01    0,000000000e+00    0,000000000e+00    0,000000000e+00    0,000000000e+00
      408000000   -4,627021402e-02   -1,648600399e-02    1,607131958e-01   -7,323983312e-01    0,000000000e+00    0,000000000e+00    0,000000000e+00    0,000000000e+00
      422000000   -2,836302668e-02   -3,195051104e-02   -2,667331398e-01   -6,945545077e-01    0,000000000e+00    0,000000000e+00    0,000000000e+00    0,000000000e+00
      436000000   -4,052025452e-02   -5,182330310e-02   -6,034865975e-01   -4,311381876e-01    0,000000000e+00    0,000000000e+00    0,000000000e+00    0,000000000e+00
      450000000   -6,683234125e-02   -4,398085177e-02   -7,397930026e-01   -2,179177292e-02    0,000000000e+00    0,000000000e+00    0,000000000e+00    0,000000000e+00
      464000000   -7,320353389e-02   -1,179495268e-02   -6,183748245e-01    3,970551491e-01    0,000000000e+00    0,000000000e+00    0,000000000e+00    0,000000000e+00
      478000000   -4,776218534e-02    1,134979911e-02   -2,832044959e-01    6,668527722e-01    0,000000000e+00    0,000000000e+00    0,000000000e+00    0,000000000e+00
      492000000   -1,608630456e-02    5,808874499e-03    1,370173395e-01    7,011627555e-01    0,000000000e+00    0,000000000e+00    0,000000000e+00    0,000000000e+00
      506000000   -2,567522228e-03   -1,625614986e-02    4,974299371e-01    5,024190545e-01    0,000000000e+00    0,000000000e+00    0,000000000e+00    0,000000000e+00
      520000000   -5,278728902e-03   -3,119119257e-02    6,882191896e-01    1,412549764e-01    0,000000000e+00    0,000000000e+00    0,000000000e+00    0,000000000e+00
      534000000   -3,946290351e-03   -3,820406646e-02    6,428861618e-01   -2,620933056e-01    0,000000000e+00    0,000000000e+00    0,000000000e+00    0,000000000e+00
      548000000    6,190882996e-03   -5,416392908e-02    3,810621798e-01   -5,661468506e-01    0,000000000e+00    0,000000000e+00    0,000000000e+00    0,000000000e+00
      562000000    3,237095894e-03   -8,963304013e-02    3,484915942e-03   -6,707254052e-01    0,000000000e+00    0,000000000e+00    0,000000000e+00    0,000000000e+00
      576000000   -3,365448862e-02   -1,244471669e-01   -3,682209849e-01   -5,572134256e-01    0,000000000e+00    0,000000000e+00    0,000000000e+00    0,000000000e+00
      590000000   -9,592539817e-02   -1,225690767e-01   -6,207359433e-01   -2,653371990e-01    0,000000000e+00    0,000000000e+00    0,000000000e+00    0,000000000e+00
      604000000   -1,389412433e-01   -7,234748453e-02   -6,643065214e-01    1,369534135e-01    0,000000000e+00    0,000000000e+00    0,000000000e+00    0,000000000e+00
      618000000   -1,288956702e-01   -1,032522880e-02   -4,644898772e-01    4,927626550e-01    0,000000000e+00    0,000000000e+00    0,000000000e+00    0,000000000e+00
      632000000   -8,480385691e-02    1,535093971e-02   -9,954135120e-02    6,625220776e-01    0,000000000e+00    0,000000000e+00    0,000000000e+00    0,000000000e+00
      646000000   -5,194309726e-02    3,000168908e-05    2,854557335e-01    5,939252377e-01    0,000000000e+00    0,000000000e+00    0,000000000e+00    0,000000000e+00
      660000000   -5,323893949e-02   -2,087840252e-02    5,644368529e-01    3,233835101e-01    0,000000000e+00    0,000000000e+00    0,000000000e+00    0,000000000e+00
      674000000   -7,044951618e-02   -1,662755385e-02    6,408199072e-01   -6,299187988e-02    0,000000000e+00    0,000000000e+00    0,000000000e+00    0,000000000e+00
      688000000   -6,762427837e-02    8,814878762e-03    4,706853330e-01   -4,233587086e-01    0,000000000e+00    0,000000000e+00    0,000000000e+00    0,000000000e+00
      702000000   -3,590719029e-02    2,476913668e-02    1,214951575e-01   -6,040002108e-01    0,000000000e+00    0,000000000e+00    0,000000000e+00    0,000000000e+00
      716000000    4,206764046e-03    1,569040120e-02   -2,589617074e-01   -5,448920727e-01    0,000000000e+00    0,000000000e+00    0,000000000e+00    0,000000000e+00
      730000000    3,735705465e-02   -1,349165570e-02   -5,219494700e-01   -2,711946368e-01    0,000000000e+00    0,000000000e+00    0,000000000e+00    0,000000000e+00
      744000000    6,250678748e-02   -6,601557881e-02   -5,598349571e-01    9,894358367e-02    0,000000000e+00    0,000000000e+00    0,000000000e+00    0,000000000e+00
      758000000    6,062737852e-02   -1,518766135e-01   -3,660553694e-01    4,000588357e-01    0,000000000e+00    0,000000000e+00    0,000000000e+00    0,000000000e+00
      772000000   -1,771632582e-02   -2,566169500e-01   -4,550113529e-02    5,087358952e-01    0,000000000e+00    0,000000000e+00    0,000000000e+00    0,000000000e+00
      786000000   -2,020882517e-01   -2,912063599e-01    2,593129575e-01    3,976569474e-01    0,000000000e+00    0,000000000e+00    0,000000000e+00    0,000000000e+00
      800000000   -4,073000252e-01   -1,272544414e-01    4,071636200e-01    1,187488288e-01    0,000000000e+00    0,000000000e+00    0,000000000e+00    0,000000000e+00
      814000000   -3,772355914e-01    2,025689334e-01    2,961340547e-01   -1,506040394e-01    0,000000000e+00    0,000000000e+00    0,000000000e+00    0,000000000e+00
      828000000   -6,159228086e-02    3,479526937e-01    8,211940527e-02   -1,895018667e-01    0,000000000e+00    0,000000000e+00    0,000000000e+00    0,000000000e+00
      842000000    2,117648125e-01    1,857284456e-01   -3,171934513e-03   -9,263540059e-02    0,000000000e+00    0,000000000e+00    0,000000000e+00    0,000000000e+00
      856000000    2,657410800e-01   -1,062862352e-01    3,614163026e-02   -3,700736538e-02    0,000000000e+00    0,000000000e+00    0,000000000e+00    0,000000000e+00
      870000000    8,239634335e-02   -3,517859280e-01    8,948587626e-02   -9,806206077e-02    0,000000000e+00    0,000000000e+00    0,000000000e+00    0,000000000e+00
      884000000   -2,669957280e-01   -3,567987382e-01    1,200232189e-02   -2,285633236e-01    0,000000000e+00    0,000000000e+00    0,000000000e+00    0,000000000e+00
      898000000   -4,566656649e-01   -1,353352144e-02   -2,147403657e-01   -2,103309333e-01    0,000000000e+00    0,000000000e+00    0,000000000e+00    0,000000000e+00
      912000000   -2,353224009e-01    2,784840167e-01   -3,282874227e-01    7,923314720e-02    0,000000000e+00    0,000000000e+00    0,000000000e+00    0,000000000e+00
      926000000    5,467400700e-02    2,628796399e-01   -2,103300691e-01    2,634910941e-01    0,000000000e+00    0,000000000e+00    0,000000000e+00    0,000000000e+00
      940000000    2,112083733e-01    8,453458548e-02   -3,057689033e-02    3,252907991e-01    0,000000000e+00    0,000000000e+00    0,000000000e+00    0,000000000e+00
      954000000    2,211158425e-01   -1,186242476e-01    1,321072578e-01    3,018788695e-01    0,000000000e+00    0,000000000e+00    0,000000000e+00    0,000000000e+00
      968000000    1,163370460e-01   -2,939318419e-01    2,673214674e-01    2,141986042e-01    0,000000000e+00    0,000000000e+00    0,000000000e+00    0,000000000e+00
      982000000   -7,774422318e-02   -3,868494928e-01    3,636209369e-01    6,291324645e-02    0,000000000e+00    0,000000000e+00    0,000000000e+00    0,000000000e+00
      996000000   -3,103034794e-01   -3,344213068e-01    3,634029627e-01   -1,430336237e-01    0,000000000e+00    0,000000000e+00    0,000000000e+00    0,000000000e+00
     1010000000   -4,567626715e-01   -1,163965836e-01    2,210144997e-01   -3,342391551e-01    0,000000000e+00    0,000000000e+00    0,000000000e+00    0,000000000e+00
     1024000000   -4,182764292e-01    1,413279325e-01   -3,042113036e-02   -3,850433528e-01    0,000000000e+00    0,000000000e+00    0,000000000e+00    0,000000000e+00
     1038000000   -2,227052003e-01    2,850938737e-01   -2,432561815e-01   -2,577695847e-01    0,000000000e+00    0,000000000e+00    0,000000000e+00    0,000000000e+00
     1052000000   -1,133808121e-02    2,807481885e-01   -3,116610944e-01   -4,606599361e-02    0,000000000e+00    0,000000000e+00    0,000000000e+00    0,000000000e+00
     1066000000    1,316217482e-01    1,708358675e-01   -2,505420148e-01    1,381704807e-01    0,000000000e+00    0,000000000e+00    0,000000000e+00    0,000000000e+00
     1080000000    1,958130449e-01    6,656990387e-03   -1,155408397e-01    2,551312447e-01    0,000000000e+00    0,000000000e+00    0,000000000e+00    0,000000000e+00
     1094000000    1,573105007e-01   -1,626266837e-01    6,045967340e-02    2,922840416e-01    0,000000000e+00    0,000000000e+00    0,000000000e+00    0,000000000e+00
     1108000000    1,940326765e-02   -2,938482761e-01    2,614390254e-01    2,340936065e-01    0,000000000e+00    0,000000000e+00    0,000000000e+00    0,000000000e+00
     1122000000   -2,135120630e-01   -2,860269248e-01    4,388666451e-01    2,256736346e-02    0,000000000e+00    0,000000000e+00    0,000000000e+00    0,000000000e+00
     1136000000   -3,215473890e-01   -2,974707820e-02    3,998946548e-01   -3,449106514e-01    0,000000000e+00    0,000000000e+00    0,000000000e+00    0,000000000e+00
     1150000000   -1,048315093e-01    1,429951638e-01    5,024788156e-02   -5,300031900e-01    0,000000000e+00    0,000000000e+00    0,000000000e+00    0,000000000e+00
     1164000000    8,597081900e-02   -2,059870586e-02   -2,526110709e-01   -4,075408578e-01    0,000000000e+00    0,000000000e+00    0,000000000e+00    0,000000000e+00
     1178000000    2,356329001e-02   -2,521640956e-01   -3,697597086e-01   -1,795863807e-01    0,000000000e+00    0,000000000e+00    0,000000000e+00    0,000000000e+00
     1192000000   -2,232408673e-01   -3,443484306e-01   -3,394116759e-01    3,932102770e-02    0,000000000e+00    0,000000000e+00    0,000000000e+00    0,000000000e+00
     1206000000   -4,771442115e-01   -1,831590682e-01   -1,853437722e-01    1,832708120e-01    0,000000000e+00    0,000000000e+00    0,000000000e+00    0,000000000e+00
     1220000000   -4,990614057e-01    1,369213611e-01   -1,162180863e-02    1,736881286e-01    0,000000000e+00    0,000000000e+00    0,000000000e+00    0,000000000e+00
     1234000000   -3,063568473e-01    3,357846141e-01    7,252729684e-02    7,825390249e-02    0,000000000e+00    0,000000000e+00    0,000000000e+00    0,000000000e+00
     1248000000   -6,411075592e-02    3,663016856e-01    6,613033265e-02    1,991529483e-03    0,000000000e+00    0,000000000e+00    0,000000000e+00    0,000000000e+00
     1262000000    1,130852029e-01    2,585359514e-01    2,892547846e-02   -2,619812638e-02    0,000000000e+00    0,000000000e+00    0,000000000e+00    0,000000000e+00
     1276000000    2,037717104e-01    1,104151905e-01    5,103523377e-03   -8,576955646e-03    0,000000000e+00    0,000000000e+00    0,000000000e+00    0,000000000e+00
     1290000000    2,212367654e-01   -6,405183673e-02    1,591676101e-02    2,540935017e-02    0,000000000e+00    0,000000000e+00    0,000000000e+00    0,000000000e+00
     1304000000    1,667677462e-01   -2,313382328e-01    6,646765769e-02    5,409548059e-02    0,000000000e+00    0,000000000e+00    0,000000000e+00    0,000000000e+00
     1318000000    2,404081449e-02   -3,631361425e-01    1,685917675e-01    1,606615447e-02    0,000000000e+00    0,000000000e+00    0,000000000e+00    0,000000000e+00
     1332000000   -1,525030136e-01   -4,039783776e-01    1,046470851e-01   -1,853877604e-01    0,000000000e+00    0,000000000e+00    0,000000000e+00    0,000000000e+00
     1346000000   -3,535116911e-01   -3,882047832e-01   -4,762797430e-02   -1,892173290e-02    0,000000000e+00    0,000000000e+00    0,000000000e+00    0,000000000e+00
     1360000000   -5,880589485e-01   -2,120785415e-01    5,955817178e-02    8,646710962e-02    0,000000000e+00    0,000000000e+00    0,000000000e+00    0,000000000e+00
     1374000000   -6,256875396e-01    1,022107676e-01    1,847696602e-01    4,377601668e-02    0,000000000e+00    0,000000000e+00    0,000000000e+00    0,000000000e+00
     1388000000   -4,716014564e-01    3,521102369e-01    2,294684350e-01   -2,270630747e-02    0,000000000e+00    0,000000000e+00    0,000000000e+00    0,000000000e+00
     1402000000   -2,419636101e-01    4,455633163e-01    2,178049088e-01   -7,243505120e-02    0,000000000e+00    0,000000000e+00    0,000000000e+00    0,000000000e+00
     1416000000   -3,951002657e-02    4,106453657e-01    1,983094960e-01   -1,092654988e-01    0,000000000e+00    0,000000000e+00    0,000000000e+00    0,000000000e+00
     1430000000    1,134814844e-01    3,092713058e-01    1,856621504e-01   -9,225572646e-02    0,000000000e+00    0,000000000e+00    0,000000000e+00    0,000000000e+00
     1444000000    1,991218477e-01    1,546057016e-01    1,644330919e-01   -1,154465899e-01    0,000000000e+00    0,000000000e+00    0,000000000e+00    0,000000000e+00
     1458000000    2,311165184e-01   -1,017751545e-02    1,507876962e-01   -9,128181636e-02    0,000000000e+00    0,000000000e+00    0,000000000e+00    0,000000000e+00
     1472000000    1,921224892e-01   -1,937906444e-01    1,471574754e-01   -4,170310125e-02    0,000000000e+00    0,000000000e+00    0,000000000e+00    0,000000000e+00
     1486000000    6,148291007e-02   -3,612399697e-01    1,571691036e-01    1,909999177e-02    0,000000000e+00    0,000000000e+00    0,000000000e+00    0,000000000e+00
     1500000000   -1,617856473e-01   -4,964873195e-01    2,275499701e-01    8,600404859e-02    0,000000000e+00    0,000000000e+00    0,000000000e+00    0,000000000e+00
