! NanoVNA-App
! Date: 2025-09-25 15:40:52
! Start: 100MHz Stop: 1,5GHz Points: 101
! S-Parameter data: F S11 S21 S12 S22
# Hz S RI R 50
!     Frequency           S11_Real           S11_Imag           S21_Real           S21_Imag           S12_Real           S12_Imag           S22_Real           S22_Imag
      100000000   -2,871897072e-02   -4,250086378e-03    3,738752604e-01   -7,215546370e-01    0,000000000e+00    0,000000000e+00    0,000000000e+00    0,000000000e+00
      114000000   -1,648067124e-02    1,148206554e-02   -8,900210261e-02   -8,052515388e-01    0,000000000e+00    0,000000000e+00    0,000000000e+00    0,000000000e+00
      128000000    3,413007362e-03    1,069519110e-02   -5,144445896e-01   -6,202522516e-01    0,000000000e+00    0,000000000e+00    0,000000000e+00    0,000000000e+00
      142000000    1,466290839e-02   -2,634438220e-03   -7,669218779e-01   -2,364317030e-01    0,000000000e+00    0,000000000e+00    0,000000000e+00    0,000000000e+00
      156000000    1,586377621e-02   -1,463339943e-02   -7,708709836e-01    2,216022909e-01    0,000000000e+00    0,000000000e+00    0,000000000e+00    0,000000000e+00
      170000000    1,715806872e-02   -2,251070924e-02   -5,178428888e-01    6,045396924e-01    0,000000000e+00    0,000000000e+00    0,000000000e+00    0,000000000e+00
      184000000    2,135092393e-02   -3,721794486e-02   -1,013209149e-01    7,860184908e-01    0,000000000e+00    0,000000000e+00    0,000000000e+00    0,000000000e+00
      198000000    1,323461905e-02   -6,254117191e-02    3,433283269e-01    7,122458220e-01    0,000000000e+00    0,000000000e+00    0,000000000e+00    0,000000000e+00
      212000000   -1,840739883e-02   -8,126457036e-02    6,778030992e-01    4,098208845e-01    0,000000000e+00    0,000000000e+00    0,000000000e+00    0,000000000e+00
      226000000   -6,134220213e-02   -6,918504834e-02    7,953940630e-01   -3,061519377e-02    0,000000000e+00    0,000000000e+00    0,000000000e+00    0,000000000e+00
      240000000   -8,218293637e-02   -2,583725378e-02    6,456915140e-01   -4,668044746e-01    0,000000000e+00    0,000000000e+00    0,000000000e+00    0,000000000e+00
      254000000   -6,333789974e-02    1,690672711e-02    2,759118378e-01   -7,430266142e-01    0,000000000e+00    0,000000000e+00    0,000000000e+00    0,000000000e+00
      268000000   -2,400230244e-02    2,873098291e-02   -1,778915673e-01   -7,639993429e-01    0,000000000e+00    0,000000000e+00    0,000000000e+00    0,000000000e+00
      282000000    4,003353417e-03    1,202009991e-02   -5,615497231e-01   -5,356404185e-01    0,000000000e+00    0,000000000e+00    0,000000000e+00    0,000000000e+00
      296000000    9,920124896e-03   -7,644104771e-03   -7,594729662e-01   -1,395544559e-01    0,000000000e+00    0,000000000e+00    0,000000000e+00    0,000000000e+00
      310000000    1,142640319e-02   -1,616130210e-02   -7,114126086e-01    2,972542644e-01    0,000000000e+00    0,000000000e+00    0,000000000e+00    0,000000000e+00
      324000000    2,003634721e-02   -2,649719641e-02   -4,274298549e-01    6,367668509e-01    0,000000000e+00    0,000000000e+00    0,000000000e+00    0,000000000e+00
      338000000    2,535871603e-02   -5,219248682e-02   -7,473255973e-03    7,604509592e-01    0,000000000e+00    0,000000000e+00    0,000000000e+00    0,000000000e+00
      352000000    7,502704859e-03   -8,467484266e-02    4,067514539e-01    6,392478943e-01    0,000000000e+00    0,000000000e+00    0,000000000e+00    0,000000000e+00
      366000000   -3,440144286e-02   -9,569042176e-02    6,902449727e-01    3,110615313e-01    0,000000000e+00    0,000000000e+00    0,000000000e+00    0,000000000e+00
      380000000   -7,060275972e-02   -7,111516595e-02    7,465811968e-01   -1,254066378e-01    0,000000000e+00    0,000000000e+00    0,000000000e+00    0,000000000e+00
      394000000   -7,214272767e-02   -3,262293339e-02    5,469031930e-01   -5,211784840e-01    0,000000000e+00    0,000000000e+00    0,000000000e+00    0,000000000e+00
      408000000   -4,617191106e-02   -1,648329943e-02    1,612508595e-01   -7,313578129e-01    0,000000000e+00    0,000000000e+00    0,000000000e+00    0,000000000e+00
      422000000   -2,820662409e-02   -3,219984099e-02   -2,667534649e-01   -6,951094866e-01    0,000000000e+00    0,000000000e+00    0,000000000e+00    0,000000000e+00
      436000000   -4,037455842e-02   -5,183405429e-02   -6,033534408e-01   -4,318693280e-01    0,000000000e+00    0,000000000e+00    0,000000000e+00    0,000000000e+00
      450000000   -6,712839752e-02   -4,407796636e-02   -7,396449447e-01   -2,218545228e-02    0,000000000e+00    0,000000000e+00    0,000000000e+00    0,000000000e+00
      464000000   -7,278810441e-02   -1,169764809e-02   -6,177589893e-01    3,966896832e-01    0,000000000e+00    0,000000000e+00    0,000000000e+00    0,000000000e+00
      478000000   -4,746430367e-02    1,124683861e-02   -2,821386456e-01    6,672951579e-01    0,000000000e+00    0,000000000e+00    0,000000000e+00    0,000000000e+00
      492000000   -1,581860706e-02    5,839865655e-03    1,366290301e-01    7,013041973e-01    0,000000000e+00    0,000000000e+00    0,000000000e+00    0,000000000e+00
      506000000   -2,476896858e-03   -1,613382995e-02    4,972542524e-01    5,023415685e-01    0,000000000e+00    0,000000000e+00    0,000000000e+00    0,000000000e+00
      520000000   -4,462710582e-03   -3,149436787e-02    6,882079244e-01    1,427633315e-01    0,000000000e+00    0,000000000e+00    0,000000000e+00    0,000000000e+00
      534000000   -3,491383279e-03   -3,807348013e-02    6,430703402e-01   -2,616733611e-01    0,000000000e+00    0,000000000e+00    0,000000000e+00    0,000000000e+00
      548000000    6,146321539e-03   -5,413213000e-02    3,810579777e-01   -5,660153627e-01    0,000000000e+00    0,000000000e+00    0,000000000e+00    0,000000000e+00
      562000000    3,210864495e-03   -8,931543678e-02    3,116561100e-03   -6,706866026e-01    0,000000000e+00    0,000000000e+00    0,000000000e+00    0,000000000e+00
      576000000   -3,392636403e-02   -1,244520321e-01   -3,667420149e-01   -5,572701693e-01    0,000000000e+00    0,000000000e+00    0,000000000e+00    0,000000000e+00
      590000000   -9,565104544e-02   -1,228803769e-01   -6,218630672e-01   -2,637402117e-01    0,000000000e+00    0,000000000e+00    0,000000000e+00    0,000000000e+00
      604000000   -1,386003941e-01   -7,238439471e-02   -6,637989283e-01    1,368080527e-01    0,000000000e+00    0,000000000e+00    0,000000000e+00    0,000000000e+00
      618000000   -1,293786466e-01   -1,026271936e-02   -4,648993015e-01    4,927913249e-01    0,000000000e+00    0,000000000e+00    0,000000000e+00    0,000000000e+00
      632000000   -8,440506458e-02    1,563577913e-02   -9,979849309e-02    6,623390913e-01    0,000000000e+00    0,000000000e+00    0,000000000e+00    0,000000000e+00
      646000000   -5,207026750e-02    1,051818021e-03    2,850171924e-01    5,941605568e-01    0,000000000e+00    0,000000000e+00    0,000000000e+00    0,000000000e+00
      660000000   -5,320369452e-02   -2,142368257e-02    5,646010041e-01    3,231022954e-01    0,000000000e+00    0,000000000e+00    0,000000000e+00    0,000000000e+00
      674000000   -6,906323135e-02   -1,684742235e-02    6,408027411e-01   -6,333084404e-02    0,000000000e+00    0,000000000e+00    0,000000000e+00    0,000000000e+00
      688000000   -6,629276276e-02    9,452647530e-03    4,704787135e-01   -4,241949618e-01    0,000000000e+00    0,000000000e+00    0,000000000e+00    0,000000000e+00
      702000000   -3,616613522e-02    2,488153614e-02    1,244661361e-01   -6,066698432e-01    0,000000000e+00    0,000000000e+00    0,000000000e+00    0,000000000e+00
      716000000    3,871157765e-03    1,562336925e-02   -2,598679364e-01   -5,438160896e-01    0,000000000e+00    0,000000000e+00    0,000000000e+00    0,000000000e+00
      730000000    3,611967340e-02   -1,353840716e-02   -5,212990046e-01   -2,710691392e-01    0,000000000e+00    0,000000000e+00    0,000000000e+00    0,000000000e+00
      744000000    6,200599298e-02   -6,538427621e-02   -5,600359440e-01    9,868250042e-02    0,000000000e+00    0,000000000e+00    0,000000000e+00    0,000000000e+00
      758000000    6,104182079e-02   -1,513278037e-01   -3,658051491e-01    4,005793929e-01    0,000000000e+00    0,000000000e+00    0,000000000e+00    0,000000000e+00
      772000000   -1,720977947e-02   -2,560955584e-01   -4,584557191e-02    5,092343688e-01    0,000000000e+00    0,000000000e+00    0,000000000e+00    0,000000000e+00
      786000000   -2,034582049e-01   -2,917002141e-01    2,596110702e-01    3,975995481e-01    0,000000000e+00    0,000000000e+00    0,000000000e+00    0,000000000e+00
      800000000   -4,084159434e-01   -1,276184022e-01    4,069694281e-01    1,184160784e-01    0,000000000e+00    0,000000000e+00    0,000000000e+00    0,000000000e+00
      814000000   -3,757897615e-01    2,027452886e-01    2,958729863e-01   -1,510343254e-01    0,000000000e+00    0,000000000e+00    0,000000000e+00    0,000000000e+00
      828000000   -6,174360588e-02    3,464508057e-01    8,264277875e-02   -1,905375421e-01    0,000000000e+00    0,000000000e+00    0,000000000e+00    0,000000000e+00
      842000000    2,118672132e-01    1,854418218e-01   -3,512132447e-03   -9,276451170e-02    0,000000000e+00    0,000000000e+00    0,000000000e+00    0,000000000e+00
      856000000    2,660045922e-01   -1,062626019e-01    3,642985597e-02   -3,729896247e-02    0,000000000e+00    0,000000000e+00    0,000000000e+00    0,000000000e+00
      870000000    8,253199607e-02   -3,510161638e-01    8,921829611e-02   -9,751745313e-02    0,000000000e+00    0,000000000e+00    0,000000000e+00    0,000000000e+00
      884000000   -2,678141892e-01   -3,546241224e-01    1,155330893e-02   -2,276154608e-01    0,000000000e+00    0,000000000e+00    0,000000000e+00    0,000000000e+00
      898000000   -4,584259987e-01   -1,317759231e-02   -2,155856490e-01   -2,092608362e-01    0,000000000e+00    0,000000000e+00    0,000000000e+00    0,000000000e+00
      912000000   -2,359903604e-01    2,773154378e-01   -3,405555487e-01    7,866638899e-02    0,000000000e+00    0,000000000e+00    0,000000000e+00    0,000000000e+00
      926000000    5,334640667e-02    2,639572918e-01   -2,108414322e-01    2,635596693e-01    0,000000000e+00    0,000000000e+00    0,000000000e+00    0,000000000e+00
      940000000    2,077487558e-01    8,386108279e-02   -3,224682063e-02    3,258908391e-01    0,000000000e+00    0,000000000e+00    0,000000000e+00    0,000000000e+00
      954000000    2,195876837e-01   -1,233383790e-01    1,319800019e-01    3,006591201e-01    0,000000000e+00    0,000000000e+00    0,000000000e+00    0,000000000e+00
      968000000    1,164785251e-01   -2,963902652e-01    2,673549056e-01    2,142986357e-01    0,000000000e+00    0,000000000e+00    0,000000000e+00    0,000000000e+00
      982000000   -7,665719092e-02   -3,872148693e-01    3,618139923e-01    6,283897907e-02    0,000000000e+00    0,000000000e+00    0,000000000e+00    0,000000000e+00
      996000000   -3,080362976e-01   -3,332095146e-01    3,620791137e-01   -1,439168006e-01    0,000000000e+00    0,000000000e+00    0,000000000e+00    0,000000000e+00
     1010000000   -4,639930725e-01   -1,166989431e-01    2,195771784e-01   -3,352302313e-01    0,000000000e+00    0,000000000e+00    0,000000000e+00    0,000000000e+00
     1024000000   -4,168491662e-01    1,390440762e-01   -2,922747657e-02   -3,877740502e-01    0,000000000e+00    0,000000000e+00    0,000000000e+00    0,000000000e+00
     1038000000   -2,239372134e-01    2,858136892e-01   -2,410913259e-01   -2,564496696e-01    0,000000000e+00    0,000000000e+00    0,000000000e+00    0,000000000e+00
     1052000000   -9,698149748e-03    2,803828418e-01   -3,100473583e-01   -4,705087095e-02    0,000000000e+00    0,000000000e+00    0,000000000e+00    0,000000000e+00
     1066000000    1,303301901e-01    1,672908813e-01   -2,498100996e-01    1,364753246e-01    0,000000000e+00    0,000000000e+00    0,000000000e+00    0,000000000e+00
     1080000000    1,922856718e-01    1,015376765e-02   -1,136565357e-01    2,547257245e-01    0,000000000e+00    0,000000000e+00    0,000000000e+00    0,000000000e+00
     1094000000    1,571254581e-01   -1,620009243e-01    6,129000336e-02    2,886067927e-01    0,000000000e+00    0,000000000e+00    0,000000000e+00    0,000000000e+00
     1108000000    1,466860157e-02   -2,969971001e-01    2,625527084e-01    2,323897779e-01    0,000000000e+00    0,000000000e+00    0,000000000e+00    0,000000000e+00
     1122000000   -2,155078799e-01   -2,799695432e-01    4,397079945e-01    2,423262596e-02    0,000000000e+00    0,000000000e+00    0,000000000e+00    0,000000000e+00
     1136000000   -3,225821257e-01   -3,262378648e-02    3,996435404e-01   -3,426631689e-01    0,000000000e+00    0,000000000e+00    0,000000000e+00    0,000000000e+00
     1150000000   -1,088197455e-01    1,366124153e-01    4,472337663e-02   -5,307602882e-01    0,000000000e+00    0,000000000e+00    0,000000000e+00    0,000000000e+00
     1164000000    8,370323479e-02   -2,089621872e-02   -2,536619604e-01   -4,026130140e-01    0,000000000e+00    0,000000000e+00    0,000000000e+00    0,000000000e+00
     1178000000    3,040072136e-02   -2,534617782e-01   -3,717696667e-01   -1,806675941e-01    0,000000000e+00    0,000000000e+00    0,000000000e+00    0,000000000e+00
     1192000000   -2,267029583e-01   -3,475470841e-01   -3,428947031e-01    3,731398284e-02    0,000000000e+00    0,000000000e+00    0,000000000e+00    0,000000000e+00
     1206000000   -4,802965522e-01   -1,781909913e-01   -1,894028485e-01    1,836527884e-01    0,000000000e+00    0,000000000e+00    0,000000000e+00    0,000000000e+00
     1220000000   -4,988948107e-01    1,353695244e-01   -9,473130107e-03    1,757674962e-01    0,000000000e+00    0,000000000e+00    0,000000000e+00    0,000000000e+00
     1234000000   -2,941240668e-01    3,416324556e-01    7,513324171e-02    8,232206106e-02    0,000000000e+00    0,000000000e+00    0,000000000e+00    0,000000000e+00
     1248000000   -5,586674437e-02    3,643695414e-01    6,713354588e-02    4,735294729e-03    0,000000000e+00    0,000000000e+00    0,000000000e+00    0,000000000e+00
     1262000000    1,118252277e-01    2,617025077e-01    2,965038642e-02   -2,156368084e-02    0,000000000e+00    0,000000000e+00    0,000000000e+00    0,000000000e+00
     1276000000    2,029681653e-01    1,066974849e-01    9,974996559e-03   -9,459858760e-03    0,000000000e+00    0,000000000e+00    0,000000000e+00    0,000000000e+00
     1290000000    2,201117575e-01   -6,488151848e-02    1,076367870e-02    2,696901187e-02    0,000000000e+00    0,000000000e+00    0,000000000e+00    0,000000000e+00
     1304000000    1,666925997e-01   -2,296958715e-01    6,511147320e-02    6,116886809e-02    0,000000000e+00    0,000000000e+00    0,000000000e+00    0,000000000e+00
     1318000000    2,302694507e-02   -3,624431789e-01    1,722423583e-01    1,406387705e-02    0,000000000e+00    0,000000000e+00    0,000000000e+00    0,000000000e+00
     1332000000   -1,495356709e-01   -3,993043303e-01    9,809333831e-02   -1,792389601e-01    0,000000000e+00    0,000000000e+00    0,000000000e+00    0,000000000e+00
     1346000000   -3,634043634e-01   -3,904085457e-01   -6,264155358e-02   -1,706391014e-02    0,000000000e+00    0,000000000e+00    0,000000000e+00    0,000000000e+00
     1360000000   -5,899496078e-01   -2,056930661e-01    5,403704941e-02    8,248522878e-02    0,000000000e+00    0,000000000e+00    0,000000000e+00    0,000000000e+00
     1374000000   -6,220731735e-01    1,099901870e-01    1,857781261e-01    5,840645730e-02    0,000000000e+00    0,000000000e+00    0,000000000e+00    0,000000000e+00
     1388000000   -4,775541723e-01    3,515016437e-01    2,240323424e-01   -3,076096997e-02    0,000000000e+00    0,000000000e+00    0,000000000e+00    0,000000000e+00
     1402000000   -2,434625626e-01    4,463319182e-01    2,173212916e-01   -7,989123464e-02    0,000000000e+00    0,000000000e+00    0,000000000e+00    0,000000000e+00
     1416000000   -3,503931686e-02    4,152155221e-01    1,934361905e-01   -9,715931863e-02    0,000000000e+00    0,000000000e+00    0,000000000e+00    0,000000000e+00
     1430000000    1,045674086e-01    3,009930253e-01    1,655823439e-01   -8,929376304e-02    0,000000000e+00    0,000000000e+00    0,000000000e+00    0,000000000e+00
     1444000000    2,059304863e-01    1,569847167e-01    1,632639766e-01   -1,091948748e-01    0,000000000e+00    0,000000000e+00    0,000000000e+00    0,000000000e+00
     1458000000    2,312750369e-01   -9,621074423e-03    1,477689892e-01   -8,099411428e-02    0,000000000e+00    0,000000000e+00    0,000000000e+00    0,000000000e+00
     1472000000    1,909234822e-01   -1,886467934e-01    1,412345767e-01   -4,737590626e-02    0,000000000e+00    0,000000000e+00    0,000000000e+00    0,000000000e+00
     1486000000    6,637254357e-02   -3,688443601e-01    1,618602425e-01    1,452053525e-02    0,000000000e+00    0,000000000e+00    0,000000000e+00    0,000000000e+00
     1500000000   -1,669086516e-01   -4,810266495e-01    2,258492559e-01    9,186697006e-02    0,000000000e+00    0,000000000e+00    0,000000000e+00    0,000000000e+00
