! NanoVNA-App
! Date: 2025-09-25 15:40:04
! Start: 100MHz Stop: 1,5GHz Points: 101
! S-Parameter data: F S11 S21 S12 S22
# Hz S RI R 50
!     Frequency           S11_Real           S11_Imag           S21_Real           S21_Imag           S12_Real           S12_Imag           S22_Real           S22_Imag
      100000000   -2,860619500e-02   -4,222486634e-03    3,737597764e-01   -7,214506269e-01    0,000000000e+00    0,000000000e+00    0,000000000e+00    0,000000000e+00
      114000000   -1,635705680e-02    1,148892287e-02   -8,910273761e-02   -8,051504493e-01    0,000000000e+00    0,000000000e+00    0,000000000e+00    0,000000000e+00
      128000000    3,533428768e-03    1,067514904e-02   -5,143520236e-01   -6,198673248e-01    0,000000000e+00    0,000000000e+00    0,000000000e+00    0,000000000e+00
      142000000    1,479152124e-02   -2,634237520e-03   -7,665588856e-01   -2,362841070e-01    0,000000000e+00    0,000000000e+00    0,000000000e+00    0,000000000e+00
      156000000    1,598486677e-02   -1,468212530e-02   -7,706395388e-01    2,216711640e-01    0,000000000e+00    0,000000000e+00    0,000000000e+00    0,000000000e+00
      170000000    1,728952490e-02   -2,250421420e-02   -5,179438591e-01    6,045885682e-01    0,000000000e+00    0,000000000e+00    0,000000000e+00    0,000000000e+00
      184000000    2,148640901e-02   -3,720741719e-02   -1,012813821e-01    7,855969071e-01    0,000000000e+00    0,000000000e+00    0,000000000e+00    0,000000000e+00
      198000000    1,336068753e-02   -6,260267645e-02    3,433819413e-01    7,118568420e-01    0,000000000e+00    0,000000000e+00    0,000000000e+00    0,000000000e+00
      212000000   -1,829977706e-02   -8,128151298e-02    6,776862741e-01    4,094792306e-01    0,000000000e+00    0,000000000e+00    0,000000000e+00    0,000000000e+00
      226000000   -6,115350127e-02   -6,916803122e-02    7,952346206e-01   -3,064863570e-02    0,000000000e+00    0,000000000e+00    0,000000000e+00    0,000000000e+00
      240000000   -8,204881847e-02   -2,583639696e-02    6,455817819e-01   -4,666460454e-01    0,000000000e+00    0,000000000e+00    0,000000000e+00    0,000000000e+00
      254000000   -6,326399744e-02    1,683892123e-02    2,758797705e-01   -7,426793575e-01    0,000000000e+00    0,000000000e+00    0,000000000e+00    0,000000000e+00
      268000000   -2,384576760e-02    2,871219814e-02   -1,779380739e-01   -7,638893723e-01    0,000000000e+00    0,000000000e+00    0,000000000e+00    0,000000000e+00
      282000000    4,193981178e-03    1,192676835e-02   -5,617538095e-01   -5,354021192e-01    0,000000000e+00    0,000000000e+00    0,000000000e+00    0,000000000e+00
      296000000    1,000820752e-02   -7,604308892e-03   -7,592282891e-01   -1,393896341e-01    0,000000000e+00    0,000000000e+00    0,000000000e+00    0,000000000e+00
      310000000    1,168485265e-02   -1,609223895e-02   -7,109611034e-01    2,976486385e-01    0,000000000e+00    0,000000000e+00    0,000000000e+00    0,000000000e+00
      324000000    2,019027621e-02   -2,657411620e-02   -4,270668030e-01    6,381244659e-01    0,000000000e+00    0,000000000e+00    0,000000000e+00    0,000000000e+00
      338000000    2,561412752e-02   -5,212312937e-02   -7,679853123e-03    7,598198652e-01    0,000000000e+00    0,000000000e+00    0,000000000e+00    0,000000000e+00
      352000000    7,613269147e-03   -8,497888595e-02    4,071491361e-01    6,389136314e-01    0,000000000e+00    0,000000000e+00    0,000000000e+00    0,000000000e+00
      366000000   -3,421042114e-02   -9,548351914e-02    6,906903982e-01    3,110105693e-01    0,000000000e+00    0,000000000e+00    0,000000000e+00    0,000000000e+00
      380000000   -7,016259432e-02   -7,126775384e-02    7,468574643e-01   -1,258774549e-01    0,000000000e+00    0,000000000e+00    0,000000000e+00    0,000000000e+00
      394000000   -7,191307843e-02   -3,298262134e-02    5,458881855e-01   -5,204233527e-01    0,000000000e+00    0,000000000e+00    0,000000000e+00    0,000000000e+00
      408000000   -4,640354216e-02   -1,652587019e-02    1,611528844e-01   -7,302410603e-01    0,000000000e+00    0,000000000e+00    0,000000000e+00    0,000000000e+00
      422000000   -2,847236209e-02   -3,211893141e-02   -2,683030069e-01   -6,948040724e-01    0,000000000e+00    0,000000000e+00    0,000000000e+00    0,000000000e+00
      436000000   -4,008446261e-02   -5,188319832e-02   -6,031522751e-01   -4,320391715e-01    0,000000000e+00    0,000000000e+00    0,000000000e+00    0,000000000e+00
      450000000   -6,702993810e-02   -4,396217316e-02   -7,399528027e-01   -2,186701447e-02    0,000000000e+00    0,000000000e+00    0,000000000e+00    0,000000000e+00
      464000000   -7,293085754e-02   -1,189534366e-02   -6,176874042e-01    3,970710933e-01    0,000000000e+00    0,000000000e+00    0,000000000e+00    0,000000000e+00
      478000000   -4,763177782e-02    1,119392365e-02   -2,818594575e-01    6,668732762e-01    0,000000000e+00    0,000000000e+00    0,000000000e+00    0,000000000e+00
      492000000   -1,581515372e-02    5,815227982e-03    1,375909299e-01    7,012473345e-01    0,000000000e+00    0,000000000e+00    0,000000000e+00    0,000000000e+00
      506000000   -2,623996930e-03   -1,560878847e-02    4,979439378e-01    5,024037957e-01    0,000000000e+00    0,000000000e+00    0,000000000e+00    0,000000000e+00
      520000000   -4,829350393e-03   -3,180656582e-02    6,872262955e-01    1,413039863e-01    0,000000000e+00    0,000000000e+00    0,000000000e+00    0,000000000e+00
      534000000   -3,373211250e-03   -3,797926009e-02    6,430078745e-01   -2,616039515e-01    0,000000000e+00    0,000000000e+00    0,000000000e+00    0,000000000e+00
      548000000    6,619805004e-03   -5,374909565e-02    3,816773891e-01   -5,659933090e-01    0,000000000e+00    0,000000000e+00    0,000000000e+00    0,000000000e+00
      562000000    3,142719157e-03   -8,933330327e-02    2,794748638e-03   -6,713467240e-01    0,000000000e+00    0,000000000e+00    0,000000000e+00    0,000000000e+00
      576000000   -3,427566588e-02   -1,246364713e-01   -3,683233261e-01   -5,571816564e-01    0,000000000e+00    0,000000000e+00    0,000000000e+00    0,000000000e+00
      590000000   -9,570421278e-02   -1,228808910e-01   -6,201371551e-01   -2,663030326e-01    0,000000000e+00    0,000000000e+00    0,000000000e+00    0,000000000e+00
      604000000   -1,388234049e-01   -7,200074196e-02   -6,639612913e-01    1,369905472e-01    0,000000000e+00    0,000000000e+00    0,000000000e+00    0,000000000e+00
      618000000   -1,295878142e-01   -1,022939943e-02   -4,645138681e-01    4,927683771e-01    0,000000000e+00    0,000000000e+00    0,000000000e+00    0,000000000e+00
      632000000   -8,401297778e-02    1,606412046e-02   -9,992709011e-02    6,623462439e-01    0,000000000e+00    0,000000000e+00    0,000000000e+00    0,000000000e+00
      646000000   -5,192306638e-02   -2,842402318e-04    2,856262028e-01    5,945458412e-01    0,000000000e+00    0,000000000e+00    0,000000000e+00    0,000000000e+00
      660000000   -5,314585194e-02   -2,143759467e-02    5,643011928e-01    3,223178089e-01    0,000000000e+00    0,000000000e+00    0,000000000e+00    0,000000000e+00
      674000000   -6,929922849e-02   -1,643734798e-02    6,404030919e-01   -6,361644715e-02    0,000000000e+00    0,000000000e+00    0,000000000e+00    0,000000000e+00
      688000000   -6,668521464e-02    9,269866161e-03    4,702553153e-01   -4,237920940e-01    0,000000000e+00    0,000000000e+00    0,000000000e+00    0,000000000e+00
      702000000   -3,642356023e-02    2,674696036e-02    1,205304489e-01   -6,117757559e-01    0,000000000e+00    0,000000000e+00    0,000000000e+00    0,000000000e+00
      716000000    3,132142127e-03    1,660761237e-02   -2,598612309e-01   -5,452910662e-01    0,000000000e+00    0,000000000e+00    0,000000000e+00    0,000000000e+00
      730000000    3,631992638e-02   -1,411484554e-02   -5,216640234e-01   -2,706402242e-01    0,000000000e+00    0,000000000e+00    0,000000000e+00    0,000000000e+00
      744000000    6,228235736e-02   -6,468471885e-02   -5,602068901e-01    9,887512773e-02    0,000000000e+00    0,000000000e+00    0,000000000e+00    0,000000000e+00
      758000000    6,084704027e-02   -1,521407664e-01   -3,651982546e-01    4,002929032e-01    0,000000000e+00    0,000000000e+00    0,000000000e+00    0,000000000e+00
      772000000   -1,747883298e-02   -2,565256357e-01   -4,507161304e-02    5,092403293e-01    0,000000000e+00    0,000000000e+00    0,000000000e+00    0,000000000e+00
      786000000   -2,027711570e-01   -2,908196151e-01    2,598925233e-01    3,985022902e-01    0,000000000e+00    0,000000000e+00    0,000000000e+00    0,000000000e+00
      800000000   -4,081069529e-01   -1,268587708e-01    4,070569873e-01    1,180606633e-01    0,000000000e+00    0,000000000e+00    0,000000000e+00    0,000000000e+00
      814000000   -3,771133721e-01    2,019622624e-01    2,955794036e-01   -1,512557566e-01    0,000000000e+00    0,000000000e+00    0,000000000e+00    0,000000000e+00
      828000000   -6,210540235e-02    3,463436663e-01    8,220492303e-02   -1,902440488e-01    0,000000000e+00    0,000000000e+00    0,000000000e+00    0,000000000e+00
      842000000    2,117111236e-01    1,854140759e-01   -2,531501232e-03   -9,277716279e-02    0,000000000e+00    0,000000000e+00    0,000000000e+00    0,000000000e+00
      856000000    2,656646669e-01   -1,063768119e-01    3,653338552e-02   -3,717968613e-02    0,000000000e+00    0,000000000e+00    0,000000000e+00    0,000000000e+00
      870000000    8,175489306e-02   -3,516360223e-01    8,907356858e-02   -9,795872867e-02    0,000000000e+00    0,000000000e+00    0,000000000e+00    0,000000000e+00
      884000000   -2,681632042e-01   -3,551349938e-01    1,165055949e-02   -2,283283472e-01    0,000000000e+00    0,000000000e+00    0,000000000e+00    0,000000000e+00
      898000000   -4,566817880e-01   -1,377304550e-02   -2,158927619e-01   -2,101748884e-01    0,000000000e+00    0,000000000e+00    0,000000000e+00    0,000000000e+00
      912000000   -2,342981696e-01    2,777610123e-01   -3,440599144e-01    7,228383422e-02    0,000000000e+00    0,000000000e+00    0,000000000e+00    0,000000000e+00
      926000000    5,503518134e-02    2,621019185e-01   -2,086454481e-01    2,636749744e-01    0,000000000e+00    0,000000000e+00    0,000000000e+00    0,000000000e+00
      940000000    2,108928412e-01    8,295911551e-02   -3,035656735e-02    3,252383769e-01    0,000000000e+00    0,000000000e+00    0,000000000e+00    0,000000000e+00
      954000000    2,179130018e-01   -1,225683615e-01    1,302435696e-01    3,021498621e-01    0,000000000e+00    0,000000000e+00    0,000000000e+00    0,000000000e+00
      968000000    1,184341237e-01   -2,964290679e-01    2,693493962e-01    2,133564055e-01    0,000000000e+00    0,000000000e+00    0,000000000e+00    0,000000000e+00
      982000000   -7,914028317e-02   -3,821010888e-01    3,598130047e-01    6,201438978e-02    0,000000000e+00    0,000000000e+00    0,000000000e+00    0,000000000e+00
      996000000   -3,075259924e-01   -3,303546011e-01    3,599537611e-01   -1,434573084e-01    0,000000000e+00    0,000000000e+00    0,000000000e+00    0,000000000e+00
     1010000000   -4,586717784e-01   -1,134413034e-01    2,180312574e-01   -3,369720280e-01    0,000000000e+00    0,000000000e+00    0,000000000e+00    0,000000000e+00
     1024000000   -4,159623682e-01    1,472194493e-01   -3,004576825e-02   -3,864711523e-01    0,000000000e+00    0,000000000e+00    0,000000000e+00    0,000000000e+00
     1038000000   -2,213262916e-01    2,869755626e-01   -2,418593317e-01   -2,558983564e-01    0,000000000e+00    0,000000000e+00    0,000000000e+00    0,000000000e+00
     1052000000   -1,185250841e-02    2,796165943e-01   -3,115168512e-01   -4,786501080e-02    0,000000000e+00    0,000000000e+00    0,000000000e+00    0,000000000e+00
     1066000000    1,318488568e-01    1,704256833e-01   -2,517517507e-01    1,401093006e-01    0,000000000e+00    0,000000000e+00    0,000000000e+00    0,000000000e+00
     1080000000    1,940391660e-01    5,790223368e-03   -1,154111475e-01    2,552503645e-01    0,000000000e+00    0,000000000e+00    0,000000000e+00    0,000000000e+00
     1094000000    1,567067206e-01   -1,649381518e-01    5,959345028e-02    2,926689088e-01    0,000000000e+00    0,000000000e+00    0,000000000e+00    0,000000000e+00
     1108000000    1,587534137e-02   -2,918477952e-01    2,624157965e-01    2,355682105e-01    0,000000000e+00    0,000000000e+00    0,000000000e+00    0,000000000e+00
     1122000000   -2,113698274e-01   -2,809992135e-01    4,394311905e-01    2,449422516e-02    0,000000000e+00    0,000000000e+00    0,000000000e+00    0,000000000e+00
     1136000000   -3,257129490e-01   -2,528337762e-02    3,981751204e-01   -3,452772498e-01    0,000000000e+00    0,000000000e+00    0,000000000e+00    0,000000000e+00
     1150000000   -1,023027375e-01    1,349801421e-01    4,892771319e-02   -5,258033872e-01    0,000000000e+00    0,000000000e+00    0,000000000e+00    0,000000000e+00
     1164000000    8,794515580e-02   -1,765663736e-02   -2,510544658e-01   -4,016231894e-01    0,000000000e+00    0,000000000e+00    0,000000000e+00    0,000000000e+00
     1178000000    2,778512612e-02   -2,518007457e-01   -3,662251830e-01   -1,772544384e-01    0,000000000e+00    0,000000000e+00    0,000000000e+00    0,000000000e+00
     1192000000   -2,252006680e-01   -3,458672762e-01   -3,414135277e-01    4,190040380e-02    0,000000000e+00    0,000000000e+00    0,000000000e+00    0,000000000e+00
     1206000000   -4,795227051e-01   -1,793940961e-01   -1,851926148e-01    1,827679873e-01    0,000000000e+00    0,000000000e+00    0,000000000e+00    0,000000000e+00
     1220000000   -5,012530684e-01    1,399578154e-01   -1,283155568e-02    1,752276868e-01    0,000000000e+00    0,000000000e+00    0,000000000e+00    0,000000000e+00
     1234000000   -3,014333546e-01    3,470727503e-01    7,091487944e-02    7,912790030e-02    0,000000000e+00    0,000000000e+00    0,000000000e+00    0,000000000e+00
     1248000000   -5,981651321e-02    3,564930260e-01    7,005403936e-02   -2,827961929e-03    0,000000000e+00    0,000000000e+00    0,000000000e+00    0,000000000e+00
     1262000000    1,123850346e-01    2,617853284e-01    3,179806471e-02   -2,592222765e-02    0,000000000e+00    0,000000000e+00    0,000000000e+00    0,000000000e+00
     1276000000    2,030507326e-01    1,053612232e-01    4,940500949e-03   -9,805569425e-03    0,000000000e+00    0,000000000e+00    0,000000000e+00    0,000000000e+00
     1290000000    2,231797278e-01   -6,084507331e-02    1,646853052e-02    2,603478357e-02    0,000000000e+00    0,000000000e+00    0,000000000e+00    0,000000000e+00
     1304000000    1,634441912e-01   -2,359088361e-01    5,867793411e-02    5,653870851e-02    0,000000000e+00    0,000000000e+00    0,000000000e+00    0,000000000e+00
     1318000000    2,271377854e-02   -3,607061207e-01    1,704329848e-01    2,072420903e-02    0,000000000e+00    0,000000000e+00    0,000000000e+00    0,000000000e+00
     1332000000   -1,488456130e-01   -3,920579255e-01    1,013432369e-01   -1,838015318e-01    0,000000000e+00    0,000000000e+00    0,000000000e+00    0,000000000e+00
     1346000000   -3,539531827e-01   -3,862394989e-01   -4,832277447e-02   -1,499146875e-02    0,000000000e+00    0,000000000e+00    0,000000000e+00    0,000000000e+00
     1360000000   -5,835574269e-01   -2,064651251e-01    5,855857208e-02    8,074498922e-02    0,000000000e+00    0,000000000e+00    0,000000000e+00    0,000000000e+00
     1374000000   -6,196739674e-01    1,050787643e-01    1,854603738e-01    3,830125183e-02    0,000000000e+00    0,000000000e+00    0,000000000e+00    0,000000000e+00
     1388000000   -4,675079286e-01    3,484188616e-01    2,225158513e-01   -2,607946098e-02    0,000000000e+00    0,000000000e+00    0,000000000e+00    0,000000000e+00
     1402000000   -2,430504560e-01    4,450288117e-01    2,038556188e-01   -8,383282274e-02    0,000000000e+00    0,000000000e+00    0,000000000e+00    0,000000000e+00
     1416000000   -3,919742629e-02    4,077628553e-01    2,020881921e-01   -1,111079976e-01    0,000000000e+00    0,000000000e+00    0,000000000e+00    0,000000000e+00
     1430000000    1,087769121e-01    2,994951308e-01    1,614671797e-01   -1,093871146e-01    0,000000000e+00    0,000000000e+00    0,000000000e+00    0,000000000e+00
     1444000000    1,992874891e-01    1,612397879e-01    1,679626256e-01   -1,020057499e-01    0,000000000e+00    0,000000000e+00    0,000000000e+00    0,000000000e+00
     1458000000    2,315983325e-01   -9,736146778e-03    1,418364346e-01   -8,237543702e-02    0,000000000e+00    0,000000000e+00    0,000000000e+00    0,000000000e+00
     1472000000    1,923668385e-01   -1,939865500e-01    1,497458518e-01   -4,338582605e-02    0,000000000e+00    0,000000000e+00    0,000000000e+00    0,000000000e+00
     1486000000    7,050645351e-02   -3,588492870e-01    1,774707437e-01    2,578263171e-02    0,000000000e+00    0,000000000e+00    0,000000000e+00    0,000000000e+00
     1500000000   -1,578344405e-01   -4,912297130e-01    2,415232658e-01    9,037874639e-02    0,000000000e+00    0,000000000e+00    0,000000000e+00    0,000000000e+00
