! NanoVNA-App
! Date: 2025-09-25 15:39:08
! Start: 100MHz Stop: 1,5GHz Points: 101
! S-Parameter data: F S11 S21 S12 S22
# Hz S RI R 50
!     Frequency           S11_Real           S11_Imag           S21_Real           S21_Imag           S12_Real           S12_Imag           S22_Real           S22_Imag
      100000000   -2,862675302e-02   -4,233936314e-03    3,738494217e-01   -7,214710116e-01    0,000000000e+00    0,000000000e+00    0,000000000e+00    0,000000000e+00
      114000000   -1,641874574e-02    1,146939863e-02   -8,921994269e-02   -8,049598932e-01    0,000000000e+00    0,000000000e+00    0,000000000e+00    0,000000000e+00
      128000000    3,469591262e-03    1,072085090e-02   -5,144052505e-01   -6,200250387e-01    0,000000000e+00    0,000000000e+00    0,000000000e+00    0,000000000e+00
      142000000    1,473028120e-02   -2,622967586e-03   -7,667941451e-01   -2,362730801e-01    0,000000000e+00    0,000000000e+00    0,000000000e+00    0,000000000e+00
      156000000    1,595734619e-02   -1,463944372e-02   -7,708351612e-01    2,216935307e-01    0,000000000e+00    0,000000000e+00    0,000000000e+00    0,000000000e+00
      170000000    1,724208333e-02   -2,255672589e-02   -5,179021955e-01    6,044440269e-01    0,000000000e+00    0,000000000e+00    0,000000000e+00    0,000000000e+00
      184000000    2,144103870e-02   -3,723561764e-02   -1,012751758e-01    7,853893042e-01    0,000000000e+00    0,000000000e+00    0,000000000e+00    0,000000000e+00
      198000000    1,330536045e-02   -6,254930794e-02    3,430016041e-01    7,117715478e-01    0,000000000e+00    0,000000000e+00    0,000000000e+00    0,000000000e+00
      212000000   -1,834555343e-02   -8,126519620e-02    6,777666807e-01    4,094882905e-01    0,000000000e+00    0,000000000e+00    0,000000000e+00    0,000000000e+00
      226000000   -6,120796874e-02   -6,917789578e-02    7,952253819e-01   -3,073931113e-02    0,000000000e+00    0,000000000e+00    0,000000000e+00    0,000000000e+00
      240000000   -8,207622170e-02   -2,579384483e-02    6,456503868e-01   -4,667588770e-01    0,000000000e+00    0,000000000e+00    0,000000000e+00    0,000000000e+00
      254000000   -6,326670200e-02    1,683820598e-02    2,759489715e-01   -7,428026199e-01    0,000000000e+00    0,000000000e+00    0,000000000e+00    0,000000000e+00
      268000000   -2,391948178e-02    2,870746516e-02   -1,773144901e-01   -7,640767097e-01    0,000000000e+00    0,000000000e+00    0,000000000e+00    0,000000000e+00
      282000000    4,094731994e-03    1,203754079e-02   -5,613344908e-01   -5,350051522e-01    0,000000000e+00    0,000000000e+00    0,000000000e+00    0,000000000e+00
      296000000    9,806724265e-03   -7,540804334e-03   -7,591807842e-01   -1,395028979e-01    0,000000000e+00    0,000000000e+00    0,000000000e+00    0,000000000e+00
      310000000    1,146955881e-02   -1,602637395e-02   -7,111358643e-01    2,992568612e-01    0,000000000e+00    0,000000000e+00    0,000000000e+00    0,000000000e+00
      324000000    2,026090957e-02   -2,688250504e-02   -4,266452491e-01    6,372665167e-01    0,000000000e+00    0,000000000e+00    0,000000000e+00    0,000000000e+00
      338000000    2,578162588e-02   -5,263193324e-02   -6,933067460e-03    7,621464729e-01    0,000000000e+00    0,000000000e+00    0,000000000e+00    0,000000000e+00
      352000000    7,800274063e-03   -8,488924056e-02    4,068726003e-01    6,391342878e-01    0,000000000e+00    0,000000000e+00    0,000000000e+00    0,000000000e+00
      366000000   -3,453810140e-02   -9,543440491e-02    6,897478700e-01    3,110561371e-01    0,000000000e+00    0,000000000e+00    0,000000000e+00    0,000000000e+00
      380000000   -7,040744275e-02   -7,110976428e-02    7,469515204e-01   -1,252309531e-01    0,000000000e+00    0,000000000e+00    0,000000000e+00    0,000000000e+00
      394000000   -7,193315029e-02   -3,286740184e-02    5,455440283e-01   -5,218148232e-01    0,000000000e+00    0,000000000e+00    0,000000000e+00    0,000000000e+00
      408000000   -4,604424536e-02   -1,657305658e-02    1,610075682e-01   -7,312110066e-01    0,000000000e+00    0,000000000e+00    0,000000000e+00    0,000000000e+00
      422000000   -2,804618515e-02   -3,242832050e-02   -2,663457394e-01   -6,950435638e-01    0,000000000e+00    0,000000000e+00    0,000000000e+00    0,000000000e+00
      436000000   -4,045864940e-02   -5,165753514e-02   -6,029418111e-01   -4,314964712e-01    0,000000000e+00    0,000000000e+00    0,000000000e+00    0,000000000e+00
      450000000   -6,702331454e-02   -4,405087978e-02   -7,395933867e-01   -2,164514735e-02    0,000000000e+00    0,000000000e+00    0,000000000e+00    0,000000000e+00
      464000000   -7,292866707e-02   -1,179788914e-02   -6,181531549e-01    3,966497779e-01    0,000000000e+00    0,000000000e+00    0,000000000e+00    0,000000000e+00
      478000000   -4,738465697e-02    1,097882167e-02   -2,820691764e-01    6,666482091e-01    0,000000000e+00    0,000000000e+00    0,000000000e+00    0,000000000e+00
      492000000   -1,595973037e-02    5,424236879e-03    1,369887143e-01    7,015952468e-01    0,000000000e+00    0,000000000e+00    0,000000000e+00    0,000000000e+00
      506000000   -2,595150843e-03   -1,580671780e-02    4,978605509e-01    5,030317307e-01    0,000000000e+00    0,000000000e+00    0,000000000e+00    0,000000000e+00
      520000000   -4,665647633e-03   -3,154667094e-02    6,867910028e-01    1,429091394e-01    0,000000000e+00    0,000000000e+00    0,000000000e+00    0,000000000e+00
      534000000   -3,544352716e-03   -3,819891810e-02    6,426132321e-01   -2,618403435e-01    0,000000000e+00    0,000000000e+00    0,000000000e+00    0,000000000e+00
      548000000    6,635879632e-03   -5,383164063e-02    3,817089498e-01   -5,661110282e-01    0,000000000e+00    0,000000000e+00    0,000000000e+00    0,000000000e+00
      562000000    3,348718630e-03   -8,989790827e-02    2,809426282e-03   -6,713398695e-01    0,000000000e+00    0,000000000e+00    0,000000000e+00    0,000000000e+00
      576000000   -3,386682644e-02   -1,247650757e-01   -3,681041300e-01   -5,568386316e-01    0,000000000e+00    0,000000000e+00    0,000000000e+00    0,000000000e+00
      590000000   -9,570396692e-02   -1,229549572e-01   -6,195947528e-01   -2,625831664e-01    0,000000000e+00    0,000000000e+00    0,000000000e+00    0,000000000e+00
      604000000   -1,389094889e-01   -7,191569358e-02   -6,637589931e-01    1,369416714e-01    0,000000000e+00    0,000000000e+00    0,000000000e+00    0,000000000e+00
      618000000   -1,296124905e-01   -9,699300863e-03   -4,639229774e-01    4,939296246e-01    0,000000000e+00    0,000000000e+00    0,000000000e+00    0,000000000e+00
      632000000   -8,482643217e-02    1,547483914e-02   -1,005157605e-01    6,625389457e-01    0,000000000e+00    0,000000000e+00    0,000000000e+00    0,000000000e+00
      646000000   -5,180813000e-02   -6,516016583e-05    2,854679227e-01    5,941891670e-01    0,000000000e+00    0,000000000e+00    0,000000000e+00    0,000000000e+00
      660000000   -5,410287902e-02   -2,047025040e-02    5,651516914e-01    3,230975568e-01    0,000000000e+00    0,000000000e+00    0,000000000e+00    0,000000000e+00
      674000000   -7,003235817e-02   -1,671638899e-02    6,403907537e-01   -6,326125562e-02    0,000000000e+00    0,000000000e+00    0,000000000e+00    0,000000000e+00
      688000000   -6,665056944e-02    9,852263145e-03    4,710026979e-01   -4,242030680e-01    0,000000000e+00    0,000000000e+00    0,000000000e+00    0,000000000e+00
      702000000   -3,660103679e-02    2,626821958e-02    1,201082543e-01   -6,103820801e-01    0,000000000e+00    0,000000000e+00    0,000000000e+00    0,000000000e+00
      716000000    4,021377768e-03    1,632862724e-02   -2,596966922e-01   -5,441308618e-01    0,000000000e+00    0,000000000e+00    0,000000000e+00    0,000000000e+00
      730000000    3,706550226e-02   -1,316523179e-02   -5,218866467e-01   -2,705605626e-01    0,000000000e+00    0,000000000e+00    0,000000000e+00    0,000000000e+00
      744000000    6,302445382e-02   -6,569126993e-02   -5,602734089e-01    9,870485216e-02    0,000000000e+00    0,000000000e+00    0,000000000e+00    0,000000000e+00
      758000000    6,167493016e-02   -1,526185125e-01   -3,657360971e-01    4,003160894e-01    0,000000000e+00    0,000000000e+00    0,000000000e+00    0,000000000e+00
      772000000   -1,709050685e-02   -2,561101913e-01   -4,607396945e-02    5,080854893e-01    0,000000000e+00    0,000000000e+00    0,000000000e+00    0,000000000e+00
      786000000   -2,031934261e-01   -2,901720107e-01    2,588249445e-01    3,977243602e-01    0,000000000e+00    0,000000000e+00    0,000000000e+00    0,000000000e+00
      800000000   -4,070450962e-01   -1,270867884e-01    4,062090516e-01    1,182730645e-01    0,000000000e+00    0,000000000e+00    0,000000000e+00    0,000000000e+00
      814000000   -3,766503930e-01    2,019249499e-01    2,956678867e-01   -1,512666643e-01    0,000000000e+00    0,000000000e+00    0,000000000e+00    0,000000000e+00
      828000000   -6,214336306e-02    3,462809920e-01    8,235616237e-02   -1,897615343e-01    0,000000000e+00    0,000000000e+00    0,000000000e+00    0,000000000e+00
      842000000    2,120685875e-01    1,848635375e-01   -3,023969010e-03   -9,208808094e-02    0,000000000e+00    0,000000000e+00    0,000000000e+00    0,000000000e+00
      856000000    2,657029927e-01   -1,061926484e-01    3,668512031e-02   -3,641421720e-02    0,000000000e+00    0,000000000e+00    0,000000000e+00    0,000000000e+00
      870000000    8,124548197e-02   -3,526481390e-01    8,947069198e-02   -9,843661636e-02    0,000000000e+00    0,000000000e+00    0,000000000e+00    0,000000000e+00
      884000000   -2,684740722e-01   -3,561899662e-01    1,105090976e-02   -2,287790924e-01    0,000000000e+00    0,000000000e+00    0,000000000e+00    0,000000000e+00
      898000000   -4,576898515e-01   -1,228122320e-02   -2,162432075e-01   -2,101081461e-01    0,000000000e+00    0,000000000e+00    0,000000000e+00    0,000000000e+00
      912000000   -2,342631072e-01    2,780867517e-01   -3,326916695e-01    6,213725358e-02    0,000000000e+00    0,000000000e+00    0,000000000e+00    0,000000000e+00
      926000000    5,434507877e-02    2,629205287e-01   -2,112760246e-01    2,627412677e-01    0,000000000e+00    0,000000000e+00    0,000000000e+00    0,000000000e+00
      940000000    2,071554959e-01    8,420442790e-02   -3,179441765e-02    3,253438771e-01    0,000000000e+00    0,000000000e+00    0,000000000e+00    0,000000000e+00
      954000000    2,218546420e-01   -1,194046661e-01    1,320494711e-01    3,004769683e-01    0,000000000e+00    0,000000000e+00    0,000000000e+00    0,000000000e+00
      968000000    1,164173558e-01   -2,923637033e-01    2,689127922e-01    2,142735720e-01    0,000000000e+00    0,000000000e+00    0,000000000e+00    0,000000000e+00
      982000000   -7,521767914e-02   -3,836875558e-01    3,616556525e-01    6,262149662e-02    0,000000000e+00    0,000000000e+00    0,000000000e+00    0,000000000e+00
      996000000   -3,124649823e-01   -3,296701014e-01    3,631065190e-01   -1,425687671e-01    0,000000000e+00    0,000000000e+00    0,000000000e+00    0,000000000e+00
     1010000000   -4,632932544e-01   -1,162692755e-01    2,191209793e-01   -3,356936872e-01    0,000000000e+00    0,000000000e+00    0,000000000e+00    0,000000000e+00
     1024000000   -4,132950604e-01    1,449229270e-01   -3,156769276e-02   -3,852084577e-01    0,000000000e+00    0,000000000e+00    0,000000000e+00    0,000000000e+00
     1038000000   -2,232284248e-01    2,921169996e-01   -2,422592938e-01   -2,589073181e-01    0,000000000e+00    0,000000000e+00    0,000000000e+00    0,000000000e+00
     1052000000   -1,608994044e-02    2,828408480e-01   -3,099610507e-01   -4,663240165e-02    0,000000000e+00    0,000000000e+00    0,000000000e+00    0,000000000e+00
     1066000000    1,352819949e-01    1,699419916e-01   -2,518380582e-01    1,381993741e-01    0,000000000e+00    0,000000000e+00    0,000000000e+00    0,000000000e+00
     1080000000    1,927396059e-01    9,930931963e-03   -1,157708839e-01    2,558680773e-01    0,000000000e+00    0,000000000e+00    0,000000000e+00    0,000000000e+00
     1094000000    1,581283510e-01   -1,633680314e-01    6,206129491e-02    2,905935943e-01    0,000000000e+00    0,000000000e+00    0,000000000e+00    0,000000000e+00
     1108000000    1,904685609e-02   -2,932325900e-01    2,604051828e-01    2,296686918e-01    0,000000000e+00    0,000000000e+00    0,000000000e+00    0,000000000e+00
     1122000000   -2,125403136e-01   -2,853797376e-01    4,411063194e-01    2,203330398e-02    0,000000000e+00    0,000000000e+00    0,000000000e+00    0,000000000e+00
     1136000000   -3,296817541e-01   -3,018352576e-02    3,980591893e-01   -3,468464315e-01    0,000000000e+00    0,000000000e+00    0,000000000e+00    0,000000000e+00
     1150000000   -1,018139571e-01    1,413536519e-01    5,097820610e-02   -5,272120237e-01    0,000000000e+00    0,000000000e+00    0,000000000e+00    0,000000000e+00
     1164000000    8,508528769e-02   -2,092542872e-02   -2,505318224e-01   -4,011865258e-01    0,000000000e+00    0,000000000e+00    0,000000000e+00    0,000000000e+00
     1178000000    2,764325589e-02   -2,541231811e-01   -3,686376214e-01   -1,828888357e-01    0,000000000e+00    0,000000000e+00    0,000000000e+00    0,000000000e+00
     1192000000   -2,221713811e-01   -3,497395515e-01   -3,437018096e-01    3,820433095e-02    0,000000000e+00    0,000000000e+00    0,000000000e+00    0,000000000e+00
     1206000000   -4,848099351e-01   -1,775904149e-01   -1,910946220e-01    1,830407232e-01    0,000000000e+00    0,000000000e+00    0,000000000e+00    0,000000000e+00
     1220000000   -5,058516264e-01    1,389581412e-01   -8,604773320e-03    1,785497218e-01    0,000000000e+00    0,000000000e+00    0,000000000e+00    0,000000000e+00
     1234000000   -2,990043461e-01    3,468519449e-01    7,242068648e-02    8,002401888e-02    0,000000000e+00    0,000000000e+00    0,000000000e+00    0,000000000e+00
     1248000000   -6,223210692e-02    3,642366827e-01    7,042508572e-02    2,924261848e-03    0,000000000e+00    0,000000000e+00    0,000000000e+00    0,000000000e+00
     1262000000    1,049354672e-01    2,619988918e-01    2,704270929e-02   -2,390654385e-02    0,000000000e+00    0,000000000e+00    0,000000000e+00    0,000000000e+00
     1276000000    2,027491778e-01    1,093835458e-01    7,032567635e-03   -8,013767190e-03    0,000000000e+00    0,000000000e+00    0,000000000e+00    0,000000000e+00
     1290000000    2,229814678e-01   -6,506295502e-02    1,392504666e-02    2,177816629e-02    0,000000000e+00    0,000000000e+00    0,000000000e+00    0,000000000e+00
     1304000000    1,631395519e-01   -2,331959307e-01    5,825354531e-02    5,802927539e-02    0,000000000e+00    0,000000000e+00    0,000000000e+00    0,000000000e+00
     1318000000    2,771338634e-02   -3,630495965e-01    1,706776023e-01    1,849397644e-02    0,000000000e+00    0,000000000e+00    0,000000000e+00    0,000000000e+00
     1332000000   -1,530871093e-01   -3,989736438e-01    9,571104497e-02   -1,882630736e-01    0,000000000e+00    0,000000000e+00    0,000000000e+00    0,000000000e+00
     1346000000   -3,570947349e-01   -3,938798010e-01   -4,992780462e-02   -3,208819404e-02    0,000000000e+00    0,000000000e+00    0,000000000e+00    0,000000000e+00
     1360000000   -5,793243647e-01   -2,004990429e-01    6,951676309e-02    9,181701392e-02    0,000000000e+00    0,000000000e+00    0,000000000e+00    0,000000000e+00
     1374000000   -6,253754497e-01    1,179680005e-01    1,795414090e-01    5,281387642e-02    0,000000000e+00    0,000000000e+00    0,000000000e+00    0,000000000e+00
     1388000000   -4,768008292e-01    3,583749831e-01    2,169097513e-01   -2,161134593e-02    0,000000000e+00    0,000000000e+00    0,000000000e+00    0,000000000e+00
     1402000000   -2,450689822e-01    4,458891749e-01    2,097252905e-01   -7,523847371e-02    0,000000000e+00    0,000000000e+00    0,000000000e+00    0,000000000e+00
     1416000000   -3,849578276e-02    4,098460376e-01    1,946528405e-01   -1,083855182e-01    0,000000000e+00    0,000000000e+00    0,000000000e+00    0,000000000e+00
     1430000000    1,143991351e-01    3,055211306e-01    1,858992279e-01   -1,071259528e-01    0,000000000e+00    0,000000000e+00    0,000000000e+00    0,000000000e+00
     1444000000    2,013517767e-01    1,600586772e-01    1,602711231e-01   -1,085801944e-01    0,000000000e+00    0,000000000e+00    0,000000000e+00    0,000000000e+00
     1458000000    2,298853099e-01   -1,624131203e-02    1,538348943e-01   -8,281932026e-02    0,000000000e+00    0,000000000e+00    0,000000000e+00    0,000000000e+00
     1472000000    1,875226349e-01   -1,941798329e-01    1,431484371e-01   -5,121873319e-02    0,000000000e+00    0,000000000e+00    0,000000000e+00    0,000000000e+00
     1486000000    6,791322678e-02   -3,637967408e-01    1,746272892e-01    1,378573291e-02    0,000000000e+00    0,000000000e+00    0,000000000e+00    0,000000000e+00
     1500000000   -1,586336643e-01   -4,880650043e-01    2,247094661e-01    7,537578791e-02    0,000000000e+00    0,000000000e+00    0,000000000e+00    0,000000000e+00
