! NanoVNA-App
! Date: 2025-09-25 15:43:09
! Start: 100MHz Stop: 1,5GHz Points: 101
! S-Parameter data: F S11 S21 S12 S22
# Hz S RI R 50
!     Frequency           S11_Real           S11_Imag           S21_Real           S21_Imag           S12_Real           S12_Imag           S22_Real           S22_Imag
      100000000   -2,878092788e-02   -4,255242180e-03    3,740139902e-01   -7,216039896e-01    0,000000000e+00    0,000000000e+00    0,000000000e+00    0,000000000e+00
      114000000   -1,654325798e-02    1,149663143e-02   -8,915399760e-02   -8,053717017e-01    0,000000000e+00    0,000000000e+00    0,000000000e+00    0,000000000e+00
      128000000    3,393370192e-03    1,071220171e-02   -5,145530105e-01   -6,204522252e-01    0,000000000e+00    0,000000000e+00    0,000000000e+00    0,000000000e+00
      142000000    1,462803781e-02   -2,640306251e-03   -7,669240832e-01   -2,364286184e-01    0,000000000e+00    0,000000000e+00    0,000000000e+00    0,000000000e+00
      156000000    1,503500715e-02   -1,456679869e-02   -7,656240463e-01    2,214788198e-01    0,000000000e+00    0,000000000e+00    0,000000000e+00    0,000000000e+00
      170000000    1,710210554e-02   -2,243063413e-02   -5,179778934e-01    6,044563651e-01    0,000000000e+00    0,000000000e+00    0,000000000e+00    0,000000000e+00
      184000000    2,134013548e-02   -3,719448298e-02   -1,011555269e-01    7,858838439e-01    0,000000000e+00    0,000000000e+00    0,000000000e+00    0,000000000e+00
      198000000    1,324692834e-02   -6,254336983e-02    3,431312740e-01    7,123720646e-01    0,000000000e+00    0,000000000e+00    0,000000000e+00    0,000000000e+00
      212000000   -1,852163486e-02   -8,127211034e-02    6,777288914e-01    4,098002017e-01    0,000000000e+00    0,000000000e+00    0,000000000e+00    0,000000000e+00
      226000000   -6,136459857e-02   -6,921871006e-02    7,954242229e-01   -3,052493557e-02    0,000000000e+00    0,000000000e+00    0,000000000e+00    0,000000000e+00
      240000000   -8,222858608e-02   -2,580942772e-02    6,456656456e-01   -4,668417871e-01    0,000000000e+00    0,000000000e+00    0,000000000e+00    0,000000000e+00
      254000000   -6,344439834e-02    1,696278527e-02    2,758903801e-01   -7,431895733e-01    0,000000000e+00    0,000000000e+00    0,000000000e+00    0,000000000e+00
      268000000   -2,401131764e-02    2,872991003e-02   -1,778473407e-01   -7,642518878e-01    0,000000000e+00    0,000000000e+00    0,000000000e+00    0,000000000e+00
      282000000    4,026677925e-03    1,208295859e-02   -5,615739226e-01   -5,356720686e-01    0,000000000e+00    0,000000000e+00    0,000000000e+00    0,000000000e+00
      296000000    9,719178081e-03   -7,508660667e-03   -7,593907118e-01   -1,395417154e-01    0,000000000e+00    0,000000000e+00    0,000000000e+00    0,000000000e+00
      310000000    1,151264273e-02   -1,601688191e-02   -7,114252448e-01    2,973895371e-01    0,000000000e+00    0,000000000e+00    0,000000000e+00    0,000000000e+00
      324000000    1,991851442e-02   -2,664969116e-02   -4,270346463e-01    6,376791000e-01    0,000000000e+00    0,000000000e+00    0,000000000e+00    0,000000000e+00
      338000000    2,553917281e-02   -5,238935724e-02   -9,565320797e-03    7,625114322e-01    0,000000000e+00    0,000000000e+00    0,000000000e+00    0,000000000e+00
      352000000    7,310485002e-03   -8,456631005e-02    4,069311619e-01    6,385775805e-01    0,000000000e+00    0,000000000e+00    0,000000000e+00    0,000000000e+00
      366000000   -3,470347077e-02   -9,546130896e-02    6,893393993e-01    3,116402626e-01    0,000000000e+00    0,000000000e+00    0,000000000e+00    0,000000000e+00
      380000000   -7,044823468e-02   -7,118733972e-02    7,467734218e-01   -1,255748123e-01    0,000000000e+00    0,000000000e+00    0,000000000e+00    0,000000000e+00
      394000000   -7,211855799e-02   -3,270270303e-02    5,458172560e-01   -5,200767517e-01    0,000000000e+00    0,000000000e+00    0,000000000e+00    0,000000000e+00
      408000000   -4,640211910e-02   -1,644584909e-02    1,623685360e-01   -7,312241197e-01    0,000000000e+00    0,000000000e+00    0,000000000e+00    0,000000000e+00
      422000000   -2,838666737e-02   -3,201156855e-02   -2,669982016e-01   -6,953121424e-01    0,000000000e+00    0,000000000e+00    0,000000000e+00    0,000000000e+00
      436000000   -4,034708068e-02   -5,159335211e-02   -6,031457186e-01   -4,318945408e-01    0,000000000e+00    0,000000000e+00    0,000000000e+00    0,000000000e+00
      450000000   -6,735105067e-02   -4,346544668e-02   -7,397612929e-01   -2,215599082e-02    0,000000000e+00    0,000000000e+00    0,000000000e+00    0,000000000e+00
      464000000   -7,285799086e-02   -1,189578231e-02   -6,183579564e-01    3,972184062e-01    0,000000000e+00    0,000000000e+00    0,000000000e+00    0,000000000e+00
      478000000   -4,762717336e-02    1,119495276e-02   -2,831065059e-01    6,663708687e-01    0,000000000e+00    0,000000000e+00    0,000000000e+00    0,000000000e+00
      492000000   -1,570229977e-02    5,475708749e-03    1,365678757e-01    7,007166147e-01    0,000000000e+00    0,000000000e+00    0,000000000e+00    0,000000000e+00
      506000000   -2,703278558e-03   -1,562717184e-02    4,975181520e-01    5,028964877e-01    0,000000000e+00    0,000000000e+00    0,000000000e+00    0,000000000e+00
      520000000   -4,905243870e-03   -3,132336959e-02    6,883767247e-01    1,427174658e-01    0,000000000e+00    0,000000000e+00    0,000000000e+00    0,000000000e+00
      534000000   -3,673326690e-03   -3,788371012e-02    6,429086328e-01   -2,616747916e-01    0,000000000e+00    0,000000000e+00    0,000000000e+00    0,000000000e+00
      548000000    6,121790968e-03   -5,408793315e-02    3,807650506e-01   -5,661084056e-01    0,000000000e+00    0,000000000e+00    0,000000000e+00    0,000000000e+00
      562000000    3,649777733e-03   -8,950193971e-02    3,324614605e-03   -6,711787581e-01    0,000000000e+00    0,000000000e+00    0,000000000e+00    0,000000000e+00
      576000000   -3,423469141e-02   -1,242669299e-01   -3,685662746e-01   -5,574365258e-01    0,000000000e+00    0,000000000e+00    0,000000000e+00    0,000000000e+00
      590000000   -9,590703249e-02   -1,228687465e-01   -6,212462783e-01   -2,635409832e-01    0,000000000e+00    0,000000000e+00    0,000000000e+00    0,000000000e+00
      604000000   -1,387274563e-01   -7,216357440e-02   -6,639745831e-01    1,372650266e-01    0,000000000e+00    0,000000000e+00    0,000000000e+00    0,000000000e+00
      618000000   -1,290239990e-01   -1,037905179e-02   -4,641329944e-01    4,920459986e-01    0,000000000e+00    0,000000000e+00    0,000000000e+00    0,000000000e+00
      632000000   -8,501562476e-02    1,624833234e-02   -9,969099611e-02    6,612846255e-01    0,000000000e+00    0,000000000e+00    0,000000000e+00    0,000000000e+00
      646000000   -5,234137550e-02    2,771312720e-04    2,847442627e-01    5,941642523e-01    0,000000000e+00    0,000000000e+00    0,000000000e+00    0,000000000e+00
      660000000   -5,367615074e-02   -2,122972906e-02    5,654183626e-01    3,231932819e-01    0,000000000e+00    0,000000000e+00    0,000000000e+00    0,000000000e+00
      674000000   -7,007132471e-02   -1,624670252e-02    6,406860948e-01   -6,323064119e-02    0,000000000e+00    0,000000000e+00    0,000000000e+00    0,000000000e+00
      688000000   -6,654765457e-02    9,378916584e-03    4,708004594e-01   -4,235039949e-01    0,000000000e+00    0,000000000e+00    0,000000000e+00    0,000000000e+00
      702000000   -3,507703543e-02    2,618929558e-02    1,208568886e-01   -6,088462472e-01    0,000000000e+00    0,000000000e+00    0,000000000e+00    0,000000000e+00
      716000000    3,374548629e-03    1,556295250e-02   -2,585567832e-01   -5,446786284e-01    0,000000000e+00    0,000000000e+00    0,000000000e+00    0,000000000e+00
      730000000    3,737476468e-02   -1,360669639e-02   -5,222969651e-01   -2,713648379e-01    0,000000000e+00    0,000000000e+00    0,000000000e+00    0,000000000e+00
      744000000    6,224401668e-02   -6,551156938e-02   -5,604155064e-01    9,859108180e-02    0,000000000e+00    0,000000000e+00    0,000000000e+00    0,000000000e+00
      758000000    6,063479558e-02   -1,516349018e-01   -3,665507138e-01    4,004556835e-01    0,000000000e+00    0,000000000e+00    0,000000000e+00    0,000000000e+00
      772000000   -1,745263301e-02   -2,562600374e-01   -4,604843259e-02    5,092000365e-01    0,000000000e+00    0,000000000e+00    0,000000000e+00    0,000000000e+00
      786000000   -2,022102326e-01   -2,904864550e-01    2,592248023e-01    3,988455236e-01    0,000000000e+00    0,000000000e+00    0,000000000e+00    0,000000000e+00
      800000000   -4,066769779e-01   -1,272170544e-01    4,071521163e-01    1,188665926e-01    0,000000000e+00    0,000000000e+00    0,000000000e+00    0,000000000e+00
      814000000   -3,773733974e-01    2,015704215e-01    2,969177067e-01   -1,509727687e-01    0,000000000e+00    0,000000000e+00    0,000000000e+00    0,000000000e+00
      828000000   -6,167560816e-02    3,481132388e-01    8,286131918e-02   -1,910876781e-01    0,000000000e+00    0,000000000e+00    0,000000000e+00    0,000000000e+00
      842000000    2,114171386e-01    1,857179254e-01   -3,487762529e-03   -9,301972389e-02    0,000000000e+00    0,000000000e+00    0,000000000e+00    0,000000000e+00
      856000000    2,657598257e-01   -1,057217866e-01    3,584127128e-02   -3,723938018e-02    0,000000000e+00    0,000000000e+00    0,000000000e+00    0,000000000e+00
      870000000    8,229672909e-02   -3,509958982e-01    8,851116896e-02   -9,713883698e-02    0,000000000e+00    0,000000000e+00    0,000000000e+00    0,000000000e+00
      884000000   -2,664272189e-01   -3,559617698e-01    1,157959178e-02   -2,276806235e-01    0,000000000e+00    0,000000000e+00    0,000000000e+00    0,000000000e+00
      898000000   -4,575847983e-01   -1,310699899e-02   -2,154603899e-01   -2,094777226e-01    0,000000000e+00    0,000000000e+00    0,000000000e+00    0,000000000e+00
      912000000   -2,345721275e-01    2,782258093e-01   -3,411673009e-01    7,539808005e-02    0,000000000e+00    0,000000000e+00    0,000000000e+00    0,000000000e+00
      926000000    5,620149896e-02    2,640236914e-01   -2,077820897e-01    2,630852461e-01    0,000000000e+00    0,000000000e+00    0,000000000e+00    0,000000000e+00
      940000000    2,095082700e-01    8,280964941e-02   -3,048431128e-02    3,257931173e-01    0,000000000e+00    0,000000000e+00    0,000000000e+00    0,000000000e+00
      954000000    2,229647487e-01   -1,226611435e-01    1,317854375e-01    3,009490073e-01    0,000000000e+00    0,000000000e+00    0,000000000e+00    0,000000000e+00
      968000000    1,187617183e-01   -2,921299338e-01    2,692717314e-01    2,138058692e-01    0,000000000e+00    0,000000000e+00    0,000000000e+00    0,000000000e+00
      982000000   -7,680489123e-02   -3,828990161e-01    3,607529700e-01    6,147608534e-02    0,000000000e+00    0,000000000e+00    0,000000000e+00    0,000000000e+00
      996000000   -3,084577024e-01   -3,314869702e-01    3,639279604e-01   -1,437122524e-01    0,000000000e+00    0,000000000e+00    0,000000000e+00    0,000000000e+00
     1010000000   -4,626240730e-01   -1,174438298e-01    2,208240330e-01   -3,342462778e-01    0,000000000e+00    0,000000000e+00    0,000000000e+00    0,000000000e+00
     1024000000   -4,169439077e-01    1,411966980e-01   -3,024840727e-02   -3,839865029e-01    0,000000000e+00    0,000000000e+00    0,000000000e+00    0,000000000e+00
     1038000000   -2,206734121e-01    2,904682159e-01   -2,421655655e-01   -2,575068176e-01    0,000000000e+00    0,000000000e+00    0,000000000e+00    0,000000000e+00
     1052000000   -1,526995748e-02    2,783381343e-01   -3,113892972e-01   -4,583373293e-02    0,000000000e+00    0,000000000e+00    0,000000000e+00    0,000000000e+00
     1066000000    1,299166381e-01    1,709522754e-01   -2,515197396e-01    1,367548108e-01    0,000000000e+00    0,000000000e+00    0,000000000e+00    0,000000000e+00
     1080000000    1,906380057e-01    6,873070728e-03   -1,129465923e-01    2,554649711e-01    0,000000000e+00    0,000000000e+00    0,000000000e+00    0,000000000e+00
     1094000000    1,598989069e-01   -1,668313295e-01    6,079187617e-02    2,913306355e-01    0,000000000e+00    0,000000000e+00    0,000000000e+00    0,000000000e+00
     1108000000    2,132347785e-02   -2,957431078e-01    2,583940029e-01    2,342904359e-01    0,000000000e+00    0,000000000e+00    0,000000000e+00    0,000000000e+00
     1122000000   -2,116658092e-01   -2,815692425e-01    4,434646368e-01    2,120134793e-02    0,000000000e+00    0,000000000e+00    0,000000000e+00    0,000000000e+00
     1136000000   -3,266374469e-01   -2,587003075e-02    3,957104981e-01   -3,423284590e-01    0,000000000e+00    0,000000000e+00    0,000000000e+00    0,000000000e+00
     1150000000   -1,099613458e-01    1,365622431e-01    5,035188422e-02   -5,314953327e-01    0,000000000e+00    0,000000000e+00    0,000000000e+00    0,000000000e+00
     1164000000    8,408730477e-02   -1,405490749e-02   -2,502854764e-01   -4,035431147e-01    0,000000000e+00    0,000000000e+00    0,000000000e+00    0,000000000e+00
     1178000000    2,539665252e-02   -2,532263100e-01   -3,715868890e-01   -1,775677800e-01    0,000000000e+00    0,000000000e+00    0,000000000e+00    0,000000000e+00
     1192000000   -2,212064713e-01   -3,449945152e-01   -3,397760093e-01    4,536938667e-02    0,000000000e+00    0,000000000e+00    0,000000000e+00    0,000000000e+00
     1206000000   -4,809334874e-01   -1,771515310e-01   -1,898022443e-01    1,870471239e-01    0,000000000e+00    0,000000000e+00    0,000000000e+00    0,000000000e+00
     1220000000   -4,977610707e-01    1,417904943e-01   -8,273401298e-03    1,800266206e-01    0,000000000e+00    0,000000000e+00    0,000000000e+00    0,000000000e+00
     1234000000   -3,017385006e-01    3,388915062e-01    7,295221090e-02    7,780276239e-02    0,000000000e+00    0,000000000e+00    0,000000000e+00    0,000000000e+00
     1248000000   -6,468667090e-02    3,628396094e-01    6,466127932e-02    1,391904079e-04    0,000000000e+00    0,000000000e+00    0,000000000e+00    0,000000000e+00
     1262000000    1,078088135e-01    2,572459579e-01    2,853143588e-02   -2,937896363e-02    0,000000000e+00    0,000000000e+00    0,000000000e+00    0,000000000e+00
     1276000000    2,029966712e-01    1,016879231e-01    2,568426775e-03   -1,145571470e-02    0,000000000e+00    0,000000000e+00    0,000000000e+00    0,000000000e+00
     1290000000    2,226153463e-01   -6,276744604e-02    1,101919636e-02    2,699817158e-02    0,000000000e+00    0,000000000e+00    0,000000000e+00    0,000000000e+00
     1304000000    1,691029817e-01   -2,328859866e-01    6,260897964e-02    5,925350636e-02    0,000000000e+00    0,000000000e+00    0,000000000e+00    0,000000000e+00
     1318000000    2,394574322e-02   -3,614330590e-01    1,716282219e-01    1,996916719e-02    0,000000000e+00    0,000000000e+00    0,000000000e+00    0,000000000e+00
     1332000000   -1,503274143e-01   -3,940121531e-01    1,001596674e-01   -1,817678362e-01    0,000000000e+00    0,000000000e+00    0,000000000e+00    0,000000000e+00
     1346000000   -3,564433157e-01   -3,883899748e-01   -5,385540798e-02   -2,481013164e-02    0,000000000e+00    0,000000000e+00    0,000000000e+00    0,000000000e+00
     1360000000   -5,855059624e-01   -2,065824121e-01    6,595207751e-02    9,008391947e-02    0,000000000e+00    0,000000000e+00    0,000000000e+00    0,000000000e+00
     1374000000   -6,277852058e-01    1,102293432e-01    1,835716814e-01    5,946541950e-02    0,000000000e+00    0,000000000e+00    0,000000000e+00    0,000000000e+00
     1388000000   -4,750022292e-01    3,517825007e-01    2,094136626e-01   -1,859737560e-02    0,000000000e+00    0,000000000e+00    0,000000000e+00    0,000000000e+00
     1402000000   -2,468933165e-01    4,395576715e-01    2,025453597e-01   -7,762598246e-02    0,000000000e+00    0,000000000e+00    0,000000000e+00    0,000000000e+00
     1416000000   -3,671123832e-02    4,065352678e-01    1,909255832e-01   -1,039515808e-01    0,000000000e+00    0,000000000e+00    0,000000000e+00    0,000000000e+00
     1430000000    1,237296537e-01    3,057681024e-01    1,886200011e-01   -1,376482248e-01    0,000000000e+00    0,000000000e+00    0,000000000e+00    0,000000000e+00
     1444000000    1,992882788e-01    1,559307724e-01    1,577066779e-01   -1,107096523e-01    0,000000000e+00    0,000000000e+00    0,000000000e+00    0,000000000e+00
     1458000000    2,291269302e-01   -1,235187054e-02    1,476284713e-01   -8,065837622e-02    0,000000000e+00    0,000000000e+00    0,000000000e+00    0,000000000e+00
     1472000000    1,948319972e-01   -1,908034980e-01    1,446655989e-01   -3,572535142e-02    0,000000000e+00    0,000000000e+00    0,000000000e+00    0,000000000e+00
     1486000000    6,223753467e-02   -3,694199920e-01    1,682557613e-01    1,564994268e-02    0,000000000e+00    0,000000000e+00    0,000000000e+00    0,000000000e+00
     1500000000   -1,535331160e-01   -4,814864695e-01    2,337790877e-01    9,496287256e-02    0,000000000e+00    0,000000000e+00    0,000000000e+00    0,000000000e+00
