! NanoVNA-App
! Date: 2025-09-25 15:41:52
! Start: 100MHz Stop: 1,5GHz Points: 101
! S-Parameter data: F S11 S21 S12 S22
# Hz S RI R 50
!     Frequency           S11_Real           S11_Imag           S21_Real           S21_Imag           S12_Real           S12_Imag           S22_Real           S22_Imag
      100000000   -2,874337882e-02   -4,244056065e-03    3,739615679e-01   -7,215425372e-01    0,000000000e+00    0,000000000e+00    0,000000000e+00    0,000000000e+00
      114000000   -1,654211991e-02    1,150173694e-02   -8,912599832e-02   -8,052482605e-01    0,000000000e+00    0,000000000e+00    0,000000000e+00    0,000000000e+00
      128000000    3,406315111e-03    1,063619740e-02   -5,143853426e-01   -6,201206446e-01    0,000000000e+00    0,000000000e+00    0,000000000e+00    0,000000000e+00
      142000000    1,465068012e-02   -2,657891251e-03   -7,666964531e-01   -2,363594472e-01    0,000000000e+00    0,000000000e+00    0,000000000e+00    0,000000000e+00
      156000000    1,484393887e-02   -1,457899343e-02   -7,640207410e-01    2,200739682e-01    0,000000000e+00    0,000000000e+00    0,000000000e+00    0,000000000e+00
      170000000    1,714344881e-02   -2,246514708e-02   -5,178470612e-01    6,042627096e-01    0,000000000e+00    0,000000000e+00    0,000000000e+00    0,000000000e+00
      184000000    2,130478807e-02   -3,717982396e-02   -1,015771627e-01    7,855997086e-01    0,000000000e+00    0,000000000e+00    0,000000000e+00    0,000000000e+00
      198000000    1,324916538e-02   -6,253560632e-02    3,429232836e-01    7,120569944e-01    0,000000000e+00    0,000000000e+00    0,000000000e+00    0,000000000e+00
      212000000   -1,841866411e-02   -8,129289001e-02    6,778036952e-01    4,098422229e-01    0,000000000e+00    0,000000000e+00    0,000000000e+00    0,000000000e+00
      226000000   -6,133661047e-02   -6,919569522e-02    7,954024673e-01   -3,045799397e-02    0,000000000e+00    0,000000000e+00    0,000000000e+00    0,000000000e+00
      240000000   -8,222310990e-02   -2,583856694e-02    6,456255317e-01   -4,665143788e-01    0,000000000e+00    0,000000000e+00    0,000000000e+00    0,000000000e+00
      254000000   -6,343509257e-02    1,692288555e-02    2,759927511e-01   -7,429197431e-01    0,000000000e+00    0,000000000e+00    0,000000000e+00    0,000000000e+00
      268000000   -2,387794293e-02    2,877315320e-02   -1,780469865e-01   -7,638290524e-01    0,000000000e+00    0,000000000e+00    0,000000000e+00    0,000000000e+00
      282000000    4,069403280e-03    1,201956626e-02   -5,615331531e-01   -5,353959799e-01    0,000000000e+00    0,000000000e+00    0,000000000e+00    0,000000000e+00
      296000000    9,867459536e-03   -7,620705757e-03   -7,593137622e-01   -1,393914223e-01    0,000000000e+00    0,000000000e+00    0,000000000e+00    0,000000000e+00
      310000000    1,158340741e-02   -1,609500125e-02   -7,121872902e-01    2,971467674e-01    0,000000000e+00    0,000000000e+00    0,000000000e+00    0,000000000e+00
      324000000    1,997012831e-02   -2,667942271e-02   -4,267991781e-01    6,375173330e-01    0,000000000e+00    0,000000000e+00    0,000000000e+00    0,000000000e+00
      338000000    2,549876086e-02   -5,228776857e-02   -7,253838237e-03    7,593318820e-01    0,000000000e+00    0,000000000e+00    0,000000000e+00    0,000000000e+00
      352000000    7,613626309e-03   -8,481303602e-02    4,066027403e-01    6,396090388e-01    0,000000000e+00    0,000000000e+00    0,000000000e+00    0,000000000e+00
      366000000   -3,431623429e-02   -9,568330646e-02    6,898635030e-01    3,108913302e-01    0,000000000e+00    0,000000000e+00    0,000000000e+00    0,000000000e+00
      380000000   -7,005521655e-02   -7,104735076e-02    7,474765778e-01   -1,260360032e-01    0,000000000e+00    0,000000000e+00    0,000000000e+00    0,000000000e+00
      394000000   -7,189579308e-02   -3,270316869e-02    5,462980866e-01   -5,220751166e-01    0,000000000e+00    0,000000000e+00    0,000000000e+00    0,000000000e+00
      408000000   -4,629810527e-02   -1,663825288e-02    1,622759998e-01   -7,319089174e-01    0,000000000e+00    0,000000000e+00    0,000000000e+00    0,000000000e+00
      422000000   -2,829779498e-02   -3,211580217e-02   -2,668761611e-01   -6,953162551e-01    0,000000000e+00    0,000000000e+00    0,000000000e+00    0,000000000e+00
      436000000   -4,037020355e-02   -5,179876462e-02   -6,033117771e-01   -4,313447475e-01    0,000000000e+00    0,000000000e+00    0,000000000e+00    0,000000000e+00
      450000000   -6,711130589e-02   -4,388259351e-02   -7,399931550e-01   -2,182215825e-02    0,000000000e+00    0,000000000e+00    0,000000000e+00    0,000000000e+00
      464000000   -7,291592658e-02   -1,215781923e-02   -6,175572872e-01    3,965822160e-01    0,000000000e+00    0,000000000e+00    0,000000000e+00    0,000000000e+00
      478000000   -4,742319509e-02    1,125729363e-02   -2,832656801e-01    6,676874757e-01    0,000000000e+00    0,000000000e+00    0,000000000e+00    0,000000000e+00
      492000000   -1,566084847e-02    5,866043270e-03    1,368988603e-01    7,011862993e-01    0,000000000e+00    0,000000000e+00    0,000000000e+00    0,000000000e+00
      506000000   -2,571966266e-03   -1,608163677e-02    4,970275164e-01    5,022137761e-01    0,000000000e+00    0,000000000e+00    0,000000000e+00    0,000000000e+00
      520000000   -4,860630725e-03   -3,125691041e-02    6,872652173e-01    1,405966431e-01    0,000000000e+00    0,000000000e+00    0,000000000e+00    0,000000000e+00
      534000000   -3,779026680e-03   -3,818750381e-02    6,428190470e-01   -2,616586387e-01    0,000000000e+00    0,000000000e+00    0,000000000e+00    0,000000000e+00
      548000000    6,136806216e-03   -5,430444330e-02    3,809891343e-01   -5,671022534e-01    0,000000000e+00    0,000000000e+00    0,000000000e+00    0,000000000e+00
      562000000    3,128904849e-03   -8,927977830e-02    3,851239104e-03   -6,709602475e-01    0,000000000e+00    0,000000000e+00    0,000000000e+00    0,000000000e+00
      576000000   -3,433855250e-02   -1,244995221e-01   -3,682948053e-01   -5,576925874e-01    0,000000000e+00    0,000000000e+00    0,000000000e+00    0,000000000e+00
      590000000   -9,568193555e-02   -1,227268502e-01   -6,184225082e-01   -2,650214136e-01    0,000000000e+00    0,000000000e+00    0,000000000e+00    0,000000000e+00
      604000000   -1,391748637e-01   -7,235611975e-02   -6,641865969e-01    1,366547197e-01    0,000000000e+00    0,000000000e+00    0,000000000e+00    0,000000000e+00
      618000000   -1,287961155e-01   -9,787197225e-03   -4,638106823e-01    4,931584001e-01    0,000000000e+00    0,000000000e+00    0,000000000e+00    0,000000000e+00
      632000000   -8,440235257e-02    1,663640514e-02   -9,971571714e-02    6,621979475e-01    0,000000000e+00    0,000000000e+00    0,000000000e+00    0,000000000e+00
      646000000   -5,227870122e-02    8,668004302e-04    2,854107618e-01    5,943491459e-01    0,000000000e+00    0,000000000e+00    0,000000000e+00    0,000000000e+00
      660000000   -5,287239701e-02   -2,078887075e-02    5,642811060e-01    3,230193257e-01    0,000000000e+00    0,000000000e+00    0,000000000e+00    0,000000000e+00
      674000000   -6,997869909e-02   -1,711756177e-02    6,408684850e-01   -6,305932254e-02    0,000000000e+00    0,000000000e+00    0,000000000e+00    0,000000000e+00
      688000000   -6,720041484e-02    9,833192453e-03    4,705633819e-01   -4,239335656e-01    0,000000000e+00    0,000000000e+00    0,000000000e+00    0,000000000e+00
      702000000   -3,525223210e-02    2,543723024e-02    1,221159995e-01   -6,086396575e-01    0,000000000e+00    0,000000000e+00    0,000000000e+00    0,000000000e+00
      716000000    4,257560242e-03    1,623825729e-02   -2,586453557e-01   -5,453572273e-01    0,000000000e+00    0,000000000e+00    0,000000000e+00    0,000000000e+00
      730000000    3,728690743e-02   -1,352051832e-02   -5,218634605e-01   -2,709770799e-01    0,000000000e+00    0,000000000e+00    0,000000000e+00    0,000000000e+00
      744000000    6,236561760e-02   -6,451339275e-02   -5,599566102e-01    9,862080216e-02    0,000000000e+00    0,000000000e+00    0,000000000e+00    0,000000000e+00
      758000000    6,070774421e-02   -1,518126726e-01   -3,655139506e-01    4,000054300e-01    0,000000000e+00    0,000000000e+00    0,000000000e+00    0,000000000e+00
      772000000   -1,797841676e-02   -2,562803626e-01   -4,580938816e-02    5,090554953e-01    0,000000000e+00    0,000000000e+00    0,000000000e+00    0,000000000e+00
      786000000   -2,024938166e-01   -2,905798852e-01    2,599556744e-01    3,992527425e-01    0,000000000e+00    0,000000000e+00    0,000000000e+00    0,000000000e+00
      800000000   -4,073013663e-01   -1,277586222e-01    4,074109495e-01    1,187409535e-01    0,000000000e+00    0,000000000e+00    0,000000000e+00    0,000000000e+00
      814000000   -3,775908649e-01    2,019067407e-01    2,963665724e-01   -1,496741176e-01    0,000000000e+00    0,000000000e+00    0,000000000e+00    0,000000000e+00
      828000000   -6,284765154e-02    3,473012745e-01    8,221399039e-02   -1,903575659e-01    0,000000000e+00    0,000000000e+00    0,000000000e+00    0,000000000e+00
      842000000    2,117101401e-01    1,850498170e-01   -3,591192421e-03   -9,294211119e-02    0,000000000e+00    0,000000000e+00    0,000000000e+00    0,000000000e+00
      856000000    2,659592628e-01   -1,059461460e-01    3,608364984e-02   -3,658206388e-02    0,000000000e+00    0,000000000e+00    0,000000000e+00    0,000000000e+00
      870000000    8,187393099e-02   -3,513151109e-01    8,859675378e-02   -9,719645232e-02    0,000000000e+00    0,000000000e+00    0,000000000e+00    0,000000000e+00
      884000000   -2,671153545e-01   -3,556077182e-01    1,154635195e-02   -2,274676710e-01    0,000000000e+00    0,000000000e+00    0,000000000e+00    0,000000000e+00
      898000000   -4,572179615e-01   -1,407427341e-02   -2,151039094e-01   -2,104886621e-01    0,000000000e+00    0,000000000e+00    0,000000000e+00    0,000000000e+00
      912000000   -2,354317904e-01    2,783145010e-01   -3,377656341e-01    7,908279449e-02    0,000000000e+00    0,000000000e+00    0,000000000e+00    0,000000000e+00
      926000000    5,329406261e-02    2,617987692e-01   -2,117502838e-01    2,623375654e-01    0,000000000e+00    0,000000000e+00    0,000000000e+00    0,000000000e+00
      940000000    2,109494656e-01    8,588288724e-02   -3,193344921e-02    3,266371191e-01    0,000000000e+00    0,000000000e+00    0,000000000e+00    0,000000000e+00
      954000000    2,195887119e-01   -1,237340719e-01    1,311496049e-01    3,009293079e-01    0,000000000e+00    0,000000000e+00    0,000000000e+00    0,000000000e+00
      968000000    1,202311888e-01   -2,961617410e-01    2,684266269e-01    2,135657370e-01    0,000000000e+00    0,000000000e+00    0,000000000e+00    0,000000000e+00
      982000000   -7,917967439e-02   -3,879493475e-01    3,610633314e-01    6,354250014e-02    0,000000000e+00    0,000000000e+00    0,000000000e+00    0,000000000e+00
      996000000   -3,126155138e-01   -3,283948004e-01    3,631567359e-01   -1,438690424e-01    0,000000000e+00    0,000000000e+00    0,000000000e+00    0,000000000e+00
     1010000000   -4,569349885e-01   -1,172576547e-01    2,204853296e-01   -3,343092799e-01    0,000000000e+00    0,000000000e+00    0,000000000e+00    0,000000000e+00
     1024000000   -4,175077975e-01    1,416688412e-01   -3,112899512e-02   -3,840827942e-01    0,000000000e+00    0,000000000e+00    0,000000000e+00    0,000000000e+00
     1038000000   -2,262419611e-01    2,919269204e-01   -2,427941561e-01   -2,571042478e-01    0,000000000e+00    0,000000000e+00    0,000000000e+00    0,000000000e+00
     1052000000   -1,195123140e-02    2,811546922e-01   -3,126032054e-01   -4,510830343e-02    0,000000000e+00    0,000000000e+00    0,000000000e+00    0,000000000e+00
     1066000000    1,313369423e-01    1,658738852e-01   -2,505909801e-01    1,395227611e-01    0,000000000e+00    0,000000000e+00    0,000000000e+00    0,000000000e+00
     1080000000    1,917936504e-01    9,806827642e-03   -1,173455939e-01    2,540894151e-01    0,000000000e+00    0,000000000e+00    0,000000000e+00    0,000000000e+00
     1094000000    1,630355418e-01   -1,641167849e-01    6,005006656e-02    2,920938730e-01    0,000000000e+00    0,000000000e+00    0,000000000e+00    0,000000000e+00
     1108000000    1,767239161e-02   -2,983743250e-01    2,611006200e-01    2,349638790e-01    0,000000000e+00    0,000000000e+00    0,000000000e+00    0,000000000e+00
     1122000000   -2,130435854e-01   -2,853972912e-01    4,386522472e-01    2,687012590e-02    0,000000000e+00    0,000000000e+00    0,000000000e+00    0,000000000e+00
     1136000000   -3,210792243e-01   -2,992610261e-02    4,035446346e-01   -3,454767168e-01    0,000000000e+00    0,000000000e+00    0,000000000e+00    0,000000000e+00
     1150000000   -1,050342768e-01    1,415655315e-01    4,875001311e-02   -5,292546749e-01    0,000000000e+00    0,000000000e+00    0,000000000e+00    0,000000000e+00
     1164000000    8,222305775e-02   -1,484405808e-02   -2,535497248e-01   -4,032719135e-01    0,000000000e+00    0,000000000e+00    0,000000000e+00    0,000000000e+00
     1178000000    2,548699081e-02   -2,538854778e-01   -3,751320839e-01   -1,782959700e-01    0,000000000e+00    0,000000000e+00    0,000000000e+00    0,000000000e+00
     1192000000   -2,214892805e-01   -3,480629921e-01   -3,416462839e-01    4,121975601e-02    0,000000000e+00    0,000000000e+00    0,000000000e+00    0,000000000e+00
     1206000000   -4,798840284e-01   -1,784111112e-01   -1,887598187e-01    1,855173409e-01    0,000000000e+00    0,000000000e+00    0,000000000e+00    0,000000000e+00
     1220000000   -4,996038973e-01    1,350918412e-01   -6,642342545e-03    1,754173487e-01    0,000000000e+00    0,000000000e+00    0,000000000e+00    0,000000000e+00
     1234000000   -2,965002060e-01    3,431442678e-01    7,309857756e-02    7,881131768e-02    0,000000000e+00    0,000000000e+00    0,000000000e+00    0,000000000e+00
     1248000000   -6,255089492e-02    3,631249964e-01    6,451000273e-02    2,457092982e-03    0,000000000e+00    0,000000000e+00    0,000000000e+00    0,000000000e+00
     1262000000    1,149371639e-01    2,588519454e-01    3,569097444e-02   -2,453908511e-02    0,000000000e+00    0,000000000e+00    0,000000000e+00    0,000000000e+00
     1276000000    2,016660273e-01    1,085614040e-01    7,877098396e-03   -7,360994350e-03    0,000000000e+00    0,000000000e+00    0,000000000e+00    0,000000000e+00
     1290000000    2,205325812e-01   -6,336019933e-02    1,331814658e-02    2,862050012e-02    0,000000000e+00    0,000000000e+00    0,000000000e+00    0,000000000e+00
     1304000000    1,699827462e-01   -2,329812646e-01    6,734100729e-02    5,849729478e-02    0,000000000e+00    0,000000000e+00    0,000000000e+00    0,000000000e+00
     1318000000    2,390778251e-02   -3,654944003e-01    1,733834147e-01    1,754652336e-02    0,000000000e+00    0,000000000e+00    0,000000000e+00    0,000000000e+00
     1332000000   -1,479682326e-01   -3,998427093e-01    1,042616516e-01   -1,817883700e-01    0,000000000e+00    0,000000000e+00    0,000000000e+00    0,000000000e+00
     1346000000   -3,641680479e-01   -3,886236846e-01   -5,567159876e-02   -2,113833837e-02    0,000000000e+00    0,000000000e+00    0,000000000e+00    0,000000000e+00
     1360000000   -5,888080001e-01   -2,049812973e-01    5,713689700e-02    9,038407356e-02    0,000000000e+00    0,000000000e+00    0,000000000e+00    0,000000000e+00
     1374000000   -6,295547485e-01    1,023976952e-01    1,795618683e-01    4,981361330e-02    0,000000000e+00    0,000000000e+00    0,000000000e+00    0,000000000e+00
     1388000000   -4,710644782e-01    3,528238237e-01    2,179104835e-01   -3,063097782e-02    0,000000000e+00    0,000000000e+00    0,000000000e+00    0,000000000e+00
     1402000000   -2,471949011e-01    4,390278459e-01    1,992972046e-01   -8,391449600e-02    0,000000000e+00    0,000000000e+00    0,000000000e+00    0,000000000e+00
     1416000000   -3,562996909e-02    4,122292399e-01    2,009231150e-01   -1,040898338e-01    0,000000000e+00    0,000000000e+00    0,000000000e+00    0,000000000e+00
     1430000000    1,097022295e-01    3,083763421e-01    2,123429477e-01   -9,392174333e-02    0,000000000e+00    0,000000000e+00    0,000000000e+00    0,000000000e+00
     1444000000    1,999751627e-01    1,529405117e-01    1,716094464e-01   -1,149930805e-01    0,000000000e+00    0,000000000e+00    0,000000000e+00    0,000000000e+00
     1458000000    2,329387069e-01   -1,078141667e-02    1,488645524e-01   -9,398891777e-02    0,000000000e+00    0,000000000e+00    0,000000000e+00    0,000000000e+00
     1472000000    1,903195977e-01   -1,919068843e-01    1,327964664e-01   -4,361343384e-02    0,000000000e+00    0,000000000e+00    0,000000000e+00    0,000000000e+00
     1486000000    6,666688621e-02   -3,640545309e-01    1,754675806e-01    2,532580309e-02    0,000000000e+00    0,000000000e+00    0,000000000e+00    0,000000000e+00
     1500000000   -1,573010832e-01   -4,983066320e-01    2,301904857e-01    7,211243361e-02    0,000000000e+00    0,000000000e+00    0,000000000e+00    0,000000000e+00
