! NanoVNA-App
! Date: 2025-09-25 15:39:32
! Start: 100MHz Stop: 1,5GHz Points: 101
! S-Parameter data: F S11 S21 S12 S22
# Hz S RI R 50
!     Frequency           S11_Real           S11_Imag           S21_Real           S21_Imag           S12_Real           S12_Imag           S22_Real           S22_Imag
      100000000   -2,864920162e-02   -4,230516031e-03    3,738244474e-01   -7,214785814e-01    0,000000000e+00    0,000000000e+00    0,000000000e+00    0,000000000e+00
      114000000   -1,649173349e-02    1,144000515e-02   -8,917849511e-02   -8,050494194e-01    0,000000000e+00    0,000000000e+00    0,000000000e+00    0,000000000e+00
      128000000    3,411897691e-03    1,068831515e-02   -5,143586397e-01   -6,201484203e-01    0,000000000e+00    0,000000000e+00    0,000000000e+00    0,000000000e+00
      142000000    1,470655389e-02   -2,637997735e-03   -7,667464614e-01   -2,362589091e-01    0,000000000e+00    0,000000000e+00    0,000000000e+00    0,000000000e+00
      156000000    1,604297385e-02   -1,419857051e-02   -7,684403062e-01    2,236047089e-01    0,000000000e+00    0,000000000e+00    0,000000000e+00    0,000000000e+00
      170000000    1,725001447e-02   -2,248115651e-02   -5,177466273e-01    6,042963266e-01    0,000000000e+00    0,000000000e+00    0,000000000e+00    0,000000000e+00
      184000000    2,139395662e-02   -3,720770776e-02   -1,015387550e-01    7,853826880e-01    0,000000000e+00    0,000000000e+00    0,000000000e+00    0,000000000e+00
      198000000    1,321649551e-02   -6,256714463e-02    3,430607021e-01    7,119885683e-01    0,000000000e+00    0,000000000e+00    0,000000000e+00    0,000000000e+00
      212000000   -1,838698052e-02   -8,129729331e-02    6,776518822e-01    4,095167518e-01    0,000000000e+00    0,000000000e+00    0,000000000e+00    0,000000000e+00
      226000000   -6,126193330e-02   -6,920967996e-02    7,952693105e-01   -3,047788888e-02    0,000000000e+00    0,000000000e+00    0,000000000e+00    0,000000000e+00
      240000000   -8,209460229e-02   -2,585064992e-02    6,455435753e-01   -4,665974081e-01    0,000000000e+00    0,000000000e+00    0,000000000e+00    0,000000000e+00
      254000000   -6,325516850e-02    1,682799123e-02    2,756418288e-01   -7,426295877e-01    0,000000000e+00    0,000000000e+00    0,000000000e+00    0,000000000e+00
      268000000   -2,393770404e-02    2,865215950e-02   -1,785800606e-01   -7,643843889e-01    0,000000000e+00    0,000000000e+00    0,000000000e+00    0,000000000e+00
      282000000    4,076589365e-03    1,196519844e-02   -5,614476204e-01   -5,352205038e-01    0,000000000e+00    0,000000000e+00    0,000000000e+00    0,000000000e+00
      296000000    9,976658039e-03   -7,669392973e-03   -7,595701218e-01   -1,394477487e-01    0,000000000e+00    0,000000000e+00    0,000000000e+00    0,000000000e+00
      310000000    1,157375611e-02   -1,593785547e-02   -7,116462588e-01    2,975968421e-01    0,000000000e+00    0,000000000e+00    0,000000000e+00    0,000000000e+00
      324000000    2,004535124e-02   -2,668911405e-02   -4,271028638e-01    6,372826695e-01    0,000000000e+00    0,000000000e+00    0,000000000e+00    0,000000000e+00
      338000000    2,583883703e-02   -5,250335485e-02   -6,659513805e-03    7,638161182e-01    0,000000000e+00    0,000000000e+00    0,000000000e+00    0,000000000e+00
      352000000    7,347785868e-03   -8,491154015e-02    4,061735272e-01    6,392644048e-01    0,000000000e+00    0,000000000e+00    0,000000000e+00    0,000000000e+00
      366000000   -3,440609202e-02   -9,515068680e-02    6,896931529e-01    3,113413751e-01    0,000000000e+00    0,000000000e+00    0,000000000e+00    0,000000000e+00
      380000000   -7,035618275e-02   -7,093738019e-02    7,467695475e-01   -1,257562339e-01    0,000000000e+00    0,000000000e+00    0,000000000e+00    0,000000000e+00
      394000000   -7,234088331e-02   -3,276396170e-02    5,457481146e-01   -5,207945108e-01    0,000000000e+00    0,000000000e+00    0,000000000e+00    0,000000000e+00
      408000000   -4,630400613e-02   -1,661384664e-02    1,613560617e-01   -7,319051623e-01    0,000000000e+00    0,000000000e+00    0,000000000e+00    0,000000000e+00
      422000000   -2,853029966e-02   -3,231240809e-02   -2,679238915e-01   -6,936337352e-01    0,000000000e+00    0,000000000e+00    0,000000000e+00    0,000000000e+00
      436000000   -4,046668112e-02   -5,185139924e-02   -6,030774117e-01   -4,321916103e-01    0,000000000e+00    0,000000000e+00    0,000000000e+00    0,000000000e+00
      450000000   -6,691469252e-02   -4,411362484e-02   -7,393801808e-01   -2,164407074e-02    0,000000000e+00    0,000000000e+00    0,000000000e+00    0,000000000e+00
      464000000   -7,281340659e-02   -1,173944119e-02   -6,179848909e-01    3,969842494e-01    0,000000000e+00    0,000000000e+00    0,000000000e+00    0,000000000e+00
      478000000   -4,760144651e-02    1,092143543e-02   -2,824104726e-01    6,672160029e-01    0,000000000e+00    0,000000000e+00    0,000000000e+00    0,000000000e+00
      492000000   -1,571406983e-02    5,317437463e-03    1,375195235e-01    7,011781931e-01    0,000000000e+00    0,000000000e+00    0,000000000e+00    0,000000000e+00
      506000000   -2,473059809e-03   -1,590315811e-02    4,979737103e-01    5,027060509e-01    0,000000000e+00    0,000000000e+00    0,000000000e+00    0,000000000e+00
      520000000   -5,003781524e-03   -3,156371042e-02    6,871501803e-01    1,412553638e-01    0,000000000e+00    0,000000000e+00    0,000000000e+00    0,000000000e+00
      534000000   -3,316023853e-03   -3,787377849e-02    6,429089308e-01   -2,619524598e-01    0,000000000e+00    0,000000000e+00    0,000000000e+00    0,000000000e+00
      548000000    6,278058514e-03   -5,358460173e-02    3,812826574e-01   -5,663404465e-01    0,000000000e+00    0,000000000e+00    0,000000000e+00    0,000000000e+00
      562000000    3,386973171e-03   -8,919714391e-02    2,783117583e-03   -6,712661982e-01    0,000000000e+00    0,000000000e+00    0,000000000e+00    0,000000000e+00
      576000000   -3,390127048e-02   -1,246822923e-01   -3,676228225e-01   -5,572577119e-01    0,000000000e+00    0,000000000e+00    0,000000000e+00    0,000000000e+00
      590000000   -9,571024776e-02   -1,229843423e-01   -6,192915440e-01   -2,648968101e-01    0,000000000e+00    0,000000000e+00    0,000000000e+00    0,000000000e+00
      604000000   -1,388990432e-01   -7,234840840e-02   -6,644095182e-01    1,366701275e-01    0,000000000e+00    0,000000000e+00    0,000000000e+00    0,000000000e+00
      618000000   -1,291849315e-01   -1,017838344e-02   -4,647848904e-01    4,916144907e-01    0,000000000e+00    0,000000000e+00    0,000000000e+00    0,000000000e+00
      632000000   -8,423430473e-02    1,551032532e-02   -1,001121104e-01    6,624749899e-01    0,000000000e+00    0,000000000e+00    0,000000000e+00    0,000000000e+00
      646000000   -5,244560912e-02    5,583043276e-06    2,854054272e-01    5,940924287e-01    0,000000000e+00    0,000000000e+00    0,000000000e+00    0,000000000e+00
      660000000   -5,388641357e-02   -2,055276930e-02    5,641758442e-01    3,230988681e-01    0,000000000e+00    0,000000000e+00    0,000000000e+00    0,000000000e+00
      674000000   -7,023112476e-02   -1,654204912e-02    6,406469345e-01   -6,362605095e-02    0,000000000e+00    0,000000000e+00    0,000000000e+00    0,000000000e+00
      688000000   -6,651061028e-02    9,514323436e-03    4,708298743e-01   -4,237721860e-01    0,000000000e+00    0,000000000e+00    0,000000000e+00    0,000000000e+00
      702000000   -3,586874530e-02    2,527629584e-02    1,198645532e-01   -6,069596410e-01    0,000000000e+00    0,000000000e+00    0,000000000e+00    0,000000000e+00
      716000000    3,877106123e-03    1,545360778e-02   -2,605474591e-01   -5,450255871e-01    0,000000000e+00    0,000000000e+00    0,000000000e+00    0,000000000e+00
      730000000    3,743332252e-02   -1,404743455e-02   -5,215903521e-01   -2,709794044e-01    0,000000000e+00    0,000000000e+00    0,000000000e+00    0,000000000e+00
      744000000    6,322175264e-02   -6,506339461e-02   -5,602034330e-01    9,923667461e-02    0,000000000e+00    0,000000000e+00    0,000000000e+00    0,000000000e+00
      758000000    6,115167961e-02   -1,526525915e-01   -3,656940758e-01    4,012378752e-01    0,000000000e+00    0,000000000e+00    0,000000000e+00    0,000000000e+00
      772000000   -1,792703196e-02   -2,563083768e-01   -4,527220875e-02    5,092860460e-01    0,000000000e+00    0,000000000e+00    0,000000000e+00    0,000000000e+00
      786000000   -2,035433501e-01   -2,919540703e-01    2,591342032e-01    3,989978433e-01    0,000000000e+00    0,000000000e+00    0,000000000e+00    0,000000000e+00
      800000000   -4,085191786e-01   -1,261395216e-01    4,068875611e-01    1,177922860e-01    0,000000000e+00    0,000000000e+00    0,000000000e+00    0,000000000e+00
      814000000   -3,758277595e-01    2,018401623e-01    2,957527637e-01   -1,512708068e-01    0,000000000e+00    0,000000000e+00    0,000000000e+00    0,000000000e+00
      828000000   -6,033863872e-02    3,472883999e-01    8,263766021e-02   -1,895190626e-01    0,000000000e+00    0,000000000e+00    0,000000000e+00    0,000000000e+00
      842000000    2,118568122e-01    1,851360053e-01   -3,122672904e-03   -9,225899726e-02    0,000000000e+00    0,000000000e+00    0,000000000e+00    0,000000000e+00
      856000000    2,659152150e-01   -1,064812765e-01    3,665084392e-02   -3,717502952e-02    0,000000000e+00    0,000000000e+00    0,000000000e+00    0,000000000e+00
      870000000    8,196138591e-02   -3,513686359e-01    8,919586986e-02   -9,793007374e-02    0,000000000e+00    0,000000000e+00    0,000000000e+00    0,000000000e+00
      884000000   -2,675245404e-01   -3,565748632e-01    1,124045625e-02   -2,283332497e-01    0,000000000e+00    0,000000000e+00    0,000000000e+00    0,000000000e+00
      898000000   -4,577636421e-01   -1,317610499e-02   -2,165815234e-01   -2,101868987e-01    0,000000000e+00    0,000000000e+00    0,000000000e+00    0,000000000e+00
      912000000   -2,351609021e-01    2,788955271e-01   -3,444659412e-01    7,620481402e-02    0,000000000e+00    0,000000000e+00    0,000000000e+00    0,000000000e+00
      926000000    5,642076954e-02    2,628483176e-01   -2,084926069e-01    2,640082836e-01    0,000000000e+00    0,000000000e+00    0,000000000e+00    0,000000000e+00
      940000000    2,089237571e-01    8,156339824e-02   -3,207195178e-02    3,234917819e-01    0,000000000e+00    0,000000000e+00    0,000000000e+00    0,000000000e+00
      954000000    2,227351665e-01   -1,223795563e-01    1,316241920e-01    2,995204031e-01    0,000000000e+00    0,000000000e+00    0,000000000e+00    0,000000000e+00
      968000000    1,191645041e-01   -2,944406867e-01    2,682810426e-01    2,130459994e-01    0,000000000e+00    0,000000000e+00    0,000000000e+00    0,000000000e+00
      982000000   -7,620292902e-02   -3,829186559e-01    3,597385287e-01    6,428212672e-02    0,000000000e+00    0,000000000e+00    0,000000000e+00    0,000000000e+00
      996000000   -3,112986386e-01   -3,339132667e-01    3,621548116e-01   -1,440742761e-01    0,000000000e+00    0,000000000e+00    0,000000000e+00    0,000000000e+00
     1010000000   -4,580784142e-01   -1,203952655e-01    2,180667967e-01   -3,359802961e-01    0,000000000e+00    0,000000000e+00    0,000000000e+00    0,000000000e+00
     1024000000   -4,128314555e-01    1,405629069e-01   -3,182264790e-02   -3,853067756e-01    0,000000000e+00    0,000000000e+00    0,000000000e+00    0,000000000e+00
     1038000000   -2,248493135e-01    2,877196968e-01   -2,431936115e-01   -2,569328249e-01    0,000000000e+00    0,000000000e+00    0,000000000e+00    0,000000000e+00
     1052000000   -1,311829221e-02    2,850747406e-01   -3,112603724e-01   -4,895666614e-02    0,000000000e+00    0,000000000e+00    0,000000000e+00    0,000000000e+00
     1066000000    1,298276931e-01    1,693000495e-01   -2,487302423e-01    1,381651759e-01    0,000000000e+00    0,000000000e+00    0,000000000e+00    0,000000000e+00
     1080000000    1,915460974e-01    6,210677791e-03   -1,156647205e-01    2,544629574e-01    0,000000000e+00    0,000000000e+00    0,000000000e+00    0,000000000e+00
     1094000000    1,622961909e-01   -1,658078134e-01    6,177773699e-02    2,921469510e-01    0,000000000e+00    0,000000000e+00    0,000000000e+00    0,000000000e+00
     1108000000    1,551814098e-02   -2,988959849e-01    2,611553967e-01    2,347110808e-01    0,000000000e+00    0,000000000e+00    0,000000000e+00    0,000000000e+00
     1122000000   -2,139036804e-01   -2,852602303e-01    4,389288425e-01    2,299351059e-02    0,000000000e+00    0,000000000e+00    0,000000000e+00    0,000000000e+00
     1136000000   -3,297108710e-01   -2,655356750e-02    4,016488492e-01   -3,436208069e-01    0,000000000e+00    0,000000000e+00    0,000000000e+00    0,000000000e+00
     1150000000   -1,021506712e-01    1,396854818e-01    5,046703294e-02   -5,281891823e-01    0,000000000e+00    0,000000000e+00    0,000000000e+00    0,000000000e+00
     1164000000    8,362316340e-02   -2,360739000e-02   -2,524352670e-01   -4,020456672e-01    0,000000000e+00    0,000000000e+00    0,000000000e+00    0,000000000e+00
     1178000000    2,505133487e-02   -2,519474924e-01   -3,684563637e-01   -1,786090583e-01    0,000000000e+00    0,000000000e+00    0,000000000e+00    0,000000000e+00
     1192000000   -2,232035100e-01   -3,506029844e-01   -3,440512121e-01    4,092582688e-02    0,000000000e+00    0,000000000e+00    0,000000000e+00    0,000000000e+00
     1206000000   -4,809254110e-01   -1,780614406e-01   -1,904910356e-01    1,899143904e-01    0,000000000e+00    0,000000000e+00    0,000000000e+00    0,000000000e+00
     1220000000   -4,982095063e-01    1,382479221e-01   -8,784366772e-03    1,762221158e-01    0,000000000e+00    0,000000000e+00    0,000000000e+00    0,000000000e+00
     1234000000   -2,962226272e-01    3,449934721e-01    7,227801532e-02    7,840667665e-02    0,000000000e+00    0,000000000e+00    0,000000000e+00    0,000000000e+00
     1248000000   -6,263992935e-02    3,643938303e-01    6,581773609e-02    5,131780170e-03    0,000000000e+00    0,000000000e+00    0,000000000e+00    0,000000000e+00
     1262000000    1,101954058e-01    2,604922652e-01    2,976899408e-02   -2,037869766e-02    0,000000000e+00    0,000000000e+00    0,000000000e+00    0,000000000e+00
     1276000000    2,020922899e-01    1,082994863e-01    5,096128676e-03   -6,038083229e-03    0,000000000e+00    0,000000000e+00    0,000000000e+00    0,000000000e+00
     1290000000    2,199673653e-01   -6,664913148e-02    1,174991485e-02    2,367215790e-02    0,000000000e+00    0,000000000e+00    0,000000000e+00    0,000000000e+00
     1304000000    1,655725092e-01   -2,337065786e-01    5,808090419e-02    5,881555006e-02    0,000000000e+00    0,000000000e+00    0,000000000e+00    0,000000000e+00
     1318000000    2,310936712e-02   -3,676747382e-01    1,678856164e-01    1,786086708e-02    0,000000000e+00    0,000000000e+00    0,000000000e+00    0,000000000e+00
     1332000000   -1,542595029e-01   -3,936105371e-01    9,267710149e-02   -1,775815487e-01    0,000000000e+00    0,000000000e+00    0,000000000e+00    0,000000000e+00
     1346000000   -3,604189456e-01   -3,939215243e-01   -5,875416100e-02   -2,419423126e-02    0,000000000e+00    0,000000000e+00    0,000000000e+00    0,000000000e+00
     1360000000   -5,825520754e-01   -2,068639845e-01    5,881624296e-02    7,641596347e-02    0,000000000e+00    0,000000000e+00    0,000000000e+00    0,000000000e+00
     1374000000   -6,374338865e-01    1,090508923e-01    1,681251973e-01    4,957397282e-02    0,000000000e+00    0,000000000e+00    0,000000000e+00    0,000000000e+00
     1388000000   -4,730024040e-01    3,510426283e-01    2,197234184e-01   -3,863678128e-02    0,000000000e+00    0,000000000e+00    0,000000000e+00    0,000000000e+00
     1402000000   -2,424551547e-01    4,384978116e-01    2,085392922e-01   -7,912862301e-02    0,000000000e+00    0,000000000e+00    0,000000000e+00    0,000000000e+00
     1416000000   -3,864561394e-02    4,072783291e-01    2,078622878e-01   -9,737496078e-02    0,000000000e+00    0,000000000e+00    0,000000000e+00    0,000000000e+00
     1430000000    1,098743677e-01    2,929679751e-01    1,593072861e-01   -1,139718890e-01    0,000000000e+00    0,000000000e+00    0,000000000e+00    0,000000000e+00
     1444000000    1,961290091e-01    1,557885706e-01    1,545633823e-01   -1,041704789e-01    0,000000000e+00    0,000000000e+00    0,000000000e+00    0,000000000e+00
     1458000000    2,326523066e-01   -1,285995170e-02    1,546485126e-01   -8,453150839e-02    0,000000000e+00    0,000000000e+00    0,000000000e+00    0,000000000e+00
     1472000000    1,944643110e-01   -1,985540986e-01    1,418476701e-01   -5,610838160e-02    0,000000000e+00    0,000000000e+00    0,000000000e+00    0,000000000e+00
     1486000000    5,717750266e-02   -3,695393205e-01    1,499870867e-01    4,079339094e-03    0,000000000e+00    0,000000000e+00    0,000000000e+00    0,000000000e+00
     1500000000   -1,609381437e-01   -4,826174974e-01    2,284400910e-01    9,286242723e-02    0,000000000e+00    0,000000000e+00    0,000000000e+00    0,000000000e+00
