! NanoVNA-App
! Date: 2025-09-25 15:45:22
! Start: 100MHz Stop: 1,5GHz Points: 101
! S-Parameter data: F S11 S21 S12 S22
# Hz S RI R 50
!     Frequency           S11_Real           S11_Imag           S21_Real           S21_Imag           S12_Real           S12_Imag           S22_Real           S22_Imag
      100000000   -2,879252285e-02   -4,251895472e-03    3,739959300e-01   -7,215847969e-01    0,000000000e+00    0,000000000e+00    0,000000000e+00    0,000000000e+00
      114000000   -1,656266302e-02    1,149872318e-02   -8,911755681e-02   -8,052875400e-01    0,000000000e+00    0,000000000e+00    0,000000000e+00    0,000000000e+00
      128000000    3,419758519e-03    1,063618157e-02   -5,145706534e-01   -6,203864217e-01    0,000000000e+00    0,000000000e+00    0,000000000e+00    0,000000000e+00
      142000000    1,463962719e-02   -2,674748423e-03   -7,668786645e-01   -2,365438640e-01    0,000000000e+00    0,000000000e+00    0,000000000e+00    0,000000000e+00
      156000000    1,612905227e-02   -1,444391254e-02   -7,720770240e-01    2,234903723e-01    0,000000000e+00    0,000000000e+00    0,000000000e+00    0,000000000e+00
      170000000    1,702486910e-02   -2,242323570e-02   -5,181280375e-01    6,046146750e-01    0,000000000e+00    0,000000000e+00    0,000000000e+00    0,000000000e+00
      184000000    2,130978182e-02   -3,711137921e-02   -1,015938297e-01    7,857790589e-01    0,000000000e+00    0,000000000e+00    0,000000000e+00    0,000000000e+00
      198000000    1,320668869e-02   -6,250336766e-02    3,431930840e-01    7,122703791e-01    0,000000000e+00    0,000000000e+00    0,000000000e+00    0,000000000e+00
      212000000   -1,839388162e-02   -8,134334534e-02    6,777723432e-01    4,097875953e-01    0,000000000e+00    0,000000000e+00    0,000000000e+00    0,000000000e+00
      226000000   -6,136633456e-02   -6,922414899e-02    7,954083681e-01   -3,054722026e-02    0,000000000e+00    0,000000000e+00    0,000000000e+00    0,000000000e+00
      240000000   -8,229797333e-02   -2,579019777e-02    6,457586884e-01   -4,665229321e-01    0,000000000e+00    0,000000000e+00    0,000000000e+00    0,000000000e+00
      254000000   -6,344342232e-02    1,696646400e-02    2,758787870e-01   -7,428883910e-01    0,000000000e+00    0,000000000e+00    0,000000000e+00    0,000000000e+00
      268000000   -2,400184423e-02    2,882204391e-02   -1,776533127e-01   -7,640121579e-01    0,000000000e+00    0,000000000e+00    0,000000000e+00    0,000000000e+00
      282000000    4,033464007e-03    1,204301603e-02   -5,615249276e-01   -5,355907083e-01    0,000000000e+00    0,000000000e+00    0,000000000e+00    0,000000000e+00
      296000000    9,926103987e-03   -7,555716671e-03   -7,596815825e-01   -1,397815645e-01    0,000000000e+00    0,000000000e+00    0,000000000e+00    0,000000000e+00
      310000000    1,125710644e-02   -1,610977016e-02   -7,131244540e-01    2,975180745e-01    0,000000000e+00    0,000000000e+00    0,000000000e+00    0,000000000e+00
      324000000    2,011663839e-02   -2,665136568e-02   -4,268375039e-01    6,382617950e-01    0,000000000e+00    0,000000000e+00    0,000000000e+00    0,000000000e+00
      338000000    2,571080998e-02   -5,234680697e-02   -6,914326455e-03    7,643987536e-01    0,000000000e+00    0,000000000e+00    0,000000000e+00    0,000000000e+00
      352000000    7,421746850e-03   -8,463810384e-02    4,050396681e-01    6,399331689e-01    0,000000000e+00    0,000000000e+00    0,000000000e+00    0,000000000e+00
      366000000   -3,414025530e-02   -9,556595236e-02    6,907248497e-01    3,115279377e-01    0,000000000e+00    0,000000000e+00    0,000000000e+00    0,000000000e+00
      380000000   -7,036664337e-02   -7,096540183e-02    7,474013567e-01   -1,253467649e-01    0,000000000e+00    0,000000000e+00    0,000000000e+00    0,000000000e+00
      394000000   -7,234253734e-02   -3,263588622e-02    5,462540388e-01   -5,215568542e-01    0,000000000e+00    0,000000000e+00    0,000000000e+00    0,000000000e+00
      408000000   -4,634677619e-02   -1,637099497e-02    1,598721594e-01   -7,307516336e-01    0,000000000e+00    0,000000000e+00    0,000000000e+00    0,000000000e+00
      422000000   -2,850661427e-02   -3,213455528e-02   -2,670714259e-01   -6,951119900e-01    0,000000000e+00    0,000000000e+00    0,000000000e+00    0,000000000e+00
      436000000   -4,034940153e-02   -5,174224824e-02   -6,035301685e-01   -4,316041768e-01    0,000000000e+00    0,000000000e+00    0,000000000e+00    0,000000000e+00
      450000000   -6,717278063e-02   -4,373550415e-02   -7,402610183e-01   -2,175921947e-02    0,000000000e+00    0,000000000e+00    0,000000000e+00    0,000000000e+00
      464000000   -7,261954248e-02   -1,191884186e-02   -6,184024811e-01    3,964119852e-01    0,000000000e+00    0,000000000e+00    0,000000000e+00    0,000000000e+00
      478000000   -4,753390327e-02    1,160506811e-02   -2,823852003e-01    6,678435802e-01    0,000000000e+00    0,000000000e+00    0,000000000e+00    0,000000000e+00
      492000000   -1,601279154e-02    5,914862268e-03    1,368580908e-01    7,016384602e-01    0,000000000e+00    0,000000000e+00    0,000000000e+00    0,000000000e+00
      506000000   -2,472857246e-03   -1,591541991e-02    4,973628521e-01    5,020838380e-01    0,000000000e+00    0,000000000e+00    0,000000000e+00    0,000000000e+00
      520000000   -4,873433616e-03   -3,160817176e-02    6,894993186e-01    1,421778202e-01    0,000000000e+00    0,000000000e+00    0,000000000e+00    0,000000000e+00
      534000000   -3,812488401e-03   -3,834022954e-02    6,429146528e-01   -2,618642151e-01    0,000000000e+00    0,000000000e+00    0,000000000e+00    0,000000000e+00
      548000000    6,319159642e-03   -5,349671096e-02    3,806199431e-01   -5,661958456e-01    0,000000000e+00    0,000000000e+00    0,000000000e+00    0,000000000e+00
      562000000    3,527732566e-03   -8,950567991e-02    3,338571405e-03   -6,716536283e-01    0,000000000e+00    0,000000000e+00    0,000000000e+00    0,000000000e+00
      576000000   -3,360067680e-02   -1,244784817e-01   -3,675597310e-01   -5,576022267e-01    0,000000000e+00    0,000000000e+00    0,000000000e+00    0,000000000e+00
      590000000   -9,581416845e-02   -1,226393431e-01   -6,212441325e-01   -2,653239071e-01    0,000000000e+00    0,000000000e+00    0,000000000e+00    0,000000000e+00
      604000000   -1,389754862e-01   -7,188151777e-02   -6,639033556e-01    1,372262388e-01    0,000000000e+00    0,000000000e+00    0,000000000e+00    0,000000000e+00
      618000000   -1,296160072e-01   -9,601017460e-03   -4,644394219e-01    4,933162332e-01    0,000000000e+00    0,000000000e+00    0,000000000e+00    0,000000000e+00
      632000000   -8,393700421e-02    1,628119871e-02   -9,971575439e-02    6,610096693e-01    0,000000000e+00    0,000000000e+00    0,000000000e+00    0,000000000e+00
      646000000   -5,232843384e-02   -6,595262676e-05    2,845132947e-01    5,948072672e-01    0,000000000e+00    0,000000000e+00    0,000000000e+00    0,000000000e+00
      660000000   -5,337202549e-02   -2,148006298e-02    5,648466945e-01    3,233631849e-01    0,000000000e+00    0,000000000e+00    0,000000000e+00    0,000000000e+00
      674000000   -6,913083047e-02   -1,661242358e-02    6,406910419e-01   -6,320983171e-02    0,000000000e+00    0,000000000e+00    0,000000000e+00    0,000000000e+00
      688000000   -6,629841030e-02    9,447780438e-03    4,717499316e-01   -4,233642519e-01    0,000000000e+00    0,000000000e+00    0,000000000e+00    0,000000000e+00
      702000000   -3,658146411e-02    2,698511817e-02    1,203524694e-01   -6,081406474e-01    0,000000000e+00    0,000000000e+00    0,000000000e+00    0,000000000e+00
      716000000    2,832030412e-03    1,683537476e-02   -2,586114705e-01   -5,448433757e-01    0,000000000e+00    0,000000000e+00    0,000000000e+00    0,000000000e+00
      730000000    3,624098748e-02   -1,408363972e-02   -5,223750472e-01   -2,719448805e-01    0,000000000e+00    0,000000000e+00    0,000000000e+00    0,000000000e+00
      744000000    6,253040582e-02   -6,595263630e-02   -5,607625246e-01    9,864287078e-02    0,000000000e+00    0,000000000e+00    0,000000000e+00    0,000000000e+00
      758000000    6,150222570e-02   -1,516580433e-01   -3,668310642e-01    3,998178244e-01    0,000000000e+00    0,000000000e+00    0,000000000e+00    0,000000000e+00
      772000000   -1,780693233e-02   -2,558133900e-01   -4,597107694e-02    5,096669197e-01    0,000000000e+00    0,000000000e+00    0,000000000e+00    0,000000000e+00
      786000000   -2,013638765e-01   -2,903312445e-01    2,598605752e-01    4,000293911e-01    0,000000000e+00    0,000000000e+00    0,000000000e+00    0,000000000e+00
      800000000   -4,073280394e-01   -1,283518225e-01    4,072578251e-01    1,193970516e-01    0,000000000e+00    0,000000000e+00    0,000000000e+00    0,000000000e+00
      814000000   -3,772413433e-01    2,020463496e-01    2,969373465e-01   -1,516836435e-01    0,000000000e+00    0,000000000e+00    0,000000000e+00    0,000000000e+00
      828000000   -6,288740784e-02    3,473375142e-01    8,322928846e-02   -1,913686097e-01    0,000000000e+00    0,000000000e+00    0,000000000e+00    0,000000000e+00
      842000000    2,115354687e-01    1,858415753e-01   -4,090089351e-03   -9,379907697e-02    0,000000000e+00    0,000000000e+00    0,000000000e+00    0,000000000e+00
      856000000    2,661727071e-01   -1,050350368e-01    3,549892455e-02   -3,708103299e-02    0,000000000e+00    0,000000000e+00    0,000000000e+00    0,000000000e+00
      870000000    8,358638734e-02   -3,510006964e-01    8,879912645e-02   -9,700641036e-02    0,000000000e+00    0,000000000e+00    0,000000000e+00    0,000000000e+00
      884000000   -2,665361166e-01   -3,554724157e-01    1,186236087e-02   -2,265488803e-01    0,000000000e+00    0,000000000e+00    0,000000000e+00    0,000000000e+00
      898000000   -4,572310150e-01   -1,441188436e-02   -2,140136361e-01   -2,096935809e-01    0,000000000e+00    0,000000000e+00    0,000000000e+00    0,000000000e+00
      912000000   -2,370281070e-01    2,786981165e-01   -3,359473050e-01    8,042640984e-02    0,000000000e+00    0,000000000e+00    0,000000000e+00    0,000000000e+00
      926000000    5,421975255e-02    2,635864615e-01   -2,118438333e-01    2,623289227e-01    0,000000000e+00    0,000000000e+00    0,000000000e+00    0,000000000e+00
      940000000    2,103118747e-01    8,531186730e-02   -3,034049086e-02    3,255824745e-01    0,000000000e+00    0,000000000e+00    0,000000000e+00    0,000000000e+00
      954000000    2,194887549e-01   -1,237903610e-01    1,308320612e-01    2,985726595e-01    0,000000000e+00    0,000000000e+00    0,000000000e+00    0,000000000e+00
      968000000    1,174588799e-01   -2,929523587e-01    2,681555450e-01    2,121352255e-01    0,000000000e+00    0,000000000e+00    0,000000000e+00    0,000000000e+00
      982000000   -7,519512624e-02   -3,841549158e-01    3,616738319e-01    6,349885464e-02    0,000000000e+00    0,000000000e+00    0,000000000e+00    0,000000000e+00
      996000000   -3,131922781e-01   -3,328751624e-01    3,632489443e-01   -1,419808716e-01    0,000000000e+00    0,000000000e+00    0,000000000e+00    0,000000000e+00
     1010000000   -4,604263902e-01   -1,203205213e-01    2,187629491e-01   -3,363083303e-01    0,000000000e+00    0,000000000e+00    0,000000000e+00    0,000000000e+00
     1024000000   -4,137162566e-01    1,419630498e-01   -3,067835048e-02   -3,863230050e-01    0,000000000e+00    0,000000000e+00    0,000000000e+00    0,000000000e+00
     1038000000   -2,250567377e-01    2,903878689e-01   -2,420872450e-01   -2,569568157e-01    0,000000000e+00    0,000000000e+00    0,000000000e+00    0,000000000e+00
     1052000000   -1,659642532e-02    2,805441320e-01   -3,096764982e-01   -4,623367265e-02    0,000000000e+00    0,000000000e+00    0,000000000e+00    0,000000000e+00
     1066000000    1,296181530e-01    1,674882621e-01   -2,481443137e-01    1,368489265e-01    0,000000000e+00    0,000000000e+00    0,000000000e+00    0,000000000e+00
     1080000000    1,909896880e-01    9,414935485e-03   -1,169365793e-01    2,527011931e-01    0,000000000e+00    0,000000000e+00    0,000000000e+00    0,000000000e+00
     1094000000    1,624811441e-01   -1,604618430e-01    6,030407920e-02    2,927885652e-01    0,000000000e+00    0,000000000e+00    0,000000000e+00    0,000000000e+00
     1108000000    1,791145280e-02   -2,986321449e-01    2,613352239e-01    2,359151542e-01    0,000000000e+00    0,000000000e+00    0,000000000e+00    0,000000000e+00
     1122000000   -2,165530622e-01   -2,815245092e-01    4,383381903e-01    2,455548942e-02    0,000000000e+00    0,000000000e+00    0,000000000e+00    0,000000000e+00
     1136000000   -3,230886161e-01   -2,986188978e-02    4,001471102e-01   -3,449118435e-01    0,000000000e+00    0,000000000e+00    0,000000000e+00    0,000000000e+00
     1150000000   -1,062100977e-01    1,431448162e-01    4,952438921e-02   -5,312044024e-01    0,000000000e+00    0,000000000e+00    0,000000000e+00    0,000000000e+00
     1164000000    8,467731625e-02   -1,757279783e-02   -2,491306663e-01   -4,059847891e-01    0,000000000e+00    0,000000000e+00    0,000000000e+00    0,000000000e+00
     1178000000    2,655483037e-02   -2,524091601e-01   -3,729982078e-01   -1,786727905e-01    0,000000000e+00    0,000000000e+00    0,000000000e+00    0,000000000e+00
     1192000000   -2,219210267e-01   -3,502690792e-01   -3,420042396e-01    3,821185976e-02    0,000000000e+00    0,000000000e+00    0,000000000e+00    0,000000000e+00
     1206000000   -4,758903980e-01   -1,803931147e-01   -1,879111081e-01    1,857686043e-01    0,000000000e+00    0,000000000e+00    0,000000000e+00    0,000000000e+00
     1220000000   -5,026234388e-01    1,340119094e-01   -1,139309723e-02    1,746696234e-01    0,000000000e+00    0,000000000e+00    0,000000000e+00    0,000000000e+00
     1234000000   -3,042376637e-01    3,485991955e-01    7,603340596e-02    7,787565887e-02    0,000000000e+00    0,000000000e+00    0,000000000e+00    0,000000000e+00
     1248000000   -5,811614543e-02    3,600519001e-01    7,067009807e-02    3,812833456e-03    0,000000000e+00    0,000000000e+00    0,000000000e+00    0,000000000e+00
     1262000000    1,142633706e-01    2,597266138e-01    3,266485035e-02   -2,183315530e-02    0,000000000e+00    0,000000000e+00    0,000000000e+00    0,000000000e+00
     1276000000    1,997856498e-01    1,038369089e-01    5,363051780e-03   -9,155401029e-03    0,000000000e+00    0,000000000e+00    0,000000000e+00    0,000000000e+00
     1290000000    2,236451209e-01   -6,550259143e-02    1,188813522e-02    2,663842775e-02    0,000000000e+00    0,000000000e+00    0,000000000e+00    0,000000000e+00
     1304000000    1,679524928e-01   -2,327706367e-01    6,241586432e-02    5,744021758e-02    0,000000000e+00    0,000000000e+00    0,000000000e+00    0,000000000e+00
     1318000000    2,612234093e-02   -3,646871746e-01    1,699667871e-01    1,170802023e-02    0,000000000e+00    0,000000000e+00    0,000000000e+00    0,000000000e+00
     1332000000   -1,510851681e-01   -3,940871954e-01    1,078458354e-01   -1,817544997e-01    0,000000000e+00    0,000000000e+00    0,000000000e+00    0,000000000e+00
     1346000000   -3,650117218e-01   -4,020524025e-01   -5,960336328e-02   -2,921174094e-02    0,000000000e+00    0,000000000e+00    0,000000000e+00    0,000000000e+00
     1360000000   -5,894953609e-01   -2,104105949e-01    6,702976674e-02    8,501148224e-02    0,000000000e+00    0,000000000e+00    0,000000000e+00    0,000000000e+00
     1374000000   -6,318202615e-01    1,112110987e-01    1,719063818e-01    5,049017817e-02    0,000000000e+00    0,000000000e+00    0,000000000e+00    0,000000000e+00
     1388000000   -4,784013331e-01    3,512200713e-01    2,139185071e-01   -2,326128073e-02    0,000000000e+00    0,000000000e+00    0,000000000e+00    0,000000000e+00
     1402000000   -2,411686182e-01    4,459482133e-01    2,112087011e-01   -8,032634109e-02    0,000000000e+00    0,000000000e+00    0,000000000e+00    0,000000000e+00
     1416000000   -4,437997565e-02    4,105119109e-01    1,928003430e-01   -9,419500828e-02    0,000000000e+00    0,000000000e+00    0,000000000e+00    0,000000000e+00
     1430000000    1,261728257e-01    2,928743660e-01    1,637774706e-01   -1,328526288e-01    0,000000000e+00    0,000000000e+00    0,000000000e+00    0,000000000e+00
     1444000000    2,024423033e-01    1,577785760e-01    1,602888107e-01   -1,096339077e-01    0,000000000e+00    0,000000000e+00    0,000000000e+00    0,000000000e+00
     1458000000    2,282597423e-01   -1,549397968e-02    1,453811377e-01   -9,783615172e-02    0,000000000e+00    0,000000000e+00    0,000000000e+00    0,000000000e+00
     1472000000    1,931825131e-01   -1,913731992e-01    1,507958174e-01   -4,167291149e-02    0,000000000e+00    0,000000000e+00    0,000000000e+00    0,000000000e+00
     1486000000    6,733080000e-02   -3,665806055e-01    1,601409316e-01    9,897906333e-03    0,000000000e+00    0,000000000e+00    0,000000000e+00    0,000000000e+00
     1500000000   -1,518529356e-01   -4,864427745e-01    2,349938154e-01    8,297875524e-02    0,000000000e+00    0,000000000e+00    0,000000000e+00    0,000000000e+00
