! NanoVNA-App
! Date: 2025-09-25 15:43:24
! Start: 100MHz Stop: 1,5GHz Points: 101
! S-Parameter data: F S11 S21 S12 S22
# Hz S RI R 50
!     Frequency           S11_Real           S11_Imag           S21_Real           S21_Imag           S12_Real           S12_Imag           S22_Real           S22_Imag
      100000000   -2,873681113e-02   -4,239449743e-03    3,739490509e-01   -7,215202451e-01    0,000000000e+00    0,000000000e+00    0,000000000e+00    0,000000000e+00
      114000000   -1,651181094e-02    1,146494225e-02   -8,919578791e-02   -8,051774502e-01    0,000000000e+00    0,000000000e+00    0,000000000e+00    0,000000000e+00
      128000000    3,448730800e-03    1,072484814e-02   -5,144490004e-01   -6,201199889e-01    0,000000000e+00    0,000000000e+00    0,000000000e+00    0,000000000e+00
      142000000    1,465805434e-02   -2,662540879e-03   -7,668942213e-01   -2,363817245e-01    0,000000000e+00    0,000000000e+00    0,000000000e+00    0,000000000e+00
      156000000    1,547992136e-02   -1,474952605e-02   -7,689669132e-01    2,197564691e-01    0,000000000e+00    0,000000000e+00    0,000000000e+00    0,000000000e+00
      170000000    1,715457626e-02   -2,242839523e-02   -5,179805756e-01    6,044807434e-01    0,000000000e+00    0,000000000e+00    0,000000000e+00    0,000000000e+00
      184000000    2,130883001e-02   -3,720539808e-02   -1,014891416e-01    7,855104804e-01    0,000000000e+00    0,000000000e+00    0,000000000e+00    0,000000000e+00
      198000000    1,327781007e-02   -6,252808869e-02    3,430240750e-01    7,118544579e-01    0,000000000e+00    0,000000000e+00    0,000000000e+00    0,000000000e+00
      212000000   -1,846118644e-02   -8,126700670e-02    6,779243350e-01    4,097706079e-01    0,000000000e+00    0,000000000e+00    0,000000000e+00    0,000000000e+00
      226000000   -6,138521060e-02   -6,912116706e-02    7,954308391e-01   -3,051847406e-02    0,000000000e+00    0,000000000e+00    0,000000000e+00    0,000000000e+00
      240000000   -8,223423362e-02   -2,581445687e-02    6,457104683e-01   -4,665210843e-01    0,000000000e+00    0,000000000e+00    0,000000000e+00    0,000000000e+00
      254000000   -6,339852512e-02    1,694709435e-02    2,760410607e-01   -7,425693274e-01    0,000000000e+00    0,000000000e+00    0,000000000e+00    0,000000000e+00
      268000000   -2,396289073e-02    2,869371511e-02   -1,779504120e-01   -7,638944983e-01    0,000000000e+00    0,000000000e+00    0,000000000e+00    0,000000000e+00
      282000000    4,069104791e-03    1,209084876e-02   -5,617223978e-01   -5,354922414e-01    0,000000000e+00    0,000000000e+00    0,000000000e+00    0,000000000e+00
      296000000    9,931195527e-03   -7,568326313e-03   -7,593460083e-01   -1,394551098e-01    0,000000000e+00    0,000000000e+00    0,000000000e+00    0,000000000e+00
      310000000    1,168285776e-02   -1,618825085e-02   -7,126506567e-01    2,972299159e-01    0,000000000e+00    0,000000000e+00    0,000000000e+00    0,000000000e+00
      324000000    2,014658973e-02   -2,656809799e-02   -4,270566702e-01    6,375237107e-01    0,000000000e+00    0,000000000e+00    0,000000000e+00    0,000000000e+00
      338000000    2,570595779e-02   -5,228121579e-02   -7,265462074e-03    7,615423799e-01    0,000000000e+00    0,000000000e+00    0,000000000e+00    0,000000000e+00
      352000000    7,582757156e-03   -8,487181365e-02    4,063418508e-01    6,394259930e-01    0,000000000e+00    0,000000000e+00    0,000000000e+00    0,000000000e+00
      366000000   -3,440790623e-02   -9,541297704e-02    6,901190281e-01    3,109275699e-01    0,000000000e+00    0,000000000e+00    0,000000000e+00    0,000000000e+00
      380000000   -7,035178691e-02   -7,108176500e-02    7,476102710e-01   -1,248771027e-01    0,000000000e+00    0,000000000e+00    0,000000000e+00    0,000000000e+00
      394000000   -7,202988118e-02   -3,252701089e-02    5,464430451e-01   -5,218370557e-01    0,000000000e+00    0,000000000e+00    0,000000000e+00    0,000000000e+00
      408000000   -4,644852132e-02   -1,670841314e-02    1,607715786e-01   -7,332056761e-01    0,000000000e+00    0,000000000e+00    0,000000000e+00    0,000000000e+00
      422000000   -2,829890512e-02   -3,213649988e-02   -2,674285471e-01   -6,952015758e-01    0,000000000e+00    0,000000000e+00    0,000000000e+00    0,000000000e+00
      436000000   -4,044330120e-02   -5,182930827e-02   -6,037083268e-01   -4,321307540e-01    0,000000000e+00    0,000000000e+00    0,000000000e+00    0,000000000e+00
      450000000   -6,720865518e-02   -4,391352460e-02   -7,399193645e-01   -2,191296220e-02    0,000000000e+00    0,000000000e+00    0,000000000e+00    0,000000000e+00
      464000000   -7,299502194e-02   -1,187464874e-02   -6,183299422e-01    3,964530826e-01    0,000000000e+00    0,000000000e+00    0,000000000e+00    0,000000000e+00
      478000000   -4,797122627e-02    1,122193225e-02   -2,831577957e-01    6,670925617e-01    0,000000000e+00    0,000000000e+00    0,000000000e+00    0,000000000e+00
      492000000   -1,573139988e-02    5,583978724e-03    1,368132830e-01    7,008704543e-01    0,000000000e+00    0,000000000e+00    0,000000000e+00    0,000000000e+00
      506000000   -2,665596316e-03   -1,587208733e-02    4,975636005e-01    5,033590794e-01    0,000000000e+00    0,000000000e+00    0,000000000e+00    0,000000000e+00
      520000000   -5,147064105e-03   -3,172418848e-02    6,875421405e-01    1,409362704e-01    0,000000000e+00    0,000000000e+00    0,000000000e+00    0,000000000e+00
      534000000   -3,516519675e-03   -3,776561469e-02    6,429640055e-01   -2,610425055e-01    0,000000000e+00    0,000000000e+00    0,000000000e+00    0,000000000e+00
      548000000    6,450711284e-03   -5,362720415e-02    3,809548914e-01   -5,660691857e-01    0,000000000e+00    0,000000000e+00    0,000000000e+00    0,000000000e+00
      562000000    3,370916471e-03   -8,949749917e-02    3,165583126e-03   -6,713674068e-01    0,000000000e+00    0,000000000e+00    0,000000000e+00    0,000000000e+00
      576000000   -3,412490338e-02   -1,243848056e-01   -3,682659864e-01   -5,579862595e-01    0,000000000e+00    0,000000000e+00    0,000000000e+00    0,000000000e+00
      590000000   -9,549913555e-02   -1,226390600e-01   -6,212287545e-01   -2,634300292e-01    0,000000000e+00    0,000000000e+00    0,000000000e+00    0,000000000e+00
      604000000   -1,385385543e-01   -7,180547714e-02   -6,640605330e-01    1,370747834e-01    0,000000000e+00    0,000000000e+00    0,000000000e+00    0,000000000e+00
      618000000   -1,292329431e-01   -9,728347883e-03   -4,644431770e-01    4,942709208e-01    0,000000000e+00    0,000000000e+00    0,000000000e+00    0,000000000e+00
      632000000   -8,485370129e-02    1,555938367e-02   -9,939672798e-02    6,623884439e-01    0,000000000e+00    0,000000000e+00    0,000000000e+00    0,000000000e+00
      646000000   -5,180727318e-02    4,896955579e-05    2,852466702e-01    5,943040252e-01    0,000000000e+00    0,000000000e+00    0,000000000e+00    0,000000000e+00
      660000000   -5,304016918e-02   -2,099310420e-02    5,648406148e-01    3,234736025e-01    0,000000000e+00    0,000000000e+00    0,000000000e+00    0,000000000e+00
      674000000   -7,018212974e-02   -1,697102934e-02    6,407004595e-01   -6,316368282e-02    0,000000000e+00    0,000000000e+00    0,000000000e+00    0,000000000e+00
      688000000   -6,672891229e-02    9,971980006e-03    4,705967307e-01   -4,241323173e-01    0,000000000e+00    0,000000000e+00    0,000000000e+00    0,000000000e+00
      702000000   -3,658383340e-02    2,671814337e-02    1,211011931e-01   -6,106023788e-01    0,000000000e+00    0,000000000e+00    0,000000000e+00    0,000000000e+00
      716000000    2,984357765e-03    1,642715931e-02   -2,593833506e-01   -5,452255607e-01    0,000000000e+00    0,000000000e+00    0,000000000e+00    0,000000000e+00
      730000000    3,719753399e-02   -1,315870229e-02   -5,225450397e-01   -2,715063989e-01    0,000000000e+00    0,000000000e+00    0,000000000e+00    0,000000000e+00
      744000000    6,214583293e-02   -6,579706073e-02   -5,601354241e-01    9,866433591e-02    0,000000000e+00    0,000000000e+00    0,000000000e+00    0,000000000e+00
      758000000    6,076634675e-02   -1,512597501e-01   -3,661106527e-01    4,001977444e-01    0,000000000e+00    0,000000000e+00    0,000000000e+00    0,000000000e+00
      772000000   -1,799281128e-02   -2,557145357e-01   -4,538506269e-02    5,095396638e-01    0,000000000e+00    0,000000000e+00    0,000000000e+00    0,000000000e+00
      786000000   -2,019935548e-01   -2,909041941e-01    2,593444288e-01    3,990721107e-01    0,000000000e+00    0,000000000e+00    0,000000000e+00    0,000000000e+00
      800000000   -4,083246887e-01   -1,264016479e-01    4,072804749e-01    1,186940074e-01    0,000000000e+00    0,000000000e+00    0,000000000e+00    0,000000000e+00
      814000000   -3,777283132e-01    2,017083317e-01    2,962782085e-01   -1,515230089e-01    0,000000000e+00    0,000000000e+00    0,000000000e+00    0,000000000e+00
      828000000   -6,337521970e-02    3,466167450e-01    8,280887455e-02   -1,911452562e-01    0,000000000e+00    0,000000000e+00    0,000000000e+00    0,000000000e+00
      842000000    2,117671967e-01    1,857297570e-01   -3,631362226e-03   -9,355287254e-02    0,000000000e+00    0,000000000e+00    0,000000000e+00    0,000000000e+00
      856000000    2,662503719e-01   -1,053525656e-01    3,557913005e-02   -3,669389710e-02    0,000000000e+00    0,000000000e+00    0,000000000e+00    0,000000000e+00
      870000000    8,259624988e-02   -3,513054848e-01    8,782356232e-02   -9,687229991e-02    0,000000000e+00    0,000000000e+00    0,000000000e+00    0,000000000e+00
      884000000   -2,668478489e-01   -3,563688099e-01    1,190015301e-02   -2,270627618e-01    0,000000000e+00    0,000000000e+00    0,000000000e+00    0,000000000e+00
      898000000   -4,572304189e-01   -1,436876692e-02   -2,148133814e-01   -2,102951705e-01    0,000000000e+00    0,000000000e+00    0,000000000e+00    0,000000000e+00
      912000000   -2,349288315e-01    2,786801159e-01   -3,272193074e-01    7,735078037e-02    0,000000000e+00    0,000000000e+00    0,000000000e+00    0,000000000e+00
      926000000    5,503902212e-02    2,640449405e-01   -2,093790919e-01    2,641419768e-01    0,000000000e+00    0,000000000e+00    0,000000000e+00    0,000000000e+00
      940000000    2,079095691e-01    8,452107757e-02   -3,172027320e-02    3,254830241e-01    0,000000000e+00    0,000000000e+00    0,000000000e+00    0,000000000e+00
      954000000    2,183466703e-01   -1,215749457e-01    1,296325326e-01    3,009296358e-01    0,000000000e+00    0,000000000e+00    0,000000000e+00    0,000000000e+00
      968000000    1,174585596e-01   -2,959574163e-01    2,688052952e-01    2,140145153e-01    0,000000000e+00    0,000000000e+00    0,000000000e+00    0,000000000e+00
      982000000   -7,601298392e-02   -3,878886402e-01    3,616520762e-01    6,226639450e-02    0,000000000e+00    0,000000000e+00    0,000000000e+00    0,000000000e+00
      996000000   -3,082579076e-01   -3,305831850e-01    3,622932434e-01   -1,421569139e-01    0,000000000e+00    0,000000000e+00    0,000000000e+00    0,000000000e+00
     1010000000   -4,631325305e-01   -1,187201291e-01    2,199454755e-01   -3,360150456e-01    0,000000000e+00    0,000000000e+00    0,000000000e+00    0,000000000e+00
     1024000000   -4,167211056e-01    1,464362741e-01   -3,240796551e-02   -3,868075013e-01    0,000000000e+00    0,000000000e+00    0,000000000e+00    0,000000000e+00
     1038000000   -2,219796181e-01    2,880804539e-01   -2,410760969e-01   -2,561230063e-01    0,000000000e+00    0,000000000e+00    0,000000000e+00    0,000000000e+00
     1052000000   -1,589351334e-02    2,776264250e-01   -3,105126023e-01   -4,735241458e-02    0,000000000e+00    0,000000000e+00    0,000000000e+00    0,000000000e+00
     1066000000    1,346752048e-01    1,672785729e-01   -2,541476488e-01    1,396723390e-01    0,000000000e+00    0,000000000e+00    0,000000000e+00    0,000000000e+00
     1080000000    1,960735619e-01    9,775643237e-03   -1,161455289e-01    2,555492520e-01    0,000000000e+00    0,000000000e+00    0,000000000e+00    0,000000000e+00
     1094000000    1,600437015e-01   -1,653236896e-01    5,971572921e-02    2,906123698e-01    0,000000000e+00    0,000000000e+00    0,000000000e+00    0,000000000e+00
     1108000000    2,109442279e-02   -2,978528440e-01    2,615647912e-01    2,348569930e-01    0,000000000e+00    0,000000000e+00    0,000000000e+00    0,000000000e+00
     1122000000   -2,146095634e-01   -2,872616947e-01    4,401871562e-01    2,203820646e-02    0,000000000e+00    0,000000000e+00    0,000000000e+00    0,000000000e+00
     1136000000   -3,297455013e-01   -2,723141760e-02    4,033236802e-01   -3,464764655e-01    0,000000000e+00    0,000000000e+00    0,000000000e+00    0,000000000e+00
     1150000000   -1,106181890e-01    1,378469169e-01    4,543281719e-02   -5,291193724e-01    0,000000000e+00    0,000000000e+00    0,000000000e+00    0,000000000e+00
     1164000000    8,662977815e-02   -1,568114012e-02   -2,520072460e-01   -4,025151730e-01    0,000000000e+00    0,000000000e+00    0,000000000e+00    0,000000000e+00
     1178000000    2,549414337e-02   -2,492405623e-01   -3,714276552e-01   -1,776571423e-01    0,000000000e+00    0,000000000e+00    0,000000000e+00    0,000000000e+00
     1192000000   -2,243397087e-01   -3,481822312e-01   -3,423517942e-01    4,009209946e-02    0,000000000e+00    0,000000000e+00    0,000000000e+00    0,000000000e+00
     1206000000   -4,812421501e-01   -1,860641986e-01   -1,912038922e-01    1,806493253e-01    0,000000000e+00    0,000000000e+00    0,000000000e+00    0,000000000e+00
     1220000000   -5,059305429e-01    1,406402141e-01   -1,131082140e-02    1,780968457e-01    0,000000000e+00    0,000000000e+00    0,000000000e+00    0,000000000e+00
     1234000000   -2,947587669e-01    3,439044654e-01    7,327497005e-02    7,853427529e-02    0,000000000e+00    0,000000000e+00    0,000000000e+00    0,000000000e+00
     1248000000   -6,389676780e-02    3,527766168e-01    6,582798809e-02   -2,548110439e-03    0,000000000e+00    0,000000000e+00    0,000000000e+00    0,000000000e+00
     1262000000    1,110764369e-01    2,604727745e-01    2,696460858e-02   -2,406539023e-02    0,000000000e+00    0,000000000e+00    0,000000000e+00    0,000000000e+00
     1276000000    2,048355490e-01    1,109734550e-01    4,982806742e-03   -5,644403398e-03    0,000000000e+00    0,000000000e+00    0,000000000e+00    0,000000000e+00
     1290000000    2,221237719e-01   -6,159892306e-02    1,249124669e-02    2,542855591e-02    0,000000000e+00    0,000000000e+00    0,000000000e+00    0,000000000e+00
     1304000000    1,674618721e-01   -2,308550179e-01    6,115077436e-02    6,383562833e-02    0,000000000e+00    0,000000000e+00    0,000000000e+00    0,000000000e+00
     1318000000    2,686368302e-02   -3,649842143e-01    1,752354205e-01    1,714352518e-02    0,000000000e+00    0,000000000e+00    0,000000000e+00    0,000000000e+00
     1332000000   -1,476492286e-01   -3,945409358e-01    1,023798734e-01   -1,697932780e-01    0,000000000e+00    0,000000000e+00    0,000000000e+00    0,000000000e+00
     1346000000   -3,613624275e-01   -3,933763504e-01   -5,394880846e-02   -3,099474497e-02    0,000000000e+00    0,000000000e+00    0,000000000e+00    0,000000000e+00
     1360000000   -5,821604729e-01   -2,069184929e-01    6,902338564e-02    7,996752113e-02    0,000000000e+00    0,000000000e+00    0,000000000e+00    0,000000000e+00
     1374000000   -6,238356233e-01    1,024122387e-01    1,876036227e-01    5,056685582e-02    0,000000000e+00    0,000000000e+00    0,000000000e+00    0,000000000e+00
     1388000000   -4,752547741e-01    3,547248840e-01    2,235832214e-01   -2,250325494e-02    0,000000000e+00    0,000000000e+00    0,000000000e+00    0,000000000e+00
     1402000000   -2,416324466e-01    4,511931837e-01    2,100632936e-01   -7,432515174e-02    0,000000000e+00    0,000000000e+00    0,000000000e+00    0,000000000e+00
     1416000000   -4,361082613e-02    4,109182358e-01    1,944469661e-01   -9,811954945e-02    0,000000000e+00    0,000000000e+00    0,000000000e+00    0,000000000e+00
     1430000000    1,156263053e-01    2,966339588e-01    1,629700512e-01   -1,415057182e-01    0,000000000e+00    0,000000000e+00    0,000000000e+00    0,000000000e+00
     1444000000    1,967428774e-01    1,535409689e-01    1,601323783e-01   -1,013671160e-01    0,000000000e+00    0,000000000e+00    0,000000000e+00    0,000000000e+00
     1458000000    2,349502891e-01   -2,031783760e-02    1,516160220e-01   -8,805906773e-02    0,000000000e+00    0,000000000e+00    0,000000000e+00    0,000000000e+00
     1472000000    1,921489686e-01   -1,909310371e-01    1,500345916e-01   -3,958328068e-02    0,000000000e+00    0,000000000e+00    0,000000000e+00    0,000000000e+00
     1486000000    6,629889458e-02   -3,592582345e-01    1,563235372e-01    3,514287621e-02    0,000000000e+00    0,000000000e+00    0,000000000e+00    0,000000000e+00
     1500000000   -1,731504798e-01   -4,907375872e-01    2,172157913e-01    8,495192230e-02    0,000000000e+00    0,000000000e+00    0,000000000e+00    0,000000000e+00
