! NanoVNA-App
! Date: 2025-09-25 15:45:43
! Start: 100MHz Stop: 1,5GHz Points: 101
! S-Parameter data: F S11 S21 S12 S22
# Hz S RI R 50
!     Frequency           S11_Real           S11_Imag           S21_Real           S21_Imag           S12_Real           S12_Imag           S22_Real           S22_Imag
      100000000   -2,879618853e-02   -4,266122822e-03    3,739885986e-01   -7,215734124e-01    0,000000000e+00    0,000000000e+00    0,000000000e+00    0,000000000e+00
      114000000   -1,654420793e-02    1,150281169e-02   -8,899992704e-02   -8,050515652e-01    0,000000000e+00    0,000000000e+00    0,000000000e+00    0,000000000e+00
      128000000    3,407168202e-03    1,070233341e-02   -5,142058134e-01   -6,201418042e-01    0,000000000e+00    0,000000000e+00    0,000000000e+00    0,000000000e+00
      142000000    1,463202201e-02   -2,662107116e-03   -7,670973539e-01   -2,366127223e-01    0,000000000e+00    0,000000000e+00    0,000000000e+00    0,000000000e+00
      156000000    1,537698507e-02   -1,485752594e-02   -7,690261006e-01    2,198188752e-01    0,000000000e+00    0,000000000e+00    0,000000000e+00    0,000000000e+00
      170000000    1,704872958e-02   -2,245750464e-02   -5,180481672e-01    6,044211984e-01    0,000000000e+00    0,000000000e+00    0,000000000e+00    0,000000000e+00
      184000000    2,129912563e-02   -3,714912385e-02   -1,015665755e-01    7,860767841e-01    0,000000000e+00    0,000000000e+00    0,000000000e+00    0,000000000e+00
      198000000    1,322193630e-02   -6,250730902e-02    3,431619108e-01    7,122233510e-01    0,000000000e+00    0,000000000e+00    0,000000000e+00    0,000000000e+00
      212000000   -1,843118481e-02   -8,131449670e-02    6,775931120e-01    4,098501503e-01    0,000000000e+00    0,000000000e+00    0,000000000e+00    0,000000000e+00
      226000000   -6,134901941e-02   -6,924488395e-02    7,953597903e-01   -3,049846180e-02    0,000000000e+00    0,000000000e+00    0,000000000e+00    0,000000000e+00
      240000000   -8,230950683e-02   -2,579295449e-02    6,459642053e-01   -4,667275250e-01    0,000000000e+00    0,000000000e+00    0,000000000e+00    0,000000000e+00
      254000000   -6,348215789e-02    1,702921838e-02    2,759545445e-01   -7,427961230e-01    0,000000000e+00    0,000000000e+00    0,000000000e+00    0,000000000e+00
      268000000   -2,398716100e-02    2,883963473e-02   -1,781243235e-01   -7,640945911e-01    0,000000000e+00    0,000000000e+00    0,000000000e+00    0,000000000e+00
      282000000    4,027420655e-03    1,207415201e-02   -5,618978739e-01   -5,353664160e-01    0,000000000e+00    0,000000000e+00    0,000000000e+00    0,000000000e+00
      296000000    9,842972271e-03   -7,489334792e-03   -7,593324780e-01   -1,397117525e-01    0,000000000e+00    0,000000000e+00    0,000000000e+00    0,000000000e+00
      310000000    1,144908834e-02   -1,599245332e-02   -7,134143114e-01    2,988541722e-01    0,000000000e+00    0,000000000e+00    0,000000000e+00    0,000000000e+00
      324000000    2,005879395e-02   -2,672127075e-02   -4,272452891e-01    6,380750537e-01    0,000000000e+00    0,000000000e+00    0,000000000e+00    0,000000000e+00
      338000000    2,569609694e-02   -5,228427052e-02   -1,112775225e-02    7,591277957e-01    0,000000000e+00    0,000000000e+00    0,000000000e+00    0,000000000e+00
      352000000    7,582445163e-03   -8,486593515e-02    4,066079855e-01    6,389666200e-01    0,000000000e+00    0,000000000e+00    0,000000000e+00    0,000000000e+00
      366000000   -3,439432383e-02   -9,528367966e-02    6,902050972e-01    3,107697666e-01    0,000000000e+00    0,000000000e+00    0,000000000e+00    0,000000000e+00
      380000000   -7,048054785e-02   -7,116968185e-02    7,476768494e-01   -1,257546246e-01    0,000000000e+00    0,000000000e+00    0,000000000e+00    0,000000000e+00
      394000000   -7,224522531e-02   -3,243228421e-02    5,480195880e-01   -5,219511390e-01    0,000000000e+00    0,000000000e+00    0,000000000e+00    0,000000000e+00
      408000000   -4,618335515e-02   -1,648261957e-02    1,608480215e-01   -7,323639393e-01    0,000000000e+00    0,000000000e+00    0,000000000e+00    0,000000000e+00
      422000000   -2,806938440e-02   -3,171427175e-02   -2,670253515e-01   -6,946141720e-01    0,000000000e+00    0,000000000e+00    0,000000000e+00    0,000000000e+00
      436000000   -4,050596431e-02   -5,181143433e-02   -6,034393907e-01   -4,322206676e-01    0,000000000e+00    0,000000000e+00    0,000000000e+00    0,000000000e+00
      450000000   -6,728088111e-02   -4,362559691e-02   -7,400869131e-01   -2,185501903e-02    0,000000000e+00    0,000000000e+00    0,000000000e+00    0,000000000e+00
      464000000   -7,317639887e-02   -1,186080091e-02   -6,185554266e-01    3,972705007e-01    0,000000000e+00    0,000000000e+00    0,000000000e+00    0,000000000e+00
      478000000   -4,758182913e-02    1,111147646e-02   -2,822300196e-01    6,661754251e-01    0,000000000e+00    0,000000000e+00    0,000000000e+00    0,000000000e+00
      492000000   -1,584249735e-02    6,004385650e-03    1,369523108e-01    7,013745904e-01    0,000000000e+00    0,000000000e+00    0,000000000e+00    0,000000000e+00
      506000000   -2,524754964e-03   -1,589161158e-02    4,980283380e-01    5,028020740e-01    0,000000000e+00    0,000000000e+00    0,000000000e+00    0,000000000e+00
      520000000   -4,909452517e-03   -3,175723180e-02    6,887168884e-01    1,419079006e-01    0,000000000e+00    0,000000000e+00    0,000000000e+00    0,000000000e+00
      534000000   -3,883595578e-03   -3,798748553e-02    6,429671645e-01   -2,615773380e-01    0,000000000e+00    0,000000000e+00    0,000000000e+00    0,000000000e+00
      548000000    6,240969524e-03   -5,387478322e-02    3,813737631e-01   -5,660484433e-01    0,000000000e+00    0,000000000e+00    0,000000000e+00    0,000000000e+00
      562000000    3,435718827e-03   -8,914931864e-02    2,733803587e-03   -6,715527773e-01    0,000000000e+00    0,000000000e+00    0,000000000e+00    0,000000000e+00
      576000000   -3,352182359e-02   -1,243779808e-01   -3,682813346e-01   -5,580938458e-01    0,000000000e+00    0,000000000e+00    0,000000000e+00    0,000000000e+00
      590000000   -9,572165459e-02   -1,228126734e-01   -6,196819544e-01   -2,655358613e-01    0,000000000e+00    0,000000000e+00    0,000000000e+00    0,000000000e+00
      604000000   -1,390012205e-01   -7,197195292e-02   -6,644257903e-01    1,373718828e-01    0,000000000e+00    0,000000000e+00    0,000000000e+00    0,000000000e+00
      618000000   -1,291897148e-01   -1,013697684e-02   -4,650096595e-01    4,924546182e-01    0,000000000e+00    0,000000000e+00    0,000000000e+00    0,000000000e+00
      632000000   -8,502426744e-02    1,614242047e-02   -1,003120095e-01    6,623886228e-01    0,000000000e+00    0,000000000e+00    0,000000000e+00    0,000000000e+00
      646000000   -5,199238658e-02    3,243549727e-04    2,854042649e-01    5,940992832e-01    0,000000000e+00    0,000000000e+00    0,000000000e+00    0,000000000e+00
      660000000   -5,374059454e-02   -2,002160624e-02    5,651258826e-01    3,236458302e-01    0,000000000e+00    0,000000000e+00    0,000000000e+00    0,000000000e+00
      674000000   -7,020384818e-02   -1,643691771e-02    6,409042478e-01   -6,282599270e-02    0,000000000e+00    0,000000000e+00    0,000000000e+00    0,000000000e+00
      688000000   -6,757515669e-02    9,164322168e-03    4,710525870e-01   -4,242304862e-01    0,000000000e+00    0,000000000e+00    0,000000000e+00    0,000000000e+00
      702000000   -3,621400893e-02    2,525273897e-02    1,221253872e-01   -6,024583578e-01    0,000000000e+00    0,000000000e+00    0,000000000e+00    0,000000000e+00
      716000000    3,488593968e-03    1,670313254e-02   -2,593049407e-01   -5,457341075e-01    0,000000000e+00    0,000000000e+00    0,000000000e+00    0,000000000e+00
      730000000    3,612979129e-02   -1,366366446e-02   -5,225988626e-01   -2,721258998e-01    0,000000000e+00    0,000000000e+00    0,000000000e+00    0,000000000e+00
      744000000    6,255462766e-02   -6,454089284e-02   -5,607370138e-01    9,821396321e-02    0,000000000e+00    0,000000000e+00    0,000000000e+00    0,000000000e+00
      758000000    6,099814549e-02   -1,511885077e-01   -3,667006195e-01    4,004690349e-01    0,000000000e+00    0,000000000e+00    0,000000000e+00    0,000000000e+00
      772000000   -1,633697562e-02   -2,554259300e-01   -4,649087414e-02    5,094256997e-01    0,000000000e+00    0,000000000e+00    0,000000000e+00    0,000000000e+00
      786000000   -2,022982240e-01   -2,907297015e-01    2,595569193e-01    3,996554017e-01    0,000000000e+00    0,000000000e+00    0,000000000e+00    0,000000000e+00
      800000000   -4,082746804e-01   -1,269370466e-01    4,079281390e-01    1,192105487e-01    0,000000000e+00    0,000000000e+00    0,000000000e+00    0,000000000e+00
      814000000   -3,762750328e-01    2,013354450e-01    2,974658906e-01   -1,518714726e-01    0,000000000e+00    0,000000000e+00    0,000000000e+00    0,000000000e+00
      828000000   -6,261827052e-02    3,482378125e-01    8,233042061e-02   -1,912856847e-01    0,000000000e+00    0,000000000e+00    0,000000000e+00    0,000000000e+00
      842000000    2,111954391e-01    1,863850802e-01   -4,281904548e-03   -9,365887940e-02    0,000000000e+00    0,000000000e+00    0,000000000e+00    0,000000000e+00
      856000000    2,665793896e-01   -1,051358506e-01    3,537384421e-02   -3,705697134e-02    0,000000000e+00    0,000000000e+00    0,000000000e+00    0,000000000e+00
      870000000    8,288467675e-02   -3,517650664e-01    8,801343292e-02   -9,694964439e-02    0,000000000e+00    0,000000000e+00    0,000000000e+00    0,000000000e+00
      884000000   -2,670160234e-01   -3,571473658e-01    1,133644022e-02   -2,266375422e-01    0,000000000e+00    0,000000000e+00    0,000000000e+00    0,000000000e+00
      898000000   -4,575805962e-01   -1,425715536e-02   -2,137908489e-01   -2,092465311e-01    0,000000000e+00    0,000000000e+00    0,000000000e+00    0,000000000e+00
      912000000   -2,365149707e-01    2,784489095e-01   -3,287112713e-01    7,984417677e-02    0,000000000e+00    0,000000000e+00    0,000000000e+00    0,000000000e+00
      926000000    5,479317531e-02    2,640132904e-01   -2,100340128e-01    2,632295191e-01    0,000000000e+00    0,000000000e+00    0,000000000e+00    0,000000000e+00
      940000000    2,098229527e-01    8,245972544e-02   -3,034841828e-02    3,240861297e-01    0,000000000e+00    0,000000000e+00    0,000000000e+00    0,000000000e+00
      954000000    2,227236331e-01   -1,223476306e-01    1,306049377e-01    3,003391325e-01    0,000000000e+00    0,000000000e+00    0,000000000e+00    0,000000000e+00
      968000000    1,205636114e-01   -2,938622534e-01    2,670656741e-01    2,145517766e-01    0,000000000e+00    0,000000000e+00    0,000000000e+00    0,000000000e+00
      982000000   -7,667094469e-02   -3,825090528e-01    3,602022231e-01    6,361147016e-02    0,000000000e+00    0,000000000e+00    0,000000000e+00    0,000000000e+00
      996000000   -3,089148998e-01   -3,330315650e-01    3,623382449e-01   -1,411617249e-01    0,000000000e+00    0,000000000e+00    0,000000000e+00    0,000000000e+00
     1010000000   -4,568300247e-01   -1,174314171e-01    2,196819484e-01   -3,357460201e-01    0,000000000e+00    0,000000000e+00    0,000000000e+00    0,000000000e+00
     1024000000   -4,131353796e-01    1,436430365e-01   -3,107837029e-02   -3,835006058e-01    0,000000000e+00    0,000000000e+00    0,000000000e+00    0,000000000e+00
     1038000000   -2,254950255e-01    2,867059410e-01   -2,433719933e-01   -2,555082142e-01    0,000000000e+00    0,000000000e+00    0,000000000e+00    0,000000000e+00
     1052000000   -1,654760912e-02    2,787726820e-01   -3,095118105e-01   -4,756299779e-02    0,000000000e+00    0,000000000e+00    0,000000000e+00    0,000000000e+00
     1066000000    1,301187277e-01    1,699418724e-01   -2,500210106e-01    1,374248266e-01    0,000000000e+00    0,000000000e+00    0,000000000e+00    0,000000000e+00
     1080000000    1,959580034e-01    8,739630692e-03   -1,126638129e-01    2,517246306e-01    0,000000000e+00    0,000000000e+00    0,000000000e+00    0,000000000e+00
     1094000000    1,602771282e-01   -1,652251482e-01    6,124000251e-02    2,923640907e-01    0,000000000e+00    0,000000000e+00    0,000000000e+00    0,000000000e+00
     1108000000    2,096758783e-02   -2,978356779e-01    2,594184279e-01    2,360150963e-01    0,000000000e+00    0,000000000e+00    0,000000000e+00    0,000000000e+00
     1122000000   -2,093116790e-01   -2,833478451e-01    4,404196441e-01    2,350725979e-02    0,000000000e+00    0,000000000e+00    0,000000000e+00    0,000000000e+00
     1136000000   -3,268632591e-01   -2,568284981e-02    3,996402025e-01   -3,455407023e-01    0,000000000e+00    0,000000000e+00    0,000000000e+00    0,000000000e+00
     1150000000   -1,040782183e-01    1,366079152e-01    5,115637556e-02   -5,321128964e-01    0,000000000e+00    0,000000000e+00    0,000000000e+00    0,000000000e+00
     1164000000    8,144517243e-02   -1,440980006e-02   -2,532710731e-01   -4,065439403e-01    0,000000000e+00    0,000000000e+00    0,000000000e+00    0,000000000e+00
     1178000000    3,100217693e-02   -2,501022518e-01   -3,689748645e-01   -1,793146729e-01    0,000000000e+00    0,000000000e+00    0,000000000e+00    0,000000000e+00
     1192000000   -2,203349024e-01   -3,513088524e-01   -3,406878114e-01    4,127418622e-02    0,000000000e+00    0,000000000e+00    0,000000000e+00    0,000000000e+00
     1206000000   -4,787006974e-01   -1,852402985e-01   -1,901008934e-01    1,836799830e-01    0,000000000e+00    0,000000000e+00    0,000000000e+00    0,000000000e+00
     1220000000   -5,069230795e-01    1,398975402e-01   -7,258852478e-03    1,749450862e-01    0,000000000e+00    0,000000000e+00    0,000000000e+00    0,000000000e+00
     1234000000   -3,044801950e-01    3,375007212e-01    7,337290049e-02    7,825260609e-02    0,000000000e+00    0,000000000e+00    0,000000000e+00    0,000000000e+00
     1248000000   -5,828414857e-02    3,541238904e-01    6,834512204e-02    2,110649133e-03    0,000000000e+00    0,000000000e+00    0,000000000e+00    0,000000000e+00
     1262000000    1,166095138e-01    2,568586469e-01    3,394107521e-02   -2,212943509e-02    0,000000000e+00    0,000000000e+00    0,000000000e+00    0,000000000e+00
     1276000000    2,070125937e-01    1,093019769e-01    7,821777835e-03   -7,839084603e-03    0,000000000e+00    0,000000000e+00    0,000000000e+00    0,000000000e+00
     1290000000    2,213575244e-01   -6,229985505e-02    1,142562833e-02    2,793764323e-02    0,000000000e+00    0,000000000e+00    0,000000000e+00    0,000000000e+00
     1304000000    1,658569872e-01   -2,288226932e-01    6,133653596e-02    6,063310057e-02    0,000000000e+00    0,000000000e+00    0,000000000e+00    0,000000000e+00
     1318000000    2,283900976e-02   -3,648940623e-01    1,708841324e-01    1,581009477e-02    0,000000000e+00    0,000000000e+00    0,000000000e+00    0,000000000e+00
     1332000000   -1,493395418e-01   -3,997421265e-01    1,036307365e-01   -1,863346100e-01    0,000000000e+00    0,000000000e+00    0,000000000e+00    0,000000000e+00
     1346000000   -3,613218367e-01   -3,912536204e-01   -6,143986806e-02   -2,969601192e-02    0,000000000e+00    0,000000000e+00    0,000000000e+00    0,000000000e+00
     1360000000   -5,815754533e-01   -2,089548260e-01    6,418771297e-02    7,764250040e-02    0,000000000e+00    0,000000000e+00    0,000000000e+00    0,000000000e+00
     1374000000   -6,292421818e-01    1,088425070e-01    1,764110923e-01    4,760513827e-02    0,000000000e+00    0,000000000e+00    0,000000000e+00    0,000000000e+00
     1388000000   -4,674173295e-01    3,568777144e-01    2,199297398e-01   -2,403607219e-02    0,000000000e+00    0,000000000e+00    0,000000000e+00    0,000000000e+00
     1402000000   -2,507982552e-01    4,450716376e-01    2,067212909e-01   -8,834606409e-02    0,000000000e+00    0,000000000e+00    0,000000000e+00    0,000000000e+00
     1416000000   -3,491308168e-02    4,086750150e-01    1,992354095e-01   -1,135921404e-01    0,000000000e+00    0,000000000e+00    0,000000000e+00    0,000000000e+00
     1430000000    1,068916619e-01    3,043507040e-01    1,970396191e-01   -1,071923226e-01    0,000000000e+00    0,000000000e+00    0,000000000e+00    0,000000000e+00
     1444000000    2,030078918e-01    1,598887444e-01    1,703866422e-01   -9,916715324e-02    0,000000000e+00    0,000000000e+00    0,000000000e+00    0,000000000e+00
     1458000000    2,319294959e-01   -1,711471006e-02    1,461362243e-01   -8,562441915e-02    0,000000000e+00    0,000000000e+00    0,000000000e+00    0,000000000e+00
     1472000000    1,838521659e-01   -1,996420622e-01    1,354412436e-01   -4,701961204e-02    0,000000000e+00    0,000000000e+00    0,000000000e+00    0,000000000e+00
     1486000000    6,848692894e-02   -3,680667579e-01    1,680306941e-01    1,032697875e-02    0,000000000e+00    0,000000000e+00    0,000000000e+00    0,000000000e+00
     1500000000   -1,564955860e-01   -4,952897131e-01    2,330414951e-01    8,580405265e-02    0,000000000e+00    0,000000000e+00    0,000000000e+00    0,000000000e+00
