! NanoVNA-App
! Date: 2025-09-25 15:43:18
! Start: 100MHz Stop: 1,5GHz Points: 101
! S-Parameter data: F S11 S21 S12 S22
# Hz S RI R 50
!     Frequency           S11_Real           S11_Imag           S21_Real           S21_Imag           S12_Real           S12_Imag           S22_Real           S22_Imag
      100000000   -2,870022878e-02   -4,237516783e-03    3,739130795e-01   -7,216158509e-01    0,000000000e+00    0,000000000e+00    0,000000000e+00    0,000000000e+00
      114000000   -1,647504047e-02    1,150847413e-02   -8,910788596e-02   -8,052247167e-01    0,000000000e+00    0,000000000e+00    0,000000000e+00    0,000000000e+00
      128000000    3,475156613e-03    1,070544217e-02   -5,145045519e-01   -6,201621890e-01    0,000000000e+00    0,000000000e+00    0,000000000e+00    0,000000000e+00
      142000000    1,468794700e-02   -2,660772996e-03   -7,667551637e-01   -2,365679592e-01    0,000000000e+00    0,000000000e+00    0,000000000e+00    0,000000000e+00
      156000000    1,559692249e-02   -1,448444836e-02   -7,672938108e-01    2,227467299e-01    0,000000000e+00    0,000000000e+00    0,000000000e+00    0,000000000e+00
      170000000    1,714649983e-02   -2,246349864e-02   -5,177922249e-01    6,043327451e-01    0,000000000e+00    0,000000000e+00    0,000000000e+00    0,000000000e+00
      184000000    2,138824761e-02   -3,718866035e-02   -1,011577845e-01    7,860443592e-01    0,000000000e+00    0,000000000e+00    0,000000000e+00    0,000000000e+00
      198000000    1,327055041e-02   -6,252800673e-02    3,428454399e-01    7,119145989e-01    0,000000000e+00    0,000000000e+00    0,000000000e+00    0,000000000e+00
      212000000   -1,842114329e-02   -8,132574707e-02    6,777253151e-01    4,098102748e-01    0,000000000e+00    0,000000000e+00    0,000000000e+00    0,000000000e+00
      226000000   -6,135977060e-02   -6,920260191e-02    7,953890562e-01   -3,056072257e-02    0,000000000e+00    0,000000000e+00    0,000000000e+00    0,000000000e+00
      240000000   -8,219074458e-02   -2,582619339e-02    6,459743381e-01   -4,668043256e-01    0,000000000e+00    0,000000000e+00    0,000000000e+00    0,000000000e+00
      254000000   -6,330703944e-02    1,694383100e-02    2,758459747e-01   -7,428183556e-01    0,000000000e+00    0,000000000e+00    0,000000000e+00    0,000000000e+00
      268000000   -2,395837381e-02    2,871248871e-02   -1,777991205e-01   -7,636075020e-01    0,000000000e+00    0,000000000e+00    0,000000000e+00    0,000000000e+00
      282000000    4,081179854e-03    1,209215168e-02   -5,617101192e-01   -5,353558064e-01    0,000000000e+00    0,000000000e+00    0,000000000e+00    0,000000000e+00
      296000000    9,949318133e-03   -7,481536828e-03   -7,592524886e-01   -1,396591514e-01    0,000000000e+00    0,000000000e+00    0,000000000e+00    0,000000000e+00
      310000000    1,151366904e-02   -1,599679329e-02   -7,114959955e-01    2,971384525e-01    0,000000000e+00    0,000000000e+00    0,000000000e+00    0,000000000e+00
      324000000    2,014880255e-02   -2,672643960e-02   -4,270648062e-01    6,379747987e-01    0,000000000e+00    0,000000000e+00    0,000000000e+00    0,000000000e+00
      338000000    2,621983737e-02   -5,228091776e-02   -9,275810793e-03    7,620983124e-01    0,000000000e+00    0,000000000e+00    0,000000000e+00    0,000000000e+00
      352000000    7,364970166e-03   -8,461743593e-02    4,063203633e-01    6,393210888e-01    0,000000000e+00    0,000000000e+00    0,000000000e+00    0,000000000e+00
      366000000   -3,429507092e-02   -9,539758414e-02    6,897835732e-01    3,114483356e-01    0,000000000e+00    0,000000000e+00    0,000000000e+00    0,000000000e+00
      380000000   -7,033863664e-02   -7,106160372e-02    7,474003434e-01   -1,253455281e-01    0,000000000e+00    0,000000000e+00    0,000000000e+00    0,000000000e+00
      394000000   -7,204505056e-02   -3,255433962e-02    5,479241014e-01   -5,211859345e-01    0,000000000e+00    0,000000000e+00    0,000000000e+00    0,000000000e+00
      408000000   -4,592462257e-02   -1,646613143e-02    1,607966721e-01   -7,316837907e-01    0,000000000e+00    0,000000000e+00    0,000000000e+00    0,000000000e+00
      422000000   -2,846564911e-02   -3,216645122e-02   -2,677410841e-01   -6,947745681e-01    0,000000000e+00    0,000000000e+00    0,000000000e+00    0,000000000e+00
      436000000   -4,055858776e-02   -5,189896747e-02   -6,034656763e-01   -4,322370589e-01    0,000000000e+00    0,000000000e+00    0,000000000e+00    0,000000000e+00
      450000000   -6,724441797e-02   -4,402071610e-02   -7,397663593e-01   -2,193283103e-02    0,000000000e+00    0,000000000e+00    0,000000000e+00    0,000000000e+00
      464000000   -7,258088142e-02   -1,202216744e-02   -6,176371574e-01    3,964266479e-01    0,000000000e+00    0,000000000e+00    0,000000000e+00    0,000000000e+00
      478000000   -4,768822342e-02    1,121166721e-02   -2,836725116e-01    6,673827767e-01    0,000000000e+00    0,000000000e+00    0,000000000e+00    0,000000000e+00
      492000000   -1,558696944e-02    5,723808892e-03    1,372678280e-01    7,015523314e-01    0,000000000e+00    0,000000000e+00    0,000000000e+00    0,000000000e+00
      506000000   -2,696365351e-03   -1,556628570e-02    4,977582097e-01    5,026370287e-01    0,000000000e+00    0,000000000e+00    0,000000000e+00    0,000000000e+00
      520000000   -5,050044041e-03   -3,171875328e-02    6,876270771e-01    1,409156471e-01    0,000000000e+00    0,000000000e+00    0,000000000e+00    0,000000000e+00
      534000000   -3,820377169e-03   -3,820019215e-02    6,429504752e-01   -2,618934810e-01    0,000000000e+00    0,000000000e+00    0,000000000e+00    0,000000000e+00
      548000000    6,541122682e-03   -5,379794911e-02    3,815274239e-01   -5,658226013e-01    0,000000000e+00    0,000000000e+00    0,000000000e+00    0,000000000e+00
      562000000    3,523927880e-03   -8,962292969e-02    1,679829555e-03   -6,715850830e-01    0,000000000e+00    0,000000000e+00    0,000000000e+00    0,000000000e+00
      576000000   -3,418962657e-02   -1,245027408e-01   -3,686529398e-01   -5,571917295e-01    0,000000000e+00    0,000000000e+00    0,000000000e+00    0,000000000e+00
      590000000   -9,581030905e-02   -1,229374632e-01   -6,200733185e-01   -2,626275718e-01    0,000000000e+00    0,000000000e+00    0,000000000e+00    0,000000000e+00
      604000000   -1,388887912e-01   -7,244820893e-02   -6,637506485e-01    1,364564300e-01    0,000000000e+00    0,000000000e+00    0,000000000e+00    0,000000000e+00
      618000000   -1,296765357e-01   -9,945219383e-03   -4,649882615e-01    4,930997491e-01    0,000000000e+00    0,000000000e+00    0,000000000e+00    0,000000000e+00
      632000000   -8,465795219e-02    1,558620762e-02   -9,925415367e-02    6,623350382e-01    0,000000000e+00    0,000000000e+00    0,000000000e+00    0,000000000e+00
      646000000   -5,192005262e-02    3,202149855e-06    2,851980627e-01    5,946718454e-01    0,000000000e+00    0,000000000e+00    0,000000000e+00    0,000000000e+00
      660000000   -5,327010527e-02   -2,125073038e-02    5,643866062e-01    3,225146532e-01    0,000000000e+00    0,000000000e+00    0,000000000e+00    0,000000000e+00
      674000000   -6,904866546e-02   -1,682487130e-02    6,405900717e-01   -6,315491349e-02    0,000000000e+00    0,000000000e+00    0,000000000e+00    0,000000000e+00
      688000000   -6,758001447e-02    8,813496679e-03    4,706360698e-01   -4,238966405e-01    0,000000000e+00    0,000000000e+00    0,000000000e+00    0,000000000e+00
      702000000   -3,638391197e-02    2,563950047e-02    1,197010577e-01   -6,115664840e-01    0,000000000e+00    0,000000000e+00    0,000000000e+00    0,000000000e+00
      716000000    4,010012839e-03    1,544921752e-02   -2,589011788e-01   -5,447380543e-01    0,000000000e+00    0,000000000e+00    0,000000000e+00    0,000000000e+00
      730000000    3,617868945e-02   -1,365694683e-02   -5,216710567e-01   -2,712294757e-01    0,000000000e+00    0,000000000e+00    0,000000000e+00    0,000000000e+00
      744000000    6,294754893e-02   -6,515266001e-02   -5,608737469e-01    9,861595184e-02    0,000000000e+00    0,000000000e+00    0,000000000e+00    0,000000000e+00
      758000000    6,093460321e-02   -1,525190026e-01   -3,668809533e-01    4,000299275e-01    0,000000000e+00    0,000000000e+00    0,000000000e+00    0,000000000e+00
      772000000   -1,701970957e-02   -2,559179068e-01   -4,668725654e-02    5,094847679e-01    0,000000000e+00    0,000000000e+00    0,000000000e+00    0,000000000e+00
      786000000   -2,025175840e-01   -2,916150689e-01    2,601923645e-01    3,984991312e-01    0,000000000e+00    0,000000000e+00    0,000000000e+00    0,000000000e+00
      800000000   -4,081739783e-01   -1,270763874e-01    4,078980386e-01    1,187348366e-01    0,000000000e+00    0,000000000e+00    0,000000000e+00    0,000000000e+00
      814000000   -3,757610023e-01    2,014907002e-01    2,964609265e-01   -1,510304958e-01    0,000000000e+00    0,000000000e+00    0,000000000e+00    0,000000000e+00
      828000000   -6,287889183e-02    3,463927209e-01    8,312223107e-02   -1,910877675e-01    0,000000000e+00    0,000000000e+00    0,000000000e+00    0,000000000e+00
      842000000    2,110882103e-01    1,859233081e-01   -4,010446835e-03   -9,313592315e-02    0,000000000e+00    0,000000000e+00    0,000000000e+00    0,000000000e+00
      856000000    2,664230168e-01   -1,052930057e-01    3,627321497e-02   -3,688395768e-02    0,000000000e+00    0,000000000e+00    0,000000000e+00    0,000000000e+00
      870000000    8,215441555e-02   -3,512879610e-01    8,834373206e-02   -9,699446708e-02    0,000000000e+00    0,000000000e+00    0,000000000e+00    0,000000000e+00
      884000000   -2,677173615e-01   -3,563026488e-01    1,086092554e-02   -2,278148532e-01    0,000000000e+00    0,000000000e+00    0,000000000e+00    0,000000000e+00
      898000000   -4,582111537e-01   -1,449005865e-02   -2,152225524e-01   -2,094728798e-01    0,000000000e+00    0,000000000e+00    0,000000000e+00    0,000000000e+00
      912000000   -2,359629869e-01    2,789427936e-01   -3,274908364e-01    7,703702152e-02    0,000000000e+00    0,000000000e+00    0,000000000e+00    0,000000000e+00
      926000000    5,318248272e-02    2,611672580e-01   -2,107470930e-01    2,615344226e-01    0,000000000e+00    0,000000000e+00    0,000000000e+00    0,000000000e+00
      940000000    2,087890804e-01    8,320274204e-02   -3,139868379e-02    3,252072036e-01    0,000000000e+00    0,000000000e+00    0,000000000e+00    0,000000000e+00
      954000000    2,192609012e-01   -1,205806583e-01    1,321104765e-01    2,997199893e-01    0,000000000e+00    0,000000000e+00    0,000000000e+00    0,000000000e+00
      968000000    1,199488938e-01   -2,946405113e-01    2,681609094e-01    2,139912844e-01    0,000000000e+00    0,000000000e+00    0,000000000e+00    0,000000000e+00
      982000000   -7,862938195e-02   -3,874675930e-01    3,627440333e-01    6,294835359e-02    0,000000000e+00    0,000000000e+00    0,000000000e+00    0,000000000e+00
      996000000   -3,103644550e-01   -3,339833021e-01    3,632050753e-01   -1,433492899e-01    0,000000000e+00    0,000000000e+00    0,000000000e+00    0,000000000e+00
     1010000000   -4,585059285e-01   -1,174562871e-01    2,196561247e-01   -3,348271847e-01    0,000000000e+00    0,000000000e+00    0,000000000e+00    0,000000000e+00
     1024000000   -4,114744663e-01    1,447989792e-01   -3,036391363e-02   -3,847772181e-01    0,000000000e+00    0,000000000e+00    0,000000000e+00    0,000000000e+00
     1038000000   -2,260680348e-01    2,883458138e-01   -2,421073616e-01   -2,562930584e-01    0,000000000e+00    0,000000000e+00    0,000000000e+00    0,000000000e+00
     1052000000   -1,317830477e-02    2,782558501e-01   -3,096227050e-01   -4,554305598e-02    0,000000000e+00    0,000000000e+00    0,000000000e+00    0,000000000e+00
     1066000000    1,308595538e-01    1,708074957e-01   -2,505996227e-01    1,377845407e-01    0,000000000e+00    0,000000000e+00    0,000000000e+00    0,000000000e+00
     1080000000    1,960598826e-01    8,724546060e-03   -1,162107289e-01    2,521259487e-01    0,000000000e+00    0,000000000e+00    0,000000000e+00    0,000000000e+00
     1094000000    1,617962122e-01   -1,613178551e-01    5,977955088e-02    2,916805148e-01    0,000000000e+00    0,000000000e+00    0,000000000e+00    0,000000000e+00
     1108000000    1,902921498e-02   -2,927315533e-01    2,577240467e-01    2,352431118e-01    0,000000000e+00    0,000000000e+00    0,000000000e+00    0,000000000e+00
     1122000000   -2,119548917e-01   -2,859024405e-01    4,393021464e-01    2,552486211e-02    0,000000000e+00    0,000000000e+00    0,000000000e+00    0,000000000e+00
     1136000000   -3,215199411e-01   -2,803801931e-02    4,019241631e-01   -3,447735310e-01    0,000000000e+00    0,000000000e+00    0,000000000e+00    0,000000000e+00
     1150000000   -1,072306484e-01    1,406420469e-01    4,709031805e-02   -5,284478664e-01    0,000000000e+00    0,000000000e+00    0,000000000e+00    0,000000000e+00
     1164000000    8,190597594e-02   -1,654561795e-02   -2,534157634e-01   -4,036228061e-01    0,000000000e+00    0,000000000e+00    0,000000000e+00    0,000000000e+00
     1178000000    2,784693241e-02   -2,548010051e-01   -3,710831702e-01   -1,809648424e-01    0,000000000e+00    0,000000000e+00    0,000000000e+00    0,000000000e+00
     1192000000   -2,235422730e-01   -3,473731279e-01   -3,441989720e-01    4,051522166e-02    0,000000000e+00    0,000000000e+00    0,000000000e+00    0,000000000e+00
     1206000000   -4,764945507e-01   -1,794098914e-01   -1,912488490e-01    1,852310747e-01    0,000000000e+00    0,000000000e+00    0,000000000e+00    0,000000000e+00
     1220000000   -5,001454353e-01    1,404459178e-01   -8,654526435e-03    1,753079146e-01    0,000000000e+00    0,000000000e+00    0,000000000e+00    0,000000000e+00
     1234000000   -3,016765118e-01    3,461630940e-01    7,138869166e-02    8,079806715e-02    0,000000000e+00    0,000000000e+00    0,000000000e+00    0,000000000e+00
     1248000000   -5,974899977e-02    3,598123789e-01    7,069896162e-02    1,469125156e-03    0,000000000e+00    0,000000000e+00    0,000000000e+00    0,000000000e+00
     1262000000    1,137045547e-01    2,601250410e-01    3,307133913e-02   -2,191826515e-02    0,000000000e+00    0,000000000e+00    0,000000000e+00    0,000000000e+00
     1276000000    2,036489248e-01    1,041723862e-01    8,436324075e-03   -1,408776361e-02    0,000000000e+00    0,000000000e+00    0,000000000e+00    0,000000000e+00
     1290000000    2,235634774e-01   -6,173099950e-02    1,503229700e-02    2,787843719e-02    0,000000000e+00    0,000000000e+00    0,000000000e+00    0,000000000e+00
     1304000000    1,661212891e-01   -2,352894843e-01    6,257995218e-02    5,977661163e-02    0,000000000e+00    0,000000000e+00    0,000000000e+00    0,000000000e+00
     1318000000    2,544429712e-02   -3,621301055e-01    1,662817895e-01    1,882765442e-02    0,000000000e+00    0,000000000e+00    0,000000000e+00    0,000000000e+00
     1332000000   -1,484866589e-01   -3,991486728e-01    1,008386537e-01   -1,754360646e-01    0,000000000e+00    0,000000000e+00    0,000000000e+00    0,000000000e+00
     1346000000   -3,610902727e-01   -3,950444758e-01   -5,463806167e-02   -2,713818289e-02    0,000000000e+00    0,000000000e+00    0,000000000e+00    0,000000000e+00
     1360000000   -5,909129977e-01   -2,087714970e-01    5,504463613e-02    7,713374496e-02    0,000000000e+00    0,000000000e+00    0,000000000e+00    0,000000000e+00
     1374000000   -6,271784902e-01    1,001071557e-01    1,754215062e-01    4,424927011e-02    0,000000000e+00    0,000000000e+00    0,000000000e+00    0,000000000e+00
     1388000000   -4,767262042e-01    3,484821916e-01    2,132549435e-01   -3,235147521e-02    0,000000000e+00    0,000000000e+00    0,000000000e+00    0,000000000e+00
     1402000000   -2,441578805e-01    4,431036115e-01    2,099298388e-01   -8,592735231e-02    0,000000000e+00    0,000000000e+00    0,000000000e+00    0,000000000e+00
     1416000000   -3,980544209e-02    4,132111073e-01    1,877842247e-01   -1,061292291e-01    0,000000000e+00    0,000000000e+00    0,000000000e+00    0,000000000e+00
     1430000000    1,082118228e-01    3,040747046e-01    1,667597592e-01   -1,160616428e-01    0,000000000e+00    0,000000000e+00    0,000000000e+00    0,000000000e+00
     1444000000    2,023909539e-01    1,544447392e-01    1,671106070e-01   -1,243688613e-01    0,000000000e+00    0,000000000e+00    0,000000000e+00    0,000000000e+00
     1458000000    2,268818170e-01   -1,110042911e-02    1,422619671e-01   -9,177822620e-02    0,000000000e+00    0,000000000e+00    0,000000000e+00    0,000000000e+00
     1472000000    1,933645904e-01   -1,925116479e-01    1,451014727e-01   -3,907831386e-02    0,000000000e+00    0,000000000e+00    0,000000000e+00    0,000000000e+00
     1486000000    7,212011516e-02   -3,679203987e-01    1,733737290e-01    1,465411764e-02    0,000000000e+00    0,000000000e+00    0,000000000e+00    0,000000000e+00
     1500000000   -1,642695069e-01   -4,876660705e-01    2,332197577e-01    9,207331389e-02    0,000000000e+00    0,000000000e+00    0,000000000e+00    0,000000000e+00
