! NanoVNA-App
! Date: 2025-09-25 15:40:27
! Start: 100MHz Stop: 1,5GHz Points: 101
! S-Parameter data: F S11 S21 S12 S22
# Hz S RI R 50
!     Frequency           S11_Real           S11_Imag           S21_Real           S21_Imag           S12_Real           S12_Imag           S22_Real           S22_Imag
      100000000   -2,866120823e-02   -4,229495302e-03    3,738425970e-01   -7,215266228e-01    0,000000000e+00    0,000000000e+00    0,000000000e+00    0,000000000e+00
      114000000   -1,648610830e-02    1,150439400e-02   -8,909051120e-02   -8,050904274e-01    0,000000000e+00    0,000000000e+00    0,000000000e+00    0,000000000e+00
      128000000    3,521820065e-03    1,064863801e-02   -5,145458579e-01   -6,202552915e-01    0,000000000e+00    0,000000000e+00    0,000000000e+00    0,000000000e+00
      142000000    1,470619813e-02   -2,646383131e-03   -7,666883469e-01   -2,363098711e-01    0,000000000e+00    0,000000000e+00    0,000000000e+00    0,000000000e+00
      156000000    1,511593256e-02   -1,471512672e-02   -7,661559582e-01    2,183249444e-01    0,000000000e+00    0,000000000e+00    0,000000000e+00    0,000000000e+00
      170000000    1,717089489e-02   -2,251936682e-02   -5,176563859e-01    6,046050191e-01    0,000000000e+00    0,000000000e+00    0,000000000e+00    0,000000000e+00
      184000000    2,143907920e-02   -3,717974573e-02   -1,014313251e-01    7,858151793e-01    0,000000000e+00    0,000000000e+00    0,000000000e+00    0,000000000e+00
      198000000    1,333698165e-02   -6,259549409e-02    3,431366086e-01    7,120629549e-01    0,000000000e+00    0,000000000e+00    0,000000000e+00    0,000000000e+00
      212000000   -1,837794296e-02   -8,130861819e-02    6,777894497e-01    4,096284807e-01    0,000000000e+00    0,000000000e+00    0,000000000e+00    0,000000000e+00
      226000000   -6,125780568e-02   -6,918367743e-02    7,953300476e-01   -3,055402264e-02    0,000000000e+00    0,000000000e+00    0,000000000e+00    0,000000000e+00
      240000000   -8,211283386e-02   -2,581682801e-02    6,456919312e-01   -4,666608870e-01    0,000000000e+00    0,000000000e+00    0,000000000e+00    0,000000000e+00
      254000000   -6,331418455e-02    1,685706712e-02    2,755604386e-01   -7,428308725e-01    0,000000000e+00    0,000000000e+00    0,000000000e+00    0,000000000e+00
      268000000   -2,383416519e-02    2,866514772e-02   -1,774131656e-01   -7,636647820e-01    0,000000000e+00    0,000000000e+00    0,000000000e+00    0,000000000e+00
      282000000    4,100983497e-03    1,203945465e-02   -5,615577102e-01   -5,353707075e-01    0,000000000e+00    0,000000000e+00    0,000000000e+00    0,000000000e+00
      296000000    9,875094518e-03   -7,608329877e-03   -7,592866421e-01   -1,395164430e-01    0,000000000e+00    0,000000000e+00    0,000000000e+00    0,000000000e+00
      310000000    1,171711553e-02   -1,617475413e-02   -7,106964588e-01    2,973866761e-01    0,000000000e+00    0,000000000e+00    0,000000000e+00    0,000000000e+00
      324000000    2,001846954e-02   -2,689296752e-02   -4,270833433e-01    6,372771859e-01    0,000000000e+00    0,000000000e+00    0,000000000e+00    0,000000000e+00
      338000000    2,572335675e-02   -5,223210901e-02   -8,529136889e-03    7,594937086e-01    0,000000000e+00    0,000000000e+00    0,000000000e+00    0,000000000e+00
      352000000    7,652521133e-03   -8,465761691e-02    4,060826600e-01    6,394692659e-01    0,000000000e+00    0,000000000e+00    0,000000000e+00    0,000000000e+00
      366000000   -3,417241573e-02   -9,535622597e-02    6,906227469e-01    3,115956783e-01    0,000000000e+00    0,000000000e+00    0,000000000e+00    0,000000000e+00
      380000000   -7,021328062e-02   -7,117803395e-02    7,471235394e-01   -1,259589642e-01    0,000000000e+00    0,000000000e+00    0,000000000e+00    0,000000000e+00
      394000000   -7,206464559e-02   -3,264451399e-02    5,466360450e-01   -5,217869878e-01    0,000000000e+00    0,000000000e+00    0,000000000e+00    0,000000000e+00
      408000000   -4,602769017e-02   -1,611373387e-02    1,614198983e-01   -7,310956717e-01    0,000000000e+00    0,000000000e+00    0,000000000e+00    0,000000000e+00
      422000000   -2,838201448e-02   -3,210101649e-02   -2,673084438e-01   -6,942699552e-01    0,000000000e+00    0,000000000e+00    0,000000000e+00    0,000000000e+00
      436000000   -4,009326175e-02   -5,213315040e-02   -6,031836271e-01   -4,317251444e-01    0,000000000e+00    0,000000000e+00    0,000000000e+00    0,000000000e+00
      450000000   -6,690415740e-02   -4,391280562e-02   -7,395946980e-01   -2,178847603e-02    0,000000000e+00    0,000000000e+00    0,000000000e+00    0,000000000e+00
      464000000   -7,322928309e-02   -1,182236336e-02   -6,183667779e-01    3,962381780e-01    0,000000000e+00    0,000000000e+00    0,000000000e+00    0,000000000e+00
      478000000   -4,738686606e-02    1,141087990e-02   -2,834293544e-01    6,667174101e-01    0,000000000e+00    0,000000000e+00    0,000000000e+00    0,000000000e+00
      492000000   -1,537316293e-02    5,234208424e-03    1,369578242e-01    7,009859085e-01    0,000000000e+00    0,000000000e+00    0,000000000e+00    0,000000000e+00
      506000000   -2,844520845e-03   -1,601782069e-02    4,978856742e-01    5,019421577e-01    0,000000000e+00    0,000000000e+00    0,000000000e+00    0,000000000e+00
      520000000   -4,920031410e-03   -3,090859018e-02    6,874656081e-01    1,408407986e-01    0,000000000e+00    0,000000000e+00    0,000000000e+00    0,000000000e+00
      534000000   -3,653251100e-03   -3,845249489e-02    6,429203153e-01   -2,618094683e-01    0,000000000e+00    0,000000000e+00    0,000000000e+00    0,000000000e+00
      548000000    6,447375286e-03   -5,403361842e-02    3,822249174e-01   -5,666737556e-01    0,000000000e+00    0,000000000e+00    0,000000000e+00    0,000000000e+00
      562000000    3,508113557e-03   -8,930128068e-02    2,711055800e-03   -6,712060571e-01    0,000000000e+00    0,000000000e+00    0,000000000e+00    0,000000000e+00
      576000000   -3,422510624e-02   -1,243268698e-01   -3,685085177e-01   -5,563924313e-01    0,000000000e+00    0,000000000e+00    0,000000000e+00    0,000000000e+00
      590000000   -9,545367211e-02   -1,226168349e-01   -6,199948788e-01   -2,654405236e-01    0,000000000e+00    0,000000000e+00    0,000000000e+00    0,000000000e+00
      604000000   -1,385345906e-01   -7,244212180e-02   -6,634994745e-01    1,364509165e-01    0,000000000e+00    0,000000000e+00    0,000000000e+00    0,000000000e+00
      618000000   -1,286273748e-01   -1,003668178e-02   -4,651412070e-01    4,931789935e-01    0,000000000e+00    0,000000000e+00    0,000000000e+00    0,000000000e+00
      632000000   -8,472833782e-02    1,532120164e-02   -9,890568256e-02    6,627292633e-01    0,000000000e+00    0,000000000e+00    0,000000000e+00    0,000000000e+00
      646000000   -5,130881444e-02    6,231649604e-05    2,855327725e-01    5,947205424e-01    0,000000000e+00    0,000000000e+00    0,000000000e+00    0,000000000e+00
      660000000   -5,328693986e-02   -2,042274363e-02    5,648214817e-01    3,231569231e-01    0,000000000e+00    0,000000000e+00    0,000000000e+00    0,000000000e+00
      674000000   -6,949967891e-02   -1,605110429e-02    6,405424476e-01   -6,308223307e-02    0,000000000e+00    0,000000000e+00    0,000000000e+00    0,000000000e+00
      688000000   -6,690770388e-02    8,529905230e-03    4,706757367e-01   -4,238030612e-01    0,000000000e+00    0,000000000e+00    0,000000000e+00    0,000000000e+00
      702000000   -3,492334113e-02    2,558350749e-02    1,198113412e-01   -6,041799784e-01    0,000000000e+00    0,000000000e+00    0,000000000e+00    0,000000000e+00
      716000000    3,071319312e-03    1,570365392e-02   -2,587818801e-01   -5,453693271e-01    0,000000000e+00    0,000000000e+00    0,000000000e+00    0,000000000e+00
      730000000    3,664842993e-02   -1,319084223e-02   -5,214648843e-01   -2,710501254e-01    0,000000000e+00    0,000000000e+00    0,000000000e+00    0,000000000e+00
      744000000    6,309792399e-02   -6,552623957e-02   -5,603142977e-01    9,887895733e-02    0,000000000e+00    0,000000000e+00    0,000000000e+00    0,000000000e+00
      758000000    6,083733961e-02   -1,525130123e-01   -3,662646115e-01    4,000599384e-01    0,000000000e+00    0,000000000e+00    0,000000000e+00    0,000000000e+00
      772000000   -1,767424680e-02   -2,553240657e-01   -4,497954249e-02    5,089384913e-01    0,000000000e+00    0,000000000e+00    0,000000000e+00    0,000000000e+00
      786000000   -2,032092363e-01   -2,916044593e-01    2,600143850e-01    3,994305432e-01    0,000000000e+00    0,000000000e+00    0,000000000e+00    0,000000000e+00
      800000000   -4,082842767e-01   -1,271571070e-01    4,072567225e-01    1,180135459e-01    0,000000000e+00    0,000000000e+00    0,000000000e+00    0,000000000e+00
      814000000   -3,762253821e-01    2,009458393e-01    2,958720028e-01   -1,505702287e-01    0,000000000e+00    0,000000000e+00    0,000000000e+00    0,000000000e+00
      828000000   -6,106815487e-02    3,469235003e-01    8,246957511e-02   -1,901268214e-01    0,000000000e+00    0,000000000e+00    0,000000000e+00    0,000000000e+00
      842000000    2,119890153e-01    1,850714087e-01   -3,178736428e-03   -9,252573550e-02    0,000000000e+00    0,000000000e+00    0,000000000e+00    0,000000000e+00
      856000000    2,657088637e-01   -1,066119745e-01    3,671593592e-02   -3,728180751e-02    0,000000000e+00    0,000000000e+00    0,000000000e+00    0,000000000e+00
      870000000    8,155218512e-02   -3,510324061e-01    8,846594393e-02   -9,783830494e-02    0,000000000e+00    0,000000000e+00    0,000000000e+00    0,000000000e+00
      884000000   -2,680500746e-01   -3,549401760e-01    1,151742507e-02   -2,283847779e-01    0,000000000e+00    0,000000000e+00    0,000000000e+00    0,000000000e+00
      898000000   -4,568521678e-01   -1,410548761e-02   -2,154929489e-01   -2,102377117e-01    0,000000000e+00    0,000000000e+00    0,000000000e+00    0,000000000e+00
      912000000   -2,357222885e-01    2,782986462e-01   -3,417334557e-01    7,942268997e-02    0,000000000e+00    0,000000000e+00    0,000000000e+00    0,000000000e+00
      926000000    5,439110473e-02    2,607962787e-01   -2,112132907e-01    2,600071430e-01    0,000000000e+00    0,000000000e+00    0,000000000e+00    0,000000000e+00
      940000000    2,088468224e-01    8,653421700e-02   -3,038866445e-02    3,264347911e-01    0,000000000e+00    0,000000000e+00    0,000000000e+00    0,000000000e+00
      954000000    2,215432376e-01   -1,221913621e-01    1,333297342e-01    3,018087745e-01    0,000000000e+00    0,000000000e+00    0,000000000e+00    0,000000000e+00
      968000000    1,190819815e-01   -2,931329608e-01    2,688222229e-01    2,118124366e-01    0,000000000e+00    0,000000000e+00    0,000000000e+00    0,000000000e+00
      982000000   -7,691584527e-02   -3,817985952e-01    3,607379496e-01    6,135784462e-02    0,000000000e+00    0,000000000e+00    0,000000000e+00    0,000000000e+00
      996000000   -3,081763983e-01   -3,311970532e-01    3,612487614e-01   -1,405236274e-01    0,000000000e+00    0,000000000e+00    0,000000000e+00    0,000000000e+00
     1010000000   -4,576577246e-01   -1,156999245e-01    2,201732397e-01   -3,357437253e-01    0,000000000e+00    0,000000000e+00    0,000000000e+00    0,000000000e+00
     1024000000   -4,152854681e-01    1,467468739e-01   -3,381165117e-02   -3,845553994e-01    0,000000000e+00    0,000000000e+00    0,000000000e+00    0,000000000e+00
     1038000000   -2,226438224e-01    2,851096392e-01   -2,412127107e-01   -2,562682331e-01    0,000000000e+00    0,000000000e+00    0,000000000e+00    0,000000000e+00
     1052000000   -1,537955739e-02    2,824417055e-01   -3,107275069e-01   -4,772831500e-02    0,000000000e+00    0,000000000e+00    0,000000000e+00    0,000000000e+00
     1066000000    1,304176599e-01    1,697689593e-01   -2,544569075e-01    1,396226734e-01    0,000000000e+00    0,000000000e+00    0,000000000e+00    0,000000000e+00
     1080000000    1,915421188e-01    6,080734544e-03   -1,169441417e-01    2,560489774e-01    0,000000000e+00    0,000000000e+00    0,000000000e+00    0,000000000e+00
     1094000000    1,611502171e-01   -1,655444503e-01    6,023708358e-02    2,921153009e-01    0,000000000e+00    0,000000000e+00    0,000000000e+00    0,000000000e+00
     1108000000    2,114007808e-02   -2,955592275e-01    2,594546378e-01    2,364437729e-01    0,000000000e+00    0,000000000e+00    0,000000000e+00    0,000000000e+00
     1122000000   -2,169379741e-01   -2,868730128e-01    4,410678148e-01    2,390269749e-02    0,000000000e+00    0,000000000e+00    0,000000000e+00    0,000000000e+00
     1136000000   -3,226579130e-01   -3,160198405e-02    4,000506997e-01   -3,449024558e-01    0,000000000e+00    0,000000000e+00    0,000000000e+00    0,000000000e+00
     1150000000   -1,002731025e-01    1,382908672e-01    4,772654176e-02   -5,317874551e-01    0,000000000e+00    0,000000000e+00    0,000000000e+00    0,000000000e+00
     1164000000    8,226522803e-02   -1,968035102e-02   -2,538839877e-01   -4,026878774e-01    0,000000000e+00    0,000000000e+00    0,000000000e+00    0,000000000e+00
     1178000000    2,513140254e-02   -2,494267672e-01   -3,691742718e-01   -1,791856736e-01    0,000000000e+00    0,000000000e+00    0,000000000e+00    0,000000000e+00
     1192000000   -2,223906666e-01   -3,502251804e-01   -3,425891995e-01    4,003365338e-02    0,000000000e+00    0,000000000e+00    0,000000000e+00    0,000000000e+00
     1206000000   -4,796757400e-01   -1,834999919e-01   -1,880901754e-01    1,787461340e-01    0,000000000e+00    0,000000000e+00    0,000000000e+00    0,000000000e+00
     1220000000   -4,970500767e-01    1,330777556e-01   -8,115420118e-03    1,733020246e-01    0,000000000e+00    0,000000000e+00    0,000000000e+00    0,000000000e+00
     1234000000   -2,949312329e-01    3,413611054e-01    7,692291588e-02    7,574582100e-02    0,000000000e+00    0,000000000e+00    0,000000000e+00    0,000000000e+00
     1248000000   -6,615577638e-02    3,563426137e-01    6,346856058e-02   -1,296276576e-03    0,000000000e+00    0,000000000e+00    0,000000000e+00    0,000000000e+00
     1262000000    1,094365716e-01    2,558564246e-01    2,999101020e-02   -2,924764343e-02    0,000000000e+00    0,000000000e+00    0,000000000e+00    0,000000000e+00
     1276000000    1,980773658e-01    1,092277467e-01    5,009903572e-03   -8,819927461e-03    0,000000000e+00    0,000000000e+00    0,000000000e+00    0,000000000e+00
     1290000000    2,218029201e-01   -6,389748305e-02    1,318370085e-02    2,796900645e-02    0,000000000e+00    0,000000000e+00    0,000000000e+00    0,000000000e+00
     1304000000    1,669825315e-01   -2,323285490e-01    6,382163614e-02    6,521547586e-02    0,000000000e+00    0,000000000e+00    0,000000000e+00    0,000000000e+00
     1318000000    2,053057589e-02   -3,635307848e-01    1,686811447e-01    1,734295301e-02    0,000000000e+00    0,000000000e+00    0,000000000e+00    0,000000000e+00
     1332000000   -1,544674784e-01   -3,987278342e-01    9,636370093e-02   -1,854262203e-01    0,000000000e+00    0,000000000e+00    0,000000000e+00    0,000000000e+00
     1346000000   -3,618532121e-01   -3,867628276e-01   -5,909912288e-02   -1,501492132e-02    0,000000000e+00    0,000000000e+00    0,000000000e+00    0,000000000e+00
     1360000000   -5,953592658e-01   -2,048873752e-01    5,519156530e-02    9,522142261e-02    0,000000000e+00    0,000000000e+00    0,000000000e+00    0,000000000e+00
     1374000000   -6,379479170e-01    1,073148400e-01    1,714685857e-01    4,972476512e-02    0,000000000e+00    0,000000000e+00    0,000000000e+00    0,000000000e+00
     1388000000   -4,771114290e-01    3,478135467e-01    2,161571085e-01   -2,462770976e-02    0,000000000e+00    0,000000000e+00    0,000000000e+00    0,000000000e+00
     1402000000   -2,432456315e-01    4,466381371e-01    2,119097710e-01   -8,751435578e-02    0,000000000e+00    0,000000000e+00    0,000000000e+00    0,000000000e+00
     1416000000   -4,416158795e-02    4,112476707e-01    1,902123094e-01   -1,088660881e-01    0,000000000e+00    0,000000000e+00    0,000000000e+00    0,000000000e+00
     1430000000    1,114038825e-01    3,093899190e-01    1,837837696e-01   -1,013410166e-01    0,000000000e+00    0,000000000e+00    0,000000000e+00    0,000000000e+00
     1444000000    1,969810575e-01    1,579935104e-01    1,575641781e-01   -1,021482870e-01    0,000000000e+00    0,000000000e+00    0,000000000e+00    0,000000000e+00
     1458000000    2,345441133e-01   -1,243977901e-02    1,532917917e-01   -8,450818807e-02    0,000000000e+00    0,000000000e+00    0,000000000e+00    0,000000000e+00
     1472000000    1,964648664e-01   -1,942881197e-01    1,489132494e-01   -3,643713892e-02    0,000000000e+00    0,000000000e+00    0,000000000e+00    0,000000000e+00
     1486000000    6,418456137e-02   -3,639930785e-01    1,564528197e-01    2,631539293e-02    0,000000000e+00    0,000000000e+00    0,000000000e+00    0,000000000e+00
     1500000000   -1,603008956e-01   -4,874755740e-01    2,457957864e-01    8,344320208e-02    0,000000000e+00    0,000000000e+00    0,000000000e+00    0,000000000e+00
