! NanoVNA-App
! Date: 2025-09-25 15:42:43
! Start: 100MHz Stop: 1,5GHz Points: 101
! S-Parameter data: F S11 S21 S12 S22
# Hz S RI R 50
!     Frequency           S11_Real           S11_Imag           S21_Real           S21_Imag           S12_Real           S12_Imag           S22_Real           S22_Imag
      100000000   -2,875201218e-02   -4,244544543e-03    3,739573359e-01   -7,215550542e-01    0,000000000e+00    0,000000000e+00    0,000000000e+00    0,000000000e+00
      114000000   -1,654209755e-02    1,147047803e-02   -8,918351680e-02   -8,052960634e-01    0,000000000e+00    0,000000000e+00    0,000000000e+00    0,000000000e+00
      128000000    3,402221715e-03    1,064078882e-02   -5,144720078e-01   -6,201584935e-01    0,000000000e+00    0,000000000e+00    0,000000000e+00    0,000000000e+00
      142000000    1,463428512e-02   -2,654522657e-03   -7,670408487e-01   -2,365699559e-01    0,000000000e+00    0,000000000e+00    0,000000000e+00    0,000000000e+00
      156000000    1,645468548e-02   -1,403963100e-02   -7,719715238e-01    2,245106697e-01    0,000000000e+00    0,000000000e+00    0,000000000e+00    0,000000000e+00
      170000000    1,711985283e-02   -2,251659520e-02   -5,178165436e-01    6,042813659e-01    0,000000000e+00    0,000000000e+00    0,000000000e+00    0,000000000e+00
      184000000    2,131423540e-02   -3,717996553e-02   -1,013299674e-01    7,856671214e-01    0,000000000e+00    0,000000000e+00    0,000000000e+00    0,000000000e+00
      198000000    1,323140319e-02   -6,251830608e-02    3,432863057e-01    7,120433450e-01    0,000000000e+00    0,000000000e+00    0,000000000e+00    0,000000000e+00
      212000000   -1,844736561e-02   -8,126902580e-02    6,779161692e-01    4,099042416e-01    0,000000000e+00    0,000000000e+00    0,000000000e+00    0,000000000e+00
      226000000   -6,139734760e-02   -6,920149177e-02    7,954481840e-01   -3,053147905e-02    0,000000000e+00    0,000000000e+00    0,000000000e+00    0,000000000e+00
      240000000   -8,226627856e-02   -2,579859272e-02    6,457559466e-01   -4,667561352e-01    0,000000000e+00    0,000000000e+00    0,000000000e+00    0,000000000e+00
      254000000   -6,343079358e-02    1,695931889e-02    2,759569883e-01   -7,430598736e-01    0,000000000e+00    0,000000000e+00    0,000000000e+00    0,000000000e+00
      268000000   -2,398311347e-02    2,875642292e-02   -1,779655665e-01   -7,639276385e-01    0,000000000e+00    0,000000000e+00    0,000000000e+00    0,000000000e+00
      282000000    4,119081888e-03    1,202888694e-02   -5,613231063e-01   -5,358002186e-01    0,000000000e+00    0,000000000e+00    0,000000000e+00    0,000000000e+00
      296000000    9,853501804e-03   -7,512669079e-03   -7,596069574e-01   -1,396193951e-01    0,000000000e+00    0,000000000e+00    0,000000000e+00    0,000000000e+00
      310000000    1,156512089e-02   -1,626528800e-02   -7,111243606e-01    2,981838882e-01    0,000000000e+00    0,000000000e+00    0,000000000e+00    0,000000000e+00
      324000000    2,001385577e-02   -2,653686330e-02   -4,269571602e-01    6,385332942e-01    0,000000000e+00    0,000000000e+00    0,000000000e+00    0,000000000e+00
      338000000    2,568535134e-02   -5,236353725e-02   -7,760701701e-03    7,630385160e-01    0,000000000e+00    0,000000000e+00    0,000000000e+00    0,000000000e+00
      352000000    7,724812720e-03   -8,492857218e-02    4,061406255e-01    6,398175955e-01    0,000000000e+00    0,000000000e+00    0,000000000e+00    0,000000000e+00
      366000000   -3,459924459e-02   -9,528207034e-02    6,898162961e-01    3,103377223e-01    0,000000000e+00    0,000000000e+00    0,000000000e+00    0,000000000e+00
      380000000   -7,044009119e-02   -7,102622837e-02    7,476381660e-01   -1,254331470e-01    0,000000000e+00    0,000000000e+00    0,000000000e+00    0,000000000e+00
      394000000   -7,234493643e-02   -3,256348521e-02    5,462878346e-01   -5,202903748e-01    0,000000000e+00    0,000000000e+00    0,000000000e+00    0,000000000e+00
      408000000   -4,608647153e-02   -1,637365669e-02    1,624647975e-01   -7,321605682e-01    0,000000000e+00    0,000000000e+00    0,000000000e+00    0,000000000e+00
      422000000   -2,834694833e-02   -3,193457797e-02   -2,662221491e-01   -6,947951913e-01    0,000000000e+00    0,000000000e+00    0,000000000e+00    0,000000000e+00
      436000000   -4,061294720e-02   -5,178119242e-02   -6,033947468e-01   -4,327222407e-01    0,000000000e+00    0,000000000e+00    0,000000000e+00    0,000000000e+00
      450000000   -6,714301556e-02   -4,355192930e-02   -7,400345802e-01   -2,181753144e-02    0,000000000e+00    0,000000000e+00    0,000000000e+00    0,000000000e+00
      464000000   -7,307074219e-02   -1,187020447e-02   -6,186424494e-01    3,967481554e-01    0,000000000e+00    0,000000000e+00    0,000000000e+00    0,000000000e+00
      478000000   -4,723651335e-02    1,144668646e-02   -2,827037871e-01    6,669302583e-01    0,000000000e+00    0,000000000e+00    0,000000000e+00    0,000000000e+00
      492000000   -1,564299315e-02    5,401570816e-03    1,373108625e-01    7,009378076e-01    0,000000000e+00    0,000000000e+00    0,000000000e+00    0,000000000e+00
      506000000   -2,996353200e-03   -1,562081650e-02    4,971839190e-01    5,025392771e-01    0,000000000e+00    0,000000000e+00    0,000000000e+00    0,000000000e+00
      520000000   -5,034886766e-03   -3,145786002e-02    6,878644228e-01    1,420754194e-01    0,000000000e+00    0,000000000e+00    0,000000000e+00    0,000000000e+00
      534000000   -3,688306548e-03   -3,789445013e-02    6,428444982e-01   -2,612586319e-01    0,000000000e+00    0,000000000e+00    0,000000000e+00    0,000000000e+00
      548000000    6,337144412e-03   -5,422953144e-02    3,808512986e-01   -5,663373470e-01    0,000000000e+00    0,000000000e+00    0,000000000e+00    0,000000000e+00
      562000000    3,302928992e-03   -8,912818879e-02    2,957336605e-03   -6,708745956e-01    0,000000000e+00    0,000000000e+00    0,000000000e+00    0,000000000e+00
      576000000   -3,357635438e-02   -1,242982522e-01   -3,674045205e-01   -5,576725602e-01    0,000000000e+00    0,000000000e+00    0,000000000e+00    0,000000000e+00
      590000000   -9,584895521e-02   -1,227499321e-01   -6,213847399e-01   -2,644180357e-01    0,000000000e+00    0,000000000e+00    0,000000000e+00    0,000000000e+00
      604000000   -1,390742809e-01   -7,200176269e-02   -6,639285684e-01    1,368806064e-01    0,000000000e+00    0,000000000e+00    0,000000000e+00    0,000000000e+00
      618000000   -1,295770854e-01   -9,657506831e-03   -4,638841152e-01    4,929693043e-01    0,000000000e+00    0,000000000e+00    0,000000000e+00    0,000000000e+00
      632000000   -8,396979421e-02    1,593042538e-02   -1,002300829e-01    6,622805595e-01    0,000000000e+00    0,000000000e+00    0,000000000e+00    0,000000000e+00
      646000000   -5,150674656e-02    8,407704881e-04    2,853517234e-01    5,941219926e-01    0,000000000e+00    0,000000000e+00    0,000000000e+00    0,000000000e+00
      660000000   -5,360778421e-02   -2,034172788e-02    5,642893314e-01    3,233505785e-01    0,000000000e+00    0,000000000e+00    0,000000000e+00    0,000000000e+00
      674000000   -6,911484152e-02   -1,653319784e-02    6,407516599e-01   -6,321340054e-02    0,000000000e+00    0,000000000e+00    0,000000000e+00    0,000000000e+00
      688000000   -6,664956361e-02    9,705823846e-03    4,704336524e-01   -4,239209294e-01    0,000000000e+00    0,000000000e+00    0,000000000e+00    0,000000000e+00
      702000000   -3,601800278e-02    2,579571679e-02    1,193578020e-01   -6,112521887e-01    0,000000000e+00    0,000000000e+00    0,000000000e+00    0,000000000e+00
      716000000    4,172099289e-03    1,618647017e-02   -2,591269612e-01   -5,445579290e-01    0,000000000e+00    0,000000000e+00    0,000000000e+00    0,000000000e+00
      730000000    3,690238670e-02   -1,301932056e-02   -5,216671228e-01   -2,715214193e-01    0,000000000e+00    0,000000000e+00    0,000000000e+00    0,000000000e+00
      744000000    6,180160493e-02   -6,483437121e-02   -5,602015257e-01    9,821386635e-02    0,000000000e+00    0,000000000e+00    0,000000000e+00    0,000000000e+00
      758000000    6,162577122e-02   -1,514279395e-01   -3,666903079e-01    3,994801342e-01    0,000000000e+00    0,000000000e+00    0,000000000e+00    0,000000000e+00
      772000000   -1,772955619e-02   -2,566048205e-01   -4,578394070e-02    5,092564225e-01    0,000000000e+00    0,000000000e+00    0,000000000e+00    0,000000000e+00
      786000000   -2,019283623e-01   -2,913114727e-01    2,591551244e-01    3,983522058e-01    0,000000000e+00    0,000000000e+00    0,000000000e+00    0,000000000e+00
      800000000   -4,083362222e-01   -1,276495457e-01    4,070471227e-01    1,188597828e-01    0,000000000e+00    0,000000000e+00    0,000000000e+00    0,000000000e+00
      814000000   -3,761696219e-01    2,032580972e-01    2,967005968e-01   -1,511006951e-01    0,000000000e+00    0,000000000e+00    0,000000000e+00    0,000000000e+00
      828000000   -6,161429733e-02    3,466462791e-01    8,242424577e-02   -1,903670430e-01    0,000000000e+00    0,000000000e+00    0,000000000e+00    0,000000000e+00
      842000000    2,120657414e-01    1,857534200e-01   -3,119857050e-03   -9,298046678e-02    0,000000000e+00    0,000000000e+00    0,000000000e+00    0,000000000e+00
      856000000    2,662175298e-01   -1,056931913e-01    3,588416800e-02   -3,700638562e-02    0,000000000e+00    0,000000000e+00    0,000000000e+00    0,000000000e+00
      870000000    8,358472586e-02   -3,508199155e-01    8,899372071e-02   -9,695012867e-02    0,000000000e+00    0,000000000e+00    0,000000000e+00    0,000000000e+00
      884000000   -2,676775157e-01   -3,561145663e-01    1,103986707e-02   -2,275008559e-01    0,000000000e+00    0,000000000e+00    0,000000000e+00    0,000000000e+00
      898000000   -4,582176208e-01   -1,396778226e-02   -2,153526545e-01   -2,104876786e-01    0,000000000e+00    0,000000000e+00    0,000000000e+00    0,000000000e+00
      912000000   -2,354742289e-01    2,792479694e-01   -3,320514262e-01    6,286192685e-02    0,000000000e+00    0,000000000e+00    0,000000000e+00    0,000000000e+00
      926000000    5,627340451e-02    2,623732984e-01   -2,080103457e-01    2,621060908e-01    0,000000000e+00    0,000000000e+00    0,000000000e+00    0,000000000e+00
      940000000    2,095411420e-01    8,592767268e-02   -3,094182163e-02    3,255922496e-01    0,000000000e+00    0,000000000e+00    0,000000000e+00    0,000000000e+00
      954000000    2,198914737e-01   -1,203154325e-01    1,310776621e-01    3,011892140e-01    0,000000000e+00    0,000000000e+00    0,000000000e+00    0,000000000e+00
      968000000    1,190177947e-01   -2,950026393e-01    2,692210078e-01    2,137323171e-01    0,000000000e+00    0,000000000e+00    0,000000000e+00    0,000000000e+00
      982000000   -7,605842501e-02   -3,819638789e-01    3,618344367e-01    6,268985569e-02    0,000000000e+00    0,000000000e+00    0,000000000e+00    0,000000000e+00
      996000000   -3,140957952e-01   -3,297627568e-01    3,621671200e-01   -1,420289576e-01    0,000000000e+00    0,000000000e+00    0,000000000e+00    0,000000000e+00
     1010000000   -4,569621682e-01   -1,175513640e-01    2,204190940e-01   -3,349423707e-01    0,000000000e+00    0,000000000e+00    0,000000000e+00    0,000000000e+00
     1024000000   -4,168029428e-01    1,388933808e-01   -3,448671848e-02   -3,867468238e-01    0,000000000e+00    0,000000000e+00    0,000000000e+00    0,000000000e+00
     1038000000   -2,252539992e-01    2,902559936e-01   -2,406683117e-01   -2,567214966e-01    0,000000000e+00    0,000000000e+00    0,000000000e+00    0,000000000e+00
     1052000000   -1,699248329e-02    2,763420343e-01   -3,102097213e-01   -4,693399742e-02    0,000000000e+00    0,000000000e+00    0,000000000e+00    0,000000000e+00
     1066000000    1,339673102e-01    1,679648012e-01   -2,504172623e-01    1,384077221e-01    0,000000000e+00    0,000000000e+00    0,000000000e+00    0,000000000e+00
     1080000000    1,899293959e-01    7,465732284e-03   -1,158819422e-01    2,561592162e-01    0,000000000e+00    0,000000000e+00    0,000000000e+00    0,000000000e+00
     1094000000    1,611682624e-01   -1,665750146e-01    6,283640862e-02    2,926400304e-01    0,000000000e+00    0,000000000e+00    0,000000000e+00    0,000000000e+00
     1108000000    2,287534066e-02   -2,945036590e-01    2,608952522e-01    2,322354168e-01    0,000000000e+00    0,000000000e+00    0,000000000e+00    0,000000000e+00
     1122000000   -2,145854682e-01   -2,799661756e-01    4,391065836e-01    2,388546802e-02    0,000000000e+00    0,000000000e+00    0,000000000e+00    0,000000000e+00
     1136000000   -3,217223883e-01   -3,087891825e-02    3,969781697e-01   -3,430943787e-01    0,000000000e+00    0,000000000e+00    0,000000000e+00    0,000000000e+00
     1150000000   -1,092911959e-01    1,379766166e-01    4,861185700e-02   -5,305492282e-01    0,000000000e+00    0,000000000e+00    0,000000000e+00    0,000000000e+00
     1164000000    8,501546085e-02   -2,077147178e-02   -2,509742081e-01   -4,076495767e-01    0,000000000e+00    0,000000000e+00    0,000000000e+00    0,000000000e+00
     1178000000    2,410189435e-02   -2,531236708e-01   -3,723326623e-01   -1,813099384e-01    0,000000000e+00    0,000000000e+00    0,000000000e+00    0,000000000e+00
     1192000000   -2,223832160e-01   -3,483933806e-01   -3,383907974e-01    4,311018065e-02    0,000000000e+00    0,000000000e+00    0,000000000e+00    0,000000000e+00
     1206000000   -4,814023972e-01   -1,794391423e-01   -1,916549504e-01    1,840604097e-01    0,000000000e+00    0,000000000e+00    0,000000000e+00    0,000000000e+00
     1220000000   -4,991677105e-01    1,381392479e-01   -3,511139192e-03    1,755547971e-01    0,000000000e+00    0,000000000e+00    0,000000000e+00    0,000000000e+00
     1234000000   -2,985446751e-01    3,453010917e-01    7,324946672e-02    7,525783777e-02    0,000000000e+00    0,000000000e+00    0,000000000e+00    0,000000000e+00
     1248000000   -6,428688020e-02    3,570555151e-01    6,658326834e-02    2,517888090e-03    0,000000000e+00    0,000000000e+00    0,000000000e+00    0,000000000e+00
     1262000000    1,071809530e-01    2,604231834e-01    2,833957039e-02   -2,382633463e-02    0,000000000e+00    0,000000000e+00    0,000000000e+00    0,000000000e+00
     1276000000    1,988752186e-01    1,080247611e-01    3,729488468e-03   -6,103376858e-03    0,000000000e+00    0,000000000e+00    0,000000000e+00    0,000000000e+00
     1290000000    2,179979682e-01   -6,578055024e-02    9,931315668e-03    2,620944008e-02    0,000000000e+00    0,000000000e+00    0,000000000e+00    0,000000000e+00
     1304000000    1,660341620e-01   -2,338785231e-01    6,589743495e-02    6,224887073e-02    0,000000000e+00    0,000000000e+00    0,000000000e+00    0,000000000e+00
     1318000000    2,080884203e-02   -3,620922863e-01    1,687284857e-01    1,947072893e-02    0,000000000e+00    0,000000000e+00    0,000000000e+00    0,000000000e+00
     1332000000   -1,542713195e-01   -3,987941742e-01    9,684810787e-02   -1,852198094e-01    0,000000000e+00    0,000000000e+00    0,000000000e+00    0,000000000e+00
     1346000000   -3,580594063e-01   -3,946118057e-01   -5,834137648e-02   -2,714843862e-02    0,000000000e+00    0,000000000e+00    0,000000000e+00    0,000000000e+00
     1360000000   -5,868262053e-01   -2,088255584e-01    5,526774749e-02    8,315731585e-02    0,000000000e+00    0,000000000e+00    0,000000000e+00    0,000000000e+00
     1374000000   -6,284564137e-01    1,120193973e-01    1,840512604e-01    5,758234486e-02    0,000000000e+00    0,000000000e+00    0,000000000e+00    0,000000000e+00
     1388000000   -4,778478146e-01    3,574499190e-01    2,131348699e-01   -1,793094352e-02    0,000000000e+00    0,000000000e+00    0,000000000e+00    0,000000000e+00
     1402000000   -2,389214933e-01    4,535886645e-01    2,170279622e-01   -7,661352307e-02    0,000000000e+00    0,000000000e+00    0,000000000e+00    0,000000000e+00
     1416000000   -3,235351667e-02    4,116588831e-01    2,022835165e-01   -1,095938236e-01    0,000000000e+00    0,000000000e+00    0,000000000e+00    0,000000000e+00
     1430000000    9,998123348e-02    3,110630214e-01    1,669802666e-01   -1,004340202e-01    0,000000000e+00    0,000000000e+00    0,000000000e+00    0,000000000e+00
     1444000000    2,023447603e-01    1,533895135e-01    1,526679844e-01   -1,178158596e-01    0,000000000e+00    0,000000000e+00    0,000000000e+00    0,000000000e+00
     1458000000    2,320058346e-01   -1,478177030e-02    1,471808404e-01   -9,865875542e-02    0,000000000e+00    0,000000000e+00    0,000000000e+00    0,000000000e+00
     1472000000    1,893137842e-01   -1,925273836e-01    1,306872666e-01   -4,292188585e-02    0,000000000e+00    0,000000000e+00    0,000000000e+00    0,000000000e+00
     1486000000    7,019353658e-02   -3,689585924e-01    1,609760076e-01    1,405206602e-02    0,000000000e+00    0,000000000e+00    0,000000000e+00    0,000000000e+00
     1500000000   -1,609706432e-01   -4,844506681e-01    2,241596133e-01    9,365479648e-02    0,000000000e+00    0,000000000e+00    0,000000000e+00    0,000000000e+00
