! NanoVNA-App
! Date: 2025-09-25 15:41:47
! Start: 100MHz Stop: 1,5GHz Points: 101
! S-Parameter data: F S11 S21 S12 S22
# Hz S RI R 50
!     Frequency           S11_Real           S11_Imag           S21_Real           S21_Imag           S12_Real           S12_Imag           S22_Real           S22_Imag
      100000000   -2,873264253e-02   -4,246274941e-03    3,739612103e-01   -7,215822339e-01    0,000000000e+00    0,000000000e+00    0,000000000e+00    0,000000000e+00
      114000000   -1,649119146e-02    1,147758123e-02   -8,906340599e-02   -8,052790165e-01    0,000000000e+00    0,000000000e+00    0,000000000e+00    0,000000000e+00
      128000000    3,435436869e-03    1,070370898e-02   -5,144209266e-01   -6,203550100e-01    0,000000000e+00    0,000000000e+00    0,000000000e+00    0,000000000e+00
      142000000    1,466694474e-02   -2,639824757e-03   -7,669762373e-01   -2,364665717e-01    0,000000000e+00    0,000000000e+00    0,000000000e+00    0,000000000e+00
      156000000    1,514789276e-02   -1,470505819e-02   -7,666484714e-01    2,182866782e-01    0,000000000e+00    0,000000000e+00    0,000000000e+00    0,000000000e+00
      170000000    1,711308770e-02   -2,254248783e-02   -5,180647373e-01    6,042743921e-01    0,000000000e+00    0,000000000e+00    0,000000000e+00    0,000000000e+00
      184000000    2,132955939e-02   -3,713275120e-02   -1,014121622e-01    7,857075334e-01    0,000000000e+00    0,000000000e+00    0,000000000e+00    0,000000000e+00
      198000000    1,326088794e-02   -6,255096197e-02    3,431525230e-01    7,124146819e-01    0,000000000e+00    0,000000000e+00    0,000000000e+00    0,000000000e+00
      212000000   -1,839606091e-02   -8,132006973e-02    6,777449846e-01    4,098597467e-01    0,000000000e+00    0,000000000e+00    0,000000000e+00    0,000000000e+00
      226000000   -6,128938496e-02   -6,927173585e-02    7,952954173e-01   -3,050312959e-02    0,000000000e+00    0,000000000e+00    0,000000000e+00    0,000000000e+00
      240000000   -8,217848837e-02   -2,581762150e-02    6,457449198e-01   -4,668857455e-01    0,000000000e+00    0,000000000e+00    0,000000000e+00    0,000000000e+00
      254000000   -6,335500628e-02    1,693884283e-02    2,763239741e-01   -7,427880168e-01    0,000000000e+00    0,000000000e+00    0,000000000e+00    0,000000000e+00
      268000000   -2,393298969e-02    2,873127908e-02   -1,775926054e-01   -7,638150454e-01    0,000000000e+00    0,000000000e+00    0,000000000e+00    0,000000000e+00
      282000000    4,070933908e-03    1,212386973e-02   -5,619106293e-01   -5,357765555e-01    0,000000000e+00    0,000000000e+00    0,000000000e+00    0,000000000e+00
      296000000    9,837171063e-03   -7,453946862e-03   -7,594865561e-01   -1,397030205e-01    0,000000000e+00    0,000000000e+00    0,000000000e+00    0,000000000e+00
      310000000    1,138916705e-02   -1,602529548e-02   -7,127708793e-01    2,989446521e-01    0,000000000e+00    0,000000000e+00    0,000000000e+00    0,000000000e+00
      324000000    2,001719736e-02   -2,684861422e-02   -4,271674156e-01    6,375385523e-01    0,000000000e+00    0,000000000e+00    0,000000000e+00    0,000000000e+00
      338000000    2,611410804e-02   -5,240422115e-02   -8,949800394e-03    7,617056966e-01    0,000000000e+00    0,000000000e+00    0,000000000e+00    0,000000000e+00
      352000000    7,575890981e-03   -8,482381701e-02    4,067070782e-01    6,394119263e-01    0,000000000e+00    0,000000000e+00    0,000000000e+00    0,000000000e+00
      366000000   -3,432721272e-02   -9,533297271e-02    6,905648112e-01    3,108640909e-01    0,000000000e+00    0,000000000e+00    0,000000000e+00    0,000000000e+00
      380000000   -7,041230798e-02   -7,116337866e-02    7,466208339e-01   -1,254628897e-01    0,000000000e+00    0,000000000e+00    0,000000000e+00    0,000000000e+00
      394000000   -7,203011960e-02   -3,274178505e-02    5,474753380e-01   -5,213596821e-01    0,000000000e+00    0,000000000e+00    0,000000000e+00    0,000000000e+00
      408000000   -4,646346718e-02   -1,667211950e-02    1,609690040e-01   -7,319670916e-01    0,000000000e+00    0,000000000e+00    0,000000000e+00    0,000000000e+00
      422000000   -2,828634158e-02   -3,221986815e-02   -2,665396035e-01   -6,947395802e-01    0,000000000e+00    0,000000000e+00    0,000000000e+00    0,000000000e+00
      436000000   -4,053789377e-02   -5,177284032e-02   -6,029528975e-01   -4,322138131e-01    0,000000000e+00    0,000000000e+00    0,000000000e+00    0,000000000e+00
      450000000   -6,704812497e-02   -4,376439005e-02   -7,394056320e-01   -2,180640772e-02    0,000000000e+00    0,000000000e+00    0,000000000e+00    0,000000000e+00
      464000000   -7,299008965e-02   -1,191889402e-02   -6,179837584e-01    3,965339065e-01    0,000000000e+00    0,000000000e+00    0,000000000e+00    0,000000000e+00
      478000000   -4,766731337e-02    1,120006293e-02   -2,827506363e-01    6,668005586e-01    0,000000000e+00    0,000000000e+00    0,000000000e+00    0,000000000e+00
      492000000   -1,570456848e-02    5,380628631e-03    1,372812986e-01    7,007467747e-01    0,000000000e+00    0,000000000e+00    0,000000000e+00    0,000000000e+00
      506000000   -2,449089894e-03   -1,570921019e-02    4,975905418e-01    5,022540092e-01    0,000000000e+00    0,000000000e+00    0,000000000e+00    0,000000000e+00
      520000000   -4,562783055e-03   -3,114214540e-02    6,886069775e-01    1,429003477e-01    0,000000000e+00    0,000000000e+00    0,000000000e+00    0,000000000e+00
      534000000   -3,780792467e-03   -3,781473637e-02    6,427248120e-01   -2,618320286e-01    0,000000000e+00    0,000000000e+00    0,000000000e+00    0,000000000e+00
      548000000    6,417185068e-03   -5,413671583e-02    3,812613785e-01   -5,662134290e-01    0,000000000e+00    0,000000000e+00    0,000000000e+00    0,000000000e+00
      562000000    3,208425594e-03   -8,928887546e-02    2,448834712e-03   -6,703366041e-01    0,000000000e+00    0,000000000e+00    0,000000000e+00    0,000000000e+00
      576000000   -3,372071683e-02   -1,244705468e-01   -3,680693209e-01   -5,570597649e-01    0,000000000e+00    0,000000000e+00    0,000000000e+00    0,000000000e+00
      590000000   -9,590757638e-02   -1,227903739e-01   -6,204441786e-01   -2,656921148e-01    0,000000000e+00    0,000000000e+00    0,000000000e+00    0,000000000e+00
      604000000   -1,388283521e-01   -7,195019722e-02   -6,641407013e-01    1,373642385e-01    0,000000000e+00    0,000000000e+00    0,000000000e+00    0,000000000e+00
      618000000   -1,292281151e-01   -9,431545623e-03   -4,636071026e-01    4,933681190e-01    0,000000000e+00    0,000000000e+00    0,000000000e+00    0,000000000e+00
      632000000   -8,410097659e-02    1,590300351e-02   -1,008051187e-01    6,621895432e-01    0,000000000e+00    0,000000000e+00    0,000000000e+00    0,000000000e+00
      646000000   -5,168771744e-02    1,099035610e-03    2,863622606e-01    5,941679478e-01    0,000000000e+00    0,000000000e+00    0,000000000e+00    0,000000000e+00
      660000000   -5,391783640e-02   -2,044367790e-02    5,645428896e-01    3,231880665e-01    0,000000000e+00    0,000000000e+00    0,000000000e+00    0,000000000e+00
      674000000   -6,909552962e-02   -1,659738459e-02    6,412004232e-01   -6,308286637e-02    0,000000000e+00    0,000000000e+00    0,000000000e+00    0,000000000e+00
      688000000   -6,644982100e-02    9,512474760e-03    4,704802632e-01   -4,236970842e-01    0,000000000e+00    0,000000000e+00    0,000000000e+00    0,000000000e+00
      702000000   -3,587368876e-02    2,519898862e-02    1,195803955e-01   -6,042038798e-01    0,000000000e+00    0,000000000e+00    0,000000000e+00    0,000000000e+00
      716000000    3,270714544e-03    1,677415706e-02   -2,591066360e-01   -5,453522801e-01    0,000000000e+00    0,000000000e+00    0,000000000e+00    0,000000000e+00
      730000000    3,616558760e-02   -1,369889267e-02   -5,212546587e-01   -2,709659636e-01    0,000000000e+00    0,000000000e+00    0,000000000e+00    0,000000000e+00
      744000000    6,208881736e-02   -6,564439088e-02   -5,602963567e-01    9,861965477e-02    0,000000000e+00    0,000000000e+00    0,000000000e+00    0,000000000e+00
      758000000    6,123536825e-02   -1,525509506e-01   -3,659496605e-01    4,010885060e-01    0,000000000e+00    0,000000000e+00    0,000000000e+00    0,000000000e+00
      772000000   -1,694527641e-02   -2,558917701e-01   -4,573334381e-02    5,088724494e-01    0,000000000e+00    0,000000000e+00    0,000000000e+00    0,000000000e+00
      786000000   -2,024173290e-01   -2,904131711e-01    2,589001358e-01    3,986045420e-01    0,000000000e+00    0,000000000e+00    0,000000000e+00    0,000000000e+00
      800000000   -4,078846574e-01   -1,259837151e-01    4,069780707e-01    1,185642853e-01    0,000000000e+00    0,000000000e+00    0,000000000e+00    0,000000000e+00
      814000000   -3,759182990e-01    2,012553960e-01    2,963385880e-01   -1,504763663e-01    0,000000000e+00    0,000000000e+00    0,000000000e+00    0,000000000e+00
      828000000   -6,329509616e-02    3,475248814e-01    8,243563771e-02   -1,907592267e-01    0,000000000e+00    0,000000000e+00    0,000000000e+00    0,000000000e+00
      842000000    2,124304771e-01    1,854586601e-01   -3,172364552e-03   -9,262371808e-02    0,000000000e+00    0,000000000e+00    0,000000000e+00    0,000000000e+00
      856000000    2,658383846e-01   -1,059974730e-01    3,583892435e-02   -3,661728278e-02    0,000000000e+00    0,000000000e+00    0,000000000e+00    0,000000000e+00
      870000000    8,243699372e-02   -3,516874909e-01    8,936925232e-02   -9,751073271e-02    0,000000000e+00    0,000000000e+00    0,000000000e+00    0,000000000e+00
      884000000   -2,673050463e-01   -3,549847603e-01    1,143532433e-02   -2,273343354e-01    0,000000000e+00    0,000000000e+00    0,000000000e+00    0,000000000e+00
      898000000   -4,581860900e-01   -1,307200454e-02   -2,156827450e-01   -2,101224959e-01    0,000000000e+00    0,000000000e+00    0,000000000e+00    0,000000000e+00
      912000000   -2,343748510e-01    2,788520455e-01   -3,314172924e-01    6,456264108e-02    0,000000000e+00    0,000000000e+00    0,000000000e+00    0,000000000e+00
      926000000    5,332181975e-02    2,628310323e-01   -2,110583335e-01    2,626148760e-01    0,000000000e+00    0,000000000e+00    0,000000000e+00    0,000000000e+00
      940000000    2,104906291e-01    8,577468246e-02   -3,099921159e-02    3,239540160e-01    0,000000000e+00    0,000000000e+00    0,000000000e+00    0,000000000e+00
      954000000    2,199278176e-01   -1,237209961e-01    1,308616102e-01    3,004166186e-01    0,000000000e+00    0,000000000e+00    0,000000000e+00    0,000000000e+00
      968000000    1,167324036e-01   -2,928339839e-01    2,677581906e-01    2,133890539e-01    0,000000000e+00    0,000000000e+00    0,000000000e+00    0,000000000e+00
      982000000   -7,850093395e-02   -3,839659393e-01    3,606028557e-01    6,225547940e-02    0,000000000e+00    0,000000000e+00    0,000000000e+00    0,000000000e+00
      996000000   -3,088091314e-01   -3,296581507e-01    3,627120852e-01   -1,427913010e-01    0,000000000e+00    0,000000000e+00    0,000000000e+00    0,000000000e+00
     1010000000   -4,599767327e-01   -1,202829480e-01    2,196719497e-01   -3,349601030e-01    0,000000000e+00    0,000000000e+00    0,000000000e+00    0,000000000e+00
     1024000000   -4,193505347e-01    1,440113038e-01   -3,349971026e-02   -3,864985406e-01    0,000000000e+00    0,000000000e+00    0,000000000e+00    0,000000000e+00
     1038000000   -2,223067731e-01    2,915477753e-01   -2,425473630e-01   -2,584299445e-01    0,000000000e+00    0,000000000e+00    0,000000000e+00    0,000000000e+00
     1052000000   -1,577813923e-02    2,765146196e-01   -3,131975532e-01   -4,585517570e-02    0,000000000e+00    0,000000000e+00    0,000000000e+00    0,000000000e+00
     1066000000    1,323972046e-01    1,671932936e-01   -2,507063746e-01    1,403283477e-01    0,000000000e+00    0,000000000e+00    0,000000000e+00    0,000000000e+00
     1080000000    1,914960444e-01    8,558610454e-03   -1,147506833e-01    2,557933033e-01    0,000000000e+00    0,000000000e+00    0,000000000e+00    0,000000000e+00
     1094000000    1,629855782e-01   -1,629460752e-01    5,847099051e-02    2,928356528e-01    0,000000000e+00    0,000000000e+00    0,000000000e+00    0,000000000e+00
     1108000000    1,795366965e-02   -2,981778383e-01    2,597680092e-01    2,339647710e-01    0,000000000e+00    0,000000000e+00    0,000000000e+00    0,000000000e+00
     1122000000   -2,140553892e-01   -2,868064642e-01    4,399747550e-01    2,250055410e-02    0,000000000e+00    0,000000000e+00    0,000000000e+00    0,000000000e+00
     1136000000   -3,296293020e-01   -2,437689528e-02    3,998913765e-01   -3,466838598e-01    0,000000000e+00    0,000000000e+00    0,000000000e+00    0,000000000e+00
     1150000000   -1,102941781e-01    1,370151788e-01    5,217523128e-02   -5,308826566e-01    0,000000000e+00    0,000000000e+00    0,000000000e+00    0,000000000e+00
     1164000000    8,630785346e-02   -1,572820917e-02   -2,525217235e-01   -4,001202583e-01    0,000000000e+00    0,000000000e+00    0,000000000e+00    0,000000000e+00
     1178000000    2,684339508e-02   -2,492968589e-01   -3,683743477e-01   -1,763905287e-01    0,000000000e+00    0,000000000e+00    0,000000000e+00    0,000000000e+00
     1192000000   -2,187863439e-01   -3,522126675e-01   -3,372607827e-01    4,169676825e-02    0,000000000e+00    0,000000000e+00    0,000000000e+00    0,000000000e+00
     1206000000   -4,828017950e-01   -1,812661439e-01   -1,956470758e-01    1,827523410e-01    0,000000000e+00    0,000000000e+00    0,000000000e+00    0,000000000e+00
     1220000000   -5,050198436e-01    1,387521476e-01   -1,336051337e-02    1,786158681e-01    0,000000000e+00    0,000000000e+00    0,000000000e+00    0,000000000e+00
     1234000000   -3,019025624e-01    3,394539058e-01    7,463762164e-02    7,948420197e-02    0,000000000e+00    0,000000000e+00    0,000000000e+00    0,000000000e+00
     1248000000   -6,787873060e-02    3,591252863e-01    6,513427943e-02   -3,744367044e-03    0,000000000e+00    0,000000000e+00    0,000000000e+00    0,000000000e+00
     1262000000    1,108593047e-01    2,622907162e-01    3,211067989e-02   -1,979548298e-02    0,000000000e+00    0,000000000e+00    0,000000000e+00    0,000000000e+00
     1276000000    2,017517835e-01    1,068049893e-01    5,823712330e-03   -5,756540690e-03    0,000000000e+00    0,000000000e+00    0,000000000e+00    0,000000000e+00
     1290000000    2,239034027e-01   -6,503222883e-02    1,491647959e-02    2,555809356e-02    0,000000000e+00    0,000000000e+00    0,000000000e+00    0,000000000e+00
     1304000000    1,678445935e-01   -2,337163836e-01    6,099414080e-02    5,371326953e-02    0,000000000e+00    0,000000000e+00    0,000000000e+00    0,000000000e+00
     1318000000    2,706042118e-02   -3,657664657e-01    1,730763912e-01    1,743879914e-02    0,000000000e+00    0,000000000e+00    0,000000000e+00    0,000000000e+00
     1332000000   -1,467248648e-01   -3,958666623e-01    9,913654625e-02   -1,776812524e-01    0,000000000e+00    0,000000000e+00    0,000000000e+00    0,000000000e+00
     1346000000   -3,562630117e-01   -3,900827467e-01   -5,126355588e-02   -2,393249981e-02    0,000000000e+00    0,000000000e+00    0,000000000e+00    0,000000000e+00
     1360000000   -5,802637935e-01   -2,053653002e-01    7,482372224e-02    9,047554433e-02    0,000000000e+00    0,000000000e+00    0,000000000e+00    0,000000000e+00
     1374000000   -6,324256063e-01    9,924522042e-02    1,686579436e-01    4,517380521e-02    0,000000000e+00    0,000000000e+00    0,000000000e+00    0,000000000e+00
     1388000000   -4,781053066e-01    3,517246544e-01    2,283774614e-01   -2,652608044e-02    0,000000000e+00    0,000000000e+00    0,000000000e+00    0,000000000e+00
     1402000000   -2,447579950e-01    4,468189478e-01    2,218905985e-01   -6,543280929e-02    0,000000000e+00    0,000000000e+00    0,000000000e+00    0,000000000e+00
     1416000000   -3,664731234e-02    4,124769866e-01    1,934105158e-01   -1,198078468e-01    0,000000000e+00    0,000000000e+00    0,000000000e+00    0,000000000e+00
     1430000000    1,114724427e-01    3,041192591e-01    1,705652475e-01   -1,260288358e-01    0,000000000e+00    0,000000000e+00    0,000000000e+00    0,000000000e+00
     1444000000    2,046534866e-01    1,578901410e-01    1,713365465e-01   -1,098551750e-01    0,000000000e+00    0,000000000e+00    0,000000000e+00    0,000000000e+00
     1458000000    2,300038189e-01   -1,211538725e-02    1,452127993e-01   -9,611996263e-02    0,000000000e+00    0,000000000e+00    0,000000000e+00    0,000000000e+00
     1472000000    1,888640672e-01   -1,956905574e-01    1,507433504e-01   -4,503503069e-02    0,000000000e+00    0,000000000e+00    0,000000000e+00    0,000000000e+00
     1486000000    6,740871072e-02   -3,627982438e-01    1,723673046e-01    1,757419296e-02    0,000000000e+00    0,000000000e+00    0,000000000e+00    0,000000000e+00
     1500000000   -1,670738459e-01   -4,916881621e-01    2,237753272e-01    8,452722430e-02    0,000000000e+00    0,000000000e+00    0,000000000e+00    0,000000000e+00
