! NanoVNA-App
! Date: 2025-09-25 15:41:16
! Start: 100MHz Stop: 1,5GHz Points: 101
! S-Parameter data: F S11 S21 S12 S22
# Hz S RI R 50
!     Frequency           S11_Real           S11_Imag           S21_Real           S21_Imag           S12_Real           S12_Imag           S22_Real           S22_Imag
      100000000   -2,872296795e-02   -4,240733571e-03    3,738867939e-01   -7,215575576e-01    0,000000000e+00    0,000000000e+00    0,000000000e+00    0,000000000e+00
      114000000   -1,650112867e-02    1,148434449e-02   -8,906766772e-02   -8,052752018e-01    0,000000000e+00    0,000000000e+00    0,000000000e+00    0,000000000e+00
      128000000    3,454282647e-03    1,073390990e-02   -5,145883560e-01   -6,202314496e-01    0,000000000e+00    0,000000000e+00    0,000000000e+00    0,000000000e+00
      142000000    1,468455885e-02   -2,649941714e-03   -7,669875622e-01   -2,364759147e-01    0,000000000e+00    0,000000000e+00    0,000000000e+00    0,000000000e+00
      156000000    1,609039679e-02   -1,445240434e-02   -7,719020844e-01    2,234963030e-01    0,000000000e+00    0,000000000e+00    0,000000000e+00    0,000000000e+00
      170000000    1,716459356e-02   -2,244800702e-02   -5,180367231e-01    6,045415401e-01    0,000000000e+00    0,000000000e+00    0,000000000e+00    0,000000000e+00
      184000000    2,134454623e-02   -3,719431534e-02   -1,013146564e-01    7,855604291e-01    0,000000000e+00    0,000000000e+00    0,000000000e+00    0,000000000e+00
      198000000    1,321351342e-02   -6,255804747e-02    3,431376517e-01    7,121703625e-01    0,000000000e+00    0,000000000e+00    0,000000000e+00    0,000000000e+00
      212000000   -1,844833791e-02   -8,127910644e-02    6,777982116e-01    4,097249806e-01    0,000000000e+00    0,000000000e+00    0,000000000e+00    0,000000000e+00
      226000000   -6,130500138e-02   -6,917112321e-02    7,953792214e-01   -3,046867624e-02    0,000000000e+00    0,000000000e+00    0,000000000e+00    0,000000000e+00
      240000000   -8,219925314e-02   -2,583422139e-02    6,455989480e-01   -4,666008949e-01    0,000000000e+00    0,000000000e+00    0,000000000e+00    0,000000000e+00
      254000000   -6,338692456e-02    1,688059978e-02    2,759436071e-01   -7,427214980e-01    0,000000000e+00    0,000000000e+00    0,000000000e+00    0,000000000e+00
      268000000   -2,391747944e-02    2,869638614e-02   -1,779368371e-01   -7,640513182e-01    0,000000000e+00    0,000000000e+00    0,000000000e+00    0,000000000e+00
      282000000    4,117572214e-03    1,202080492e-02   -5,615912676e-01   -5,356733203e-01    0,000000000e+00    0,000000000e+00    0,000000000e+00    0,000000000e+00
      296000000    9,855044074e-03   -7,521882653e-03   -7,591991425e-01   -1,395125091e-01    0,000000000e+00    0,000000000e+00    0,000000000e+00    0,000000000e+00
      310000000    1,165184658e-02   -1,609897614e-02   -7,127137184e-01    2,982164919e-01    0,000000000e+00    0,000000000e+00    0,000000000e+00    0,000000000e+00
      324000000    1,994938031e-02   -2,652468532e-02   -4,267335236e-01    6,362242699e-01    0,000000000e+00    0,000000000e+00    0,000000000e+00    0,000000000e+00
      338000000    2,572483383e-02   -5,240293965e-02   -1,001225971e-02    7,627852559e-01    0,000000000e+00    0,000000000e+00    0,000000000e+00    0,000000000e+00
      352000000    7,258301135e-03   -8,473040909e-02    4,059852958e-01    6,404736042e-01    0,000000000e+00    0,000000000e+00    0,000000000e+00    0,000000000e+00
      366000000   -3,457258269e-02   -9,553085268e-02    6,900455952e-01    3,114041686e-01    0,000000000e+00    0,000000000e+00    0,000000000e+00    0,000000000e+00
      380000000   -7,026279718e-02   -7,104068995e-02    7,474562526e-01   -1,257043183e-01    0,000000000e+00    0,000000000e+00    0,000000000e+00    0,000000000e+00
      394000000   -7,247929275e-02   -3,288073465e-02    5,450648665e-01   -5,218166113e-01    0,000000000e+00    0,000000000e+00    0,000000000e+00    0,000000000e+00
      408000000   -4,646727070e-02   -1,655527391e-02    1,607382894e-01   -7,321054935e-01    0,000000000e+00    0,000000000e+00    0,000000000e+00    0,000000000e+00
      422000000   -2,813623659e-02   -3,218797222e-02   -2,671810389e-01   -6,952292919e-01    0,000000000e+00    0,000000000e+00    0,000000000e+00    0,000000000e+00
      436000000   -4,048159719e-02   -5,183671042e-02   -6,028157473e-01   -4,309827089e-01    0,000000000e+00    0,000000000e+00    0,000000000e+00    0,000000000e+00
      450000000   -6,699837744e-02   -4,371835291e-02   -7,397066355e-01   -2,203432843e-02    0,000000000e+00    0,000000000e+00    0,000000000e+00    0,000000000e+00
      464000000   -7,296696305e-02   -1,195307076e-02   -6,181175709e-01    3,964252174e-01    0,000000000e+00    0,000000000e+00    0,000000000e+00    0,000000000e+00
      478000000   -4,739475623e-02    1,109918766e-02   -2,823810577e-01    6,666702628e-01    0,000000000e+00    0,000000000e+00    0,000000000e+00    0,000000000e+00
      492000000   -1,611655578e-02    5,487604532e-03    1,373414844e-01    7,004520297e-01    0,000000000e+00    0,000000000e+00    0,000000000e+00    0,000000000e+00
      506000000   -2,389117377e-03   -1,564424671e-02    4,981053174e-01    5,025513172e-01    0,000000000e+00    0,000000000e+00    0,000000000e+00    0,000000000e+00
      520000000   -4,819795955e-03   -3,122372366e-02    6,876454949e-01    1,416811794e-01    0,000000000e+00    0,000000000e+00    0,000000000e+00    0,000000000e+00
      534000000   -3,529431531e-03   -3,840192780e-02    6,431825161e-01   -2,622034848e-01    0,000000000e+00    0,000000000e+00    0,000000000e+00    0,000000000e+00
      548000000    6,334779318e-03   -5,387096480e-02    3,806564808e-01   -5,658993125e-01    0,000000000e+00    0,000000000e+00    0,000000000e+00    0,000000000e+00
      562000000    3,103505122e-03   -8,969162405e-02    2,869185526e-03   -6,709845662e-01    0,000000000e+00    0,000000000e+00    0,000000000e+00    0,000000000e+00
      576000000   -3,394951671e-02   -1,239369065e-01   -3,675668538e-01   -5,568076372e-01    0,000000000e+00    0,000000000e+00    0,000000000e+00    0,000000000e+00
      590000000   -9,565243870e-02   -1,227990761e-01   -6,209811568e-01   -2,646824718e-01    0,000000000e+00    0,000000000e+00    0,000000000e+00    0,000000000e+00
      604000000   -1,389641017e-01   -7,256805897e-02   -6,643899679e-01    1,363937706e-01    0,000000000e+00    0,000000000e+00    0,000000000e+00    0,000000000e+00
      618000000   -1,292218864e-01   -1,045488473e-02   -4,643820822e-01    4,929297566e-01    0,000000000e+00    0,000000000e+00    0,000000000e+00    0,000000000e+00
      632000000   -8,475566655e-02    1,620034315e-02   -9,982667863e-02    6,626279950e-01    0,000000000e+00    0,000000000e+00    0,000000000e+00    0,000000000e+00
      646000000   -5,149261653e-02    6,076746504e-04    2,858275473e-01    5,937314034e-01    0,000000000e+00    0,000000000e+00    0,000000000e+00    0,000000000e+00
      660000000   -5,351375043e-02   -2,158309892e-02    5,644195676e-01    3,225699067e-01    0,000000000e+00    0,000000000e+00    0,000000000e+00    0,000000000e+00
      674000000   -6,956230104e-02   -1,690867916e-02    6,407043934e-01   -6,301227957e-02    0,000000000e+00    0,000000000e+00    0,000000000e+00    0,000000000e+00
      688000000   -6,775822490e-02    9,044161998e-03    4,716953933e-01   -4,239459634e-01    0,000000000e+00    0,000000000e+00    0,000000000e+00    0,000000000e+00
      702000000   -3,682502359e-02    2,613907866e-02    1,182670891e-01   -6,093215346e-01    0,000000000e+00    0,000000000e+00    0,000000000e+00    0,000000000e+00
      716000000    4,012794234e-03    1,541053504e-02   -2,595042586e-01   -5,446169972e-01    0,000000000e+00    0,000000000e+00    0,000000000e+00    0,000000000e+00
      730000000    3,744868562e-02   -1,342246030e-02   -5,218538642e-01   -2,712877691e-01    0,000000000e+00    0,000000000e+00    0,000000000e+00    0,000000000e+00
      744000000    6,245398149e-02   -6,455216557e-02   -5,602030158e-01    9,860039502e-02    0,000000000e+00    0,000000000e+00    0,000000000e+00    0,000000000e+00
      758000000    6,135340407e-02   -1,521913409e-01   -3,655818403e-01    4,008507729e-01    0,000000000e+00    0,000000000e+00    0,000000000e+00    0,000000000e+00
      772000000   -1,793436706e-02   -2,563464940e-01   -4,537072033e-02    5,091962218e-01    0,000000000e+00    0,000000000e+00    0,000000000e+00    0,000000000e+00
      786000000   -2,019153833e-01   -2,921669185e-01    2,594097853e-01    3,993158638e-01    0,000000000e+00    0,000000000e+00    0,000000000e+00    0,000000000e+00
      800000000   -4,070816636e-01   -1,270945370e-01    4,066988826e-01    1,187384948e-01    0,000000000e+00    0,000000000e+00    0,000000000e+00    0,000000000e+00
      814000000   -3,755944073e-01    2,025472969e-01    2,961303890e-01   -1,510820985e-01    0,000000000e+00    0,000000000e+00    0,000000000e+00    0,000000000e+00
      828000000   -6,189732999e-02    3,482446074e-01    8,182116598e-02   -1,902455837e-01    0,000000000e+00    0,000000000e+00    0,000000000e+00    0,000000000e+00
      842000000    2,120197862e-01    1,852804273e-01   -3,260463942e-03   -9,319756180e-02    0,000000000e+00    0,000000000e+00    0,000000000e+00    0,000000000e+00
      856000000    2,658185959e-01   -1,059516519e-01    3,671018034e-02   -3,685442731e-02    0,000000000e+00    0,000000000e+00    0,000000000e+00    0,000000000e+00
      870000000    8,198519796e-02   -3,513379693e-01    8,866432309e-02   -9,715307504e-02    0,000000000e+00    0,000000000e+00    0,000000000e+00    0,000000000e+00
      884000000   -2,670120895e-01   -3,558982611e-01    1,162223890e-02   -2,281788737e-01    0,000000000e+00    0,000000000e+00    0,000000000e+00    0,000000000e+00
      898000000   -4,582326412e-01   -1,397751179e-02   -2,158239484e-01   -2,107569128e-01    0,000000000e+00    0,000000000e+00    0,000000000e+00    0,000000000e+00
      912000000   -2,358359694e-01    2,790339589e-01   -3,439502418e-01    7,044875622e-02    0,000000000e+00    0,000000000e+00    0,000000000e+00    0,000000000e+00
      926000000    5,631336197e-02    2,634220421e-01   -2,096014470e-01    2,635259032e-01    0,000000000e+00    0,000000000e+00    0,000000000e+00    0,000000000e+00
      940000000    2,081966698e-01    8,638588339e-02   -3,158368543e-02    3,251406550e-01    0,000000000e+00    0,000000000e+00    0,000000000e+00    0,000000000e+00
      954000000    2,182773799e-01   -1,212777942e-01    1,307304800e-01    3,006685972e-01    0,000000000e+00    0,000000000e+00    0,000000000e+00    0,000000000e+00
      968000000    1,204061955e-01   -2,940030396e-01    2,689730227e-01    2,145152390e-01    0,000000000e+00    0,000000000e+00    0,000000000e+00    0,000000000e+00
      982000000   -7,592404634e-02   -3,873270750e-01    3,594277799e-01    6,272271276e-02    0,000000000e+00    0,000000000e+00    0,000000000e+00    0,000000000e+00
      996000000   -3,117011786e-01   -3,279268146e-01    3,628239036e-01   -1,431308985e-01    0,000000000e+00    0,000000000e+00    0,000000000e+00    0,000000000e+00
     1010000000   -4,587115347e-01   -1,195986345e-01    2,186789662e-01   -3,365702033e-01    0,000000000e+00    0,000000000e+00    0,000000000e+00    0,000000000e+00
     1024000000   -4,199744761e-01    1,435563117e-01   -2,945465222e-02   -3,829748034e-01    0,000000000e+00    0,000000000e+00    0,000000000e+00    0,000000000e+00
     1038000000   -2,197095752e-01    2,914661169e-01   -2,420514375e-01   -2,569826245e-01    0,000000000e+00    0,000000000e+00    0,000000000e+00    0,000000000e+00
     1052000000   -1,311062183e-02    2,822301686e-01   -3,110561371e-01   -4,620701075e-02    0,000000000e+00    0,000000000e+00    0,000000000e+00    0,000000000e+00
     1066000000    1,316237748e-01    1,719373018e-01   -2,484579831e-01    1,380500346e-01    0,000000000e+00    0,000000000e+00    0,000000000e+00    0,000000000e+00
     1080000000    1,955940574e-01    7,061942946e-03   -1,164512709e-01    2,538488209e-01    0,000000000e+00    0,000000000e+00    0,000000000e+00    0,000000000e+00
     1094000000    1,638657749e-01   -1,617512256e-01    6,026157364e-02    2,911577821e-01    0,000000000e+00    0,000000000e+00    0,000000000e+00    0,000000000e+00
     1108000000    1,966312155e-02   -2,932820022e-01    2,609347999e-01    2,318262905e-01    0,000000000e+00    0,000000000e+00    0,000000000e+00    0,000000000e+00
     1122000000   -2,161801308e-01   -2,806552351e-01    4,406439662e-01    2,381698787e-02    0,000000000e+00    0,000000000e+00    0,000000000e+00    0,000000000e+00
     1136000000   -3,205611706e-01   -2,769199200e-02    4,032577276e-01   -3,463759124e-01    0,000000000e+00    0,000000000e+00    0,000000000e+00    0,000000000e+00
     1150000000   -1,073924676e-01    1,410100460e-01    4,777158052e-02   -5,288529992e-01    0,000000000e+00    0,000000000e+00    0,000000000e+00    0,000000000e+00
     1164000000    8,649632335e-02   -1,786426827e-02   -2,537638843e-01   -4,049452841e-01    0,000000000e+00    0,000000000e+00    0,000000000e+00    0,000000000e+00
     1178000000    2,507914603e-02   -2,541166842e-01   -3,711414337e-01   -1,784545630e-01    0,000000000e+00    0,000000000e+00    0,000000000e+00    0,000000000e+00
     1192000000   -2,203371674e-01   -3,445904553e-01   -3,384056985e-01    4,164816067e-02    0,000000000e+00    0,000000000e+00    0,000000000e+00    0,000000000e+00
     1206000000   -4,815854430e-01   -1,777205318e-01   -1,937325299e-01    1,851997674e-01    0,000000000e+00    0,000000000e+00    0,000000000e+00    0,000000000e+00
     1220000000   -5,070598125e-01    1,407592297e-01   -1,283441670e-02    1,732806116e-01    0,000000000e+00    0,000000000e+00    0,000000000e+00    0,000000000e+00
     1234000000   -3,061276376e-01    3,407298028e-01    7,685215026e-02    7,588659227e-02    0,000000000e+00    0,000000000e+00    0,000000000e+00    0,000000000e+00
     1248000000   -6,107167900e-02    3,549740613e-01    6,329058856e-02   -3,374228254e-03    0,000000000e+00    0,000000000e+00    0,000000000e+00    0,000000000e+00
     1262000000    1,092967093e-01    2,630067170e-01    2,840644680e-02   -2,097270265e-02    0,000000000e+00    0,000000000e+00    0,000000000e+00    0,000000000e+00
     1276000000    1,973122209e-01    1,084177271e-01    4,303025082e-03   -7,026783656e-03    0,000000000e+00    0,000000000e+00    0,000000000e+00    0,000000000e+00
     1290000000    2,194469720e-01   -6,483098119e-02    9,462133981e-03    2,763857506e-02    0,000000000e+00    0,000000000e+00    0,000000000e+00    0,000000000e+00
     1304000000    1,637335271e-01   -2,312984914e-01    5,941046774e-02    5,816535279e-02    0,000000000e+00    0,000000000e+00    0,000000000e+00    0,000000000e+00
     1318000000    2,405377477e-02   -3,608084321e-01    1,690602452e-01    1,864530519e-02    0,000000000e+00    0,000000000e+00    0,000000000e+00    0,000000000e+00
     1332000000   -1,516992897e-01   -3,962161541e-01    9,487116337e-02   -1,823780090e-01    0,000000000e+00    0,000000000e+00    0,000000000e+00    0,000000000e+00
     1346000000   -3,613432050e-01   -3,887107968e-01   -5,493097752e-02   -2,003489621e-02    0,000000000e+00    0,000000000e+00    0,000000000e+00    0,000000000e+00
     1360000000   -5,918131471e-01   -2,035846412e-01    6,448225677e-02    8,502742648e-02    0,000000000e+00    0,000000000e+00    0,000000000e+00    0,000000000e+00
     1374000000   -6,257045269e-01    9,948950261e-02    1,803245544e-01    4,108117148e-02    0,000000000e+00    0,000000000e+00    0,000000000e+00    0,000000000e+00
     1388000000   -4,783534706e-01    3,563334346e-01    2,097481191e-01   -2,115629055e-02    0,000000000e+00    0,000000000e+00    0,000000000e+00    0,000000000e+00
     1402000000   -2,363299131e-01    4,448973835e-01    2,170725614e-01   -7,932525128e-02    0,000000000e+00    0,000000000e+00    0,000000000e+00    0,000000000e+00
     1416000000   -3,796971217e-02    4,094028473e-01    1,886562556e-01   -1,121650636e-01    0,000000000e+00    0,000000000e+00    0,000000000e+00    0,000000000e+00
     1430000000    1,039865091e-01    3,106559813e-01    1,831687093e-01   -1,062605232e-01    0,000000000e+00    0,000000000e+00    0,000000000e+00    0,000000000e+00
     1444000000    1,981540471e-01    1,511934847e-01    1,583446562e-01   -1,180228367e-01    0,000000000e+00    0,000000000e+00    0,000000000e+00    0,000000000e+00
     1458000000    2,325095087e-01   -1,536740363e-02    1,529723704e-01   -9,703863412e-02    0,000000000e+00    0,000000000e+00    0,000000000e+00    0,000000000e+00
     1472000000    1,933441311e-01   -1,944278777e-01    1,479316056e-01   -4,014730826e-02    0,000000000e+00    0,000000000e+00    0,000000000e+00    0,000000000e+00
     1486000000    6,740389764e-02   -3,734147847e-01    1,652607918e-01    1,488269493e-02    0,000000000e+00    0,000000000e+00    0,000000000e+00    0,000000000e+00
     1500000000   -1,577267647e-01   -4,941424429e-01    2,341839224e-01    7,292404026e-02    0,000000000e+00    0,000000000e+00    0,000000000e+00    0,000000000e+00
