! NanoVNA-App
! Date: 2025-09-25 15:44:58
! Start: 100MHz Stop: 1,5GHz Points: 101
! S-Parameter data: F S11 S21 S12 S22
# Hz S RI R 50
!     Frequency           S11_Real           S11_Imag           S21_Real           S21_Imag           S12_Real           S12_Imag           S22_Real           S22_Imag
      100000000   -2,874944918e-02   -4,252429586e-03    3,739778996e-01   -7,215324640e-01    0,000000000e+00    0,000000000e+00    0,000000000e+00    0,000000000e+00
      114000000   -1,651441678e-02    1,149934344e-02   -8,918007463e-02   -8,051636219e-01    0,000000000e+00    0,000000000e+00    0,000000000e+00    0,000000000e+00
      128000000    3,463885514e-03    1,071137376e-02   -5,144507289e-01   -6,201370955e-01    0,000000000e+00    0,000000000e+00    0,000000000e+00    0,000000000e+00
      142000000    1,468650624e-02   -2,651660005e-03   -7,667502761e-01   -2,364214063e-01    0,000000000e+00    0,000000000e+00    0,000000000e+00    0,000000000e+00
      156000000    1,593709551e-02   -1,435730606e-02   -7,687460780e-01    2,236717939e-01    0,000000000e+00    0,000000000e+00    0,000000000e+00    0,000000000e+00
      170000000    1,707961783e-02   -2,251966856e-02   -5,178068876e-01    6,044139266e-01    0,000000000e+00    0,000000000e+00    0,000000000e+00    0,000000000e+00
      184000000    2,137761749e-02   -3,713146970e-02   -1,015266553e-01    7,856107354e-01    0,000000000e+00    0,000000000e+00    0,000000000e+00    0,000000000e+00
      198000000    1,327380538e-02   -6,249792874e-02    3,430969715e-01    7,120027542e-01    0,000000000e+00    0,000000000e+00    0,000000000e+00    0,000000000e+00
      212000000   -1,842277497e-02   -8,130086213e-02    6,777519584e-01    4,096275568e-01    0,000000000e+00    0,000000000e+00    0,000000000e+00    0,000000000e+00
      226000000   -6,130023301e-02   -6,926708668e-02    7,952942252e-01   -3,043400869e-02    0,000000000e+00    0,000000000e+00    0,000000000e+00    0,000000000e+00
      240000000   -8,222695440e-02   -2,583611384e-02    6,456021667e-01   -4,666648507e-01    0,000000000e+00    0,000000000e+00    0,000000000e+00    0,000000000e+00
      254000000   -6,338640302e-02    1,696610637e-02    2,758381665e-01   -7,429666519e-01    0,000000000e+00    0,000000000e+00    0,000000000e+00    0,000000000e+00
      268000000   -2,397912182e-02    2,875215933e-02   -1,778112799e-01   -7,640248537e-01    0,000000000e+00    0,000000000e+00    0,000000000e+00    0,000000000e+00
      282000000    4,155243747e-03    1,203761436e-02   -5,616737604e-01   -5,355660915e-01    0,000000000e+00    0,000000000e+00    0,000000000e+00    0,000000000e+00
      296000000    9,895686060e-03   -7,626990322e-03   -7,595960498e-01   -1,398152709e-01    0,000000000e+00    0,000000000e+00    0,000000000e+00    0,000000000e+00
      310000000    1,150446106e-02   -1,600825228e-02   -7,116310596e-01    2,973034978e-01    0,000000000e+00    0,000000000e+00    0,000000000e+00    0,000000000e+00
      324000000    2,017499134e-02   -2,658003196e-02   -4,276112616e-01    6,371705532e-01    0,000000000e+00    0,000000000e+00    0,000000000e+00    0,000000000e+00
      338000000    2,570849471e-02   -5,203758553e-02   -7,082985248e-03    7,596124411e-01    0,000000000e+00    0,000000000e+00    0,000000000e+00    0,000000000e+00
      352000000    7,840330712e-03   -8,462563902e-02    4,066149592e-01    6,397359967e-01    0,000000000e+00    0,000000000e+00    0,000000000e+00    0,000000000e+00
      366000000   -3,444847092e-02   -9,534417838e-02    6,896182895e-01    3,107843101e-01    0,000000000e+00    0,000000000e+00    0,000000000e+00    0,000000000e+00
      380000000   -7,044396549e-02   -7,098361850e-02    7,467748523e-01   -1,254237592e-01    0,000000000e+00    0,000000000e+00    0,000000000e+00    0,000000000e+00
      394000000   -7,240851969e-02   -3,252186254e-02    5,466168523e-01   -5,203014016e-01    0,000000000e+00    0,000000000e+00    0,000000000e+00    0,000000000e+00
      408000000   -4,637600482e-02   -1,619398780e-02    1,606317461e-01   -7,325096726e-01    0,000000000e+00    0,000000000e+00    0,000000000e+00    0,000000000e+00
      422000000   -2,846335433e-02   -3,202474490e-02   -2,670814693e-01   -6,949224472e-01    0,000000000e+00    0,000000000e+00    0,000000000e+00    0,000000000e+00
      436000000   -4,099325091e-02   -5,180169269e-02   -6,031923294e-01   -4,319704473e-01    0,000000000e+00    0,000000000e+00    0,000000000e+00    0,000000000e+00
      450000000   -6,685642153e-02   -4,374323040e-02   -7,394297719e-01   -2,167226933e-02    0,000000000e+00    0,000000000e+00    0,000000000e+00    0,000000000e+00
      464000000   -7,314354926e-02   -1,170204580e-02   -6,183831096e-01    3,963514268e-01    0,000000000e+00    0,000000000e+00    0,000000000e+00    0,000000000e+00
      478000000   -4,793858901e-02    1,148836967e-02   -2,828242481e-01    6,671562195e-01    0,000000000e+00    0,000000000e+00    0,000000000e+00    0,000000000e+00
      492000000   -1,580429822e-02    5,842929240e-03    1,372766495e-01    7,008501291e-01    0,000000000e+00    0,000000000e+00    0,000000000e+00    0,000000000e+00
      506000000   -2,621214371e-03   -1,562022325e-02    4,977317750e-01    5,025054812e-01    0,000000000e+00    0,000000000e+00    0,000000000e+00    0,000000000e+00
      520000000   -5,028534215e-03   -3,143869340e-02    6,859642267e-01    1,429835707e-01    0,000000000e+00    0,000000000e+00    0,000000000e+00    0,000000000e+00
      534000000   -3,450778546e-03   -3,804856911e-02    6,429219842e-01   -2,616871297e-01    0,000000000e+00    0,000000000e+00    0,000000000e+00    0,000000000e+00
      548000000    6,371740717e-03   -5,416780338e-02    3,813178837e-01   -5,668969154e-01    0,000000000e+00    0,000000000e+00    0,000000000e+00    0,000000000e+00
      562000000    3,762903390e-03   -8,940137923e-02    3,543859813e-03   -6,722894907e-01    0,000000000e+00    0,000000000e+00    0,000000000e+00    0,000000000e+00
      576000000   -3,440604731e-02   -1,243503019e-01   -3,681142330e-01   -5,567502975e-01    0,000000000e+00    0,000000000e+00    0,000000000e+00    0,000000000e+00
      590000000   -9,585139900e-02   -1,228111535e-01   -6,186685562e-01   -2,649984062e-01    0,000000000e+00    0,000000000e+00    0,000000000e+00    0,000000000e+00
      604000000   -1,391219944e-01   -7,223293930e-02   -6,643213034e-01    1,365933120e-01    0,000000000e+00    0,000000000e+00    0,000000000e+00    0,000000000e+00
      618000000   -1,296523958e-01   -1,033487264e-02   -4,645422399e-01    4,926176965e-01    0,000000000e+00    0,000000000e+00    0,000000000e+00    0,000000000e+00
      632000000   -8,471988142e-02    1,654109918e-02   -9,985443950e-02    6,630368233e-01    0,000000000e+00    0,000000000e+00    0,000000000e+00    0,000000000e+00
      646000000   -5,224343762e-02    1,064403797e-03    2,861650884e-01    5,944950581e-01    0,000000000e+00    0,000000000e+00    0,000000000e+00    0,000000000e+00
      660000000   -5,406861752e-02   -2,059051767e-02    5,650672317e-01    3,226848245e-01    0,000000000e+00    0,000000000e+00    0,000000000e+00    0,000000000e+00
      674000000   -7,032541186e-02   -1,664873958e-02    6,410560012e-01   -6,321220845e-02    0,000000000e+00    0,000000000e+00    0,000000000e+00    0,000000000e+00
      688000000   -6,648884714e-02    9,739842266e-03    4,713518620e-01   -4,242499769e-01    0,000000000e+00    0,000000000e+00    0,000000000e+00    0,000000000e+00
      702000000   -3,542437404e-02    2,649068832e-02    1,221922636e-01   -6,076921225e-01    0,000000000e+00    0,000000000e+00    0,000000000e+00    0,000000000e+00
      716000000    3,308206564e-03    1,546562463e-02   -2,598313391e-01   -5,457043052e-01    0,000000000e+00    0,000000000e+00    0,000000000e+00    0,000000000e+00
      730000000    3,694667295e-02   -1,445575338e-02   -5,213680267e-01   -2,718629241e-01    0,000000000e+00    0,000000000e+00    0,000000000e+00    0,000000000e+00
      744000000    6,184349209e-02   -6,498602778e-02   -5,608878732e-01    9,872756153e-02    0,000000000e+00    0,000000000e+00    0,000000000e+00    0,000000000e+00
      758000000    6,066946685e-02   -1,521492004e-01   -3,667930365e-01    4,001039267e-01    0,000000000e+00    0,000000000e+00    0,000000000e+00    0,000000000e+00
      772000000   -1,695754007e-02   -2,552103698e-01   -4,588552192e-02    5,095607638e-01    0,000000000e+00    0,000000000e+00    0,000000000e+00    0,000000000e+00
      786000000   -2,022328079e-01   -2,907851636e-01    2,593446970e-01    3,993483782e-01    0,000000000e+00    0,000000000e+00    0,000000000e+00    0,000000000e+00
      800000000   -4,064073563e-01   -1,273901910e-01    4,073058963e-01    1,189701483e-01    0,000000000e+00    0,000000000e+00    0,000000000e+00    0,000000000e+00
      814000000   -3,769055903e-01    2,022455037e-01    2,970950603e-01   -1,513096690e-01    0,000000000e+00    0,000000000e+00    0,000000000e+00    0,000000000e+00
      828000000   -6,283225864e-02    3,469777703e-01    8,322055638e-02   -1,913198084e-01    0,000000000e+00    0,000000000e+00    0,000000000e+00    0,000000000e+00
      842000000    2,107013166e-01    1,857897192e-01   -4,367857240e-03   -9,374800324e-02    0,000000000e+00    0,000000000e+00    0,000000000e+00    0,000000000e+00
      856000000    2,660859525e-01   -1,054570377e-01    3,526530042e-02   -3,679462522e-02    0,000000000e+00    0,000000000e+00    0,000000000e+00    0,000000000e+00
      870000000    8,285325766e-02   -3,508924842e-01    8,852354437e-02   -9,680375457e-02    0,000000000e+00    0,000000000e+00    0,000000000e+00    0,000000000e+00
      884000000   -2,667864561e-01   -3,549675941e-01    1,162517723e-02   -2,267706245e-01    0,000000000e+00    0,000000000e+00    0,000000000e+00    0,000000000e+00
      898000000   -4,576460719e-01   -1,463488769e-02   -2,142900378e-01   -2,099596858e-01    0,000000000e+00    0,000000000e+00    0,000000000e+00    0,000000000e+00
      912000000   -2,348793000e-01    2,788164020e-01   -3,288914263e-01    7,628657669e-02    0,000000000e+00    0,000000000e+00    0,000000000e+00    0,000000000e+00
      926000000    5,619512871e-02    2,607029974e-01   -2,097243816e-01    2,594708800e-01    0,000000000e+00    0,000000000e+00    0,000000000e+00    0,000000000e+00
      940000000    2,108155489e-01    8,445326984e-02   -3,157525882e-02    3,239577115e-01    0,000000000e+00    0,000000000e+00    0,000000000e+00    0,000000000e+00
      954000000    2,207230181e-01   -1,236145198e-01    1,304654777e-01    3,008887470e-01    0,000000000e+00    0,000000000e+00    0,000000000e+00    0,000000000e+00
      968000000    1,162423640e-01   -2,923053205e-01    2,677366138e-01    2,133248448e-01    0,000000000e+00    0,000000000e+00    0,000000000e+00    0,000000000e+00
      982000000   -7,862108201e-02   -3,845521510e-01    3,616026044e-01    6,271824986e-02    0,000000000e+00    0,000000000e+00    0,000000000e+00    0,000000000e+00
      996000000   -3,139741421e-01   -3,327691853e-01    3,629427850e-01   -1,434273273e-01    0,000000000e+00    0,000000000e+00    0,000000000e+00    0,000000000e+00
     1010000000   -4,598494470e-01   -1,147543788e-01    2,200208604e-01   -3,357328773e-01    0,000000000e+00    0,000000000e+00    0,000000000e+00    0,000000000e+00
     1024000000   -4,139717519e-01    1,395306885e-01   -3,088055737e-02   -3,862686157e-01    0,000000000e+00    0,000000000e+00    0,000000000e+00    0,000000000e+00
     1038000000   -2,269820273e-01    2,893470228e-01   -2,400598973e-01   -2,537978590e-01    0,000000000e+00    0,000000000e+00    0,000000000e+00    0,000000000e+00
     1052000000   -1,526005473e-02    2,783518434e-01   -3,099286854e-01   -4,770006239e-02    0,000000000e+00    0,000000000e+00    0,000000000e+00    0,000000000e+00
     1066000000    1,324142218e-01    1,711518914e-01   -2,514089346e-01    1,364799887e-01    0,000000000e+00    0,000000000e+00    0,000000000e+00    0,000000000e+00
     1080000000    1,959416121e-01    6,861716509e-03   -1,168062687e-01    2,547412515e-01    0,000000000e+00    0,000000000e+00    0,000000000e+00    0,000000000e+00
     1094000000    1,585987806e-01   -1,662325859e-01    5,817236751e-02    2,944498360e-01    0,000000000e+00    0,000000000e+00    0,000000000e+00    0,000000000e+00
     1108000000    1,814760640e-02   -2,912699580e-01    2,613761425e-01    2,351771444e-01    0,000000000e+00    0,000000000e+00    0,000000000e+00    0,000000000e+00
     1122000000   -2,104993612e-01   -2,851790488e-01    4,383647740e-01    2,527320944e-02    0,000000000e+00    0,000000000e+00    0,000000000e+00    0,000000000e+00
     1136000000   -3,300590217e-01   -3,149947524e-02    3,995985091e-01   -3,443814814e-01    0,000000000e+00    0,000000000e+00    0,000000000e+00    0,000000000e+00
     1150000000   -1,099366620e-01    1,367368847e-01    4,908853769e-02   -5,302343965e-01    0,000000000e+00    0,000000000e+00    0,000000000e+00    0,000000000e+00
     1164000000    8,323837817e-02   -1,306410134e-02   -2,507649660e-01   -4,020451009e-01    0,000000000e+00    0,000000000e+00    0,000000000e+00    0,000000000e+00
     1178000000    3,111465648e-02   -2,524083555e-01   -3,708111048e-01   -1,775258332e-01    0,000000000e+00    0,000000000e+00    0,000000000e+00    0,000000000e+00
     1192000000   -2,177040130e-01   -3,473894596e-01   -3,417107165e-01    4,233512655e-02    0,000000000e+00    0,000000000e+00    0,000000000e+00    0,000000000e+00
     1206000000   -4,783371091e-01   -1,832915545e-01   -1,881634146e-01    1,811730117e-01    0,000000000e+00    0,000000000e+00    0,000000000e+00    0,000000000e+00
     1220000000   -5,011209249e-01    1,315274239e-01   -1,180141326e-02    1,744351536e-01    0,000000000e+00    0,000000000e+00    0,000000000e+00    0,000000000e+00
     1234000000   -2,980319560e-01    3,400513828e-01    7,212487608e-02    7,771852612e-02    0,000000000e+00    0,000000000e+00    0,000000000e+00    0,000000000e+00
     1248000000   -6,643421948e-02    3,587552607e-01    6,650085002e-02    1,125080744e-03    0,000000000e+00    0,000000000e+00    0,000000000e+00    0,000000000e+00
     1262000000    1,125637442e-01    2,612485588e-01    3,145766258e-02   -2,247040533e-02    0,000000000e+00    0,000000000e+00    0,000000000e+00    0,000000000e+00
     1276000000    2,030484825e-01    1,109978780e-01    7,225333247e-03   -7,865519263e-03    0,000000000e+00    0,000000000e+00    0,000000000e+00    0,000000000e+00
     1290000000    2,211246789e-01   -6,332822144e-02    9,651221335e-03    2,572656237e-02    0,000000000e+00    0,000000000e+00    0,000000000e+00    0,000000000e+00
     1304000000    1,665264070e-01   -2,329859585e-01    5,981225148e-02    5,418866128e-02    0,000000000e+00    0,000000000e+00    0,000000000e+00    0,000000000e+00
     1318000000    2,450045198e-02   -3,599998355e-01    1,656690985e-01    1,637058333e-02    0,000000000e+00    0,000000000e+00    0,000000000e+00    0,000000000e+00
     1332000000   -1,532629281e-01   -3,977364600e-01    9,990544617e-02   -1,786160618e-01    0,000000000e+00    0,000000000e+00    0,000000000e+00    0,000000000e+00
     1346000000   -3,646008372e-01   -3,924879432e-01   -5,938602611e-02   -2,388976328e-02    0,000000000e+00    0,000000000e+00    0,000000000e+00    0,000000000e+00
     1360000000   -5,828175545e-01   -2,017753124e-01    4,997555912e-02    8,987132460e-02    0,000000000e+00    0,000000000e+00    0,000000000e+00    0,000000000e+00
     1374000000   -6,289312840e-01    1,079875305e-01    1,756432354e-01    4,965697601e-02    0,000000000e+00    0,000000000e+00    0,000000000e+00    0,000000000e+00
     1388000000   -4,781627357e-01    3,495648503e-01    2,167296261e-01   -3,290384263e-02    0,000000000e+00    0,000000000e+00    0,000000000e+00    0,000000000e+00
     1402000000   -2,400126010e-01    4,455865622e-01    2,135327458e-01   -8,845815808e-02    0,000000000e+00    0,000000000e+00    0,000000000e+00    0,000000000e+00
     1416000000   -3,877614066e-02    4,134050310e-01    1,849616170e-01   -1,051953584e-01    0,000000000e+00    0,000000000e+00    0,000000000e+00    0,000000000e+00
     1430000000    1,109506190e-01    3,067227900e-01    1,945970505e-01   -9,275404364e-02    0,000000000e+00    0,000000000e+00    0,000000000e+00    0,000000000e+00
     1444000000    2,018372267e-01    1,581071317e-01    1,607374698e-01   -1,138593182e-01    0,000000000e+00    0,000000000e+00    0,000000000e+00    0,000000000e+00
     1458000000    2,330830693e-01   -1,339382678e-02    1,505860686e-01   -9,295111150e-02    0,000000000e+00    0,000000000e+00    0,000000000e+00    0,000000000e+00
     1472000000    1,908562183e-01   -1,928132474e-01    1,350718737e-01   -4,509269446e-02    0,000000000e+00    0,000000000e+00    0,000000000e+00    0,000000000e+00
     1486000000    6,726469100e-02   -3,634367585e-01    1,580388397e-01    3,324707597e-02    0,000000000e+00    0,000000000e+00    0,000000000e+00    0,000000000e+00
     1500000000   -1,545483917e-01   -4,922847748e-01    2,537316978e-01    8,978961408e-02    0,000000000e+00    0,000000000e+00    0,000000000e+00    0,000000000e+00
