! NanoVNA-App
! Date: 2025-09-25 15:46:03
! Start: 100MHz Stop: 1,5GHz Points: 101
! S-Parameter data: F S11 S21 S12 S22
# Hz S RI R 50
!     Frequency           S11_Real           S11_Imag           S21_Real           S21_Imag           S12_Real           S12_Imag           S22_Real           S22_Imag
      100000000   -2,879770473e-02   -4,252619576e-03    3,740271032e-01   -7,215657234e-01    0,000000000e+00    0,000000000e+00    0,000000000e+00    0,000000000e+00
      114000000   -1,656276919e-02    1,150054485e-02   -8,891547471e-02   -8,052045703e-01    0,000000000e+00    0,000000000e+00    0,000000000e+00    0,000000000e+00
      128000000    3,406043397e-03    1,071480941e-02   -5,142420530e-01   -6,203220487e-01    0,000000000e+00    0,000000000e+00    0,000000000e+00    0,000000000e+00
      142000000    1,462394092e-02   -2,669266192e-03   -7,668892741e-01   -2,363222390e-01    0,000000000e+00    0,000000000e+00    0,000000000e+00    0,000000000e+00
      156000000    1,550262142e-02   -1,456205361e-02   -7,672269940e-01    2,225393951e-01    0,000000000e+00    0,000000000e+00    0,000000000e+00    0,000000000e+00
      170000000    1,703310572e-02   -2,249812894e-02   -5,181347132e-01    6,044631004e-01    0,000000000e+00    0,000000000e+00    0,000000000e+00    0,000000000e+00
      184000000    2,130535804e-02   -3,709488735e-02   -1,015472710e-01    7,858635783e-01    0,000000000e+00    0,000000000e+00    0,000000000e+00    0,000000000e+00
      198000000    1,322126389e-02   -6,249641255e-02    3,432760239e-01    7,124952078e-01    0,000000000e+00    0,000000000e+00    0,000000000e+00    0,000000000e+00
      212000000   -1,847039536e-02   -8,136271685e-02    6,779094338e-01    4,099563062e-01    0,000000000e+00    0,000000000e+00    0,000000000e+00    0,000000000e+00
      226000000   -6,142263860e-02   -6,922481209e-02    7,955201268e-01   -3,049695306e-02    0,000000000e+00    0,000000000e+00    0,000000000e+00    0,000000000e+00
      240000000   -8,234553784e-02   -2,576232702e-02    6,458830833e-01   -4,665257633e-01    0,000000000e+00    0,000000000e+00    0,000000000e+00    0,000000000e+00
      254000000   -6,343063712e-02    1,700087450e-02    2,760690451e-01   -7,427705526e-01    0,000000000e+00    0,000000000e+00    0,000000000e+00    0,000000000e+00
      268000000   -2,401231229e-02    2,882824093e-02   -1,778377742e-01   -7,642124295e-01    0,000000000e+00    0,000000000e+00    0,000000000e+00    0,000000000e+00
      282000000    4,117533565e-03    1,208528597e-02   -5,616376400e-01   -5,357312560e-01    0,000000000e+00    0,000000000e+00    0,000000000e+00    0,000000000e+00
      296000000    9,842621163e-03   -7,724043913e-03   -7,594910860e-01   -1,396356374e-01    0,000000000e+00    0,000000000e+00    0,000000000e+00    0,000000000e+00
      310000000    1,143067423e-02   -1,592855342e-02   -7,107418776e-01    2,975867093e-01    0,000000000e+00    0,000000000e+00    0,000000000e+00    0,000000000e+00
      324000000    1,999676786e-02   -2,656852268e-02   -4,269503355e-01    6,375764012e-01    0,000000000e+00    0,000000000e+00    0,000000000e+00    0,000000000e+00
      338000000    2,554096468e-02   -5,245563388e-02   -7,613954600e-03    7,595511675e-01    0,000000000e+00    0,000000000e+00    0,000000000e+00    0,000000000e+00
      352000000    7,654528134e-03   -8,456096798e-02    4,068450630e-01    6,396454573e-01    0,000000000e+00    0,000000000e+00    0,000000000e+00    0,000000000e+00
      366000000   -3,461990505e-02   -9,573779255e-02    6,899693012e-01    3,108936250e-01    0,000000000e+00    0,000000000e+00    0,000000000e+00    0,000000000e+00
      380000000   -7,051154226e-02   -7,127852738e-02    7,473106980e-01   -1,258868724e-01    0,000000000e+00    0,000000000e+00    0,000000000e+00    0,000000000e+00
      394000000   -7,229094207e-02   -3,243669122e-02    5,456892848e-01   -5,214836597e-01    0,000000000e+00    0,000000000e+00    0,000000000e+00    0,000000000e+00
      408000000   -4,653831199e-02   -1,622401178e-02    1,617223322e-01   -7,303641438e-01    0,000000000e+00    0,000000000e+00    0,000000000e+00    0,000000000e+00
      422000000   -2,814047225e-02   -3,216924518e-02   -2,664884627e-01   -6,948249936e-01    0,000000000e+00    0,000000000e+00    0,000000000e+00    0,000000000e+00
      436000000   -4,060072824e-02   -5,177817866e-02   -6,034967303e-01   -4,320479333e-01    0,000000000e+00    0,000000000e+00    0,000000000e+00    0,000000000e+00
      450000000   -6,740257144e-02   -4,401802272e-02   -7,401688099e-01   -2,191662043e-02    0,000000000e+00    0,000000000e+00    0,000000000e+00    0,000000000e+00
      464000000   -7,285895944e-02   -1,175541524e-02   -6,187211275e-01    3,962435722e-01    0,000000000e+00    0,000000000e+00    0,000000000e+00    0,000000000e+00
      478000000   -4,746366665e-02    1,186963171e-02   -2,828954458e-01    6,677860618e-01    0,000000000e+00    0,000000000e+00    0,000000000e+00    0,000000000e+00
      492000000   -1,569722593e-02    5,670775659e-03    1,375740021e-01    7,015342712e-01    0,000000000e+00    0,000000000e+00    0,000000000e+00    0,000000000e+00
      506000000   -2,435977338e-03   -1,562401932e-02    4,979582131e-01    5,024666786e-01    0,000000000e+00    0,000000000e+00    0,000000000e+00    0,000000000e+00
      520000000   -5,005291663e-03   -3,118276782e-02    6,876406074e-01    1,422568560e-01    0,000000000e+00    0,000000000e+00    0,000000000e+00    0,000000000e+00
      534000000   -3,642718541e-03   -3,842749074e-02    6,428990960e-01   -2,619332075e-01    0,000000000e+00    0,000000000e+00    0,000000000e+00    0,000000000e+00
      548000000    6,462376565e-03   -5,389642715e-02    3,819949925e-01   -5,662561059e-01    0,000000000e+00    0,000000000e+00    0,000000000e+00    0,000000000e+00
      562000000    3,055676119e-03   -8,957073092e-02    2,592382021e-03   -6,724220514e-01    0,000000000e+00    0,000000000e+00    0,000000000e+00    0,000000000e+00
      576000000   -3,420779482e-02   -1,242252886e-01   -3,676572442e-01   -5,570915341e-01    0,000000000e+00    0,000000000e+00    0,000000000e+00    0,000000000e+00
      590000000   -9,570550919e-02   -1,229137853e-01   -6,204150319e-01   -2,653381824e-01    0,000000000e+00    0,000000000e+00    0,000000000e+00    0,000000000e+00
      604000000   -1,387926787e-01   -7,242266834e-02   -6,641943455e-01    1,364768147e-01    0,000000000e+00    0,000000000e+00    0,000000000e+00    0,000000000e+00
      618000000   -1,290558279e-01   -9,397225454e-03   -4,644245505e-01    4,930050969e-01    0,000000000e+00    0,000000000e+00    0,000000000e+00    0,000000000e+00
      632000000   -8,470955491e-02    1,664829999e-02   -9,990904480e-02    6,623641253e-01    0,000000000e+00    0,000000000e+00    0,000000000e+00    0,000000000e+00
      646000000   -5,250951648e-02    8,516570088e-04    2,853971720e-01    5,953665376e-01    0,000000000e+00    0,000000000e+00    0,000000000e+00    0,000000000e+00
      660000000   -5,422927439e-02   -2,081077546e-02    5,646464825e-01    3,232468367e-01    0,000000000e+00    0,000000000e+00    0,000000000e+00    0,000000000e+00
      674000000   -7,019660622e-02   -1,699519716e-02    6,411538720e-01   -6,324866414e-02    0,000000000e+00    0,000000000e+00    0,000000000e+00    0,000000000e+00
      688000000   -6,680563837e-02    9,989139624e-03    4,713685513e-01   -4,242655635e-01    0,000000000e+00    0,000000000e+00    0,000000000e+00    0,000000000e+00
      702000000   -3,511826694e-02    2,565866336e-02    1,198981181e-01   -6,053276658e-01    0,000000000e+00    0,000000000e+00    0,000000000e+00    0,000000000e+00
      716000000    2,847406315e-03    1,627906971e-02   -2,585232556e-01   -5,450611711e-01    0,000000000e+00    0,000000000e+00    0,000000000e+00    0,000000000e+00
      730000000    3,726454079e-02   -1,345186681e-02   -5,222705603e-01   -2,717314065e-01    0,000000000e+00    0,000000000e+00    0,000000000e+00    0,000000000e+00
      744000000    6,213529035e-02   -6,484511495e-02   -5,605214834e-01    9,832034260e-02    0,000000000e+00    0,000000000e+00    0,000000000e+00    0,000000000e+00
      758000000    6,172221899e-02   -1,521750242e-01   -3,668982089e-01    3,999709487e-01    0,000000000e+00    0,000000000e+00    0,000000000e+00    0,000000000e+00
      772000000   -1,804579794e-02   -2,557534277e-01   -4,563519731e-02    5,095703602e-01    0,000000000e+00    0,000000000e+00    0,000000000e+00    0,000000000e+00
      786000000   -2,018756419e-01   -2,920419872e-01    2,592240572e-01    3,999807239e-01    0,000000000e+00    0,000000000e+00    0,000000000e+00    0,000000000e+00
      800000000   -4,065641463e-01   -1,278533936e-01    4,073152542e-01    1,197075695e-01    0,000000000e+00    0,000000000e+00    0,000000000e+00    0,000000000e+00
      814000000   -3,761911690e-01    2,015113682e-01    2,974590659e-01   -1,511054784e-01    0,000000000e+00    0,000000000e+00    0,000000000e+00    0,000000000e+00
      828000000   -6,337345392e-02    3,476603925e-01    8,291082084e-02   -1,911865473e-01    0,000000000e+00    0,000000000e+00    0,000000000e+00    0,000000000e+00
      842000000    2,114501148e-01    1,862330884e-01   -3,908350598e-03   -9,430737793e-02    0,000000000e+00    0,000000000e+00    0,000000000e+00    0,000000000e+00
      856000000    2,667804360e-01   -1,048162282e-01    3,540655226e-02   -3,692876920e-02    0,000000000e+00    0,000000000e+00    0,000000000e+00    0,000000000e+00
      870000000    8,292041719e-02   -3,512275219e-01    8,810524642e-02   -9,700074047e-02    0,000000000e+00    0,000000000e+00    0,000000000e+00    0,000000000e+00
      884000000   -2,678166628e-01   -3,561836481e-01    1,106367167e-02   -2,266885489e-01    0,000000000e+00    0,000000000e+00    0,000000000e+00    0,000000000e+00
      898000000   -4,570586681e-01   -1,447384153e-02   -2,137835026e-01   -2,096750736e-01    0,000000000e+00    0,000000000e+00    0,000000000e+00    0,000000000e+00
      912000000   -2,368693203e-01    2,791914642e-01   -3,261520863e-01    7,678886503e-02    0,000000000e+00    0,000000000e+00    0,000000000e+00    0,000000000e+00
      926000000    5,511596054e-02    2,612943053e-01   -2,086761445e-01    2,603520751e-01    0,000000000e+00    0,000000000e+00    0,000000000e+00    0,000000000e+00
      940000000    2,067015171e-01    8,491270244e-02   -3,198622167e-02    3,239586055e-01    0,000000000e+00    0,000000000e+00    0,000000000e+00    0,000000000e+00
      954000000    2,219919860e-01   -1,231382787e-01    1,308942139e-01    3,011635244e-01    0,000000000e+00    0,000000000e+00    0,000000000e+00    0,000000000e+00
      968000000    1,199622676e-01   -2,966767550e-01    2,678078115e-01    2,144696563e-01    0,000000000e+00    0,000000000e+00    0,000000000e+00    0,000000000e+00
      982000000   -7,913426310e-02   -3,858793080e-01    3,619771898e-01    6,130437925e-02    0,000000000e+00    0,000000000e+00    0,000000000e+00    0,000000000e+00
      996000000   -3,081975877e-01   -3,296541870e-01    3,611320257e-01   -1,434127837e-01    0,000000000e+00    0,000000000e+00    0,000000000e+00    0,000000000e+00
     1010000000   -4,631554186e-01   -1,149978414e-01    2,185314149e-01   -3,345451355e-01    0,000000000e+00    0,000000000e+00    0,000000000e+00    0,000000000e+00
     1024000000   -4,135420620e-01    1,449408084e-01   -3,211571276e-02   -3,858630359e-01    0,000000000e+00    0,000000000e+00    0,000000000e+00    0,000000000e+00
     1038000000   -2,245730311e-01    2,931026518e-01   -2,403544933e-01   -2,562455535e-01    0,000000000e+00    0,000000000e+00    0,000000000e+00    0,000000000e+00
     1052000000   -1,590147801e-02    2,827858031e-01   -3,111335933e-01   -4,736907780e-02    0,000000000e+00    0,000000000e+00    0,000000000e+00    0,000000000e+00
     1066000000    1,338691264e-01    1,716027409e-01   -2,511197329e-01    1,369864196e-01    0,000000000e+00    0,000000000e+00    0,000000000e+00    0,000000000e+00
     1080000000    1,959395111e-01    6,218767725e-03   -1,155940220e-01    2,549216449e-01    0,000000000e+00    0,000000000e+00    0,000000000e+00    0,000000000e+00
     1094000000    1,631594002e-01   -1,635183096e-01    5,825280026e-02    2,916960716e-01    0,000000000e+00    0,000000000e+00    0,000000000e+00    0,000000000e+00
     1108000000    2,010605857e-02   -2,931268215e-01    2,606147528e-01    2,348291576e-01    0,000000000e+00    0,000000000e+00    0,000000000e+00    0,000000000e+00
     1122000000   -2,110038847e-01   -2,876034975e-01    4,406223297e-01    2,413152531e-02    0,000000000e+00    0,000000000e+00    0,000000000e+00    0,000000000e+00
     1136000000   -3,304321766e-01   -3,039553016e-02    4,016092122e-01   -3,429084420e-01    0,000000000e+00    0,000000000e+00    0,000000000e+00    0,000000000e+00
     1150000000   -1,061286479e-01    1,362382323e-01    4,796869680e-02   -5,328270793e-01    0,000000000e+00    0,000000000e+00    0,000000000e+00    0,000000000e+00
     1164000000    8,843656629e-02   -1,658299938e-02   -2,508510351e-01   -4,042328000e-01    0,000000000e+00    0,000000000e+00    0,000000000e+00    0,000000000e+00
     1178000000    2,852031961e-02   -2,536640465e-01   -3,712642193e-01   -1,798516661e-01    0,000000000e+00    0,000000000e+00    0,000000000e+00    0,000000000e+00
     1192000000   -2,235575914e-01   -3,467528522e-01   -3,425652087e-01    4,124299809e-02    0,000000000e+00    0,000000000e+00    0,000000000e+00    0,000000000e+00
     1206000000   -4,783466160e-01   -1,861543506e-01   -1,871119738e-01    1,851625741e-01    0,000000000e+00    0,000000000e+00    0,000000000e+00    0,000000000e+00
     1220000000   -5,005400777e-01    1,348282397e-01   -8,886623196e-03    1,746860743e-01    0,000000000e+00    0,000000000e+00    0,000000000e+00    0,000000000e+00
     1234000000   -3,053504825e-01    3,390006125e-01    7,182810456e-02    7,703962177e-02    0,000000000e+00    0,000000000e+00    0,000000000e+00    0,000000000e+00
     1248000000   -6,298553199e-02    3,543547094e-01    6,832522899e-02    4,456675611e-03    0,000000000e+00    0,000000000e+00    0,000000000e+00    0,000000000e+00
     1262000000    1,114673764e-01    2,568651140e-01    3,197119758e-02   -3,129866347e-02    0,000000000e+00    0,000000000e+00    0,000000000e+00    0,000000000e+00
     1276000000    2,038557231e-01    1,056906879e-01    8,327974938e-03   -8,528962731e-03    0,000000000e+00    0,000000000e+00    0,000000000e+00    0,000000000e+00
     1290000000    2,205528468e-01   -6,494364142e-02    1,195271965e-02    2,559885941e-02    0,000000000e+00    0,000000000e+00    0,000000000e+00    0,000000000e+00
     1304000000    1,692346334e-01   -2,311913967e-01    6,454080343e-02    5,450842157e-02    0,000000000e+00    0,000000000e+00    0,000000000e+00    0,000000000e+00
     1318000000    2,817885205e-02   -3,641645312e-01    1,721942276e-01    1,656860672e-02    0,000000000e+00    0,000000000e+00    0,000000000e+00    0,000000000e+00
     1332000000   -1,509384811e-01   -3,995034695e-01    1,066996157e-01   -1,768360436e-01    0,000000000e+00    0,000000000e+00    0,000000000e+00    0,000000000e+00
     1346000000   -3,534112871e-01   -3,974862695e-01   -5,217347294e-02   -2,992387116e-02    0,000000000e+00    0,000000000e+00    0,000000000e+00    0,000000000e+00
     1360000000   -5,864519477e-01   -2,078379244e-01    5,283128098e-02    7,759799063e-02    0,000000000e+00    0,000000000e+00    0,000000000e+00    0,000000000e+00
     1374000000   -6,279132962e-01    9,953538328e-02    1,832647026e-01    4,555174336e-02    0,000000000e+00    0,000000000e+00    0,000000000e+00    0,000000000e+00
     1388000000   -4,779364765e-01    3,558465540e-01    2,115273476e-01   -2,629905380e-02    0,000000000e+00    0,000000000e+00    0,000000000e+00    0,000000000e+00
     1402000000   -2,436981350e-01    4,473001659e-01    2,111621201e-01   -8,012132347e-02    0,000000000e+00    0,000000000e+00    0,000000000e+00    0,000000000e+00
     1416000000   -3,361444920e-02    4,094845057e-01    1,975524724e-01   -1,138893440e-01    0,000000000e+00    0,000000000e+00    0,000000000e+00    0,000000000e+00
     1430000000    1,025151908e-01    2,975173891e-01    1,695542634e-01   -9,644797444e-02    0,000000000e+00    0,000000000e+00    0,000000000e+00    0,000000000e+00
     1444000000    2,007929683e-01    1,566606164e-01    1,533294171e-01   -1,191352233e-01    0,000000000e+00    0,000000000e+00    0,000000000e+00    0,000000000e+00
     1458000000    2,311712205e-01   -1,243727747e-02    1,478832811e-01   -8,810490370e-02    0,000000000e+00    0,000000000e+00    0,000000000e+00    0,000000000e+00
     1472000000    1,920454353e-01   -1,915542483e-01    1,537027955e-01   -4,375519603e-02    0,000000000e+00    0,000000000e+00    0,000000000e+00    0,000000000e+00
     1486000000    6,830928475e-02   -3,657731116e-01    1,585754752e-01    8,416721597e-03    0,000000000e+00    0,000000000e+00    0,000000000e+00    0,000000000e+00
     1500000000   -1,665843427e-01   -4,872980118e-01    2,301336974e-01    8,850388229e-02    0,000000000e+00    0,000000000e+00    0,000000000e+00    0,000000000e+00
