! NanoVNA-App
! Date: 2025-09-25 15:39:10
! Start: 100MHz Stop: 1,5GHz Points: 101
! S-Parameter data: F S11 S21 S12 S22
# Hz S RI R 50
!     Frequency           S11_Real           S11_Imag           S21_Real           S21_Imag           S12_Real           S12_Imag           S22_Real           S22_Imag
      100000000   -2,862928435e-02   -4,232484382e-03    3,737915158e-01   -7,214992046e-01    0,000000000e+00    0,000000000e+00    0,000000000e+00    0,000000000e+00
      114000000   -1,645349897e-02    1,145510375e-02   -8,923887461e-02   -8,050519228e-01    0,000000000e+00    0,000000000e+00    0,000000000e+00    0,000000000e+00
      128000000    3,517946694e-03    1,069103181e-02   -5,145187378e-01   -6,202256083e-01    0,000000000e+00    0,000000000e+00    0,000000000e+00    0,000000000e+00
      142000000    1,474045310e-02   -2,630488947e-03   -7,668766379e-01   -2,363384962e-01    0,000000000e+00    0,000000000e+00    0,000000000e+00    0,000000000e+00
      156000000    1,569506153e-02   -1,438863203e-02   -7,671411037e-01    2,227855772e-01    0,000000000e+00    0,000000000e+00    0,000000000e+00    0,000000000e+00
      170000000    1,728174649e-02   -2,246094495e-02   -5,179849863e-01    6,045009494e-01    0,000000000e+00    0,000000000e+00    0,000000000e+00    0,000000000e+00
      184000000    2,147522010e-02   -3,725345060e-02   -1,010886803e-01    7,857260108e-01    0,000000000e+00    0,000000000e+00    0,000000000e+00    0,000000000e+00
      198000000    1,328082755e-02   -6,256227195e-02    3,431257308e-01    7,122263312e-01    0,000000000e+00    0,000000000e+00    0,000000000e+00    0,000000000e+00
      212000000   -1,833865419e-02   -8,126705140e-02    6,776922345e-01    4,095857739e-01    0,000000000e+00    0,000000000e+00    0,000000000e+00    0,000000000e+00
      226000000   -6,118521094e-02   -6,920162588e-02    7,952166796e-01   -3,066017479e-02    0,000000000e+00    0,000000000e+00    0,000000000e+00    0,000000000e+00
      240000000   -8,203686774e-02   -2,583691850e-02    6,454533935e-01   -4,667653441e-01    0,000000000e+00    0,000000000e+00    0,000000000e+00    0,000000000e+00
      254000000   -6,322563440e-02    1,684275270e-02    2,759750783e-01   -7,424195409e-01    0,000000000e+00    0,000000000e+00    0,000000000e+00    0,000000000e+00
      268000000   -2,390820533e-02    2,866458707e-02   -1,780987084e-01   -7,636399269e-01    0,000000000e+00    0,000000000e+00    0,000000000e+00    0,000000000e+00
      282000000    4,093959462e-03    1,199185848e-02   -5,617510676e-01   -5,351850390e-01    0,000000000e+00    0,000000000e+00    0,000000000e+00    0,000000000e+00
      296000000    9,829667397e-03   -7,583367173e-03   -7,593371272e-01   -1,393853128e-01    0,000000000e+00    0,000000000e+00    0,000000000e+00    0,000000000e+00
      310000000    1,186528988e-02   -1,607984304e-02   -7,115725875e-01    2,988834381e-01    0,000000000e+00    0,000000000e+00    0,000000000e+00    0,000000000e+00
      324000000    2,008811943e-02   -2,666729316e-02   -4,269409180e-01    6,369540691e-01    0,000000000e+00    0,000000000e+00    0,000000000e+00    0,000000000e+00
      338000000    2,578028478e-02   -5,233969539e-02   -9,400099516e-03    7,611209750e-01    0,000000000e+00    0,000000000e+00    0,000000000e+00    0,000000000e+00
      352000000    7,373720873e-03   -8,482392132e-02    4,054226279e-01    6,390359998e-01    0,000000000e+00    0,000000000e+00    0,000000000e+00    0,000000000e+00
      366000000   -3,431178257e-02   -9,534779191e-02    6,910145879e-01    3,105380535e-01    0,000000000e+00    0,000000000e+00    0,000000000e+00    0,000000000e+00
      380000000   -7,040826976e-02   -7,124598324e-02    7,466664314e-01   -1,262097210e-01    0,000000000e+00    0,000000000e+00    0,000000000e+00    0,000000000e+00
      394000000   -7,217373699e-02   -3,273667768e-02    5,453276038e-01   -5,222203135e-01    0,000000000e+00    0,000000000e+00    0,000000000e+00    0,000000000e+00
      408000000   -4,643376544e-02   -1,643613912e-02    1,619089991e-01   -7,320976257e-01    0,000000000e+00    0,000000000e+00    0,000000000e+00    0,000000000e+00
      422000000   -2,835082635e-02   -3,248753399e-02   -2,671527565e-01   -6,948225498e-01    0,000000000e+00    0,000000000e+00    0,000000000e+00    0,000000000e+00
      436000000   -4,056096449e-02   -5,185233802e-02   -6,041256189e-01   -4,317303598e-01    0,000000000e+00    0,000000000e+00    0,000000000e+00    0,000000000e+00
      450000000   -6,674555689e-02   -4,409722239e-02   -7,394301295e-01   -2,152069099e-02    0,000000000e+00    0,000000000e+00    0,000000000e+00    0,000000000e+00
      464000000   -7,289279252e-02   -1,229293272e-02   -6,184150577e-01    3,966781199e-01    0,000000000e+00    0,000000000e+00    0,000000000e+00    0,000000000e+00
      478000000   -4,764396325e-02    1,138793398e-02   -2,831487954e-01    6,675154567e-01    0,000000000e+00    0,000000000e+00    0,000000000e+00    0,000000000e+00
      492000000   -1,545582060e-02    5,544396583e-03    1,370228678e-01    7,005620003e-01    0,000000000e+00    0,000000000e+00    0,000000000e+00    0,000000000e+00
      506000000   -2,886728151e-03   -1,592095010e-02    4,975685477e-01    5,016366243e-01    0,000000000e+00    0,000000000e+00    0,000000000e+00    0,000000000e+00
      520000000   -4,833114799e-03   -3,158837929e-02    6,890039444e-01    1,428708434e-01    0,000000000e+00    0,000000000e+00    0,000000000e+00    0,000000000e+00
      534000000   -3,595540067e-03   -3,797484934e-02    6,430562735e-01   -2,619621158e-01    0,000000000e+00    0,000000000e+00    0,000000000e+00    0,000000000e+00
      548000000    6,503478624e-03   -5,386764184e-02    3,812304735e-01   -5,661197901e-01    0,000000000e+00    0,000000000e+00    0,000000000e+00    0,000000000e+00
      562000000    3,236238612e-03   -8,940161765e-02    2,592397388e-03   -6,715096235e-01    0,000000000e+00    0,000000000e+00    0,000000000e+00    0,000000000e+00
      576000000   -3,451317549e-02   -1,246358231e-01   -3,681716621e-01   -5,568553209e-01    0,000000000e+00    0,000000000e+00    0,000000000e+00    0,000000000e+00
      590000000   -9,547600895e-02   -1,226538569e-01   -6,191800833e-01   -2,658150196e-01    0,000000000e+00    0,000000000e+00    0,000000000e+00    0,000000000e+00
      604000000   -1,389764547e-01   -7,180354744e-02   -6,641497016e-01    1,369383782e-01    0,000000000e+00    0,000000000e+00    0,000000000e+00    0,000000000e+00
      618000000   -1,295793504e-01   -1,014950126e-02   -4,633981586e-01    4,931530058e-01    0,000000000e+00    0,000000000e+00    0,000000000e+00    0,000000000e+00
      632000000   -8,481759578e-02    1,555745862e-02   -1,011590660e-01    6,622725725e-01    0,000000000e+00    0,000000000e+00    0,000000000e+00    0,000000000e+00
      646000000   -5,221226439e-02    8,673605626e-04    2,851823866e-01    5,942619443e-01    0,000000000e+00    0,000000000e+00    0,000000000e+00    0,000000000e+00
      660000000   -5,316565186e-02   -2,107197791e-02    5,647559762e-01    3,233901262e-01    0,000000000e+00    0,000000000e+00    0,000000000e+00    0,000000000e+00
      674000000   -6,930539757e-02   -1,645503938e-02    6,405047178e-01   -6,352650374e-02    0,000000000e+00    0,000000000e+00    0,000000000e+00    0,000000000e+00
      688000000   -6,683798134e-02    9,636346251e-03    4,706019461e-01   -4,245473742e-01    0,000000000e+00    0,000000000e+00    0,000000000e+00    0,000000000e+00
      702000000   -3,597804159e-02    2,668352053e-02    1,156987399e-01   -6,053293347e-01    0,000000000e+00    0,000000000e+00    0,000000000e+00    0,000000000e+00
      716000000    4,156174604e-03    1,605902240e-02   -2,595816255e-01   -5,447774529e-01    0,000000000e+00    0,000000000e+00    0,000000000e+00    0,000000000e+00
      730000000    3,699695319e-02   -1,313926745e-02   -5,219295621e-01   -2,708168328e-01    0,000000000e+00    0,000000000e+00    0,000000000e+00    0,000000000e+00
      744000000    6,240498275e-02   -6,476908177e-02   -5,599794984e-01    9,873766452e-02    0,000000000e+00    0,000000000e+00    0,000000000e+00    0,000000000e+00
      758000000    6,068831682e-02   -1,514509022e-01   -3,660012484e-01    4,007722735e-01    0,000000000e+00    0,000000000e+00    0,000000000e+00    0,000000000e+00
      772000000   -1,694305800e-02   -2,562293708e-01   -4,510053247e-02    5,094410181e-01    0,000000000e+00    0,000000000e+00    0,000000000e+00    0,000000000e+00
      786000000   -2,032207996e-01   -2,919712961e-01    2,598334253e-01    3,986679614e-01    0,000000000e+00    0,000000000e+00    0,000000000e+00    0,000000000e+00
      800000000   -4,082054198e-01   -1,261932999e-01    4,065150023e-01    1,175168157e-01    0,000000000e+00    0,000000000e+00    0,000000000e+00    0,000000000e+00
      814000000   -3,766289353e-01    2,026974857e-01    2,950303555e-01   -1,504041106e-01    0,000000000e+00    0,000000000e+00    0,000000000e+00    0,000000000e+00
      828000000   -6,274152547e-02    3,473881185e-01    8,178392053e-02   -1,892249882e-01    0,000000000e+00    0,000000000e+00    0,000000000e+00    0,000000000e+00
      842000000    2,115649730e-01    1,849436462e-01   -2,643340733e-03   -9,222976863e-02    0,000000000e+00    0,000000000e+00    0,000000000e+00    0,000000000e+00
      856000000    2,653996646e-01   -1,063549444e-01    3,647284582e-02   -3,678063303e-02    0,000000000e+00    0,000000000e+00    0,000000000e+00    0,000000000e+00
      870000000    8,159828931e-02   -3,522665203e-01    8,904121071e-02   -9,814812243e-02    0,000000000e+00    0,000000000e+00    0,000000000e+00    0,000000000e+00
      884000000   -2,679586411e-01   -3,555765152e-01    1,084062830e-02   -2,292140126e-01    0,000000000e+00    0,000000000e+00    0,000000000e+00    0,000000000e+00
      898000000   -4,565627873e-01   -1,267646626e-02   -2,152141929e-01   -2,089952677e-01    0,000000000e+00    0,000000000e+00    0,000000000e+00    0,000000000e+00
      912000000   -2,338600159e-01    2,768505514e-01   -3,390850425e-01    8,083381504e-02    0,000000000e+00    0,000000000e+00    0,000000000e+00    0,000000000e+00
      926000000    5,402833596e-02    2,603595257e-01   -2,113116831e-01    2,612973154e-01    0,000000000e+00    0,000000000e+00    0,000000000e+00    0,000000000e+00
      940000000    2,091978490e-01    8,498899639e-02   -3,052187152e-02    3,246532977e-01    0,000000000e+00    0,000000000e+00    0,000000000e+00    0,000000000e+00
      954000000    2,198281288e-01   -1,192607433e-01    1,319757700e-01    3,000524044e-01    0,000000000e+00    0,000000000e+00    0,000000000e+00    0,000000000e+00
      968000000    1,197380275e-01   -2,954708636e-01    2,684345245e-01    2,145396769e-01    0,000000000e+00    0,000000000e+00    0,000000000e+00    0,000000000e+00
      982000000   -7,849466056e-02   -3,877704740e-01    3,620156348e-01    6,173725799e-02    0,000000000e+00    0,000000000e+00    0,000000000e+00    0,000000000e+00
      996000000   -3,132710159e-01   -3,293120563e-01    3,629125953e-01   -1,424805522e-01    0,000000000e+00    0,000000000e+00    0,000000000e+00    0,000000000e+00
     1010000000   -4,638296366e-01   -1,176900491e-01    2,189318538e-01   -3,342204690e-01    0,000000000e+00    0,000000000e+00    0,000000000e+00    0,000000000e+00
     1024000000   -4,131693840e-01    1,418136954e-01   -3,209632635e-02   -3,860369623e-01    0,000000000e+00    0,000000000e+00    0,000000000e+00    0,000000000e+00
     1038000000   -2,274653912e-01    2,888526917e-01   -2,415099889e-01   -2,562731504e-01    0,000000000e+00    0,000000000e+00    0,000000000e+00    0,000000000e+00
     1052000000   -1,469627023e-02    2,765197456e-01   -3,129229546e-01   -4,725618660e-02    0,000000000e+00    0,000000000e+00    0,000000000e+00    0,000000000e+00
     1066000000    1,343492568e-01    1,668412834e-01   -2,518401146e-01    1,415532827e-01    0,000000000e+00    0,000000000e+00    0,000000000e+00    0,000000000e+00
     1080000000    1,952081621e-01    8,197151124e-03   -1,153199598e-01    2,542809844e-01    0,000000000e+00    0,000000000e+00    0,000000000e+00    0,000000000e+00
     1094000000    1,633310914e-01   -1,614027619e-01    5,971373990e-02    2,904757857e-01    0,000000000e+00    0,000000000e+00    0,000000000e+00    0,000000000e+00
     1108000000    1,608457603e-02   -2,944591939e-01    2,612526715e-01    2,320017666e-01    0,000000000e+00    0,000000000e+00    0,000000000e+00    0,000000000e+00
     1122000000   -2,163554579e-01   -2,795279324e-01    4,406768680e-01    2,553546615e-02    0,000000000e+00    0,000000000e+00    0,000000000e+00    0,000000000e+00
     1136000000   -3,199787438e-01   -2,727496810e-02    4,004876018e-01   -3,480468988e-01    0,000000000e+00    0,000000000e+00    0,000000000e+00    0,000000000e+00
     1150000000   -1,072687134e-01    1,363990009e-01    4,977947846e-02   -5,291259289e-01    0,000000000e+00    0,000000000e+00    0,000000000e+00    0,000000000e+00
     1164000000    8,434798568e-02   -2,188268863e-02   -2,508116364e-01   -4,020056129e-01    0,000000000e+00    0,000000000e+00    0,000000000e+00    0,000000000e+00
     1178000000    2,871999331e-02   -2,521393895e-01   -3,704688549e-01   -1,804647446e-01    0,000000000e+00    0,000000000e+00    0,000000000e+00    0,000000000e+00
     1192000000   -2,206557989e-01   -3,476484120e-01   -3,381632864e-01    4,213675112e-02    0,000000000e+00    0,000000000e+00    0,000000000e+00    0,000000000e+00
     1206000000   -4,766868055e-01   -1,802584976e-01   -1,843875200e-01    1,808594167e-01    0,000000000e+00    0,000000000e+00    0,000000000e+00    0,000000000e+00
     1220000000   -5,062943697e-01    1,347084045e-01   -1,271636039e-02    1,731151640e-01    0,000000000e+00    0,000000000e+00    0,000000000e+00    0,000000000e+00
     1234000000   -3,005007505e-01    3,376612663e-01    6,736312062e-02    7,730814070e-02    0,000000000e+00    0,000000000e+00    0,000000000e+00    0,000000000e+00
     1248000000   -6,026698649e-02    3,552750349e-01    7,287148386e-02   -2,809814410e-03    0,000000000e+00    0,000000000e+00    0,000000000e+00    0,000000000e+00
     1262000000    1,061975583e-01    2,591538429e-01    2,820094675e-02   -2,066890523e-02    0,000000000e+00    0,000000000e+00    0,000000000e+00    0,000000000e+00
     1276000000    2,055695057e-01    1,087568328e-01    9,170861915e-03   -5,265729502e-03    0,000000000e+00    0,000000000e+00    0,000000000e+00    0,000000000e+00
     1290000000    2,214964479e-01   -6,837744266e-02    1,129558496e-02    2,523083240e-02    0,000000000e+00    0,000000000e+00    0,000000000e+00    0,000000000e+00
     1304000000    1,629840583e-01   -2,313952595e-01    5,847845227e-02    5,889173225e-02    0,000000000e+00    0,000000000e+00    0,000000000e+00    0,000000000e+00
     1318000000    2,245819382e-02   -3,625682890e-01    1,711690575e-01    7,431454491e-03    0,000000000e+00    0,000000000e+00    0,000000000e+00    0,000000000e+00
     1332000000   -1,486310065e-01   -3,928067088e-01    1,002273783e-01   -1,766837686e-01    0,000000000e+00    0,000000000e+00    0,000000000e+00    0,000000000e+00
     1346000000   -3,560870588e-01   -3,949141204e-01   -5,064710230e-02   -2,533928305e-02    0,000000000e+00    0,000000000e+00    0,000000000e+00    0,000000000e+00
     1360000000   -5,860648155e-01   -2,035796642e-01    5,596297979e-02    8,537756652e-02    0,000000000e+00    0,000000000e+00    0,000000000e+00    0,000000000e+00
     1374000000   -6,226104498e-01    1,043414995e-01    1,804782599e-01    4,507201537e-02    0,000000000e+00    0,000000000e+00    0,000000000e+00    0,000000000e+00
     1388000000   -4,736878276e-01    3,554811776e-01    2,219874412e-01   -1,117629372e-02    0,000000000e+00    0,000000000e+00    0,000000000e+00    0,000000000e+00
     1402000000   -2,473309785e-01    4,475927353e-01    2,050428689e-01   -7,722464204e-02    0,000000000e+00    0,000000000e+00    0,000000000e+00    0,000000000e+00
     1416000000   -3,694993258e-02    4,137201607e-01    1,869416088e-01   -1,011886597e-01    0,000000000e+00    0,000000000e+00    0,000000000e+00    0,000000000e+00
     1430000000    1,105885059e-01    3,058652878e-01    2,047265321e-01   -1,101808622e-01    0,000000000e+00    0,000000000e+00    0,000000000e+00    0,000000000e+00
     1444000000    1,994659752e-01    1,558652818e-01    1,657121032e-01   -1,042791754e-01    0,000000000e+00    0,000000000e+00    0,000000000e+00    0,000000000e+00
     1458000000    2,303821743e-01   -1,892963238e-02    1,532854587e-01   -8,969077468e-02    0,000000000e+00    0,000000000e+00    0,000000000e+00    0,000000000e+00
     1472000000    1,908570528e-01   -1,942988783e-01    1,378439963e-01   -5,104702339e-02    0,000000000e+00    0,000000000e+00    0,000000000e+00    0,000000000e+00
     1486000000    6,128789112e-02   -3,639265299e-01    1,467842609e-01    2,099109069e-02    0,000000000e+00    0,000000000e+00    0,000000000e+00    0,000000000e+00
     1500000000   -1,572037488e-01   -4,819012582e-01    2,309104949e-01    9,449866414e-02    0,000000000e+00    0,000000000e+00    0,000000000e+00    0,000000000e+00
