! NanoVNA-App
! Date: 2025-09-26 09:58:18
! Start: 100MHz Stop: 1,5GHz Points: 101
! S-Parameter data: F S11 S21 S12 S22
# Hz S RI R 50
!     Frequency           S11_Real           S11_Imag           S21_Real           S21_Imag           S12_Real           S12_Imag           S22_Real           S22_Imag
      100000000    3,599883243e-02    2,676825784e-02    4,405236244e-01   -6,701831818e-01    0,000000000e+00    0,000000000e+00    0,000000000e+00    0,000000000e+00
      114000000    6,058756635e-02    1,261533471e-03    1,228760369e-02   -7,957559824e-01    0,000000000e+00    0,000000000e+00    0,000000000e+00    0,000000000e+00
      128000000    6,753177941e-02   -4,301708564e-02   -4,090589881e-01   -6,783301830e-01    0,000000000e+00    0,000000000e+00    0,000000000e+00    0,000000000e+00
      142000000    4,214243963e-02   -8,894990385e-02   -7,063185573e-01   -3,605750799e-01    0,000000000e+00    0,000000000e+00    0,000000000e+00    0,000000000e+00
      156000000   -1,089852583e-02   -1,088485271e-01   -7,937167287e-01    6,782893091e-02    0,000000000e+00    0,000000000e+00    0,000000000e+00    0,000000000e+00
      170000000   -6,352496892e-02   -9,043943882e-02   -6,369555593e-01    4,879239798e-01    0,000000000e+00    0,000000000e+00    0,000000000e+00    0,000000000e+00
      184000000   -8,869337291e-02   -4,599753395e-02   -2,721289098e-01    7,573546171e-01    0,000000000e+00    0,000000000e+00    0,000000000e+00    0,000000000e+00
      198000000   -8,220314980e-02   -4,736496601e-03    1,811811775e-01    7,822747827e-01    0,000000000e+00    0,000000000e+00    0,000000000e+00    0,000000000e+00
      212000000   -6,142737344e-02    1,959325559e-02    5,716761947e-01    5,576938391e-01    0,000000000e+00    0,000000000e+00    0,000000000e+00    0,000000000e+00
      226000000   -3,940955922e-02    3,275970370e-02    7,774316669e-01    1,612932384e-01    0,000000000e+00    0,000000000e+00    0,000000000e+00    0,000000000e+00
      240000000   -1,231408864e-02    4,102117568e-02    7,364314198e-01   -2,791127563e-01    0,000000000e+00    0,000000000e+00    0,000000000e+00    0,000000000e+00
      254000000    2,353598550e-02    3,445321694e-02    4,687919021e-01   -6,222194433e-01    0,000000000e+00    0,000000000e+00    0,000000000e+00    0,000000000e+00
      268000000    5,392178893e-02    1,843482838e-03    6,727921218e-02   -7,680003047e-01    0,000000000e+00    0,000000000e+00    0,000000000e+00    0,000000000e+00
      282000000    5,614399165e-02   -4,751127213e-02   -3,453486860e-01   -6,842662692e-01    0,000000000e+00    0,000000000e+00    0,000000000e+00    0,000000000e+00
      296000000    2,362134494e-02   -8,587907255e-02   -6,560613513e-01   -3,990136385e-01    0,000000000e+00    0,000000000e+00    0,000000000e+00    0,000000000e+00
      310000000   -2,139031328e-02   -8,860506117e-02   -7,750235200e-01    1,186364237e-02    0,000000000e+00    0,000000000e+00    0,000000000e+00    0,000000000e+00
      324000000   -4,813705012e-02   -6,161891669e-02   -6,480733752e-01    4,316650629e-01    0,000000000e+00    0,000000000e+00    0,000000000e+00    0,000000000e+00
      338000000   -4,123966023e-02   -3,550049290e-02   -3,131389320e-01    7,102924585e-01    0,000000000e+00    0,000000000e+00    0,000000000e+00    0,000000000e+00
      352000000   -2,284470573e-02   -3,595440835e-02    1,208912358e-01    7,595929503e-01    0,000000000e+00    0,000000000e+00    0,000000000e+00    0,000000000e+00
      366000000   -2,152084373e-02   -5,465396494e-02    5,045114756e-01    5,725218654e-01    0,000000000e+00    0,000000000e+00    0,000000000e+00    0,000000000e+00
      380000000   -4,284429178e-02   -6,395447254e-02    7,274722457e-01    2,125000060e-01    0,000000000e+00    0,000000000e+00    0,000000000e+00    0,000000000e+00
      394000000   -6,366923451e-02   -5,036577582e-02    7,242012620e-01   -2,137086838e-01    0,000000000e+00    0,000000000e+00    0,000000000e+00    0,000000000e+00
      408000000   -6,464231759e-02   -2,769122645e-02    4,908038974e-01   -5,679205656e-01    0,000000000e+00    0,000000000e+00    0,000000000e+00    0,000000000e+00
      422000000   -5,196568370e-02   -1,791927405e-02    1,067611128e-01   -7,397324443e-01    0,000000000e+00    0,000000000e+00    0,000000000e+00    0,000000000e+00
      436000000   -4,657286033e-02   -2,137101814e-02   -3,048324287e-01   -6,778068542e-01    0,000000000e+00    0,000000000e+00    0,000000000e+00    0,000000000e+00
      450000000   -5,387748405e-02   -1,671460643e-02   -6,195190549e-01   -4,019385576e-01    0,000000000e+00    0,000000000e+00    0,000000000e+00    0,000000000e+00
      464000000   -5,217427760e-02    5,567871500e-03   -7,312542796e-01    1,754827797e-03    0,000000000e+00    0,000000000e+00    0,000000000e+00    0,000000000e+00
      478000000   -2,161744051e-02    2,752135321e-02   -6,006861925e-01    3,971893489e-01    0,000000000e+00    0,000000000e+00    0,000000000e+00    0,000000000e+00
      492000000    2,742393129e-02    1,592326909e-02   -2,827923000e-01    6,447595954e-01    0,000000000e+00    0,000000000e+00    0,000000000e+00    0,000000000e+00
      506000000    5,904087424e-02   -3,600382060e-02    1,031243280e-01    6,815199852e-01    0,000000000e+00    0,000000000e+00    0,000000000e+00    0,000000000e+00
      520000000    4,531211406e-02   -1,011030078e-01    4,425667524e-01    5,246061087e-01    0,000000000e+00    0,000000000e+00    0,000000000e+00    0,000000000e+00
      534000000   -1,032353751e-02   -1,423755735e-01    6,513472795e-01    2,091149986e-01    0,000000000e+00    0,000000000e+00    0,000000000e+00    0,000000000e+00
      548000000   -7,734222710e-02   -1,390870959e-01    6,635160446e-01   -1,737208813e-01    0,000000000e+00    0,000000000e+00    0,000000000e+00    0,000000000e+00
      562000000   -1,257911921e-01   -1,015799269e-01    4,569456279e-01   -5,095303655e-01    0,000000000e+00    0,000000000e+00    0,000000000e+00    0,000000000e+00
      576000000   -1,487240642e-01   -4,830643907e-02    8,770097792e-02   -6,679301858e-01    0,000000000e+00    0,000000000e+00    0,000000000e+00    0,000000000e+00
      590000000   -1,444614381e-01    2,072689682e-02   -3,047831953e-01   -5,771763325e-01    0,000000000e+00    0,000000000e+00    0,000000000e+00    0,000000000e+00
      604000000   -5,466975272e-02    9,500278533e-02   -5,050891638e-01   -2,505677342e-01    0,000000000e+00    0,000000000e+00    0,000000000e+00    0,000000000e+00
      618000000    7,481405884e-02   -3,150220588e-02   -4,513487816e-01   -6,024513021e-02    0,000000000e+00    0,000000000e+00    0,000000000e+00    0,000000000e+00
      632000000   -6,670940667e-02   -1,125307456e-01   -5,548316240e-01    1,482400894e-01    0,000000000e+00    0,000000000e+00    0,000000000e+00    0,000000000e+00
      646000000   -1,097394973e-01   -2,467773668e-02   -4,026681781e-01    4,945084751e-01    0,000000000e+00    0,000000000e+00    0,000000000e+00    0,000000000e+00
      660000000   -6,387706101e-02    1,798523776e-02   -4,972074553e-02    6,446768641e-01    0,000000000e+00    0,000000000e+00    0,000000000e+00    0,000000000e+00
      674000000   -2,200026065e-02    4,653551150e-03    3,104001284e-01    5,638042092e-01    0,000000000e+00    0,000000000e+00    0,000000000e+00    0,000000000e+00
      688000000   -1,134212781e-02   -2,288150229e-02    5,606098175e-01    3,045794070e-01    0,000000000e+00    0,000000000e+00    0,000000000e+00    0,000000000e+00
      702000000   -1,448865328e-02   -4,021462426e-02    6,290639639e-01   -4,891711101e-02    0,000000000e+00    0,000000000e+00    0,000000000e+00    0,000000000e+00
      716000000   -1,351285260e-02   -5,276765674e-02    4,971314967e-01   -3,794841170e-01    0,000000000e+00    0,000000000e+00    0,000000000e+00    0,000000000e+00
      730000000   -1,209376287e-02   -7,670342177e-02    2,083457857e-01   -5,803104639e-01    0,000000000e+00    0,000000000e+00    0,000000000e+00    0,000000000e+00
      744000000   -2,997405641e-02   -1,098984107e-01   -1,330584735e-01   -5,973933935e-01    0,000000000e+00    0,000000000e+00    0,000000000e+00    0,000000000e+00
      758000000   -7,924901694e-02   -1,301692128e-01   -4,333649278e-01   -4,350065589e-01    0,000000000e+00    0,000000000e+00    0,000000000e+00    0,000000000e+00
      772000000   -1,380215883e-01   -1,095645279e-01   -6,063852310e-01   -1,340374202e-01    0,000000000e+00    0,000000000e+00    0,000000000e+00    0,000000000e+00
      786000000   -1,693483889e-01   -5,136771873e-02   -5,878754258e-01    2,225376815e-01    0,000000000e+00    0,000000000e+00    0,000000000e+00    0,000000000e+00
      800000000   -1,508739740e-01    1,109286398e-02   -3,694636226e-01    5,102900863e-01    0,000000000e+00    0,000000000e+00    0,000000000e+00    0,000000000e+00
      814000000   -1,046803221e-01    4,063747823e-02   -3,444475681e-02    6,228455305e-01    0,000000000e+00    0,000000000e+00    0,000000000e+00    0,000000000e+00
      828000000   -6,257583946e-02    3,511257842e-02    3,002421558e-01    5,414327383e-01    0,000000000e+00    0,000000000e+00    0,000000000e+00    0,000000000e+00
      842000000   -3,882331401e-02    1,832844876e-02    5,341458917e-01    2,971016169e-01    0,000000000e+00    0,000000000e+00    0,000000000e+00    0,000000000e+00
      856000000   -2,386531048e-02    3,923201468e-03    6,004601121e-01   -3,039665893e-02    0,000000000e+00    0,000000000e+00    0,000000000e+00    0,000000000e+00
      870000000   -7,143788040e-03   -1,446130592e-02    4,800525606e-01   -3,360025287e-01    0,000000000e+00    0,000000000e+00    0,000000000e+00    0,000000000e+00
      884000000    2,800931921e-03   -4,981553927e-02    2,241721600e-01   -5,245525837e-01    0,000000000e+00    0,000000000e+00    0,000000000e+00    0,000000000e+00
      898000000   -1,259473711e-02   -9,404571354e-02   -8,271764964e-02   -5,543879867e-01    0,000000000e+00    0,000000000e+00    0,000000000e+00    0,000000000e+00
      912000000   -6,448592246e-02   -1,186178103e-01   -3,996626437e-01   -4,073316157e-01    0,000000000e+00    0,000000000e+00    0,000000000e+00    0,000000000e+00
      926000000   -1,146992892e-01   -1,061613932e-01   -5,630629063e-01   -1,263201833e-01    0,000000000e+00    0,000000000e+00    0,000000000e+00    0,000000000e+00
      940000000   -1,449512243e-01   -6,312931329e-02   -5,531398654e-01    2,020176053e-01    0,000000000e+00    0,000000000e+00    0,000000000e+00    0,000000000e+00
      954000000   -1,331465542e-01   -1,930330321e-02   -3,609312177e-01    4,771787822e-01    0,000000000e+00    0,000000000e+00    0,000000000e+00    0,000000000e+00
      968000000   -9,782811254e-02    1,671409118e-03   -5,105590820e-02    6,061331034e-01    0,000000000e+00    0,000000000e+00    0,000000000e+00    0,000000000e+00
      982000000   -7,481359690e-02   -7,258621976e-03    2,795215249e-01    5,507769585e-01    0,000000000e+00    0,000000000e+00    0,000000000e+00    0,000000000e+00
      996000000   -6,424133480e-02   -2,506794594e-02    5,283883810e-01    3,309094906e-01    0,000000000e+00    0,000000000e+00    0,000000000e+00    0,000000000e+00
     1010000000   -7,055920362e-02   -3,912622109e-02    6,175276041e-01    8,310948499e-03    0,000000000e+00    0,000000000e+00    0,000000000e+00    0,000000000e+00
     1024000000   -8,374839276e-02   -4,862704501e-02    5,209475756e-01   -2,968908548e-01    0,000000000e+00    0,000000000e+00    0,000000000e+00    0,000000000e+00
     1038000000   -9,898664057e-02   -6,028568372e-02    2,866514325e-01   -4,987587929e-01    0,000000000e+00    0,000000000e+00    0,000000000e+00    0,000000000e+00
     1052000000   -1,290764362e-01   -4,970951378e-02   -8,812599815e-03   -5,451593995e-01    0,000000000e+00    0,000000000e+00    0,000000000e+00    0,000000000e+00
     1066000000   -1,455543786e-01   -9,924257174e-03   -2,745496929e-01   -4,323971570e-01    0,000000000e+00    0,000000000e+00    0,000000000e+00    0,000000000e+00
     1080000000   -1,184652075e-01    4,213825241e-02   -4,204271734e-01   -2,150883824e-01    0,000000000e+00    0,000000000e+00    0,000000000e+00    0,000000000e+00
     1094000000   -5,201874301e-02    5,191883072e-02   -4,498501718e-01    1,963932626e-02    0,000000000e+00    0,000000000e+00    0,000000000e+00    0,000000000e+00
     1108000000    3,583767917e-03    1,364060771e-02   -3,732120991e-01    2,520326376e-01    0,000000000e+00    0,000000000e+00    0,000000000e+00    0,000000000e+00
     1122000000    1,667643152e-02   -5,258309841e-02   -1,756708920e-01    4,264477789e-01    0,000000000e+00    0,000000000e+00    0,000000000e+00    0,000000000e+00
     1136000000   -8,318368345e-03   -1,197886541e-01    1,086891294e-01    4,725613594e-01    0,000000000e+00    0,000000000e+00    0,000000000e+00    0,000000000e+00
     1150000000   -7,428913563e-02   -1,668080389e-01    3,932943344e-01    3,491646647e-01    0,000000000e+00    0,000000000e+00    0,000000000e+00    0,000000000e+00
     1164000000   -1,591964811e-01   -1,645323634e-01    5,731240511e-01    6,002032012e-02    0,000000000e+00    0,000000000e+00    0,000000000e+00    0,000000000e+00
     1178000000   -2,195431292e-01   -1,047369018e-01    5,469408035e-01   -3,174994886e-01    0,000000000e+00    0,000000000e+00    0,000000000e+00    0,000000000e+00
     1192000000   -2,273550034e-01   -3,836370632e-02    2,893706858e-01   -6,084545255e-01    0,000000000e+00    0,000000000e+00    0,000000000e+00    0,000000000e+00
     1206000000   -2,049121857e-01    5,959879141e-03   -9,431418031e-02   -6,862537265e-01    0,000000000e+00    0,000000000e+00    0,000000000e+00    0,000000000e+00
     1220000000   -1,920855492e-01    1,425726432e-02   -4,410856068e-01   -5,265303850e-01    0,000000000e+00    0,000000000e+00    0,000000000e+00    0,000000000e+00
     1234000000   -2,116672695e-01    6,135202944e-02   -5,968692303e-01   -2,152067125e-01    0,000000000e+00    0,000000000e+00    0,000000000e+00    0,000000000e+00
     1248000000   -1,454178244e-01    1,535954773e-01   -5,627635121e-01    5,899484828e-02    0,000000000e+00    0,000000000e+00    0,000000000e+00    0,000000000e+00
     1262000000   -2,009887993e-02    1,472020745e-01   -4,580105245e-01    2,819429934e-01    0,000000000e+00    0,000000000e+00    0,000000000e+00    0,000000000e+00
     1276000000    6,468985230e-02    5,564851314e-02   -2,567162216e-01    4,456949830e-01    0,000000000e+00    0,000000000e+00    0,000000000e+00    0,000000000e+00
     1290000000    8,302075416e-02   -6,570452452e-02    1,423467533e-03    5,115160346e-01    0,000000000e+00    0,000000000e+00    0,000000000e+00    0,000000000e+00
     1304000000    3,283823654e-02   -1,814209521e-01    2,700536847e-01    4,638709724e-01    0,000000000e+00    0,000000000e+00    0,000000000e+00    0,000000000e+00
     1318000000   -8,370199054e-02   -2,601000965e-01    5,042183995e-01    2,694641352e-01    0,000000000e+00    0,000000000e+00    0,000000000e+00    0,000000000e+00
     1332000000   -2,409325838e-01   -2,591220438e-01    6,230837107e-01   -3,843919188e-02    0,000000000e+00    0,000000000e+00    0,000000000e+00    0,000000000e+00
     1346000000   -3,644039035e-01   -1,594829559e-01    5,462966561e-01   -3,877306879e-01    0,000000000e+00    0,000000000e+00    0,000000000e+00    0,000000000e+00
     1360000000   -3,978133500e-01   -3,900903743e-03    2,611607015e-01   -6,097687483e-01    0,000000000e+00    0,000000000e+00    0,000000000e+00    0,000000000e+00
     1374000000   -3,383649290e-01    1,168747023e-01   -9,182383865e-02   -6,130212545e-01    0,000000000e+00    0,000000000e+00    0,000000000e+00    0,000000000e+00
     1388000000   -2,461568415e-01    1,731168926e-01   -3,548213243e-01   -4,125576913e-01    0,000000000e+00    0,000000000e+00    0,000000000e+00    0,000000000e+00
     1402000000   -1,552223563e-01    1,858183444e-01   -4,588507414e-01   -1,027742922e-01    0,000000000e+00    0,000000000e+00    0,000000000e+00    0,000000000e+00
     1416000000   -8,518513292e-02    1,586428583e-01   -3,794935942e-01    1,950140446e-01    0,000000000e+00    0,000000000e+00    0,000000000e+00    0,000000000e+00
     1430000000   -2,567494102e-02    9,842772037e-02   -1,552124321e-01    3,914428353e-01    0,000000000e+00    0,000000000e+00    0,000000000e+00    0,000000000e+00
     1444000000    1,298760530e-03    1,491117757e-02    1,041687280e-01    4,902445376e-01    0,000000000e+00    0,000000000e+00    0,000000000e+00    0,000000000e+00
     1458000000   -1,493662409e-02   -7,683338225e-02    4,213274121e-01    4,630744159e-01    0,000000000e+00    0,000000000e+00    0,000000000e+00    0,000000000e+00
     1472000000   -1,038503423e-01   -1,494983286e-01    6,913493872e-01    2,913216650e-01    0,000000000e+00    0,000000000e+00    0,000000000e+00    0,000000000e+00
     1486000000   -2,143235803e-01   -1,522943825e-01    8,700906634e-01   -2,862026170e-02    0,000000000e+00    0,000000000e+00    0,000000000e+00    0,000000000e+00
     1500000000   -2,920802534e-01   -8,729415387e-02    8,398288488e-01   -4,285658002e-01    0,000000000e+00    0,000000000e+00    0,000000000e+00    0,000000000e+00
