! NanoVNA-App
! Date: 2025-09-26 09:58:38
! Start: 100MHz Stop: 1,5GHz Points: 101
! S-Parameter data: F S11 S21 S12 S22
# Hz S RI R 50
!     Frequency           S11_Real           S11_Imag           S21_Real           S21_Imag           S12_Real           S12_Imag           S22_Real           S22_Imag
      100000000    3,576245531e-02    2,683518454e-02    4,404110312e-01   -6,702933311e-01    0,000000000e+00    0,000000000e+00    0,000000000e+00    0,000000000e+00
      114000000    6,042079255e-02    1,462622196e-03    1,215357333e-02   -7,958747149e-01    0,000000000e+00    0,000000000e+00    0,000000000e+00    0,000000000e+00
      128000000    6,751802564e-02   -4,273378477e-02   -4,090812802e-01   -6,781816483e-01    0,000000000e+00    0,000000000e+00    0,000000000e+00    0,000000000e+00
      142000000    4,231733829e-02   -8,854934573e-02   -7,067617178e-01   -3,605519533e-01    0,000000000e+00    0,000000000e+00    0,000000000e+00    0,000000000e+00
      156000000   -1,051529497e-02   -1,085847467e-01   -7,937021255e-01    6,822634488e-02    0,000000000e+00    0,000000000e+00    0,000000000e+00    0,000000000e+00
      170000000   -6,304071099e-02   -9,055230767e-02   -6,364618540e-01    4,881119728e-01    0,000000000e+00    0,000000000e+00    0,000000000e+00    0,000000000e+00
      184000000   -8,830983937e-02   -4,638107494e-02   -2,720233500e-01    7,575150132e-01    0,000000000e+00    0,000000000e+00    0,000000000e+00    0,000000000e+00
      198000000   -8,213285357e-02   -5,352241918e-03    1,814935058e-01    7,824016809e-01    0,000000000e+00    0,000000000e+00    0,000000000e+00    0,000000000e+00
      212000000   -6,172009185e-02    1,894779876e-02    5,720261335e-01    5,578125715e-01    0,000000000e+00    0,000000000e+00    0,000000000e+00    0,000000000e+00
      226000000   -3,992159665e-02    3,249392658e-02    7,775798440e-01    1,607623845e-01    0,000000000e+00    0,000000000e+00    0,000000000e+00    0,000000000e+00
      240000000   -1,299754344e-02    4,113356769e-02    7,362848520e-01   -2,796271145e-01    0,000000000e+00    0,000000000e+00    0,000000000e+00    0,000000000e+00
      254000000    2,309250832e-02    3,489900008e-02    4,679162204e-01   -6,229353547e-01    0,000000000e+00    0,000000000e+00    0,000000000e+00    0,000000000e+00
      268000000    5,378720164e-02    2,487910911e-03    6,702372432e-02   -7,681623697e-01    0,000000000e+00    0,000000000e+00    0,000000000e+00    0,000000000e+00
      282000000    5,638896674e-02   -4,697446898e-02   -3,461517990e-01   -6,835381985e-01    0,000000000e+00    0,000000000e+00    0,000000000e+00    0,000000000e+00
      296000000    2,407985739e-02   -8,534811437e-02   -6,557154655e-01   -3,979077935e-01    0,000000000e+00    0,000000000e+00    0,000000000e+00    0,000000000e+00
      310000000   -2,083783410e-02   -8,844527602e-02   -7,750546336e-01    1,131681819e-02    0,000000000e+00    0,000000000e+00    0,000000000e+00    0,000000000e+00
      324000000   -4,722847044e-02   -6,179911271e-02   -6,486267447e-01    4,309407771e-01    0,000000000e+00    0,000000000e+00    0,000000000e+00    0,000000000e+00
      338000000   -4,077441618e-02   -3,627316654e-02   -3,081555068e-01    7,106778026e-01    0,000000000e+00    0,000000000e+00    0,000000000e+00    0,000000000e+00
      352000000   -2,294352092e-02   -3,689721227e-02    1,195001006e-01    7,593396306e-01    0,000000000e+00    0,000000000e+00    0,000000000e+00    0,000000000e+00
      366000000   -2,240532078e-02   -5,526488274e-02    5,034773350e-01    5,715067387e-01    0,000000000e+00    0,000000000e+00    0,000000000e+00    0,000000000e+00
      380000000   -4,344546050e-02   -6,457490474e-02    7,274774313e-01    2,112276405e-01    0,000000000e+00    0,000000000e+00    0,000000000e+00    0,000000000e+00
      394000000   -6,489559263e-02   -5,022267252e-02    7,232785225e-01   -2,150409669e-01    0,000000000e+00    0,000000000e+00    0,000000000e+00    0,000000000e+00
      408000000   -6,585537642e-02   -2,704449184e-02    4,889018238e-01   -5,689366460e-01    0,000000000e+00    0,000000000e+00    0,000000000e+00    0,000000000e+00
      422000000   -5,207873136e-02   -1,722109318e-02    1,054707989e-01   -7,400605679e-01    0,000000000e+00    0,000000000e+00    0,000000000e+00    0,000000000e+00
      436000000   -4,712221026e-02   -1,987453736e-02   -3,076572716e-01   -6,758143902e-01    0,000000000e+00    0,000000000e+00    0,000000000e+00    0,000000000e+00
      450000000   -5,317610130e-02   -1,522425748e-02   -6,198998094e-01   -3,997024596e-01    0,000000000e+00    0,000000000e+00    0,000000000e+00    0,000000000e+00
      464000000   -5,102594569e-02    6,202094723e-03   -7,314782143e-01    3,840349382e-03    0,000000000e+00    0,000000000e+00    0,000000000e+00    0,000000000e+00
      478000000   -1,989600249e-02    2,823795937e-02   -5,990902185e-01    3,990500867e-01    0,000000000e+00    0,000000000e+00    0,000000000e+00    0,000000000e+00
      492000000    3,024946712e-02    1,476794202e-02   -2,792855799e-01    6,452032924e-01    0,000000000e+00    0,000000000e+00    0,000000000e+00    0,000000000e+00
      506000000    6,046624109e-02   -3,861801326e-02    1,057751402e-01    6,809511781e-01    0,000000000e+00    0,000000000e+00    0,000000000e+00    0,000000000e+00
      520000000    4,458790645e-02   -1,050290763e-01    4,471197724e-01    5,158922672e-01    0,000000000e+00    0,000000000e+00    0,000000000e+00    0,000000000e+00
      534000000   -1,364045125e-02   -1,461416781e-01    6,508437395e-01    2,039750367e-01    0,000000000e+00    0,000000000e+00    0,000000000e+00    0,000000000e+00
      548000000   -8,499532193e-02   -1,422906518e-01    6,583028436e-01   -1,800940037e-01    0,000000000e+00    0,000000000e+00    0,000000000e+00    0,000000000e+00
      562000000   -1,390027702e-01   -9,766723961e-02    4,430222213e-01   -5,110566616e-01    0,000000000e+00    0,000000000e+00    0,000000000e+00    0,000000000e+00
      576000000   -1,607290357e-01   -2,542435564e-02    6,675212830e-02   -6,506452560e-01    0,000000000e+00    0,000000000e+00    0,000000000e+00    0,000000000e+00
      590000000   -1,098841578e-01    6,790626049e-02   -2,813736200e-01   -5,168439746e-01    0,000000000e+00    0,000000000e+00    0,000000000e+00    0,000000000e+00
      604000000    3,108978085e-02    2,160986699e-02   -3,942519128e-01   -3,125188947e-01    0,000000000e+00    0,000000000e+00    0,000000000e+00    0,000000000e+00
      618000000   -2,788061835e-02   -9,006739408e-02   -5,595902205e-01   -1,390020102e-01    0,000000000e+00    0,000000000e+00    0,000000000e+00    0,000000000e+00
      632000000   -9,986520559e-02   -5,174988881e-02   -5,934143066e-01    2,169117630e-01    0,000000000e+00    0,000000000e+00    0,000000000e+00    0,000000000e+00
      646000000   -8,633156866e-02    6,243161857e-03   -3,743688464e-01    5,279077291e-01    0,000000000e+00    0,000000000e+00    0,000000000e+00    0,000000000e+00
      660000000   -3,984035924e-02    1,906213909e-02   -2,322449349e-02    6,442795992e-01    0,000000000e+00    0,000000000e+00    0,000000000e+00    0,000000000e+00
      674000000   -1,036741212e-02   -6,113019306e-03    3,222523332e-01    5,516402721e-01    0,000000000e+00    0,000000000e+00    0,000000000e+00    0,000000000e+00
      688000000   -9,516263381e-03   -3,565160930e-02    5,616753101e-01    2,915807962e-01    0,000000000e+00    0,000000000e+00    0,000000000e+00    0,000000000e+00
      702000000   -1,871493086e-02   -4,874433205e-02    6,251775622e-01   -5,915177986e-02    0,000000000e+00    0,000000000e+00    0,000000000e+00    0,000000000e+00
      716000000   -2,214614116e-02   -5,520185828e-02    4,865158796e-01   -3,851108551e-01    0,000000000e+00    0,000000000e+00    0,000000000e+00    0,000000000e+00
      730000000   -1,899264194e-02   -7,328721881e-02    1,970634460e-01   -5,778834224e-01    0,000000000e+00    0,000000000e+00    0,000000000e+00    0,000000000e+00
      744000000   -3,541944548e-02   -1,026611030e-01   -1,429834068e-01   -5,875106454e-01    0,000000000e+00    0,000000000e+00    0,000000000e+00    0,000000000e+00
      758000000   -7,546181977e-02   -1,197436452e-01   -4,346393645e-01   -4,183562994e-01    0,000000000e+00    0,000000000e+00    0,000000000e+00    0,000000000e+00
      772000000   -1,264396608e-01   -1,033253148e-01   -5,943706632e-01   -1,185435280e-01    0,000000000e+00    0,000000000e+00    0,000000000e+00    0,000000000e+00
      786000000   -1,561007649e-01   -5,710964650e-02   -5,662228465e-01    2,238570452e-01    0,000000000e+00    0,000000000e+00    0,000000000e+00    0,000000000e+00
      800000000   -1,487378180e-01   -6,048193667e-03   -3,551767766e-01    4,931509793e-01    0,000000000e+00    0,000000000e+00    0,000000000e+00    0,000000000e+00
      814000000   -1,184987053e-01    2,862485126e-02   -3,802401945e-02    6,019237638e-01    0,000000000e+00    0,000000000e+00    0,000000000e+00    0,000000000e+00
      828000000   -7,990542799e-02    4,003744945e-02    2,841575742e-01    5,285904408e-01    0,000000000e+00    0,000000000e+00    0,000000000e+00    0,000000000e+00
      842000000   -4,552735761e-02    3,576867282e-02    5,152065754e-01    2,996841669e-01    0,000000000e+00    0,000000000e+00    0,000000000e+00    0,000000000e+00
      856000000   -1,577910408e-02    1,852170564e-02    5,879836679e-01   -1,605131477e-02    0,000000000e+00    0,000000000e+00    0,000000000e+00    0,000000000e+00
      870000000    8,614103310e-03   -1,069678459e-02    4,810444713e-01   -3,172633648e-01    0,000000000e+00    0,000000000e+00    0,000000000e+00    0,000000000e+00
      884000000    1,711968519e-02   -5,651206523e-02    2,374267131e-01   -5,118511319e-01    0,000000000e+00    0,000000000e+00    0,000000000e+00    0,000000000e+00
      898000000   -6,571906619e-03   -1,096093878e-01   -6,356649846e-02   -5,527818203e-01    0,000000000e+00    0,000000000e+00    0,000000000e+00    0,000000000e+00
      912000000   -7,132896036e-02   -1,345890611e-01   -4,004549384e-01   -4,116556942e-01    0,000000000e+00    0,000000000e+00    0,000000000e+00    0,000000000e+00
      926000000   -1,356818378e-01   -1,115525663e-01   -5,659993291e-01   -1,375170946e-01    0,000000000e+00    0,000000000e+00    0,000000000e+00    0,000000000e+00
      940000000   -1,602977961e-01   -5,047561228e-02   -5,557041764e-01    1,992826313e-01    0,000000000e+00    0,000000000e+00    0,000000000e+00    0,000000000e+00
      954000000   -1,302950680e-01    5,875095376e-04   -3,565383852e-01    4,710791707e-01    0,000000000e+00    0,000000000e+00    0,000000000e+00    0,000000000e+00
      968000000   -8,107530326e-02    8,273102343e-03   -5,608281121e-02    5,922960639e-01    0,000000000e+00    0,000000000e+00    0,000000000e+00    0,000000000e+00
      982000000   -5,677799135e-02   -1,605994999e-02    2,560181618e-01    5,396301150e-01    0,000000000e+00    0,000000000e+00    0,000000000e+00    0,000000000e+00
      996000000   -6,658389419e-02   -4,659808427e-02    5,013778806e-01    3,442012668e-01    0,000000000e+00    0,000000000e+00    0,000000000e+00    0,000000000e+00
     1010000000   -8,467825502e-02   -5,260767043e-02    6,109278202e-01    5,006913096e-02    0,000000000e+00    0,000000000e+00    0,000000000e+00    0,000000000e+00
     1024000000   -1,047831923e-01   -5,003980175e-02    5,535665154e-01   -2,687647641e-01    0,000000000e+00    0,000000000e+00    0,000000000e+00    0,000000000e+00
     1038000000   -1,077665165e-01   -3,701163828e-02    3,250850439e-01   -5,025597215e-01    0,000000000e+00    0,000000000e+00    0,000000000e+00    0,000000000e+00
     1052000000   -1,135575026e-01   -2,329977602e-02    1,735597663e-02   -5,784673095e-01    0,000000000e+00    0,000000000e+00    0,000000000e+00    0,000000000e+00
     1066000000   -1,165432557e-01   -9,118394926e-03   -2,758904696e-01   -4,747740328e-01    0,000000000e+00    0,000000000e+00    0,000000000e+00    0,000000000e+00
     1080000000   -1,020891666e-01    1,141527109e-02   -4,598744512e-01   -2,391088903e-01    0,000000000e+00    0,000000000e+00    0,000000000e+00    0,000000000e+00
     1094000000   -6,651590765e-02    2,862000465e-02   -4,943679869e-01    4,305086657e-02    0,000000000e+00    0,000000000e+00    0,000000000e+00    0,000000000e+00
     1108000000   -2,500491403e-02    8,371749893e-03   -3,780797124e-01    2,932074964e-01    0,000000000e+00    0,000000000e+00    0,000000000e+00    0,000000000e+00
     1122000000    1,069877879e-03   -4,052541777e-02   -1,503352374e-01    4,547235668e-01    0,000000000e+00    0,000000000e+00    0,000000000e+00    0,000000000e+00
     1136000000   -1,626476087e-02   -1,043546945e-01    1,434962451e-01    4,702028334e-01    0,000000000e+00    0,000000000e+00    0,000000000e+00    0,000000000e+00
     1150000000   -6,307627261e-02   -1,532777697e-01    4,100834429e-01    3,273709714e-01    0,000000000e+00    0,000000000e+00    0,000000000e+00    0,000000000e+00
     1164000000   -1,416425109e-01   -1,546230614e-01    5,711248517e-01    3,547580540e-02    0,000000000e+00    0,000000000e+00    0,000000000e+00    0,000000000e+00
     1178000000   -2,046270519e-01   -1,172583997e-01    5,321586132e-01   -3,242596090e-01    0,000000000e+00    0,000000000e+00    0,000000000e+00    0,000000000e+00
     1192000000   -2,278313488e-01   -4,788251966e-02    2,723996937e-01   -6,027501822e-01    0,000000000e+00    0,000000000e+00    0,000000000e+00    0,000000000e+00
     1206000000   -2,075391859e-01   -5,430171732e-03   -1,016987637e-01   -6,721628904e-01    0,000000000e+00    0,000000000e+00    0,000000000e+00    0,000000000e+00
     1220000000   -2,081635743e-01    1,282109600e-02   -4,365008175e-01   -5,147393346e-01    0,000000000e+00    0,000000000e+00    0,000000000e+00    0,000000000e+00
     1234000000   -2,123015225e-01    7,641407847e-02   -5,792992115e-01   -2,183380276e-01    0,000000000e+00    0,000000000e+00    0,000000000e+00    0,000000000e+00
     1248000000   -1,429363787e-01    1,583692729e-01   -5,669689178e-01    4,939332232e-02    0,000000000e+00    0,000000000e+00    0,000000000e+00    0,000000000e+00
     1262000000   -1,593619399e-02    1,408905387e-01   -4,588897228e-01    2,806252539e-01    0,000000000e+00    0,000000000e+00    0,000000000e+00    0,000000000e+00
     1276000000    6,467473507e-02    5,326722562e-02   -2,600282133e-01    4,533916414e-01    0,000000000e+00    0,000000000e+00    0,000000000e+00    0,000000000e+00
     1290000000    8,241907507e-02   -6,887561083e-02    6,197631825e-03    5,136593580e-01    0,000000000e+00    0,000000000e+00    0,000000000e+00    0,000000000e+00
     1304000000    3,152833879e-02   -1,824246645e-01    2,779372931e-01    4,589204788e-01    0,000000000e+00    0,000000000e+00    0,000000000e+00    0,000000000e+00
     1318000000   -8,695966750e-02   -2,580558956e-01    5,126632452e-01    2,728461325e-01    0,000000000e+00    0,000000000e+00    0,000000000e+00    0,000000000e+00
     1332000000   -2,417564988e-01   -2,525627315e-01    6,344166398e-01   -2,881789394e-02    0,000000000e+00    0,000000000e+00    0,000000000e+00    0,000000000e+00
     1346000000   -3,613212705e-01   -1,528677344e-01    5,564808846e-01   -3,904183507e-01    0,000000000e+00    0,000000000e+00    0,000000000e+00    0,000000000e+00
     1360000000   -3,911685646e-01    2,245827578e-03    2,683964670e-01   -6,156705618e-01    0,000000000e+00    0,000000000e+00    0,000000000e+00    0,000000000e+00
     1374000000   -3,323866725e-01    1,214970499e-01   -8,859860897e-02   -6,117275953e-01    0,000000000e+00    0,000000000e+00    0,000000000e+00    0,000000000e+00
     1388000000   -2,398202568e-01    1,697078049e-01   -3,626176119e-01   -4,051363766e-01    0,000000000e+00    0,000000000e+00    0,000000000e+00    0,000000000e+00
     1402000000   -1,592927575e-01    1,751277894e-01   -4,760703444e-01   -1,125900969e-01    0,000000000e+00    0,000000000e+00    0,000000000e+00    0,000000000e+00
     1416000000   -8,764623851e-02    1,500694007e-01   -3,927657604e-01    1,932055205e-01    0,000000000e+00    0,000000000e+00    0,000000000e+00    0,000000000e+00
     1430000000   -3,020182811e-02    9,989608079e-02   -1,895710081e-01    4,095867276e-01    0,000000000e+00    0,000000000e+00    0,000000000e+00    0,000000000e+00
     1444000000   -1,893713837e-03    1,515597757e-02    1,166111901e-01    5,172907114e-01    0,000000000e+00    0,000000000e+00    0,000000000e+00    0,000000000e+00
     1458000000   -2,916760370e-02   -7,459807396e-02    4,180615246e-01    4,847461581e-01    0,000000000e+00    0,000000000e+00    0,000000000e+00    0,000000000e+00
     1472000000   -1,026071087e-01   -1,457870901e-01    7,209987640e-01    2,897758484e-01    0,000000000e+00    0,000000000e+00    0,000000000e+00    0,000000000e+00
     1486000000   -2,214426845e-01   -1,515614390e-01    8,761707544e-01   -5,093884096e-02    0,000000000e+00    0,000000000e+00    0,000000000e+00    0,000000000e+00
     1500000000   -2,955985367e-01   -7,797667384e-02    8,360518217e-01   -4,350363612e-01    0,000000000e+00    0,000000000e+00    0,000000000e+00    0,000000000e+00
