! NanoVNA-App
! Date: 2025-09-26 09:58:54
! Start: 100MHz Stop: 1,5GHz Points: 101
! S-Parameter data: F S11 S21 S12 S22
# Hz S RI R 50
!     Frequency           S11_Real           S11_Imag           S21_Real           S21_Imag           S12_Real           S12_Imag           S22_Real           S22_Imag
      100000000    3,583312035e-02    2,687800862e-02    4,404879510e-01   -6,703014970e-01    0,000000000e+00    0,000000000e+00    0,000000000e+00    0,000000000e+00
      114000000    6,049280241e-02    1,490347902e-03    1,209859271e-02   -7,961212993e-01    0,000000000e+00    0,000000000e+00    0,000000000e+00    0,000000000e+00
      128000000    6,752372533e-02   -4,276697338e-02   -4,091852903e-01   -6,783258915e-01    0,000000000e+00    0,000000000e+00    0,000000000e+00    0,000000000e+00
      142000000    4,233025387e-02   -8,861969411e-02   -7,064880729e-01   -3,604363203e-01    0,000000000e+00    0,000000000e+00    0,000000000e+00    0,000000000e+00
      156000000   -9,777726606e-03   -1,095957384e-01   -7,946594357e-01    6,975589693e-02    0,000000000e+00    0,000000000e+00    0,000000000e+00    0,000000000e+00
      170000000   -6,293684989e-02   -9,052810073e-02   -6,367450953e-01    4,877719581e-01    0,000000000e+00    0,000000000e+00    0,000000000e+00    0,000000000e+00
      184000000   -8,841654658e-02   -4,652449861e-02   -2,721180618e-01    7,577495575e-01    0,000000000e+00    0,000000000e+00    0,000000000e+00    0,000000000e+00
      198000000   -8,226414025e-02   -5,424509756e-03    1,814360619e-01    7,823690176e-01    0,000000000e+00    0,000000000e+00    0,000000000e+00    0,000000000e+00
      212000000   -6,182740256e-02    1,900314912e-02    5,716860294e-01    5,577754378e-01    0,000000000e+00    0,000000000e+00    0,000000000e+00    0,000000000e+00
      226000000   -4,010757804e-02    3,251521662e-02    7,776498795e-01    1,609183550e-01    0,000000000e+00    0,000000000e+00    0,000000000e+00    0,000000000e+00
      240000000   -1,301035844e-02    4,121308774e-02    7,364982963e-01   -2,796282470e-01    0,000000000e+00    0,000000000e+00    0,000000000e+00    0,000000000e+00
      254000000    2,308212221e-02    3,500335664e-02    4,682801664e-01   -6,229837537e-01    0,000000000e+00    0,000000000e+00    0,000000000e+00    0,000000000e+00
      268000000    5,383750424e-02    2,626101021e-03    6,680974364e-02   -7,681344151e-01    0,000000000e+00    0,000000000e+00    0,000000000e+00    0,000000000e+00
      282000000    5,636950210e-02   -4,682702944e-02   -3,459357917e-01   -6,830966473e-01    0,000000000e+00    0,000000000e+00    0,000000000e+00    0,000000000e+00
      296000000    2,418272756e-02   -8,528752625e-02   -6,558147669e-01   -3,984287977e-01    0,000000000e+00    0,000000000e+00    0,000000000e+00    0,000000000e+00
      310000000   -2,064294741e-02   -8,833232522e-02   -7,754883170e-01    1,063407119e-02    0,000000000e+00    0,000000000e+00    0,000000000e+00    0,000000000e+00
      324000000   -4,733575508e-02   -6,212627888e-02   -6,489188075e-01    4,309668243e-01    0,000000000e+00    0,000000000e+00    0,000000000e+00    0,000000000e+00
      338000000   -4,077138007e-02   -3,634659201e-02   -3,122124672e-01    7,123731375e-01    0,000000000e+00    0,000000000e+00    0,000000000e+00    0,000000000e+00
      352000000   -2,287846617e-02   -3,681581467e-02    1,196956113e-01    7,598884702e-01    0,000000000e+00    0,000000000e+00    0,000000000e+00    0,000000000e+00
      366000000   -2,217279747e-02   -5,540679023e-02    5,030609965e-01    5,713434219e-01    0,000000000e+00    0,000000000e+00    0,000000000e+00    0,000000000e+00
      380000000   -4,372580349e-02   -6,432704628e-02    7,270132899e-01    2,112208009e-01    0,000000000e+00    0,000000000e+00    0,000000000e+00    0,000000000e+00
      394000000   -6,527586281e-02   -5,040211231e-02    7,232123017e-01   -2,138195187e-01    0,000000000e+00    0,000000000e+00    0,000000000e+00    0,000000000e+00
      408000000   -6,599577516e-02   -2,686472237e-02    4,893832803e-01   -5,698996782e-01    0,000000000e+00    0,000000000e+00    0,000000000e+00    0,000000000e+00
      422000000   -5,231478438e-02   -1,706429198e-02    1,061339676e-01   -7,397974730e-01    0,000000000e+00    0,000000000e+00    0,000000000e+00    0,000000000e+00
      436000000   -4,697313532e-02   -1,957685314e-02   -3,076263070e-01   -6,762003899e-01    0,000000000e+00    0,000000000e+00    0,000000000e+00    0,000000000e+00
      450000000   -5,288457125e-02   -1,516386960e-02   -6,193639040e-01   -4,009011388e-01    0,000000000e+00    0,000000000e+00    0,000000000e+00    0,000000000e+00
      464000000   -5,126224086e-02    6,682023406e-03   -7,313808799e-01    3,626491874e-03    0,000000000e+00    0,000000000e+00    0,000000000e+00    0,000000000e+00
      478000000   -1,938115247e-02    2,764694951e-02   -5,988451838e-01    3,986112475e-01    0,000000000e+00    0,000000000e+00    0,000000000e+00    0,000000000e+00
      492000000    3,042794950e-02    1,487068646e-02   -2,793909311e-01    6,451013684e-01    0,000000000e+00    0,000000000e+00    0,000000000e+00    0,000000000e+00
      506000000    6,095722318e-02   -3,879426792e-02    1,060665473e-01    6,807652712e-01    0,000000000e+00    0,000000000e+00    0,000000000e+00    0,000000000e+00
      520000000    4,485597089e-02   -1,049833223e-01    4,468613565e-01    5,167870522e-01    0,000000000e+00    0,000000000e+00    0,000000000e+00    0,000000000e+00
      534000000   -1,403517555e-02   -1,468571424e-01    6,499959230e-01    2,036697567e-01    0,000000000e+00    0,000000000e+00    0,000000000e+00    0,000000000e+00
      548000000   -8,553296328e-02   -1,426796764e-01    6,577276587e-01   -1,795431525e-01    0,000000000e+00    0,000000000e+00    0,000000000e+00    0,000000000e+00
      562000000   -1,391734183e-01   -9,785200655e-02    4,433533847e-01   -5,109857917e-01    0,000000000e+00    0,000000000e+00    0,000000000e+00    0,000000000e+00
      576000000   -1,605746597e-01   -2,402752079e-02    6,656338274e-02   -6,482999325e-01    0,000000000e+00    0,000000000e+00    0,000000000e+00    0,000000000e+00
      590000000   -1,055941954e-01    6,792257726e-02   -2,757371068e-01   -5,126412511e-01    0,000000000e+00    0,000000000e+00    0,000000000e+00    0,000000000e+00
      604000000    2,842332609e-02    1,545650419e-02   -3,952427506e-01   -3,208462298e-01    0,000000000e+00    0,000000000e+00    0,000000000e+00    0,000000000e+00
      618000000   -3,186260164e-02   -8,634375036e-02   -5,647420883e-01   -1,367252320e-01    0,000000000e+00    0,000000000e+00    0,000000000e+00    0,000000000e+00
      632000000   -9,820020199e-02   -4,917265847e-02   -5,933154821e-01    2,200648785e-01    0,000000000e+00    0,000000000e+00    0,000000000e+00    0,000000000e+00
      646000000   -8,500050753e-02    6,898603402e-03   -3,741725683e-01    5,275821686e-01    0,000000000e+00    0,000000000e+00    0,000000000e+00    0,000000000e+00
      660000000   -3,819757327e-02    1,720171981e-02   -2,289132588e-02    6,431741714e-01    0,000000000e+00    0,000000000e+00    0,000000000e+00    0,000000000e+00
      674000000   -1,070851833e-02   -7,846691646e-03    3,218148053e-01    5,502458811e-01    0,000000000e+00    0,000000000e+00    0,000000000e+00    0,000000000e+00
      688000000   -9,845068678e-03   -3,615040705e-02    5,615429282e-01    2,914107442e-01    0,000000000e+00    0,000000000e+00    0,000000000e+00    0,000000000e+00
      702000000   -1,962096989e-02   -4,882032797e-02    6,244948506e-01   -6,022510305e-02    0,000000000e+00    0,000000000e+00    0,000000000e+00    0,000000000e+00
      716000000   -2,184742317e-02   -5,506795272e-02    4,872145951e-01   -3,846136630e-01    0,000000000e+00    0,000000000e+00    0,000000000e+00    0,000000000e+00
      730000000   -2,075966634e-02   -7,292393595e-02    1,981911808e-01   -5,776565075e-01    0,000000000e+00    0,000000000e+00    0,000000000e+00    0,000000000e+00
      744000000   -3,464027867e-02   -1,020369232e-01   -1,429255158e-01   -5,854896903e-01    0,000000000e+00    0,000000000e+00    0,000000000e+00    0,000000000e+00
      758000000   -7,599719614e-02   -1,189551353e-01   -4,328244328e-01   -4,185485244e-01    0,000000000e+00    0,000000000e+00    0,000000000e+00    0,000000000e+00
      772000000   -1,247611046e-01   -1,044059098e-01   -5,932006240e-01   -1,199247763e-01    0,000000000e+00    0,000000000e+00    0,000000000e+00    0,000000000e+00
      786000000   -1,561144739e-01   -5,883324519e-02   -5,661029816e-01    2,217473537e-01    0,000000000e+00    0,000000000e+00    0,000000000e+00    0,000000000e+00
      800000000   -1,505541354e-01   -6,858742330e-03   -3,570480347e-01    4,920561016e-01    0,000000000e+00    0,000000000e+00    0,000000000e+00    0,000000000e+00
      814000000   -1,194296554e-01    2,948557958e-02   -3,974535689e-02    6,027345657e-01    0,000000000e+00    0,000000000e+00    0,000000000e+00    0,000000000e+00
      828000000   -8,010551333e-02    4,120576754e-02    2,837410271e-01    5,311071277e-01    0,000000000e+00    0,000000000e+00    0,000000000e+00    0,000000000e+00
      842000000   -4,444928840e-02    3,531035036e-02    5,153274536e-01    3,007526994e-01    0,000000000e+00    0,000000000e+00    0,000000000e+00    0,000000000e+00
      856000000   -1,550307591e-02    1,771093160e-02    5,889350772e-01   -1,511077117e-02    0,000000000e+00    0,000000000e+00    0,000000000e+00    0,000000000e+00
      870000000    7,765477058e-03   -1,146798022e-02    4,812055826e-01   -3,174899817e-01    0,000000000e+00    0,000000000e+00    0,000000000e+00    0,000000000e+00
      884000000    1,575961523e-02   -5,629434809e-02    2,382967174e-01   -5,111922026e-01    0,000000000e+00    0,000000000e+00    0,000000000e+00    0,000000000e+00
      898000000   -6,560921669e-03   -1,079565585e-01   -6,333541870e-02   -5,523657203e-01    0,000000000e+00    0,000000000e+00    0,000000000e+00    0,000000000e+00
      912000000   -7,001040876e-02   -1,329672635e-01   -4,000598788e-01   -4,110744894e-01    0,000000000e+00    0,000000000e+00    0,000000000e+00    0,000000000e+00
      926000000   -1,330654472e-01   -1,088636890e-01   -5,637481213e-01   -1,368096024e-01    0,000000000e+00    0,000000000e+00    0,000000000e+00    0,000000000e+00
      940000000   -1,579480469e-01   -4,823269323e-02   -5,536164641e-01    1,966025233e-01    0,000000000e+00    0,000000000e+00    0,000000000e+00    0,000000000e+00
      954000000   -1,288053393e-01   -1,795492833e-03   -3,593930006e-01    4,697166383e-01    0,000000000e+00    0,000000000e+00    0,000000000e+00    0,000000000e+00
      968000000   -8,394180238e-02    8,004523814e-03   -5,978795514e-02    5,933113694e-01    0,000000000e+00    0,000000000e+00    0,000000000e+00    0,000000000e+00
      982000000   -5,887792259e-02   -1,291403268e-02    2,552533150e-01    5,460326672e-01    0,000000000e+00    0,000000000e+00    0,000000000e+00    0,000000000e+00
      996000000   -6,375245005e-02   -3,973228112e-02    5,044261813e-01    3,479586840e-01    0,000000000e+00    0,000000000e+00    0,000000000e+00    0,000000000e+00
     1010000000   -8,626583219e-02   -5,050631613e-02    6,156812310e-01    4,807504639e-02    0,000000000e+00    0,000000000e+00    0,000000000e+00    0,000000000e+00
     1024000000   -1,040207073e-01   -4,614320397e-02    5,512160659e-01   -2,707041800e-01    0,000000000e+00    0,000000000e+00    0,000000000e+00    0,000000000e+00
     1038000000   -1,062508672e-01   -3,617130592e-02    3,248808682e-01   -5,046011806e-01    0,000000000e+00    0,000000000e+00    0,000000000e+00    0,000000000e+00
     1052000000   -1,089704633e-01   -2,625412308e-02    1,520474721e-02   -5,768054724e-01    0,000000000e+00    0,000000000e+00    0,000000000e+00    0,000000000e+00
     1066000000   -1,107006669e-01   -7,271945011e-03   -2,725107372e-01   -4,716268778e-01    0,000000000e+00    0,000000000e+00    0,000000000e+00    0,000000000e+00
     1080000000   -9,987135977e-02    1,237717364e-02   -4,586433172e-01   -2,398173213e-01    0,000000000e+00    0,000000000e+00    0,000000000e+00    0,000000000e+00
     1094000000   -6,292023510e-02    2,772236615e-02   -4,911213517e-01    3,667251021e-02    0,000000000e+00    0,000000000e+00    0,000000000e+00    0,000000000e+00
     1108000000   -2,357051149e-02    7,956436602e-04   -3,826512396e-01    2,936592698e-01    0,000000000e+00    0,000000000e+00    0,000000000e+00    0,000000000e+00
     1122000000   -3,849658882e-03   -4,100283608e-02   -1,536468565e-01    4,572592080e-01    0,000000000e+00    0,000000000e+00    0,000000000e+00    0,000000000e+00
     1136000000   -1,280074380e-02   -1,014642119e-01    1,425044984e-01    4,765499234e-01    0,000000000e+00    0,000000000e+00    0,000000000e+00    0,000000000e+00
     1150000000   -6,966271251e-02   -1,502956897e-01    4,142784476e-01    3,301146924e-01    0,000000000e+00    0,000000000e+00    0,000000000e+00    0,000000000e+00
     1164000000   -1,425479949e-01   -1,507735252e-01    5,751979947e-01    3,229307383e-02    0,000000000e+00    0,000000000e+00    0,000000000e+00    0,000000000e+00
     1178000000   -2,040597051e-01   -1,080972701e-01    5,329681039e-01   -3,314490318e-01    0,000000000e+00    0,000000000e+00    0,000000000e+00    0,000000000e+00
     1192000000   -2,215442210e-01   -4,570975900e-02    2,714793682e-01   -6,082320213e-01    0,000000000e+00    0,000000000e+00    0,000000000e+00    0,000000000e+00
     1206000000   -2,022160590e-01   -8,666930720e-03   -1,065646186e-01   -6,751365662e-01    0,000000000e+00    0,000000000e+00    0,000000000e+00    0,000000000e+00
     1220000000   -2,085711360e-01    7,203060202e-03   -4,365940988e-01   -5,157420039e-01    0,000000000e+00    0,000000000e+00    0,000000000e+00    0,000000000e+00
     1234000000   -2,172287554e-01    7,432799041e-02   -5,882216692e-01   -2,117872238e-01    0,000000000e+00    0,000000000e+00    0,000000000e+00    0,000000000e+00
     1248000000   -1,459046155e-01    1,584880352e-01   -5,655276775e-01    5,352031812e-02    0,000000000e+00    0,000000000e+00    0,000000000e+00    0,000000000e+00
     1262000000   -1,577622630e-02    1,442241371e-01   -4,646811485e-01    2,770170271e-01    0,000000000e+00    0,000000000e+00    0,000000000e+00    0,000000000e+00
     1276000000    6,182511896e-02    5,158420652e-02   -2,622432709e-01    4,524687827e-01    0,000000000e+00    0,000000000e+00    0,000000000e+00    0,000000000e+00
     1290000000    8,167776465e-02   -6,746168435e-02    3,251572140e-03    5,133918524e-01    0,000000000e+00    0,000000000e+00    0,000000000e+00    0,000000000e+00
     1304000000    2,593216859e-02   -1,801649332e-01    2,761493623e-01    4,620913565e-01    0,000000000e+00    0,000000000e+00    0,000000000e+00    0,000000000e+00
     1318000000   -8,960527927e-02   -2,605531514e-01    5,085141063e-01    2,692089081e-01    0,000000000e+00    0,000000000e+00    0,000000000e+00    0,000000000e+00
     1332000000   -2,413679212e-01   -2,595324516e-01    6,326746941e-01   -4,332386330e-02    0,000000000e+00    0,000000000e+00    0,000000000e+00    0,000000000e+00
     1346000000   -3,600330055e-01   -1,485181749e-01    5,485644341e-01   -3,857873976e-01    0,000000000e+00    0,000000000e+00    0,000000000e+00    0,000000000e+00
     1360000000   -3,912781775e-01   -2,093536081e-03    2,683387697e-01   -6,161889434e-01    0,000000000e+00    0,000000000e+00    0,000000000e+00    0,000000000e+00
     1374000000   -3,350206017e-01    1,241582781e-01   -9,729011357e-02   -6,161929965e-01    0,000000000e+00    0,000000000e+00    0,000000000e+00    0,000000000e+00
     1388000000   -2,412353754e-01    1,726639718e-01   -3,738227189e-01   -4,248850346e-01    0,000000000e+00    0,000000000e+00    0,000000000e+00    0,000000000e+00
     1402000000   -1,572012603e-01    1,773341447e-01   -4,753381014e-01   -1,178158447e-01    0,000000000e+00    0,000000000e+00    0,000000000e+00    0,000000000e+00
     1416000000   -8,385865390e-02    1,489028931e-01   -3,957059383e-01    1,989813298e-01    0,000000000e+00    0,000000000e+00    0,000000000e+00    0,000000000e+00
     1430000000   -3,635927290e-02    9,496199340e-02   -1,847811490e-01    4,327143729e-01    0,000000000e+00    0,000000000e+00    0,000000000e+00    0,000000000e+00
     1444000000   -6,856834516e-03    1,101315673e-02    1,121063009e-01    5,121413469e-01    0,000000000e+00    0,000000000e+00    0,000000000e+00    0,000000000e+00
     1458000000   -2,769149095e-02   -7,519177347e-02    4,325601459e-01    4,720590115e-01    0,000000000e+00    0,000000000e+00    0,000000000e+00    0,000000000e+00
     1472000000   -1,132147014e-01   -1,467085183e-01    7,134375572e-01    2,998479903e-01    0,000000000e+00    0,000000000e+00    0,000000000e+00    0,000000000e+00
     1486000000   -2,152967155e-01   -1,448142231e-01    9,027065039e-01   -2,389006875e-02    0,000000000e+00    0,000000000e+00    0,000000000e+00    0,000000000e+00
     1500000000   -3,010594547e-01   -7,986477762e-02    8,324735761e-01   -4,322828054e-01    0,000000000e+00    0,000000000e+00    0,000000000e+00    0,000000000e+00
