! NanoVNA-App
! Date: 2025-09-26 09:58:32
! Start: 100MHz Stop: 1,5GHz Points: 101
! S-Parameter data: F S11 S21 S12 S22
# Hz S RI R 50
!     Frequency           S11_Real           S11_Imag           S21_Real           S21_Imag           S12_Real           S12_Imag           S22_Real           S22_Imag
      100000000    3,582178801e-02    2,686791867e-02    4,404389262e-01   -6,702637076e-01    0,000000000e+00    0,000000000e+00    0,000000000e+00    0,000000000e+00
      114000000    6,047781557e-02    1,481267274e-03    1,210982725e-02   -7,959317565e-01    0,000000000e+00    0,000000000e+00    0,000000000e+00    0,000000000e+00
      128000000    6,758344918e-02   -4,274674132e-02   -4,091997743e-01   -6,785352826e-01    0,000000000e+00    0,000000000e+00    0,000000000e+00    0,000000000e+00
      142000000    4,238991439e-02   -8,864728361e-02   -7,064809799e-01   -3,606941700e-01    0,000000000e+00    0,000000000e+00    0,000000000e+00    0,000000000e+00
      156000000   -1,063203625e-02   -1,090214327e-01   -7,932806015e-01    6,894137710e-02    0,000000000e+00    0,000000000e+00    0,000000000e+00    0,000000000e+00
      170000000   -6,301730126e-02   -9,062522650e-02   -6,367281079e-01    4,879412651e-01    0,000000000e+00    0,000000000e+00    0,000000000e+00    0,000000000e+00
      184000000   -8,841726929e-02   -4,642253369e-02   -2,720401883e-01    7,575988173e-01    0,000000000e+00    0,000000000e+00    0,000000000e+00    0,000000000e+00
      198000000   -8,219872415e-02   -5,341398530e-03    1,814386249e-01    7,822453380e-01    0,000000000e+00    0,000000000e+00    0,000000000e+00    0,000000000e+00
      212000000   -6,184741110e-02    1,898417994e-02    5,718473196e-01    5,578445792e-01    0,000000000e+00    0,000000000e+00    0,000000000e+00    0,000000000e+00
      226000000   -4,003233835e-02    3,256829828e-02    7,775723338e-01    1,608392000e-01    0,000000000e+00    0,000000000e+00    0,000000000e+00    0,000000000e+00
      240000000   -1,294357050e-02    4,116014391e-02    7,364839315e-01   -2,795616984e-01    0,000000000e+00    0,000000000e+00    0,000000000e+00    0,000000000e+00
      254000000    2,312808111e-02    3,494466841e-02    4,679605365e-01   -6,230602860e-01    0,000000000e+00    0,000000000e+00    0,000000000e+00    0,000000000e+00
      268000000    5,378910899e-02    2,520888811e-03    6,689308584e-02   -7,680676579e-01    0,000000000e+00    0,000000000e+00    0,000000000e+00    0,000000000e+00
      282000000    5,637549981e-02   -4,699265957e-02   -3,462207913e-01   -6,838318110e-01    0,000000000e+00    0,000000000e+00    0,000000000e+00    0,000000000e+00
      296000000    2,428636886e-02   -8,546543121e-02   -6,559271216e-01   -3,984329104e-01    0,000000000e+00    0,000000000e+00    0,000000000e+00    0,000000000e+00
      310000000   -2,080398053e-02   -8,847268671e-02   -7,745019197e-01    1,166498661e-02    0,000000000e+00    0,000000000e+00    0,000000000e+00    0,000000000e+00
      324000000   -4,722868279e-02   -6,195732206e-02   -6,486291289e-01    4,320787787e-01    0,000000000e+00    0,000000000e+00    0,000000000e+00    0,000000000e+00
      338000000   -4,081621394e-02   -3,641092777e-02   -3,114549220e-01    7,106738687e-01    0,000000000e+00    0,000000000e+00    0,000000000e+00    0,000000000e+00
      352000000   -2,267193794e-02   -3,690854087e-02    1,199669018e-01    7,595822215e-01    0,000000000e+00    0,000000000e+00    0,000000000e+00    0,000000000e+00
      366000000   -2,220454440e-02   -5,528973788e-02    5,031394362e-01    5,719304681e-01    0,000000000e+00    0,000000000e+00    0,000000000e+00    0,000000000e+00
      380000000   -4,364080727e-02   -6,457962841e-02    7,269226909e-01    2,110145837e-01    0,000000000e+00    0,000000000e+00    0,000000000e+00    0,000000000e+00
      394000000   -6,477884948e-02   -5,057416111e-02    7,236358523e-01   -2,145885527e-01    0,000000000e+00    0,000000000e+00    0,000000000e+00    0,000000000e+00
      408000000   -6,561657786e-02   -2,706043795e-02    4,895338118e-01   -5,697649121e-01    0,000000000e+00    0,000000000e+00    0,000000000e+00    0,000000000e+00
      422000000   -5,239739642e-02   -1,720354334e-02    1,055670083e-01   -7,394073009e-01    0,000000000e+00    0,000000000e+00    0,000000000e+00    0,000000000e+00
      436000000   -4,710808769e-02   -1,984696276e-02   -3,069748282e-01   -6,767939329e-01    0,000000000e+00    0,000000000e+00    0,000000000e+00    0,000000000e+00
      450000000   -5,297452211e-02   -1,534431707e-02   -6,194565296e-01   -4,003128409e-01    0,000000000e+00    0,000000000e+00    0,000000000e+00    0,000000000e+00
      464000000   -5,100275204e-02    7,116468623e-03   -7,312904000e-01    3,676029388e-03    0,000000000e+00    0,000000000e+00    0,000000000e+00    0,000000000e+00
      478000000   -1,969303563e-02    2,808726765e-02   -5,990191698e-01    3,985754848e-01    0,000000000e+00    0,000000000e+00    0,000000000e+00    0,000000000e+00
      492000000    3,044459596e-02    1,463589352e-02   -2,798229456e-01    6,453196406e-01    0,000000000e+00    0,000000000e+00    0,000000000e+00    0,000000000e+00
      506000000    6,105948240e-02   -3,912210092e-02    1,056921631e-01    6,807769537e-01    0,000000000e+00    0,000000000e+00    0,000000000e+00    0,000000000e+00
      520000000    4,434991255e-02   -1,050686017e-01    4,433525503e-01    5,145528316e-01    0,000000000e+00    0,000000000e+00    0,000000000e+00    0,000000000e+00
      534000000   -1,370186452e-02   -1,467835605e-01    6,500136852e-01    2,037656009e-01    0,000000000e+00    0,000000000e+00    0,000000000e+00    0,000000000e+00
      548000000   -8,585925400e-02   -1,421879381e-01    6,577926278e-01   -1,791663468e-01    0,000000000e+00    0,000000000e+00    0,000000000e+00    0,000000000e+00
      562000000   -1,391343772e-01   -9,692853689e-02    4,430437684e-01   -5,100198984e-01    0,000000000e+00    0,000000000e+00    0,000000000e+00    0,000000000e+00
      576000000   -1,594511122e-01   -2,303778939e-02    6,843950599e-02   -6,458597183e-01    0,000000000e+00    0,000000000e+00    0,000000000e+00    0,000000000e+00
      590000000   -1,036832556e-01    6,558298320e-02   -2,753681242e-01   -5,167299509e-01    0,000000000e+00    0,000000000e+00    0,000000000e+00    0,000000000e+00
      604000000    2,341146022e-02    1,416784804e-02   -4,002366364e-01   -3,235304952e-01    0,000000000e+00    0,000000000e+00    0,000000000e+00    0,000000000e+00
      618000000   -3,190572932e-02   -8,272072673e-02   -5,652146935e-01   -1,330389529e-01    0,000000000e+00    0,000000000e+00    0,000000000e+00    0,000000000e+00
      632000000   -9,644171596e-02   -4,857754335e-02   -5,908277035e-01    2,212768793e-01    0,000000000e+00    0,000000000e+00    0,000000000e+00    0,000000000e+00
      646000000   -8,337061107e-02    5,409831647e-03   -3,718591332e-01    5,272693634e-01    0,000000000e+00    0,000000000e+00    0,000000000e+00    0,000000000e+00
      660000000   -3,919734433e-02    1,695775986e-02   -2,312251367e-02    6,425303817e-01    0,000000000e+00    0,000000000e+00    0,000000000e+00    0,000000000e+00
      674000000   -1,033478510e-02   -8,741440251e-03    3,209357560e-01    5,498434305e-01    0,000000000e+00    0,000000000e+00    0,000000000e+00    0,000000000e+00
      688000000   -1,060768962e-02   -3,652783483e-02    5,609602928e-01    2,906306088e-01    0,000000000e+00    0,000000000e+00    0,000000000e+00    0,000000000e+00
      702000000   -2,143909596e-02   -4,807522893e-02    6,261703968e-01   -5,542598665e-02    0,000000000e+00    0,000000000e+00    0,000000000e+00    0,000000000e+00
      716000000   -2,269761451e-02   -5,460851640e-02    4,866409302e-01   -3,835629225e-01    0,000000000e+00    0,000000000e+00    0,000000000e+00    0,000000000e+00
      730000000   -1,930445060e-02   -7,276570797e-02    1,985171735e-01   -5,775484443e-01    0,000000000e+00    0,000000000e+00    0,000000000e+00    0,000000000e+00
      744000000   -3,377808258e-02   -1,013759151e-01   -1,410310566e-01   -5,871634483e-01    0,000000000e+00    0,000000000e+00    0,000000000e+00    0,000000000e+00
      758000000   -7,514204830e-02   -1,205846071e-01   -4,319303930e-01   -4,196462333e-01    0,000000000e+00    0,000000000e+00    0,000000000e+00    0,000000000e+00
      772000000   -1,259355992e-01   -1,059224829e-01   -5,936055183e-01   -1,223506406e-01    0,000000000e+00    0,000000000e+00    0,000000000e+00    0,000000000e+00
      786000000   -1,582193822e-01   -5,754713342e-02   -5,692266226e-01    2,203264236e-01    0,000000000e+00    0,000000000e+00    0,000000000e+00    0,000000000e+00
      800000000   -1,507812589e-01   -3,537042532e-03   -3,592834473e-01    4,936135113e-01    0,000000000e+00    0,000000000e+00    0,000000000e+00    0,000000000e+00
      814000000   -1,169552132e-01    3,197160736e-02   -3,961694986e-02    6,070831418e-01    0,000000000e+00    0,000000000e+00    0,000000000e+00    0,000000000e+00
      828000000   -7,678095251e-02    4,005341977e-02    2,859199047e-01    5,315101147e-01    0,000000000e+00    0,000000000e+00    0,000000000e+00    0,000000000e+00
      842000000   -4,424908385e-02    3,159899637e-02    5,183642507e-01    3,001335561e-01    0,000000000e+00    0,000000000e+00    0,000000000e+00    0,000000000e+00
      856000000   -1,761509851e-02    1,593013108e-02    5,899643302e-01   -1,760027930e-02    0,000000000e+00    0,000000000e+00    0,000000000e+00    0,000000000e+00
      870000000    4,800402094e-03   -1,091858000e-02    4,804229736e-01   -3,192440569e-01    0,000000000e+00    0,000000000e+00    0,000000000e+00    0,000000000e+00
      884000000    1,532282587e-02   -5,531558022e-02    2,359119207e-01   -5,122805238e-01    0,000000000e+00    0,000000000e+00    0,000000000e+00    0,000000000e+00
      898000000   -7,308429107e-03   -1,059724241e-01   -6,524617970e-02   -5,513216257e-01    0,000000000e+00    0,000000000e+00    0,000000000e+00    0,000000000e+00
      912000000   -6,892119348e-02   -1,310963035e-01   -3,838406503e-01   -4,101409018e-01    0,000000000e+00    0,000000000e+00    0,000000000e+00    0,000000000e+00
      926000000   -1,298440844e-01   -1,097416431e-01   -5,606672764e-01   -1,371954381e-01    0,000000000e+00    0,000000000e+00    0,000000000e+00    0,000000000e+00
      940000000   -1,539326608e-01   -5,095274001e-02   -5,531585217e-01    1,956603974e-01    0,000000000e+00    0,000000000e+00    0,000000000e+00    0,000000000e+00
      954000000   -1,304696649e-01    1,347721787e-03   -3,592216372e-01    4,691071510e-01    0,000000000e+00    0,000000000e+00    0,000000000e+00    0,000000000e+00
      968000000   -8,490096033e-02    7,011434063e-03   -5,965756625e-02    5,952956676e-01    0,000000000e+00    0,000000000e+00    0,000000000e+00    0,000000000e+00
      982000000   -5,955177546e-02   -1,484300103e-02    2,558525205e-01    5,469770432e-01    0,000000000e+00    0,000000000e+00    0,000000000e+00    0,000000000e+00
      996000000   -6,397990882e-02   -4,003819823e-02    5,047280788e-01    3,464195132e-01    0,000000000e+00    0,000000000e+00    0,000000000e+00    0,000000000e+00
     1010000000   -8,422473073e-02   -4,897379875e-02    6,172021031e-01    4,799288511e-02    0,000000000e+00    0,000000000e+00    0,000000000e+00    0,000000000e+00
     1024000000   -1,004161686e-01   -4,933607578e-02    5,506262183e-01   -2,749069631e-01    0,000000000e+00    0,000000000e+00    0,000000000e+00    0,000000000e+00
     1038000000   -1,055833250e-01   -3,792344406e-02    3,259824216e-01   -5,048391819e-01    0,000000000e+00    0,000000000e+00    0,000000000e+00    0,000000000e+00
     1052000000   -1,138980836e-01   -2,536229044e-02    1,616331749e-02   -5,735730529e-01    0,000000000e+00    0,000000000e+00    0,000000000e+00    0,000000000e+00
     1066000000   -1,168989465e-01   -1,012312155e-02   -2,700895965e-01   -4,695861936e-01    0,000000000e+00    0,000000000e+00    0,000000000e+00    0,000000000e+00
     1080000000   -1,013281941e-01    1,199946739e-02   -4,578270614e-01   -2,396967709e-01    0,000000000e+00    0,000000000e+00    0,000000000e+00    0,000000000e+00
     1094000000   -6,369031966e-02    1,987527683e-02   -4,922226667e-01    3,798187897e-02    0,000000000e+00    0,000000000e+00    0,000000000e+00    0,000000000e+00
     1108000000   -2,532033063e-02    5,202319007e-03   -3,827989399e-01    2,910223007e-01    0,000000000e+00    0,000000000e+00    0,000000000e+00    0,000000000e+00
     1122000000   -5,282870028e-03   -4,333192855e-02   -1,526756585e-01    4,582949579e-01    0,000000000e+00    0,000000000e+00    0,000000000e+00    0,000000000e+00
     1136000000   -1,885244623e-02   -1,031131223e-01    1,398606896e-01    4,783791304e-01    0,000000000e+00    0,000000000e+00    0,000000000e+00    0,000000000e+00
     1150000000   -6,881595403e-02   -1,511266381e-01    4,135370255e-01    3,311212957e-01    0,000000000e+00    0,000000000e+00    0,000000000e+00    0,000000000e+00
     1164000000   -1,421796083e-01   -1,563599706e-01    5,751694441e-01    3,333751485e-02    0,000000000e+00    0,000000000e+00    0,000000000e+00    0,000000000e+00
     1178000000   -2,055975348e-01   -1,070981845e-01    5,373231173e-01   -3,296781480e-01    0,000000000e+00    0,000000000e+00    0,000000000e+00    0,000000000e+00
     1192000000   -2,222641557e-01   -4,817261919e-02    2,692800462e-01   -6,163240671e-01    0,000000000e+00    0,000000000e+00    0,000000000e+00    0,000000000e+00
     1206000000   -2,054741979e-01   -1,205207035e-02   -1,051549986e-01   -6,747917533e-01    0,000000000e+00    0,000000000e+00    0,000000000e+00    0,000000000e+00
     1220000000   -2,038270831e-01    1,296263654e-02   -4,369015694e-01   -5,133425593e-01    0,000000000e+00    0,000000000e+00    0,000000000e+00    0,000000000e+00
     1234000000   -2,178772986e-01    6,999713182e-02   -5,849384069e-01   -2,142370790e-01    0,000000000e+00    0,000000000e+00    0,000000000e+00    0,000000000e+00
     1248000000   -1,472578049e-01    1,584829837e-01   -5,621374249e-01    5,822364613e-02    0,000000000e+00    0,000000000e+00    0,000000000e+00    0,000000000e+00
     1262000000   -1,176131796e-02    1,439534873e-01   -4,582335353e-01    2,809817791e-01    0,000000000e+00    0,000000000e+00    0,000000000e+00    0,000000000e+00
     1276000000    6,429565698e-02    4,948935285e-02   -2,616865337e-01    4,524320662e-01    0,000000000e+00    0,000000000e+00    0,000000000e+00    0,000000000e+00
     1290000000    8,017812669e-02   -6,962054223e-02    3,734111786e-03    5,167443156e-01    0,000000000e+00    0,000000000e+00    0,000000000e+00    0,000000000e+00
     1304000000    2,595421672e-02   -1,796512008e-01    2,739189863e-01    4,620485902e-01    0,000000000e+00    0,000000000e+00    0,000000000e+00    0,000000000e+00
     1318000000   -8,330548555e-02   -2,576024830e-01    5,119952559e-01    2,734418511e-01    0,000000000e+00    0,000000000e+00    0,000000000e+00    0,000000000e+00
     1332000000   -2,405928522e-01   -2,563406527e-01    6,297810674e-01   -4,417616501e-02    0,000000000e+00    0,000000000e+00    0,000000000e+00    0,000000000e+00
     1346000000   -3,658723235e-01   -1,507803053e-01    5,464254618e-01   -3,849937916e-01    0,000000000e+00    0,000000000e+00    0,000000000e+00    0,000000000e+00
     1360000000   -3,837727904e-01   -1,580506214e-04    2,676841021e-01   -6,206989288e-01    0,000000000e+00    0,000000000e+00    0,000000000e+00    0,000000000e+00
     1374000000   -3,303738832e-01    1,144841537e-01   -1,019698828e-01   -6,158898473e-01    0,000000000e+00    0,000000000e+00    0,000000000e+00    0,000000000e+00
     1388000000   -2,409203053e-01    1,686882079e-01   -3,692739010e-01   -4,215964675e-01    0,000000000e+00    0,000000000e+00    0,000000000e+00    0,000000000e+00
     1402000000   -1,532963067e-01    1,721953899e-01   -4,708207548e-01   -1,178431511e-01    0,000000000e+00    0,000000000e+00    0,000000000e+00    0,000000000e+00
     1416000000   -8,842824399e-02    1,489943415e-01   -3,972424865e-01    1,977881640e-01    0,000000000e+00    0,000000000e+00    0,000000000e+00    0,000000000e+00
     1430000000   -3,383199871e-02    9,599297494e-02   -1,966419667e-01    4,122529924e-01    0,000000000e+00    0,000000000e+00    0,000000000e+00    0,000000000e+00
     1444000000    4,297522537e-04    1,091899443e-02    1,171109527e-01    5,188671947e-01    0,000000000e+00    0,000000000e+00    0,000000000e+00    0,000000000e+00
     1458000000   -3,059384972e-02   -8,103519678e-02    4,257506132e-01    4,697936177e-01    0,000000000e+00    0,000000000e+00    0,000000000e+00    0,000000000e+00
     1472000000   -1,076489091e-01   -1,435897797e-01    7,142560482e-01    3,011234403e-01    0,000000000e+00    0,000000000e+00    0,000000000e+00    0,000000000e+00
     1486000000   -2,213004082e-01   -1,465510130e-01    8,764804602e-01   -3,774264455e-02    0,000000000e+00    0,000000000e+00    0,000000000e+00    0,000000000e+00
     1500000000   -2,960659564e-01   -7,004185766e-02    8,390080929e-01   -4,215697646e-01    0,000000000e+00    0,000000000e+00    0,000000000e+00    0,000000000e+00
