! NanoVNA-App
! Date: 2025-09-26 09:58:51
! Start: 100MHz Stop: 1,5GHz Points: 101
! S-Parameter data: F S11 S21 S12 S22
# Hz S RI R 50
!     Frequency           S11_Real           S11_Imag           S21_Real           S21_Imag           S12_Real           S12_Imag           S22_Real           S22_Imag
      100000000    3,584198281e-02    2,686659433e-02    4,404632151e-01   -6,702187657e-01    0,000000000e+00    0,000000000e+00    0,000000000e+00    0,000000000e+00
      114000000    6,048442051e-02    1,445133705e-03    1,207335852e-02   -7,959977388e-01    0,000000000e+00    0,000000000e+00    0,000000000e+00    0,000000000e+00
      128000000    6,757608056e-02   -4,280686006e-02   -4,092613161e-01   -6,782982945e-01    0,000000000e+00    0,000000000e+00    0,000000000e+00    0,000000000e+00
      142000000    4,239083454e-02   -8,865334094e-02   -7,064822912e-01   -3,606424630e-01    0,000000000e+00    0,000000000e+00    0,000000000e+00    0,000000000e+00
      156000000   -9,730796330e-03   -1,093965471e-01   -7,950980663e-01    6,932505965e-02    0,000000000e+00    0,000000000e+00    0,000000000e+00    0,000000000e+00
      170000000   -6,296414882e-02   -9,055898339e-02   -6,368789077e-01    4,878711104e-01    0,000000000e+00    0,000000000e+00    0,000000000e+00    0,000000000e+00
      184000000   -8,839018643e-02   -4,649414495e-02   -2,720229328e-01    7,575445771e-01    0,000000000e+00    0,000000000e+00    0,000000000e+00    0,000000000e+00
      198000000   -8,226250857e-02   -5,398443900e-03    1,811550856e-01    7,825850844e-01    0,000000000e+00    0,000000000e+00    0,000000000e+00    0,000000000e+00
      212000000   -6,191794574e-02    1,896598749e-02    5,720401406e-01    5,578483939e-01    0,000000000e+00    0,000000000e+00    0,000000000e+00    0,000000000e+00
      226000000   -4,008433223e-02    3,254882619e-02    7,775370479e-01    1,608138978e-01    0,000000000e+00    0,000000000e+00    0,000000000e+00    0,000000000e+00
      240000000   -1,302323304e-02    4,122218490e-02    7,363461852e-01   -2,795736790e-01    0,000000000e+00    0,000000000e+00    0,000000000e+00    0,000000000e+00
      254000000    2,309458144e-02    3,500734642e-02    4,681739509e-01   -6,228989959e-01    0,000000000e+00    0,000000000e+00    0,000000000e+00    0,000000000e+00
      268000000    5,385556445e-02    2,624167362e-03    6,704533100e-02   -7,682040930e-01    0,000000000e+00    0,000000000e+00    0,000000000e+00    0,000000000e+00
      282000000    5,633526295e-02   -4,694114998e-02   -3,456456661e-01   -6,835062504e-01    0,000000000e+00    0,000000000e+00    0,000000000e+00    0,000000000e+00
      296000000    2,414553054e-02   -8,545535058e-02   -6,562911272e-01   -3,982834220e-01    0,000000000e+00    0,000000000e+00    0,000000000e+00    0,000000000e+00
      310000000   -2,083224431e-02   -8,852212131e-02   -7,763637900e-01    1,220363006e-02    0,000000000e+00    0,000000000e+00    0,000000000e+00    0,000000000e+00
      324000000   -4,717995971e-02   -6,210556626e-02   -6,482377052e-01    4,319484532e-01    0,000000000e+00    0,000000000e+00    0,000000000e+00    0,000000000e+00
      338000000   -4,096611589e-02   -3,653037176e-02   -3,109596968e-01    7,121737599e-01    0,000000000e+00    0,000000000e+00    0,000000000e+00    0,000000000e+00
      352000000   -2,277020179e-02   -3,705366328e-02    1,193832159e-01    7,583625913e-01    0,000000000e+00    0,000000000e+00    0,000000000e+00    0,000000000e+00
      366000000   -2,221860178e-02   -5,545803905e-02    5,039993525e-01    5,719426274e-01    0,000000000e+00    0,000000000e+00    0,000000000e+00    0,000000000e+00
      380000000   -4,367493093e-02   -6,466112286e-02    7,269114256e-01    2,112238705e-01    0,000000000e+00    0,000000000e+00    0,000000000e+00    0,000000000e+00
      394000000   -6,489376724e-02   -5,030301586e-02    7,238806486e-01   -2,135530710e-01    0,000000000e+00    0,000000000e+00    0,000000000e+00    0,000000000e+00
      408000000   -6,567429751e-02   -2,719106153e-02    4,898345768e-01   -5,699582696e-01    0,000000000e+00    0,000000000e+00    0,000000000e+00    0,000000000e+00
      422000000   -5,268796906e-02   -1,682418212e-02    1,056218296e-01   -7,393358946e-01    0,000000000e+00    0,000000000e+00    0,000000000e+00    0,000000000e+00
      436000000   -4,702548683e-02   -1,970006153e-02   -3,069860637e-01   -6,770205498e-01    0,000000000e+00    0,000000000e+00    0,000000000e+00    0,000000000e+00
      450000000   -5,311978608e-02   -1,512782089e-02   -6,197612882e-01   -4,006663561e-01    0,000000000e+00    0,000000000e+00    0,000000000e+00    0,000000000e+00
      464000000   -5,095086619e-02    6,580744870e-03   -7,311761379e-01    3,605818143e-03    0,000000000e+00    0,000000000e+00    0,000000000e+00    0,000000000e+00
      478000000   -1,987255178e-02    2,793284133e-02   -5,992447734e-01    3,984276056e-01    0,000000000e+00    0,000000000e+00    0,000000000e+00    0,000000000e+00
      492000000    3,001128137e-02    1,478205249e-02   -2,797912359e-01    6,443519592e-01    0,000000000e+00    0,000000000e+00    0,000000000e+00    0,000000000e+00
      506000000    6,073048338e-02   -3,883751854e-02    1,053497195e-01    6,806523800e-01    0,000000000e+00    0,000000000e+00    0,000000000e+00    0,000000000e+00
      520000000    4,446673766e-02   -1,045266166e-01    4,414178431e-01    5,167602301e-01    0,000000000e+00    0,000000000e+00    0,000000000e+00    0,000000000e+00
      534000000   -1,381058991e-02   -1,463855654e-01    6,498787999e-01    2,041829675e-01    0,000000000e+00    0,000000000e+00    0,000000000e+00    0,000000000e+00
      548000000   -8,523479104e-02   -1,426011026e-01    6,581738591e-01   -1,801889241e-01    0,000000000e+00    0,000000000e+00    0,000000000e+00    0,000000000e+00
      562000000   -1,399511397e-01   -9,773597121e-02    4,425094426e-01   -5,102261901e-01    0,000000000e+00    0,000000000e+00    0,000000000e+00    0,000000000e+00
      576000000   -1,606073081e-01   -2,378521860e-02    6,703498214e-02   -6,472850442e-01    0,000000000e+00    0,000000000e+00    0,000000000e+00    0,000000000e+00
      590000000   -1,057808176e-01    6,792403758e-02   -2,781558633e-01   -5,144288540e-01    0,000000000e+00    0,000000000e+00    0,000000000e+00    0,000000000e+00
      604000000    2,804334834e-02    1,536558010e-02   -3,961395919e-01   -3,209128380e-01    0,000000000e+00    0,000000000e+00    0,000000000e+00    0,000000000e+00
      618000000   -3,183646500e-02   -8,706528693e-02   -5,644099116e-01   -1,370688677e-01    0,000000000e+00    0,000000000e+00    0,000000000e+00    0,000000000e+00
      632000000   -9,833378345e-02   -4,921154678e-02   -5,930476189e-01    2,201770842e-01    0,000000000e+00    0,000000000e+00    0,000000000e+00    0,000000000e+00
      646000000   -8,516317606e-02    6,969792768e-03   -3,731592298e-01    5,268085003e-01    0,000000000e+00    0,000000000e+00    0,000000000e+00    0,000000000e+00
      660000000   -3,899411485e-02    1,754082739e-02   -2,337331325e-02    6,433576345e-01    0,000000000e+00    0,000000000e+00    0,000000000e+00    0,000000000e+00
      674000000   -9,856342338e-03   -7,576703094e-03    3,218087852e-01    5,504592657e-01    0,000000000e+00    0,000000000e+00    0,000000000e+00    0,000000000e+00
      688000000   -1,012296323e-02   -3,698224574e-02    5,612307191e-01    2,904656231e-01    0,000000000e+00    0,000000000e+00    0,000000000e+00    0,000000000e+00
      702000000   -1,997658238e-02   -5,015881360e-02    6,217260957e-01   -5,602863058e-02    0,000000000e+00    0,000000000e+00    0,000000000e+00    0,000000000e+00
      716000000   -2,165335976e-02   -5,550811812e-02    4,862381816e-01   -3,847281933e-01    0,000000000e+00    0,000000000e+00    0,000000000e+00    0,000000000e+00
      730000000   -2,066361159e-02   -7,295943052e-02    1,976547986e-01   -5,781541467e-01    0,000000000e+00    0,000000000e+00    0,000000000e+00    0,000000000e+00
      744000000   -3,445913643e-02   -1,008811817e-01   -1,428787857e-01   -5,870550275e-01    0,000000000e+00    0,000000000e+00    0,000000000e+00    0,000000000e+00
      758000000   -7,557845861e-02   -1,188205406e-01   -4,340926111e-01   -4,188107252e-01    0,000000000e+00    0,000000000e+00    0,000000000e+00    0,000000000e+00
      772000000   -1,259894818e-01   -1,038715467e-01   -5,934501290e-01   -1,202093288e-01    0,000000000e+00    0,000000000e+00    0,000000000e+00    0,000000000e+00
      786000000   -1,551087052e-01   -5,836491287e-02   -5,663698316e-01    2,220411301e-01    0,000000000e+00    0,000000000e+00    0,000000000e+00    0,000000000e+00
      800000000   -1,497790366e-01   -6,100581959e-03   -3,568399251e-01    4,916507006e-01    0,000000000e+00    0,000000000e+00    0,000000000e+00    0,000000000e+00
      814000000   -1,187408864e-01    2,970414981e-02   -4,022358730e-02    6,028773189e-01    0,000000000e+00    0,000000000e+00    0,000000000e+00    0,000000000e+00
      828000000   -7,931919396e-02    4,096217826e-02    2,832063437e-01    5,300589204e-01    0,000000000e+00    0,000000000e+00    0,000000000e+00    0,000000000e+00
      842000000   -4,417008534e-02    3,459827974e-02    5,152009130e-01    3,013340831e-01    0,000000000e+00    0,000000000e+00    0,000000000e+00    0,000000000e+00
      856000000   -1,654716581e-02    1,786210388e-02    5,888270140e-01   -1,580131426e-02    0,000000000e+00    0,000000000e+00    0,000000000e+00    0,000000000e+00
      870000000    7,684924640e-03   -1,062857267e-02    4,820415974e-01   -3,165878654e-01    0,000000000e+00    0,000000000e+00    0,000000000e+00    0,000000000e+00
      884000000    1,641278528e-02   -5,629094318e-02    2,380848229e-01   -5,106706023e-01    0,000000000e+00    0,000000000e+00    0,000000000e+00    0,000000000e+00
      898000000   -6,931161042e-03   -1,078973711e-01   -6,454435736e-02   -5,528566241e-01    0,000000000e+00    0,000000000e+00    0,000000000e+00    0,000000000e+00
      912000000   -6,990434229e-02   -1,329431832e-01   -4,027096033e-01   -4,126165211e-01    0,000000000e+00    0,000000000e+00    0,000000000e+00    0,000000000e+00
      926000000   -1,348490566e-01   -1,111352742e-01   -5,643925071e-01   -1,389740556e-01    0,000000000e+00    0,000000000e+00    0,000000000e+00    0,000000000e+00
      940000000   -1,556401551e-01   -4,909080267e-02   -5,534477830e-01    1,972056776e-01    0,000000000e+00    0,000000000e+00    0,000000000e+00    0,000000000e+00
      954000000   -1,302423328e-01    1,055826899e-03   -3,610955775e-01    4,695863128e-01    0,000000000e+00    0,000000000e+00    0,000000000e+00    0,000000000e+00
      968000000   -8,400336653e-02    7,238077465e-03   -5,810489878e-02    5,927357078e-01    0,000000000e+00    0,000000000e+00    0,000000000e+00    0,000000000e+00
      982000000   -5,813215300e-02   -1,506355405e-02    2,558450997e-01    5,453416705e-01    0,000000000e+00    0,000000000e+00    0,000000000e+00    0,000000000e+00
      996000000   -6,727319211e-02   -4,277434200e-02    5,058113337e-01    3,470194936e-01    0,000000000e+00    0,000000000e+00    0,000000000e+00    0,000000000e+00
     1010000000   -8,385077864e-02   -5,067946762e-02    6,161141992e-01    4,796631634e-02    0,000000000e+00    0,000000000e+00    0,000000000e+00    0,000000000e+00
     1024000000   -1,020796821e-01   -4,305674881e-02    5,541088581e-01   -2,728876173e-01    0,000000000e+00    0,000000000e+00    0,000000000e+00    0,000000000e+00
     1038000000   -1,104020029e-01   -3,439989686e-02    3,246069252e-01   -5,054267645e-01    0,000000000e+00    0,000000000e+00    0,000000000e+00    0,000000000e+00
     1052000000   -1,137357876e-01   -2,680983022e-02    1,622180454e-02   -5,752723217e-01    0,000000000e+00    0,000000000e+00    0,000000000e+00    0,000000000e+00
     1066000000   -1,165154576e-01   -9,064023383e-03   -2,754466236e-01   -4,710721374e-01    0,000000000e+00    0,000000000e+00    0,000000000e+00    0,000000000e+00
     1080000000   -1,016909480e-01    1,433004811e-02   -4,592967927e-01   -2,407990992e-01    0,000000000e+00    0,000000000e+00    0,000000000e+00    0,000000000e+00
     1094000000   -6,629753858e-02    2,318860963e-02   -4,918966591e-01    3,951993585e-02    0,000000000e+00    0,000000000e+00    0,000000000e+00    0,000000000e+00
     1108000000   -2,523683757e-02    1,855975948e-03   -3,834306896e-01    2,934208214e-01    0,000000000e+00    0,000000000e+00    0,000000000e+00    0,000000000e+00
     1122000000   -3,402872477e-03   -4,086228460e-02   -1,536514461e-01    4,589236379e-01    0,000000000e+00    0,000000000e+00    0,000000000e+00    0,000000000e+00
     1136000000   -1,722987369e-02   -1,010898352e-01    1,414018124e-01    4,754988253e-01    0,000000000e+00    0,000000000e+00    0,000000000e+00    0,000000000e+00
     1150000000   -6,667059660e-02   -1,449328810e-01    4,160841405e-01    3,274473548e-01    0,000000000e+00    0,000000000e+00    0,000000000e+00    0,000000000e+00
     1164000000   -1,434595436e-01   -1,516095847e-01    5,750004053e-01    3,555916622e-02    0,000000000e+00    0,000000000e+00    0,000000000e+00    0,000000000e+00
     1178000000   -2,038442641e-01   -1,124197170e-01    5,343925357e-01   -3,280520737e-01    0,000000000e+00    0,000000000e+00    0,000000000e+00    0,000000000e+00
     1192000000   -2,230715901e-01   -4,633992538e-02    2,726229131e-01   -6,115555763e-01    0,000000000e+00    0,000000000e+00    0,000000000e+00    0,000000000e+00
     1206000000   -2,085343450e-01   -7,666893769e-03   -1,088667512e-01   -6,750007272e-01    0,000000000e+00    0,000000000e+00    0,000000000e+00    0,000000000e+00
     1220000000   -2,102876902e-01    1,140280813e-02   -4,408389628e-01   -5,126171112e-01    0,000000000e+00    0,000000000e+00    0,000000000e+00    0,000000000e+00
     1234000000   -2,177416235e-01    7,587223500e-02   -5,857681036e-01   -2,124783695e-01    0,000000000e+00    0,000000000e+00    0,000000000e+00    0,000000000e+00
     1248000000   -1,396116465e-01    1,618859470e-01   -5,674579740e-01    5,442904308e-02    0,000000000e+00    0,000000000e+00    0,000000000e+00    0,000000000e+00
     1262000000   -1,321603730e-02    1,453337073e-01   -4,618730843e-01    2,832158506e-01    0,000000000e+00    0,000000000e+00    0,000000000e+00    0,000000000e+00
     1276000000    6,690806150e-02    5,307391658e-02   -2,599031329e-01    4,516674578e-01    0,000000000e+00    0,000000000e+00    0,000000000e+00    0,000000000e+00
     1290000000    8,231934905e-02   -6,577344984e-02    2,032070886e-03    5,152626634e-01    0,000000000e+00    0,000000000e+00    0,000000000e+00    0,000000000e+00
     1304000000    2,783988602e-02   -1,838406920e-01    2,745578289e-01    4,588412642e-01    0,000000000e+00    0,000000000e+00    0,000000000e+00    0,000000000e+00
     1318000000   -8,607175201e-02   -2,635764182e-01    5,143693686e-01    2,715968788e-01    0,000000000e+00    0,000000000e+00    0,000000000e+00    0,000000000e+00
     1332000000   -2,374675870e-01   -2,532036901e-01    6,324070096e-01   -3,319140896e-02    0,000000000e+00    0,000000000e+00    0,000000000e+00    0,000000000e+00
     1346000000   -3,603629768e-01   -1,486027092e-01    5,525352359e-01   -3,800247312e-01    0,000000000e+00    0,000000000e+00    0,000000000e+00    0,000000000e+00
     1360000000   -3,909175396e-01   -3,992506769e-03    2,651979625e-01   -6,186538935e-01    0,000000000e+00    0,000000000e+00    0,000000000e+00    0,000000000e+00
     1374000000   -3,270014524e-01    1,229775771e-01   -9,898573905e-02   -6,128666997e-01    0,000000000e+00    0,000000000e+00    0,000000000e+00    0,000000000e+00
     1388000000   -2,429528683e-01    1,762643754e-01   -3,635963798e-01   -4,174359739e-01    0,000000000e+00    0,000000000e+00    0,000000000e+00    0,000000000e+00
     1402000000   -1,585070342e-01    1,748373359e-01   -4,755035341e-01   -1,150921509e-01    0,000000000e+00    0,000000000e+00    0,000000000e+00    0,000000000e+00
     1416000000   -8,623850346e-02    1,509120613e-01   -3,902256191e-01    2,001459450e-01    0,000000000e+00    0,000000000e+00    0,000000000e+00    0,000000000e+00
     1430000000   -2,769106254e-02    9,706097841e-02   -1,554743052e-01    4,398733974e-01    0,000000000e+00    0,000000000e+00    0,000000000e+00    0,000000000e+00
     1444000000   -4,942449741e-03    8,522354998e-03    1,134672090e-01    5,098834634e-01    0,000000000e+00    0,000000000e+00    0,000000000e+00    0,000000000e+00
     1458000000   -2,798545547e-02   -8,348987997e-02    4,382680058e-01    4,791810811e-01    0,000000000e+00    0,000000000e+00    0,000000000e+00    0,000000000e+00
     1472000000   -1,085605472e-01   -1,488046497e-01    7,056572437e-01    2,983948588e-01    0,000000000e+00    0,000000000e+00    0,000000000e+00    0,000000000e+00
     1486000000   -2,170537710e-01   -1,499473453e-01    8,848766088e-01   -3,609695658e-02    0,000000000e+00    0,000000000e+00    0,000000000e+00    0,000000000e+00
     1500000000   -2,970561087e-01   -7,443365455e-02    8,278159499e-01   -4,354846776e-01    0,000000000e+00    0,000000000e+00    0,000000000e+00    0,000000000e+00
