! NanoVNA-App
! Date: 2025-09-26 09:58:39
! Start: 100MHz Stop: 1,5GHz Points: 101
! S-Parameter data: F S11 S21 S12 S22
# Hz S RI R 50
!     Frequency           S11_Real           S11_Imag           S21_Real           S21_Imag           S12_Real           S12_Imag           S22_Real           S22_Imag
      100000000    3,578533605e-02    2,682817169e-02    4,404072464e-01   -6,702821255e-01    0,000000000e+00    0,000000000e+00    0,000000000e+00    0,000000000e+00
      114000000    6,044690683e-02    1,461622654e-03    1,207613479e-02   -7,960252166e-01    0,000000000e+00    0,000000000e+00    0,000000000e+00    0,000000000e+00
      128000000    6,747584045e-02   -4,274599627e-02   -4,093205631e-01   -6,782006025e-01    0,000000000e+00    0,000000000e+00    0,000000000e+00    0,000000000e+00
      142000000    4,231749102e-02   -8,856636286e-02   -7,065938711e-01   -3,605119288e-01    0,000000000e+00    0,000000000e+00    0,000000000e+00    0,000000000e+00
      156000000   -9,840167128e-03   -1,096306443e-01   -7,946135402e-01    6,986504048e-02    0,000000000e+00    0,000000000e+00    0,000000000e+00    0,000000000e+00
      170000000   -6,294993311e-02   -9,048741311e-02   -6,361750960e-01    4,879650772e-01    0,000000000e+00    0,000000000e+00    0,000000000e+00    0,000000000e+00
      184000000   -8,831047267e-02   -4,640164599e-02   -2,717340887e-01    7,571348548e-01    0,000000000e+00    0,000000000e+00    0,000000000e+00    0,000000000e+00
      198000000   -8,210639656e-02   -5,345507525e-03    1,818921268e-01    7,828437090e-01    0,000000000e+00    0,000000000e+00    0,000000000e+00    0,000000000e+00
      212000000   -6,177029759e-02    1,895549893e-02    5,719861388e-01    5,576404333e-01    0,000000000e+00    0,000000000e+00    0,000000000e+00    0,000000000e+00
      226000000   -3,989804536e-02    3,251945600e-02    7,775605917e-01    1,606481522e-01    0,000000000e+00    0,000000000e+00    0,000000000e+00    0,000000000e+00
      240000000   -1,295559388e-02    4,111535102e-02    7,364263535e-01   -2,796020508e-01    0,000000000e+00    0,000000000e+00    0,000000000e+00    0,000000000e+00
      254000000    2,307727374e-02    3,492064029e-02    4,679993689e-01   -6,228902936e-01    0,000000000e+00    0,000000000e+00    0,000000000e+00    0,000000000e+00
      268000000    5,379173532e-02    2,478133887e-03    6,684097648e-02   -7,685348392e-01    0,000000000e+00    0,000000000e+00    0,000000000e+00    0,000000000e+00
      282000000    5,632451549e-02   -4,695561156e-02   -3,461100161e-01   -6,837965846e-01    0,000000000e+00    0,000000000e+00    0,000000000e+00    0,000000000e+00
      296000000    2,403897233e-02   -8,533336967e-02   -6,557731628e-01   -3,988152444e-01    0,000000000e+00    0,000000000e+00    0,000000000e+00    0,000000000e+00
      310000000   -2,102611959e-02   -8,859604597e-02   -7,750894427e-01    1,283288281e-02    0,000000000e+00    0,000000000e+00    0,000000000e+00    0,000000000e+00
      324000000   -4,721203819e-02   -6,150843203e-02   -6,476491094e-01    4,313739836e-01    0,000000000e+00    0,000000000e+00    0,000000000e+00    0,000000000e+00
      338000000   -4,075945914e-02   -3,663253039e-02   -3,109845817e-01    7,111227512e-01    0,000000000e+00    0,000000000e+00    0,000000000e+00    0,000000000e+00
      352000000   -2,289727516e-02   -3,695290908e-02    1,207257435e-01    7,588485479e-01    0,000000000e+00    0,000000000e+00    0,000000000e+00    0,000000000e+00
      366000000   -2,207191847e-02   -5,535696819e-02    5,034916401e-01    5,711355805e-01    0,000000000e+00    0,000000000e+00    0,000000000e+00    0,000000000e+00
      380000000   -4,350551218e-02   -6,452017277e-02    7,280292511e-01    2,112374604e-01    0,000000000e+00    0,000000000e+00    0,000000000e+00    0,000000000e+00
      394000000   -6,464473158e-02   -5,046538264e-02    7,239928246e-01   -2,144744247e-01    0,000000000e+00    0,000000000e+00    0,000000000e+00    0,000000000e+00
      408000000   -6,572664529e-02   -2,737315744e-02    4,896920621e-01   -5,699650049e-01    0,000000000e+00    0,000000000e+00    0,000000000e+00    0,000000000e+00
      422000000   -5,221740156e-02   -1,738352142e-02    1,044139266e-01   -7,407755256e-01    0,000000000e+00    0,000000000e+00    0,000000000e+00    0,000000000e+00
      436000000   -4,720415920e-02   -1,979396492e-02   -3,070289195e-01   -6,766005158e-01    0,000000000e+00    0,000000000e+00    0,000000000e+00    0,000000000e+00
      450000000   -5,282528698e-02   -1,572921686e-02   -6,200218797e-01   -4,002834260e-01    0,000000000e+00    0,000000000e+00    0,000000000e+00    0,000000000e+00
      464000000   -5,114928633e-02    6,729723420e-03   -7,318332195e-01    3,999500535e-03    0,000000000e+00    0,000000000e+00    0,000000000e+00    0,000000000e+00
      478000000   -1,931596175e-02    2,755809762e-02   -5,989328623e-01    3,992162347e-01    0,000000000e+00    0,000000000e+00    0,000000000e+00    0,000000000e+00
      492000000    3,012061864e-02    1,488329191e-02   -2,790209949e-01    6,450591087e-01    0,000000000e+00    0,000000000e+00    0,000000000e+00    0,000000000e+00
      506000000    6,104297191e-02   -3,865003586e-02    1,060083881e-01    6,808451414e-01    0,000000000e+00    0,000000000e+00    0,000000000e+00    0,000000000e+00
      520000000    4,523703083e-02   -1,054287553e-01    4,445574880e-01    5,179165006e-01    0,000000000e+00    0,000000000e+00    0,000000000e+00    0,000000000e+00
      534000000   -1,355820522e-02   -1,462114155e-01    6,501275897e-01    2,035542727e-01    0,000000000e+00    0,000000000e+00    0,000000000e+00    0,000000000e+00
      548000000   -8,479441702e-02   -1,419147253e-01    6,578640342e-01   -1,797349453e-01    0,000000000e+00    0,000000000e+00    0,000000000e+00    0,000000000e+00
      562000000   -1,391737461e-01   -9,777587652e-02    4,430275857e-01   -5,113881230e-01    0,000000000e+00    0,000000000e+00    0,000000000e+00    0,000000000e+00
      576000000   -1,608904600e-01   -2,517873421e-02    6,706599891e-02   -6,494579315e-01    0,000000000e+00    0,000000000e+00    0,000000000e+00    0,000000000e+00
      590000000   -1,086200327e-01    6,831540912e-02   -2,825079262e-01   -5,132663250e-01    0,000000000e+00    0,000000000e+00    0,000000000e+00    0,000000000e+00
      604000000    3,062488139e-02    1,886501908e-02   -3,931146860e-01   -3,152167499e-01    0,000000000e+00    0,000000000e+00    0,000000000e+00    0,000000000e+00
      618000000   -2,939446084e-02   -8,871337771e-02   -5,608104467e-01   -1,387064606e-01    0,000000000e+00    0,000000000e+00    0,000000000e+00    0,000000000e+00
      632000000   -9,963199496e-02   -5,099829286e-02   -5,934634805e-01    2,179178596e-01    0,000000000e+00    0,000000000e+00    0,000000000e+00    0,000000000e+00
      646000000   -8,593187481e-02    6,245361175e-03   -3,753265142e-01    5,284145474e-01    0,000000000e+00    0,000000000e+00    0,000000000e+00    0,000000000e+00
      660000000   -3,926753253e-02    1,794067398e-02   -2,370921709e-02    6,434554458e-01    0,000000000e+00    0,000000000e+00    0,000000000e+00    0,000000000e+00
      674000000   -1,095584407e-02   -7,204857655e-03    3,222038448e-01    5,506439209e-01    0,000000000e+00    0,000000000e+00    0,000000000e+00    0,000000000e+00
      688000000   -9,275389835e-03   -3,594919667e-02    5,621325374e-01    2,906394899e-01    0,000000000e+00    0,000000000e+00    0,000000000e+00    0,000000000e+00
      702000000   -1,992277987e-02   -4,948945716e-02    6,274781823e-01   -5,879522115e-02    0,000000000e+00    0,000000000e+00    0,000000000e+00    0,000000000e+00
      716000000   -2,239761129e-02   -5,595302209e-02    4,866795838e-01   -3,843845427e-01    0,000000000e+00    0,000000000e+00    0,000000000e+00    0,000000000e+00
      730000000   -1,974914595e-02   -7,355682552e-02    1,982228309e-01   -5,793749094e-01    0,000000000e+00    0,000000000e+00    0,000000000e+00    0,000000000e+00
      744000000   -3,534959629e-02   -1,018155664e-01   -1,422105581e-01   -5,874453783e-01    0,000000000e+00    0,000000000e+00    0,000000000e+00    0,000000000e+00
      758000000   -7,646849751e-02   -1,195218042e-01   -4,329874814e-01   -4,186437130e-01    0,000000000e+00    0,000000000e+00    0,000000000e+00    0,000000000e+00
      772000000   -1,253355742e-01   -1,038607359e-01   -5,942898393e-01   -1,195490062e-01    0,000000000e+00    0,000000000e+00    0,000000000e+00    0,000000000e+00
      786000000   -1,558769792e-01   -5,806495994e-02   -5,659219027e-01    2,228826135e-01    0,000000000e+00    0,000000000e+00    0,000000000e+00    0,000000000e+00
      800000000   -1,495401263e-01   -6,003412884e-03   -3,551172912e-01    4,917829931e-01    0,000000000e+00    0,000000000e+00    0,000000000e+00    0,000000000e+00
      814000000   -1,189098209e-01    2,819423191e-02   -3,855748102e-02    6,024987102e-01    0,000000000e+00    0,000000000e+00    0,000000000e+00    0,000000000e+00
      828000000   -8,083910495e-02    4,108384997e-02    2,829628587e-01    5,294061303e-01    0,000000000e+00    0,000000000e+00    0,000000000e+00    0,000000000e+00
      842000000   -4,432944208e-02    3,567995504e-02    5,155062079e-01    2,998503149e-01    0,000000000e+00    0,000000000e+00    0,000000000e+00    0,000000000e+00
      856000000   -1,542210765e-02    1,895149425e-02    5,886389613e-01   -1,540519949e-02    0,000000000e+00    0,000000000e+00    0,000000000e+00    0,000000000e+00
      870000000    8,206654340e-03   -1,069376711e-02    4,816917181e-01   -3,171133101e-01    0,000000000e+00    0,000000000e+00    0,000000000e+00    0,000000000e+00
      884000000    1,650551707e-02   -5,754761025e-02    2,371144146e-01   -5,121592879e-01    0,000000000e+00    0,000000000e+00    0,000000000e+00    0,000000000e+00
      898000000   -6,936384831e-03   -1,082928479e-01   -6,392933428e-02   -5,525439382e-01    0,000000000e+00    0,000000000e+00    0,000000000e+00    0,000000000e+00
      912000000   -7,110432535e-02   -1,336418837e-01   -3,947442770e-01   -4,207666218e-01    0,000000000e+00    0,000000000e+00    0,000000000e+00    0,000000000e+00
      926000000   -1,350133419e-01   -1,100733355e-01   -5,653493404e-01   -1,378332078e-01    0,000000000e+00    0,000000000e+00    0,000000000e+00    0,000000000e+00
      940000000   -1,602785736e-01   -4,869803786e-02   -5,554178357e-01    1,990135610e-01    0,000000000e+00    0,000000000e+00    0,000000000e+00    0,000000000e+00
      954000000   -1,275755465e-01    3,170290263e-03   -3,585602045e-01    4,712824225e-01    0,000000000e+00    0,000000000e+00    0,000000000e+00    0,000000000e+00
      968000000   -8,319130540e-02    1,063326839e-02   -5,541503802e-02    5,940135717e-01    0,000000000e+00    0,000000000e+00    0,000000000e+00    0,000000000e+00
      982000000   -5,956833437e-02   -1,795791090e-02    2,567969561e-01    5,464171171e-01    0,000000000e+00    0,000000000e+00    0,000000000e+00    0,000000000e+00
      996000000   -6,352744997e-02   -4,111925885e-02    5,037440062e-01    3,454806507e-01    0,000000000e+00    0,000000000e+00    0,000000000e+00    0,000000000e+00
     1010000000   -8,473048359e-02   -5,657009035e-02    6,125849485e-01    4,925647378e-02    0,000000000e+00    0,000000000e+00    0,000000000e+00    0,000000000e+00
     1024000000   -1,007552445e-01   -4,858714342e-02    5,520081520e-01   -2,699239552e-01    0,000000000e+00    0,000000000e+00    0,000000000e+00    0,000000000e+00
     1038000000   -1,118840426e-01   -3,299458325e-02    3,276101649e-01   -5,042236447e-01    0,000000000e+00    0,000000000e+00    0,000000000e+00    0,000000000e+00
     1052000000   -1,074446142e-01   -2,603773959e-02    1,743091829e-02   -5,745328665e-01    0,000000000e+00    0,000000000e+00    0,000000000e+00    0,000000000e+00
     1066000000   -1,118116081e-01   -6,011428777e-03   -2,764592469e-01   -4,760670662e-01    0,000000000e+00    0,000000000e+00    0,000000000e+00    0,000000000e+00
     1080000000   -9,911443293e-02    1,154631376e-02   -4,599514306e-01   -2,396798134e-01    0,000000000e+00    0,000000000e+00    0,000000000e+00    0,000000000e+00
     1094000000   -6,615515053e-02    2,759114280e-02   -4,916415513e-01    4,284469783e-02    0,000000000e+00    0,000000000e+00    0,000000000e+00    0,000000000e+00
     1108000000   -2,678225935e-02    8,234974928e-03   -3,816127479e-01    2,938244045e-01    0,000000000e+00    0,000000000e+00    0,000000000e+00    0,000000000e+00
     1122000000   -3,552672220e-03   -4,087616876e-02   -1,507811844e-01    4,558798373e-01    0,000000000e+00    0,000000000e+00    0,000000000e+00    0,000000000e+00
     1136000000   -1,669638231e-02   -1,001771614e-01    1,385781467e-01    4,757779837e-01    0,000000000e+00    0,000000000e+00    0,000000000e+00    0,000000000e+00
     1150000000   -6,752052903e-02   -1,508003622e-01    4,121390879e-01    3,277471066e-01    0,000000000e+00    0,000000000e+00    0,000000000e+00    0,000000000e+00
     1164000000   -1,439112574e-01   -1,562248021e-01    5,738152862e-01    3,574403003e-02    0,000000000e+00    0,000000000e+00    0,000000000e+00    0,000000000e+00
     1178000000   -2,086538821e-01   -1,118897423e-01    5,336169004e-01   -3,269388974e-01    0,000000000e+00    0,000000000e+00    0,000000000e+00    0,000000000e+00
     1192000000   -2,238505036e-01   -5,090287700e-02    2,726812065e-01   -6,131342649e-01    0,000000000e+00    0,000000000e+00    0,000000000e+00    0,000000000e+00
     1206000000   -2,106548846e-01   -1,013850980e-02   -1,051749140e-01   -6,741053462e-01    0,000000000e+00    0,000000000e+00    0,000000000e+00    0,000000000e+00
     1220000000   -2,081169933e-01    9,929424152e-03   -4,319056273e-01   -5,146247149e-01    0,000000000e+00    0,000000000e+00    0,000000000e+00    0,000000000e+00
     1234000000   -2,137872577e-01    7,252664864e-02   -5,844229460e-01   -2,150427848e-01    0,000000000e+00    0,000000000e+00    0,000000000e+00    0,000000000e+00
     1248000000   -1,365900338e-01    1,572648585e-01   -5,608443022e-01    5,143063888e-02    0,000000000e+00    0,000000000e+00    0,000000000e+00    0,000000000e+00
     1262000000   -1,214551460e-02    1,435354799e-01   -4,605464637e-01    2,839851677e-01    0,000000000e+00    0,000000000e+00    0,000000000e+00    0,000000000e+00
     1276000000    6,483706832e-02    5,107186735e-02   -2,601180375e-01    4,505677223e-01    0,000000000e+00    0,000000000e+00    0,000000000e+00    0,000000000e+00
     1290000000    8,219899982e-02   -6,887815148e-02    4,140907433e-03    5,117794871e-01    0,000000000e+00    0,000000000e+00    0,000000000e+00    0,000000000e+00
     1304000000    3,226028755e-02   -1,830326170e-01    2,761690915e-01    4,549859464e-01    0,000000000e+00    0,000000000e+00    0,000000000e+00    0,000000000e+00
     1318000000   -8,607762307e-02   -2,601817846e-01    5,140171051e-01    2,713583708e-01    0,000000000e+00    0,000000000e+00    0,000000000e+00    0,000000000e+00
     1332000000   -2,379091233e-01   -2,545596957e-01    6,374787688e-01   -3,310979903e-02    0,000000000e+00    0,000000000e+00    0,000000000e+00    0,000000000e+00
     1346000000   -3,618303239e-01   -1,528041214e-01    5,575239658e-01   -3,831203282e-01    0,000000000e+00    0,000000000e+00    0,000000000e+00    0,000000000e+00
     1360000000   -3,899993896e-01    2,624878893e-03    2,698523104e-01   -6,124289036e-01    0,000000000e+00    0,000000000e+00    0,000000000e+00    0,000000000e+00
     1374000000   -3,286345899e-01    1,210029870e-01   -8,661080152e-02   -6,179014444e-01    0,000000000e+00    0,000000000e+00    0,000000000e+00    0,000000000e+00
     1388000000   -2,423917651e-01    1,709957868e-01   -3,571069241e-01   -4,259456396e-01    0,000000000e+00    0,000000000e+00    0,000000000e+00    0,000000000e+00
     1402000000   -1,568932235e-01    1,766550988e-01   -4,715521932e-01   -1,155945733e-01    0,000000000e+00    0,000000000e+00    0,000000000e+00    0,000000000e+00
     1416000000   -8,538198471e-02    1,467346102e-01   -3,979932368e-01    1,968089044e-01    0,000000000e+00    0,000000000e+00    0,000000000e+00    0,000000000e+00
     1430000000   -2,631702274e-02    9,754412621e-02   -1,798655838e-01    3,963659406e-01    0,000000000e+00    0,000000000e+00    0,000000000e+00    0,000000000e+00
     1444000000   -5,518892314e-03    1,205547061e-02    1,165877953e-01    5,135846734e-01    0,000000000e+00    0,000000000e+00    0,000000000e+00    0,000000000e+00
     1458000000   -2,810508572e-02   -7,809064537e-02    4,146913588e-01    4,795394838e-01    0,000000000e+00    0,000000000e+00    0,000000000e+00    0,000000000e+00
     1472000000   -1,122257039e-01   -1,446181536e-01    7,268651724e-01    2,948741019e-01    0,000000000e+00    0,000000000e+00    0,000000000e+00    0,000000000e+00
     1486000000   -2,222064435e-01   -1,469716430e-01    8,779991269e-01   -3,023831919e-02    0,000000000e+00    0,000000000e+00    0,000000000e+00    0,000000000e+00
     1500000000   -2,975707054e-01   -6,997928023e-02    8,288362622e-01   -4,143270254e-01    0,000000000e+00    0,000000000e+00    0,000000000e+00    0,000000000e+00
