! NanoVNA-App
! Date: 2025-09-26 09:58:59
! Start: 100MHz Stop: 1,5GHz Points: 101
! S-Parameter data: F S11 S21 S12 S22
# Hz S RI R 50
!     Frequency           S11_Real           S11_Imag           S21_Real           S21_Imag           S12_Real           S12_Imag           S22_Real           S22_Imag
      100000000    3,580790013e-02    2,686196752e-02    4,404442012e-01   -6,702991128e-01    0,000000000e+00    0,000000000e+00    0,000000000e+00    0,000000000e+00
      114000000    6,048888713e-02    1,438984065e-03    1,206605323e-02   -7,960266471e-01    0,000000000e+00    0,000000000e+00    0,000000000e+00    0,000000000e+00
      128000000    6,751675904e-02   -4,276174679e-02   -4,091930389e-01   -6,782814860e-01    0,000000000e+00    0,000000000e+00    0,000000000e+00    0,000000000e+00
      142000000    4,236409441e-02   -8,864513785e-02   -7,064601183e-01   -3,605486155e-01    0,000000000e+00    0,000000000e+00    0,000000000e+00    0,000000000e+00
      156000000   -9,716140106e-03   -1,093283296e-01   -7,950475216e-01    6,927021593e-02    0,000000000e+00    0,000000000e+00    0,000000000e+00    0,000000000e+00
      170000000   -6,302876770e-02   -9,059661627e-02   -6,366873384e-01    4,880781472e-01    0,000000000e+00    0,000000000e+00    0,000000000e+00    0,000000000e+00
      184000000   -8,835610002e-02   -4,645260051e-02   -2,718978226e-01    7,572477460e-01    0,000000000e+00    0,000000000e+00    0,000000000e+00    0,000000000e+00
      198000000   -8,220750093e-02   -5,353998858e-03    1,816346198e-01    7,823715210e-01    0,000000000e+00    0,000000000e+00    0,000000000e+00    0,000000000e+00
      212000000   -6,184527650e-02    1,897374727e-02    5,717968345e-01    5,579048395e-01    0,000000000e+00    0,000000000e+00    0,000000000e+00    0,000000000e+00
      226000000   -4,006180167e-02    3,261341900e-02    7,776606083e-01    1,609699279e-01    0,000000000e+00    0,000000000e+00    0,000000000e+00    0,000000000e+00
      240000000   -1,296480186e-02    4,116392508e-02    7,363944054e-01   -2,796083987e-01    0,000000000e+00    0,000000000e+00    0,000000000e+00    0,000000000e+00
      254000000    2,309318446e-02    3,497353569e-02    4,684352279e-01   -6,229219437e-01    0,000000000e+00    0,000000000e+00    0,000000000e+00    0,000000000e+00
      268000000    5,379285663e-02    2,563576214e-03    6,680590659e-02   -7,684046626e-01    0,000000000e+00    0,000000000e+00    0,000000000e+00    0,000000000e+00
      282000000    5,638802424e-02   -4,690748453e-02   -3,460796773e-01   -6,837231517e-01    0,000000000e+00    0,000000000e+00    0,000000000e+00    0,000000000e+00
      296000000    2,406810597e-02   -8,535151929e-02   -6,558952332e-01   -3,983984292e-01    0,000000000e+00    0,000000000e+00    0,000000000e+00    0,000000000e+00
      310000000   -2,082721144e-02   -8,847410977e-02   -7,744271159e-01    1,223605499e-02    0,000000000e+00    0,000000000e+00    0,000000000e+00    0,000000000e+00
      324000000   -4,725492746e-02   -6,205662712e-02   -6,480319500e-01    4,309132993e-01    0,000000000e+00    0,000000000e+00    0,000000000e+00    0,000000000e+00
      338000000   -4,095331952e-02   -3,622180969e-02   -3,081119657e-01    7,107528448e-01    0,000000000e+00    0,000000000e+00    0,000000000e+00    0,000000000e+00
      352000000   -2,301848307e-02   -3,683300689e-02    1,202535182e-01    7,584254146e-01    0,000000000e+00    0,000000000e+00    0,000000000e+00    0,000000000e+00
      366000000   -2,231764607e-02   -5,542149022e-02    5,029364228e-01    5,707449317e-01    0,000000000e+00    0,000000000e+00    0,000000000e+00    0,000000000e+00
      380000000   -4,370207712e-02   -6,448789686e-02    7,269131541e-01    2,117557675e-01    0,000000000e+00    0,000000000e+00    0,000000000e+00    0,000000000e+00
      394000000   -6,470407546e-02   -5,012691021e-02    7,241861820e-01   -2,140484303e-01    0,000000000e+00    0,000000000e+00    0,000000000e+00    0,000000000e+00
      408000000   -6,591457129e-02   -2,680880390e-02    4,891582727e-01   -5,703076720e-01    0,000000000e+00    0,000000000e+00    0,000000000e+00    0,000000000e+00
      422000000   -5,234719440e-02   -1,719256118e-02    1,052964628e-01   -7,399283051e-01    0,000000000e+00    0,000000000e+00    0,000000000e+00    0,000000000e+00
      436000000   -4,713690281e-02   -1,956401579e-02   -3,064245284e-01   -6,772497296e-01    0,000000000e+00    0,000000000e+00    0,000000000e+00    0,000000000e+00
      450000000   -5,295633152e-02   -1,558030024e-02   -6,197862625e-01   -4,005482197e-01    0,000000000e+00    0,000000000e+00    0,000000000e+00    0,000000000e+00
      464000000   -5,124054104e-02    7,270580623e-03   -7,316890955e-01    4,223486874e-03    0,000000000e+00    0,000000000e+00    0,000000000e+00    0,000000000e+00
      478000000   -1,954723336e-02    2,771667391e-02   -5,987390280e-01    3,990182877e-01    0,000000000e+00    0,000000000e+00    0,000000000e+00    0,000000000e+00
      492000000    3,019338474e-02    1,468893513e-02   -2,796337605e-01    6,450873017e-01    0,000000000e+00    0,000000000e+00    0,000000000e+00    0,000000000e+00
      506000000    6,092727929e-02   -3,892860934e-02    1,059468910e-01    6,797217131e-01    0,000000000e+00    0,000000000e+00    0,000000000e+00    0,000000000e+00
      520000000    4,509568959e-02   -1,054522842e-01    4,468201399e-01    5,202122927e-01    0,000000000e+00    0,000000000e+00    0,000000000e+00    0,000000000e+00
      534000000   -1,399086230e-02   -1,466894448e-01    6,500147581e-01    2,038000375e-01    0,000000000e+00    0,000000000e+00    0,000000000e+00    0,000000000e+00
      548000000   -8,573596925e-02   -1,426719725e-01    6,577298045e-01   -1,797429025e-01    0,000000000e+00    0,000000000e+00    0,000000000e+00    0,000000000e+00
      562000000   -1,394124478e-01   -9,797503054e-02    4,429281950e-01   -5,105709434e-01    0,000000000e+00    0,000000000e+00    0,000000000e+00    0,000000000e+00
      576000000   -1,614375710e-01   -2,410041168e-02    6,629420817e-02   -6,481725574e-01    0,000000000e+00    0,000000000e+00    0,000000000e+00    0,000000000e+00
      590000000   -1,071715280e-01    6,937400997e-02   -2,770922482e-01   -5,139517784e-01    0,000000000e+00    0,000000000e+00    0,000000000e+00    0,000000000e+00
      604000000    3,147806600e-02    1,642547175e-02   -3,916901350e-01   -3,176375329e-01    0,000000000e+00    0,000000000e+00    0,000000000e+00    0,000000000e+00
      618000000   -3,191281855e-02   -8,908182383e-02   -5,636947751e-01   -1,392256767e-01    0,000000000e+00    0,000000000e+00    0,000000000e+00    0,000000000e+00
      632000000   -1,002396643e-01   -4,967025295e-02   -5,940511823e-01    2,191847861e-01    0,000000000e+00    0,000000000e+00    0,000000000e+00    0,000000000e+00
      646000000   -8,544262499e-02    7,736853324e-03   -3,741193414e-01    5,283852220e-01    0,000000000e+00    0,000000000e+00    0,000000000e+00    0,000000000e+00
      660000000   -3,894813359e-02    1,781059243e-02   -2,289506048e-02    6,436195374e-01    0,000000000e+00    0,000000000e+00    0,000000000e+00    0,000000000e+00
      674000000   -1,017600391e-02   -7,007641252e-03    3,216547966e-01    5,504209399e-01    0,000000000e+00    0,000000000e+00    0,000000000e+00    0,000000000e+00
      688000000   -1,045690104e-02   -3,600624204e-02    5,619318485e-01    2,909716368e-01    0,000000000e+00    0,000000000e+00    0,000000000e+00    0,000000000e+00
      702000000   -2,018200606e-02   -5,019662157e-02    6,241993904e-01   -5,591911077e-02    0,000000000e+00    0,000000000e+00    0,000000000e+00    0,000000000e+00
      716000000   -2,265929617e-02   -5,532262102e-02    4,871178269e-01   -3,843523860e-01    0,000000000e+00    0,000000000e+00    0,000000000e+00    0,000000000e+00
      730000000   -1,976959966e-02   -7,286095619e-02    1,971380711e-01   -5,784341693e-01    0,000000000e+00    0,000000000e+00    0,000000000e+00    0,000000000e+00
      744000000   -3,512256593e-02   -1,012290418e-01   -1,428235918e-01   -5,868244767e-01    0,000000000e+00    0,000000000e+00    0,000000000e+00    0,000000000e+00
      758000000   -7,598451525e-02   -1,187310442e-01   -4,338876307e-01   -4,179559946e-01    0,000000000e+00    0,000000000e+00    0,000000000e+00    0,000000000e+00
      772000000   -1,259926111e-01   -1,033077165e-01   -5,935167074e-01   -1,188017651e-01    0,000000000e+00    0,000000000e+00    0,000000000e+00    0,000000000e+00
      786000000   -1,541977227e-01   -5,792395771e-02   -5,654076934e-01    2,224957943e-01    0,000000000e+00    0,000000000e+00    0,000000000e+00    0,000000000e+00
      800000000   -1,494469941e-01   -6,288528442e-03   -3,557777703e-01    4,908441007e-01    0,000000000e+00    0,000000000e+00    0,000000000e+00    0,000000000e+00
      814000000   -1,199529171e-01    2,886439115e-02   -3,879544511e-02    6,016675830e-01    0,000000000e+00    0,000000000e+00    0,000000000e+00    0,000000000e+00
      828000000   -8,098851144e-02    4,143454880e-02    2,830030620e-01    5,305904746e-01    0,000000000e+00    0,000000000e+00    0,000000000e+00    0,000000000e+00
      842000000   -4,445075244e-02    3,608158231e-02    5,149925351e-01    3,001446724e-01    0,000000000e+00    0,000000000e+00    0,000000000e+00    0,000000000e+00
      856000000   -1,534513943e-02    1,827275380e-02    5,886704922e-01   -1,465645712e-02    0,000000000e+00    0,000000000e+00    0,000000000e+00    0,000000000e+00
      870000000    8,203950711e-03   -1,123314817e-02    4,817520082e-01   -3,163394034e-01    0,000000000e+00    0,000000000e+00    0,000000000e+00    0,000000000e+00
      884000000    1,626176573e-02   -5,683515593e-02    2,380408943e-01   -5,113837123e-01    0,000000000e+00    0,000000000e+00    0,000000000e+00    0,000000000e+00
      898000000   -6,814712193e-03   -1,087068692e-01   -6,410984695e-02   -5,520441532e-01    0,000000000e+00    0,000000000e+00    0,000000000e+00    0,000000000e+00
      912000000   -7,008744031e-02   -1,335888356e-01   -4,002150297e-01   -4,187581539e-01    0,000000000e+00    0,000000000e+00    0,000000000e+00    0,000000000e+00
      926000000   -1,336272210e-01   -1,109252945e-01   -5,655816793e-01   -1,378379762e-01    0,000000000e+00    0,000000000e+00    0,000000000e+00    0,000000000e+00
      940000000   -1,564181745e-01   -4,694927856e-02   -5,539711714e-01    1,982916594e-01    0,000000000e+00    0,000000000e+00    0,000000000e+00    0,000000000e+00
      954000000   -1,309110224e-01    3,075497691e-03   -3,604130447e-01    4,707690179e-01    0,000000000e+00    0,000000000e+00    0,000000000e+00    0,000000000e+00
      968000000   -8,313702792e-02    8,569698781e-03   -5,693039671e-02    5,931671858e-01    0,000000000e+00    0,000000000e+00    0,000000000e+00    0,000000000e+00
      982000000   -5,783039704e-02   -1,745242067e-02    2,560570240e-01    5,441715717e-01    0,000000000e+00    0,000000000e+00    0,000000000e+00    0,000000000e+00
      996000000   -6,534359604e-02   -4,511537030e-02    5,024179220e-01    3,482400775e-01    0,000000000e+00    0,000000000e+00    0,000000000e+00    0,000000000e+00
     1010000000   -8,420190960e-02   -5,117400363e-02    6,154502034e-01    4,796877876e-02    0,000000000e+00    0,000000000e+00    0,000000000e+00    0,000000000e+00
     1024000000   -1,006079391e-01   -4,481654242e-02    5,519272685e-01   -2,707475722e-01    0,000000000e+00    0,000000000e+00    0,000000000e+00    0,000000000e+00
     1038000000   -1,072492674e-01   -3,823930025e-02    3,277443647e-01   -5,043257475e-01    0,000000000e+00    0,000000000e+00    0,000000000e+00    0,000000000e+00
     1052000000   -1,082055122e-01   -2,557133138e-02    1,615950651e-02   -5,753471851e-01    0,000000000e+00    0,000000000e+00    0,000000000e+00    0,000000000e+00
     1066000000   -1,161475405e-01   -1,022403408e-02   -2,726933062e-01   -4,718824923e-01    0,000000000e+00    0,000000000e+00    0,000000000e+00    0,000000000e+00
     1080000000   -9,648757428e-02    1,669126004e-02   -4,598352909e-01   -2,415116280e-01    0,000000000e+00    0,000000000e+00    0,000000000e+00    0,000000000e+00
     1094000000   -6,425853819e-02    2,319346368e-02   -4,931473136e-01    4,123611748e-02    0,000000000e+00    0,000000000e+00    0,000000000e+00    0,000000000e+00
     1108000000   -2,204292268e-02    3,227544948e-03   -3,820253313e-01    2,932398021e-01    0,000000000e+00    0,000000000e+00    0,000000000e+00    0,000000000e+00
     1122000000   -1,364884782e-03   -4,405716807e-02   -1,542435735e-01    4,590941072e-01    0,000000000e+00    0,000000000e+00    0,000000000e+00    0,000000000e+00
     1136000000   -1,626212150e-02   -1,015450582e-01    1,421159208e-01    4,758180380e-01    0,000000000e+00    0,000000000e+00    0,000000000e+00    0,000000000e+00
     1150000000   -6,487876177e-02   -1,490320563e-01    4,135313630e-01    3,305639029e-01    0,000000000e+00    0,000000000e+00    0,000000000e+00    0,000000000e+00
     1164000000   -1,444234997e-01   -1,588427126e-01    5,730804801e-01    3,414791822e-02    0,000000000e+00    0,000000000e+00    0,000000000e+00    0,000000000e+00
     1178000000   -2,052915543e-01   -1,095122322e-01    5,340873003e-01   -3,271875978e-01    0,000000000e+00    0,000000000e+00    0,000000000e+00    0,000000000e+00
     1192000000   -2,170825303e-01   -5,019542947e-02    2,732547224e-01   -6,128286123e-01    0,000000000e+00    0,000000000e+00    0,000000000e+00    0,000000000e+00
     1206000000   -2,051460147e-01   -1,013748720e-02   -1,056656539e-01   -6,755757332e-01    0,000000000e+00    0,000000000e+00    0,000000000e+00    0,000000000e+00
     1220000000   -2,106870264e-01    1,384423766e-02   -4,384732842e-01   -5,104793906e-01    0,000000000e+00    0,000000000e+00    0,000000000e+00    0,000000000e+00
     1234000000   -2,215466052e-01    7,547094673e-02   -5,836575031e-01   -2,160180956e-01    0,000000000e+00    0,000000000e+00    0,000000000e+00    0,000000000e+00
     1248000000   -1,369189322e-01    1,609088629e-01   -5,572360158e-01    5,422553048e-02    0,000000000e+00    0,000000000e+00    0,000000000e+00    0,000000000e+00
     1262000000   -1,531995088e-02    1,400143951e-01   -4,617346823e-01    2,789493501e-01    0,000000000e+00    0,000000000e+00    0,000000000e+00    0,000000000e+00
     1276000000    6,439997256e-02    4,953933507e-02   -2,567952275e-01    4,540770352e-01    0,000000000e+00    0,000000000e+00    0,000000000e+00    0,000000000e+00
     1290000000    8,203987032e-02   -6,777010858e-02    7,442259230e-03    5,156329274e-01    0,000000000e+00    0,000000000e+00    0,000000000e+00    0,000000000e+00
     1304000000    2,799874730e-02   -1,817715913e-01    2,794450223e-01    4,607807398e-01    0,000000000e+00    0,000000000e+00    0,000000000e+00    0,000000000e+00
     1318000000   -8,302054554e-02   -2,605437636e-01    5,118108988e-01    2,744760215e-01    0,000000000e+00    0,000000000e+00    0,000000000e+00    0,000000000e+00
     1332000000   -2,452050000e-01   -2,577722967e-01    6,306543350e-01   -4,047296196e-02    0,000000000e+00    0,000000000e+00    0,000000000e+00    0,000000000e+00
     1346000000   -3,676739931e-01   -1,536212415e-01    5,509836674e-01   -3,915371895e-01    0,000000000e+00    0,000000000e+00    0,000000000e+00    0,000000000e+00
     1360000000   -3,894814849e-01   -1,858252654e-05    2,690793574e-01   -6,188529730e-01    0,000000000e+00    0,000000000e+00    0,000000000e+00    0,000000000e+00
     1374000000   -3,316263258e-01    1,184026971e-01   -9,771504998e-02   -6,196042895e-01    0,000000000e+00    0,000000000e+00    0,000000000e+00    0,000000000e+00
     1388000000   -2,391183078e-01    1,723846346e-01   -3,662168682e-01   -4,205585718e-01    0,000000000e+00    0,000000000e+00    0,000000000e+00    0,000000000e+00
     1402000000   -1,573795825e-01    1,760645062e-01   -4,773461521e-01   -1,098804548e-01    0,000000000e+00    0,000000000e+00    0,000000000e+00    0,000000000e+00
     1416000000   -8,429609984e-02    1,492980719e-01   -3,899005353e-01    1,920014471e-01    0,000000000e+00    0,000000000e+00    0,000000000e+00    0,000000000e+00
     1430000000   -2,720918693e-02    9,973394871e-02   -1,965856403e-01    4,239327908e-01    0,000000000e+00    0,000000000e+00    0,000000000e+00    0,000000000e+00
     1444000000    1,057350659e-03    1,414526161e-02    1,244480908e-01    5,118806362e-01    0,000000000e+00    0,000000000e+00    0,000000000e+00    0,000000000e+00
     1458000000   -3,005470894e-02   -7,709787041e-02    4,215507507e-01    4,770942628e-01    0,000000000e+00    0,000000000e+00    0,000000000e+00    0,000000000e+00
     1472000000   -1,125634834e-01   -1,413405985e-01    7,071587443e-01    3,053658307e-01    0,000000000e+00    0,000000000e+00    0,000000000e+00    0,000000000e+00
     1486000000   -2,164353132e-01   -1,501254886e-01    8,931026459e-01   -3,853253648e-02    0,000000000e+00    0,000000000e+00    0,000000000e+00    0,000000000e+00
     1500000000   -2,995475829e-01   -7,819040865e-02    8,236087561e-01   -4,369159043e-01    0,000000000e+00    0,000000000e+00    0,000000000e+00    0,000000000e+00
