! NanoVNA-App
! Date: 2025-09-26 09:58:17
! Start: 100MHz Stop: 1,5GHz Points: 101
! S-Parameter data: F S11 S21 S12 S22
# Hz S RI R 50
!     Frequency           S11_Real           S11_Imag           S21_Real           S21_Imag           S12_Real           S12_Imag           S22_Real           S22_Imag
      100000000    3,596071154e-02    2,681448869e-02    4,405478239e-01   -6,702610254e-01    0,000000000e+00    0,000000000e+00    0,000000000e+00    0,000000000e+00
      114000000    6,057992578e-02    1,323444420e-03    1,228850987e-02   -7,958405018e-01    0,000000000e+00    0,000000000e+00    0,000000000e+00    0,000000000e+00
      128000000    6,759842485e-02   -4,297456890e-02   -4,088640213e-01   -6,784502268e-01    0,000000000e+00    0,000000000e+00    0,000000000e+00    0,000000000e+00
      142000000    4,218217731e-02   -8,888403326e-02   -7,062484622e-01   -3,605940938e-01    0,000000000e+00    0,000000000e+00    0,000000000e+00    0,000000000e+00
      156000000   -1,076269336e-02   -1,093158051e-01   -7,936685085e-01    6,899952143e-02    0,000000000e+00    0,000000000e+00    0,000000000e+00    0,000000000e+00
      170000000   -6,335462630e-02   -9,050158411e-02   -6,368921995e-01    4,879244268e-01    0,000000000e+00    0,000000000e+00    0,000000000e+00    0,000000000e+00
      184000000   -8,868097514e-02   -4,607347399e-02   -2,720123827e-01    7,576940656e-01    0,000000000e+00    0,000000000e+00    0,000000000e+00    0,000000000e+00
      198000000   -8,221684396e-02   -4,846227821e-03    1,808975339e-01    7,826526761e-01    0,000000000e+00    0,000000000e+00    0,000000000e+00    0,000000000e+00
      212000000   -6,153840944e-02    1,952094026e-02    5,715572834e-01    5,576264858e-01    0,000000000e+00    0,000000000e+00    0,000000000e+00    0,000000000e+00
      226000000   -3,946739063e-02    3,278394416e-02    7,773954272e-01    1,611675471e-01    0,000000000e+00    0,000000000e+00    0,000000000e+00    0,000000000e+00
      240000000   -1,232381351e-02    4,102981836e-02    7,363600731e-01   -2,791887522e-01    0,000000000e+00    0,000000000e+00    0,000000000e+00    0,000000000e+00
      254000000    2,356069908e-02    3,448319808e-02    4,686052203e-01   -6,225632429e-01    0,000000000e+00    0,000000000e+00    0,000000000e+00    0,000000000e+00
      268000000    5,394553766e-02    1,886022859e-03    6,751205027e-02   -7,678814530e-01    0,000000000e+00    0,000000000e+00    0,000000000e+00    0,000000000e+00
      282000000    5,605144426e-02   -4,756664857e-02   -3,456420898e-01   -6,840397120e-01    0,000000000e+00    0,000000000e+00    0,000000000e+00    0,000000000e+00
      296000000    2,353218198e-02   -8,589722961e-02   -6,562005877e-01   -3,991685212e-01    0,000000000e+00    0,000000000e+00    0,000000000e+00    0,000000000e+00
      310000000   -2,147596329e-02   -8,896915615e-02   -7,744466662e-01    1,147034857e-02    0,000000000e+00    0,000000000e+00    0,000000000e+00    0,000000000e+00
      324000000   -4,806864262e-02   -6,134735420e-02   -6,487225294e-01    4,314418435e-01    0,000000000e+00    0,000000000e+00    0,000000000e+00    0,000000000e+00
      338000000   -4,127313942e-02   -3,565463424e-02   -3,109241128e-01    7,110306621e-01    0,000000000e+00    0,000000000e+00    0,000000000e+00    0,000000000e+00
      352000000   -2,299224585e-02   -3,599421307e-02    1,190273687e-01    7,593965530e-01    0,000000000e+00    0,000000000e+00    0,000000000e+00    0,000000000e+00
      366000000   -2,157169767e-02   -5,445145443e-02    5,031706691e-01    5,723071694e-01    0,000000000e+00    0,000000000e+00    0,000000000e+00    0,000000000e+00
      380000000   -4,260869324e-02   -6,407384574e-02    7,273116112e-01    2,116163671e-01    0,000000000e+00    0,000000000e+00    0,000000000e+00    0,000000000e+00
      394000000   -6,383121759e-02   -5,068405718e-02    7,236297727e-01   -2,131663114e-01    0,000000000e+00    0,000000000e+00    0,000000000e+00    0,000000000e+00
      408000000   -6,495083869e-02   -2,767836861e-02    4,908155501e-01   -5,687785745e-01    0,000000000e+00    0,000000000e+00    0,000000000e+00    0,000000000e+00
      422000000   -5,179649591e-02   -1,797817275e-02    1,066710800e-01   -7,412227988e-01    0,000000000e+00    0,000000000e+00    0,000000000e+00    0,000000000e+00
      436000000   -4,682074115e-02   -2,139951475e-02   -3,053488731e-01   -6,778591275e-01    0,000000000e+00    0,000000000e+00    0,000000000e+00    0,000000000e+00
      450000000   -5,404476076e-02   -1,619415544e-02   -6,194859147e-01   -4,015083611e-01    0,000000000e+00    0,000000000e+00    0,000000000e+00    0,000000000e+00
      464000000   -5,259861052e-02    5,780064035e-03   -7,312377095e-01    1,906269928e-03    0,000000000e+00    0,000000000e+00    0,000000000e+00    0,000000000e+00
      478000000   -2,207358181e-02    2,747745067e-02   -6,016244888e-01    3,967227042e-01    0,000000000e+00    0,000000000e+00    0,000000000e+00    0,000000000e+00
      492000000    2,806852385e-02    1,600982621e-02   -2,830010355e-01    6,452831626e-01    0,000000000e+00    0,000000000e+00    0,000000000e+00    0,000000000e+00
      506000000    5,892413482e-02   -3,563395515e-02    1,026503146e-01    6,827571392e-01    0,000000000e+00    0,000000000e+00    0,000000000e+00    0,000000000e+00
      520000000    4,499704018e-02   -1,006034240e-01    4,404893219e-01    5,230666399e-01    0,000000000e+00    0,000000000e+00    0,000000000e+00    0,000000000e+00
      534000000   -1,075748727e-02   -1,417106986e-01    6,510705352e-01    2,090711743e-01    0,000000000e+00    0,000000000e+00    0,000000000e+00    0,000000000e+00
      548000000   -7,738172263e-02   -1,390428394e-01    6,637164950e-01   -1,736706048e-01    0,000000000e+00    0,000000000e+00    0,000000000e+00    0,000000000e+00
      562000000   -1,252157688e-01   -1,017948613e-01    4,582054317e-01   -5,088891387e-01    0,000000000e+00    0,000000000e+00    0,000000000e+00    0,000000000e+00
      576000000   -1,481926888e-01   -4,995287582e-02    8,884923160e-02   -6,697004437e-01    0,000000000e+00    0,000000000e+00    0,000000000e+00    0,000000000e+00
      590000000   -1,455502510e-01    1,707443595e-02   -3,038942218e-01   -5,817447305e-01    0,000000000e+00    0,000000000e+00    0,000000000e+00    0,000000000e+00
      604000000   -6,592833996e-02    9,504693002e-02   -5,192885399e-01   -2,522064745e-01    0,000000000e+00    0,000000000e+00    0,000000000e+00    0,000000000e+00
      618000000    8,364801854e-02   -1,068229880e-02   -4,430231154e-01   -3,267873451e-02    0,000000000e+00    0,000000000e+00    0,000000000e+00    0,000000000e+00
      632000000   -5,538724363e-02   -1,254154295e-01   -5,397049785e-01    1,347266883e-01    0,000000000e+00    0,000000000e+00    0,000000000e+00    0,000000000e+00
      646000000   -1,150735170e-01   -3,191822022e-02   -4,077150524e-01    4,851044416e-01    0,000000000e+00    0,000000000e+00    0,000000000e+00    0,000000000e+00
      660000000   -6,835903227e-02    1,749131083e-02   -5,430206656e-02    6,465591192e-01    0,000000000e+00    0,000000000e+00    0,000000000e+00    0,000000000e+00
      674000000   -2,378103137e-02    6,858535577e-03    3,072033525e-01    5,660806894e-01    0,000000000e+00    0,000000000e+00    0,000000000e+00    0,000000000e+00
      688000000   -1,141060144e-02   -2,135511860e-02    5,593159795e-01    3,063273430e-01    0,000000000e+00    0,000000000e+00    0,000000000e+00    0,000000000e+00
      702000000   -1,277029794e-02   -3,946251795e-02    6,297182441e-01   -4,304829612e-02    0,000000000e+00    0,000000000e+00    0,000000000e+00    0,000000000e+00
      716000000   -1,097501535e-02   -5,243979767e-02    4,979576468e-01   -3,779786229e-01    0,000000000e+00    0,000000000e+00    0,000000000e+00    0,000000000e+00
      730000000   -1,069377828e-02   -7,737713307e-02    2,114738524e-01   -5,783208609e-01    0,000000000e+00    0,000000000e+00    0,000000000e+00    0,000000000e+00
      744000000   -3,000884876e-02   -1,113319471e-01   -1,316899508e-01   -5,974096060e-01    0,000000000e+00    0,000000000e+00    0,000000000e+00    0,000000000e+00
      758000000   -7,943929732e-02   -1,306487024e-01   -4,322655201e-01   -4,360345602e-01    0,000000000e+00    0,000000000e+00    0,000000000e+00    0,000000000e+00
      772000000   -1,380060464e-01   -1,109721214e-01   -6,062782407e-01   -1,354454309e-01    0,000000000e+00    0,000000000e+00    0,000000000e+00    0,000000000e+00
      786000000   -1,706687659e-01   -5,068197846e-02   -5,880216956e-01    2,219919562e-01    0,000000000e+00    0,000000000e+00    0,000000000e+00    0,000000000e+00
      800000000   -1,518073082e-01    1,170982793e-02   -3,710962832e-01    5,094115138e-01    0,000000000e+00    0,000000000e+00    0,000000000e+00    0,000000000e+00
      814000000   -1,052934602e-01    4,109887779e-02   -3,459842876e-02    6,233004332e-01    0,000000000e+00    0,000000000e+00    0,000000000e+00    0,000000000e+00
      828000000   -6,191322953e-02    3,570946306e-02    2,999513447e-01    5,418899655e-01    0,000000000e+00    0,000000000e+00    0,000000000e+00    0,000000000e+00
      842000000   -3,775884211e-02    1,832368225e-02    5,323392749e-01    2,978619635e-01    0,000000000e+00    0,000000000e+00    0,000000000e+00    0,000000000e+00
      856000000   -2,277911454e-02    3,601585282e-03    5,995723605e-01   -2,865568362e-02    0,000000000e+00    0,000000000e+00    0,000000000e+00    0,000000000e+00
      870000000   -6,814785767e-03   -1,525988430e-02    4,809409678e-01   -3,339225054e-01    0,000000000e+00    0,000000000e+00    0,000000000e+00    0,000000000e+00
      884000000    2,540703397e-03   -4,999374226e-02    2,256405354e-01   -5,223640800e-01    0,000000000e+00    0,000000000e+00    0,000000000e+00    0,000000000e+00
      898000000   -1,168379653e-02   -9,235390276e-02   -8,004615456e-02   -5,512131453e-01    0,000000000e+00    0,000000000e+00    0,000000000e+00    0,000000000e+00
      912000000   -6,188908964e-02   -1,178766787e-01   -3,951651454e-01   -4,098844528e-01    0,000000000e+00    0,000000000e+00    0,000000000e+00    0,000000000e+00
      926000000   -1,106087342e-01   -1,084452122e-01   -5,576216578e-01   -1,316361278e-01    0,000000000e+00    0,000000000e+00    0,000000000e+00    0,000000000e+00
      940000000   -1,456474513e-01   -6,805105507e-02   -5,543550849e-01    1,930290908e-01    0,000000000e+00    0,000000000e+00    0,000000000e+00    0,000000000e+00
      954000000   -1,367836595e-01   -1,653044485e-02   -3,681997061e-01    4,751039445e-01    0,000000000e+00    0,000000000e+00    0,000000000e+00    0,000000000e+00
      968000000   -1,069008037e-01    4,088217858e-03   -5,780825391e-02    6,107221246e-01    0,000000000e+00    0,000000000e+00    0,000000000e+00    0,000000000e+00
      982000000   -7,684737444e-02   -4,941487219e-03    2,783863246e-01    5,558449030e-01    0,000000000e+00    0,000000000e+00    0,000000000e+00    0,000000000e+00
      996000000   -6,352157146e-02   -2,135061659e-02    5,323101878e-01    3,302697837e-01    0,000000000e+00    0,000000000e+00    0,000000000e+00    0,000000000e+00
     1010000000   -6,657424569e-02   -4,221571609e-02    6,207193732e-01    8,015044034e-03    0,000000000e+00    0,000000000e+00    0,000000000e+00    0,000000000e+00
     1024000000   -8,091550320e-02   -5,124845356e-02    5,185878277e-01   -2,983983159e-01    0,000000000e+00    0,000000000e+00    0,000000000e+00    0,000000000e+00
     1038000000   -9,646957368e-02   -6,181853265e-02    2,855723202e-01   -4,910812080e-01    0,000000000e+00    0,000000000e+00    0,000000000e+00    0,000000000e+00
     1052000000   -1,299559027e-01   -5,046042800e-02   -3,387668170e-03   -5,402417779e-01    0,000000000e+00    0,000000000e+00    0,000000000e+00    0,000000000e+00
     1066000000   -1,479173154e-01   -8,640420623e-03   -2,603515983e-01   -4,343077838e-01    0,000000000e+00    0,000000000e+00    0,000000000e+00    0,000000000e+00
     1080000000   -1,152538285e-01    4,896564782e-02   -4,150689244e-01   -2,341260910e-01    0,000000000e+00    0,000000000e+00    0,000000000e+00    0,000000000e+00
     1094000000   -4,739715159e-02    4,857575521e-02   -4,626569152e-01    9,760319255e-03    0,000000000e+00    0,000000000e+00    0,000000000e+00    0,000000000e+00
     1108000000   -1,838553464e-03    8,061083499e-04   -3,884395659e-01    2,571567595e-01    0,000000000e+00    0,000000000e+00    0,000000000e+00    0,000000000e+00
     1122000000    1,192373876e-02   -5,833908170e-02   -1,808684021e-01    4,421810508e-01    0,000000000e+00    0,000000000e+00    0,000000000e+00    0,000000000e+00
     1136000000   -1,780136116e-02   -1,176485941e-01    1,153830737e-01    4,852836132e-01    0,000000000e+00    0,000000000e+00    0,000000000e+00    0,000000000e+00
     1150000000   -7,304155082e-02   -1,566711366e-01    4,027920961e-01    3,503793180e-01    0,000000000e+00    0,000000000e+00    0,000000000e+00    0,000000000e+00
     1164000000   -1,546215713e-01   -1,594239920e-01    5,806728005e-01    5,279164761e-02    0,000000000e+00    0,000000000e+00    0,000000000e+00    0,000000000e+00
     1178000000   -2,133256495e-01   -1,048315316e-01    5,526224971e-01   -3,221561909e-01    0,000000000e+00    0,000000000e+00    0,000000000e+00    0,000000000e+00
     1192000000   -2,225038856e-01   -3,664154932e-02    2,883087099e-01   -6,113184094e-01    0,000000000e+00    0,000000000e+00    0,000000000e+00    0,000000000e+00
     1206000000   -1,951358467e-01   -6,176303141e-04   -1,004419252e-01   -6,865916252e-01    0,000000000e+00    0,000000000e+00    0,000000000e+00    0,000000000e+00
     1220000000   -2,009645700e-01    8,803520352e-03   -4,438372552e-01   -5,186883807e-01    0,000000000e+00    0,000000000e+00    0,000000000e+00    0,000000000e+00
     1234000000   -2,185368091e-01    6,056263670e-02   -5,949468613e-01   -2,128261626e-01    0,000000000e+00    0,000000000e+00    0,000000000e+00    0,000000000e+00
     1248000000   -1,448467225e-01    1,570685059e-01   -5,593674779e-01    6,263335794e-02    0,000000000e+00    0,000000000e+00    0,000000000e+00    0,000000000e+00
     1262000000   -1,959495060e-02    1,485135257e-01   -4,576029480e-01    2,807846069e-01    0,000000000e+00    0,000000000e+00    0,000000000e+00    0,000000000e+00
     1276000000    6,737213582e-02    5,666990578e-02   -2,584744692e-01    4,537208974e-01    0,000000000e+00    0,000000000e+00    0,000000000e+00    0,000000000e+00
     1290000000    7,993523031e-02   -6,899139285e-02    4,598008003e-03    5,140063763e-01    0,000000000e+00    0,000000000e+00    0,000000000e+00    0,000000000e+00
     1304000000    3,063465469e-02   -1,837017238e-01    2,780142725e-01    4,575334191e-01    0,000000000e+00    0,000000000e+00    0,000000000e+00    0,000000000e+00
     1318000000   -8,058384806e-02   -2,558185458e-01    5,083658695e-01    2,714393735e-01    0,000000000e+00    0,000000000e+00    0,000000000e+00    0,000000000e+00
     1332000000   -2,371100932e-01   -2,607389092e-01    6,279467940e-01   -4,389038309e-02    0,000000000e+00    0,000000000e+00    0,000000000e+00    0,000000000e+00
     1346000000   -3,575721085e-01   -1,579162627e-01    5,474628210e-01   -3,916216791e-01    0,000000000e+00    0,000000000e+00    0,000000000e+00    0,000000000e+00
     1360000000   -3,955731988e-01    2,429162385e-03    2,545978427e-01   -6,121312976e-01    0,000000000e+00    0,000000000e+00    0,000000000e+00    0,000000000e+00
     1374000000   -3,349211216e-01    1,189769357e-01   -1,018927097e-01   -6,114947200e-01    0,000000000e+00    0,000000000e+00    0,000000000e+00    0,000000000e+00
     1388000000   -2,398301363e-01    1,737221628e-01   -3,662040532e-01   -4,085036814e-01    0,000000000e+00    0,000000000e+00    0,000000000e+00    0,000000000e+00
     1402000000   -1,574655175e-01    1,808030158e-01   -4,632896483e-01   -9,983021021e-02    0,000000000e+00    0,000000000e+00    0,000000000e+00    0,000000000e+00
     1416000000   -7,870011032e-02    1,509116888e-01   -3,901747465e-01    1,857212037e-01    0,000000000e+00    0,000000000e+00    0,000000000e+00    0,000000000e+00
     1430000000   -2,132613212e-02    9,166565537e-02   -1,768082827e-01    4,217130542e-01    0,000000000e+00    0,000000000e+00    0,000000000e+00    0,000000000e+00
     1444000000    3,165745409e-03    1,336488221e-02    1,149185747e-01    5,096888542e-01    0,000000000e+00    0,000000000e+00    0,000000000e+00    0,000000000e+00
     1458000000   -2,618036978e-02   -8,407155424e-02    4,182106853e-01    4,631393254e-01    0,000000000e+00    0,000000000e+00    0,000000000e+00    0,000000000e+00
     1472000000   -1,051167250e-01   -1,470452398e-01    7,084240317e-01    2,844699621e-01    0,000000000e+00    0,000000000e+00    0,000000000e+00    0,000000000e+00
     1486000000   -2,235759348e-01   -1,516963542e-01    8,722499609e-01   -4,000344500e-02    0,000000000e+00    0,000000000e+00    0,000000000e+00    0,000000000e+00
     1500000000   -2,959066331e-01   -7,095147669e-02    8,191129565e-01   -4,133447111e-01    0,000000000e+00    0,000000000e+00    0,000000000e+00    0,000000000e+00
