! NanoVNA-App
! Date: 2025-09-26 09:58:39
! Start: 100MHz Stop: 1,5GHz Points: 101
! S-Parameter data: F S11 S21 S12 S22
# Hz S RI R 50
!     Frequency           S11_Real           S11_Imag           S21_Real           S21_Imag           S12_Real           S12_Imag           S22_Real           S22_Imag
      100000000    3,577682748e-02    2,681818418e-02    4,403501451e-01   -6,703313589e-01    0,000000000e+00    0,000000000e+00    0,000000000e+00    0,000000000e+00
      114000000    6,041891128e-02    1,471981057e-03    1,204711664e-02   -7,960944772e-01    0,000000000e+00    0,000000000e+00    0,000000000e+00    0,000000000e+00
      128000000    6,747734547e-02   -4,270366207e-02   -4,094559252e-01   -6,784522533e-01    0,000000000e+00    0,000000000e+00    0,000000000e+00    0,000000000e+00
      142000000    4,229748249e-02   -8,857051283e-02   -7,065473795e-01   -3,603828847e-01    0,000000000e+00    0,000000000e+00    0,000000000e+00    0,000000000e+00
      156000000   -1,080561802e-02   -1,085238755e-01   -7,930639982e-01    6,863582134e-02    0,000000000e+00    0,000000000e+00    0,000000000e+00    0,000000000e+00
      170000000   -6,296461076e-02   -9,051570296e-02   -6,365969777e-01    4,881429076e-01    0,000000000e+00    0,000000000e+00    0,000000000e+00    0,000000000e+00
      184000000   -8,835508674e-02   -4,639031738e-02   -2,717901170e-01    7,571892142e-01    0,000000000e+00    0,000000000e+00    0,000000000e+00    0,000000000e+00
      198000000   -8,212036639e-02   -5,387019366e-03    1,817577183e-01    7,825895548e-01    0,000000000e+00    0,000000000e+00    0,000000000e+00    0,000000000e+00
      212000000   -6,171471253e-02    1,900964230e-02    5,721474290e-01    5,577856302e-01    0,000000000e+00    0,000000000e+00    0,000000000e+00    0,000000000e+00
      226000000   -3,997841850e-02    3,245618939e-02    7,777354121e-01    1,607161164e-01    0,000000000e+00    0,000000000e+00    0,000000000e+00    0,000000000e+00
      240000000   -1,288045570e-02    4,111351073e-02    7,361776829e-01   -2,797046602e-01    0,000000000e+00    0,000000000e+00    0,000000000e+00    0,000000000e+00
      254000000    2,307687514e-02    3,488955274e-02    4,679166377e-01   -6,227954626e-01    0,000000000e+00    0,000000000e+00    0,000000000e+00    0,000000000e+00
      268000000    5,380212143e-02    2,522520488e-03    6,706416607e-02   -7,681294680e-01    0,000000000e+00    0,000000000e+00    0,000000000e+00    0,000000000e+00
      282000000    5,623473227e-02   -4,697567970e-02   -3,458515704e-01   -6,831762195e-01    0,000000000e+00    0,000000000e+00    0,000000000e+00    0,000000000e+00
      296000000    2,414340340e-02   -8,539335430e-02   -6,561841369e-01   -3,986244202e-01    0,000000000e+00    0,000000000e+00    0,000000000e+00    0,000000000e+00
      310000000   -2,080894448e-02   -8,834612370e-02   -7,752271295e-01    1,140680071e-02    0,000000000e+00    0,000000000e+00    0,000000000e+00    0,000000000e+00
      324000000   -4,724097624e-02   -6,203044951e-02   -6,485437751e-01    4,324126840e-01    0,000000000e+00    0,000000000e+00    0,000000000e+00    0,000000000e+00
      338000000   -4,110105708e-02   -3,622345626e-02   -3,091524839e-01    7,134339809e-01    0,000000000e+00    0,000000000e+00    0,000000000e+00    0,000000000e+00
      352000000   -2,290624753e-02   -3,663430735e-02    1,204986572e-01    7,586839795e-01    0,000000000e+00    0,000000000e+00    0,000000000e+00    0,000000000e+00
      366000000   -2,225871757e-02   -5,510161072e-02    5,030153394e-01    5,717160106e-01    0,000000000e+00    0,000000000e+00    0,000000000e+00    0,000000000e+00
      380000000   -4,359917715e-02   -6,438525021e-02    7,271751761e-01    2,113550007e-01    0,000000000e+00    0,000000000e+00    0,000000000e+00    0,000000000e+00
      394000000   -6,469050050e-02   -5,024498329e-02    7,238852382e-01   -2,144868672e-01    0,000000000e+00    0,000000000e+00    0,000000000e+00    0,000000000e+00
      408000000   -6,544350088e-02   -2,730740607e-02    4,911117256e-01   -5,698735118e-01    0,000000000e+00    0,000000000e+00    0,000000000e+00    0,000000000e+00
      422000000   -5,207925290e-02   -1,712587290e-02    1,054064706e-01   -7,395566702e-01    0,000000000e+00    0,000000000e+00    0,000000000e+00    0,000000000e+00
      436000000   -4,737659916e-02   -2,005567029e-02   -3,077829778e-01   -6,763241887e-01    0,000000000e+00    0,000000000e+00    0,000000000e+00    0,000000000e+00
      450000000   -5,298889428e-02   -1,571790129e-02   -6,200941801e-01   -4,003639817e-01    0,000000000e+00    0,000000000e+00    0,000000000e+00    0,000000000e+00
      464000000   -5,138685927e-02    6,431298796e-03   -7,313310504e-01    4,098011646e-03    0,000000000e+00    0,000000000e+00    0,000000000e+00    0,000000000e+00
      478000000   -1,961405948e-02    2,789226361e-02   -5,984213352e-01    3,989707232e-01    0,000000000e+00    0,000000000e+00    0,000000000e+00    0,000000000e+00
      492000000    3,001264110e-02    1,461558044e-02   -2,797690630e-01    6,454187036e-01    0,000000000e+00    0,000000000e+00    0,000000000e+00    0,000000000e+00
      506000000    6,076847389e-02   -3,881234676e-02    1,064005345e-01    6,809291840e-01    0,000000000e+00    0,000000000e+00    0,000000000e+00    0,000000000e+00
      520000000    4,448574781e-02   -1,060454398e-01    4,476431906e-01    5,158171058e-01    0,000000000e+00    0,000000000e+00    0,000000000e+00    0,000000000e+00
      534000000   -1,378827635e-02   -1,462722570e-01    6,502939463e-01    2,040381134e-01    0,000000000e+00    0,000000000e+00    0,000000000e+00    0,000000000e+00
      548000000   -8,536128700e-02   -1,422263682e-01    6,580636501e-01   -1,800230742e-01    0,000000000e+00    0,000000000e+00    0,000000000e+00    0,000000000e+00
      562000000   -1,384416819e-01   -9,771549702e-02    4,433617592e-01   -5,115458965e-01    0,000000000e+00    0,000000000e+00    0,000000000e+00    0,000000000e+00
      576000000   -1,609615833e-01   -2,575266734e-02    6,535288692e-02   -6,499356627e-01    0,000000000e+00    0,000000000e+00    0,000000000e+00    0,000000000e+00
      590000000   -1,098602787e-01    6,775171310e-02   -2,841367126e-01   -5,146299601e-01    0,000000000e+00    0,000000000e+00    0,000000000e+00    0,000000000e+00
      604000000    3,101365641e-02    2,177614532e-02   -3,940934837e-01   -3,115103245e-01    0,000000000e+00    0,000000000e+00    0,000000000e+00    0,000000000e+00
      618000000   -2,766477317e-02   -8,986458927e-02   -5,589504242e-01   -1,387959421e-01    0,000000000e+00    0,000000000e+00    0,000000000e+00    0,000000000e+00
      632000000   -9,927158058e-02   -5,138799548e-02   -5,927244425e-01    2,168841660e-01    0,000000000e+00    0,000000000e+00    0,000000000e+00    0,000000000e+00
      646000000   -8,693030477e-02    6,684888620e-03   -3,747409582e-01    5,277405977e-01    0,000000000e+00    0,000000000e+00    0,000000000e+00    0,000000000e+00
      660000000   -4,039196670e-02    1,875812374e-02   -2,464298531e-02    6,435664892e-01    0,000000000e+00    0,000000000e+00    0,000000000e+00    0,000000000e+00
      674000000   -1,098565478e-02   -6,585054565e-03    3,230078220e-01    5,514154434e-01    0,000000000e+00    0,000000000e+00    0,000000000e+00    0,000000000e+00
      688000000   -9,373892099e-03   -3,559528664e-02    5,617578626e-01    2,909216881e-01    0,000000000e+00    0,000000000e+00    0,000000000e+00    0,000000000e+00
      702000000   -1,935125701e-02   -4,856864363e-02    6,260617971e-01   -5,622477457e-02    0,000000000e+00    0,000000000e+00    0,000000000e+00    0,000000000e+00
      716000000   -2,192339301e-02   -5,579549447e-02    4,865592718e-01   -3,848167360e-01    0,000000000e+00    0,000000000e+00    0,000000000e+00    0,000000000e+00
      730000000   -2,006711252e-02   -7,375334948e-02    1,974863112e-01   -5,776031017e-01    0,000000000e+00    0,000000000e+00    0,000000000e+00    0,000000000e+00
      744000000   -3,534251824e-02   -1,018111110e-01   -1,428351402e-01   -5,874319673e-01    0,000000000e+00    0,000000000e+00    0,000000000e+00    0,000000000e+00
      758000000   -7,682035118e-02   -1,195300445e-01   -4,341003001e-01   -4,184262455e-01    0,000000000e+00    0,000000000e+00    0,000000000e+00    0,000000000e+00
      772000000   -1,270849258e-01   -1,043040007e-01   -5,942587256e-01   -1,188237593e-01    0,000000000e+00    0,000000000e+00    0,000000000e+00    0,000000000e+00
      786000000   -1,561347693e-01   -5,781874806e-02   -5,658078790e-01    2,237378210e-01    0,000000000e+00    0,000000000e+00    0,000000000e+00    0,000000000e+00
      800000000   -1,496045142e-01   -6,672329269e-03   -3,552455604e-01    4,927196205e-01    0,000000000e+00    0,000000000e+00    0,000000000e+00    0,000000000e+00
      814000000   -1,188662872e-01    2,761958912e-02   -3,825905547e-02    6,024189591e-01    0,000000000e+00    0,000000000e+00    0,000000000e+00    0,000000000e+00
      828000000   -7,961839437e-02    4,049863294e-02    2,837074697e-01    5,299901366e-01    0,000000000e+00    0,000000000e+00    0,000000000e+00    0,000000000e+00
      842000000   -4,486596212e-02    3,545522317e-02    5,144386888e-01    2,994310558e-01    0,000000000e+00    0,000000000e+00    0,000000000e+00    0,000000000e+00
      856000000   -1,622866653e-02    1,890626177e-02    5,884953737e-01   -1,567570679e-02    0,000000000e+00    0,000000000e+00    0,000000000e+00    0,000000000e+00
      870000000    8,307629265e-03   -1,097150892e-02    4,807046354e-01   -3,166839480e-01    0,000000000e+00    0,000000000e+00    0,000000000e+00    0,000000000e+00
      884000000    1,652707346e-02   -5,674891174e-02    2,383007407e-01   -5,108286142e-01    0,000000000e+00    0,000000000e+00    0,000000000e+00    0,000000000e+00
      898000000   -7,108993828e-03   -1,093049794e-01   -6,492899358e-02   -5,528098941e-01    0,000000000e+00    0,000000000e+00    0,000000000e+00    0,000000000e+00
      912000000   -7,112834603e-02   -1,339575052e-01   -4,004601538e-01   -4,112498164e-01    0,000000000e+00    0,000000000e+00    0,000000000e+00    0,000000000e+00
      926000000   -1,361200213e-01   -1,105745807e-01   -5,664508343e-01   -1,365213394e-01    0,000000000e+00    0,000000000e+00    0,000000000e+00    0,000000000e+00
      940000000   -1,570544988e-01   -4,677660018e-02   -5,552130342e-01    2,008589059e-01    0,000000000e+00    0,000000000e+00    0,000000000e+00    0,000000000e+00
      954000000   -1,301418096e-01    4,722254351e-03   -3,580294251e-01    4,736314118e-01    0,000000000e+00    0,000000000e+00    0,000000000e+00    0,000000000e+00
      968000000   -8,524766564e-02    1,086056046e-02   -5,566374213e-02    5,922933221e-01    0,000000000e+00    0,000000000e+00    0,000000000e+00    0,000000000e+00
      982000000   -6,057667732e-02   -1,556100417e-02    2,574981451e-01    5,445259213e-01    0,000000000e+00    0,000000000e+00    0,000000000e+00    0,000000000e+00
      996000000   -6,733967364e-02   -4,386558011e-02    5,023142695e-01    3,475661576e-01    0,000000000e+00    0,000000000e+00    0,000000000e+00    0,000000000e+00
     1010000000   -8,793240041e-02   -5,577559024e-02    6,148027182e-01    4,830284789e-02    0,000000000e+00    0,000000000e+00    0,000000000e+00    0,000000000e+00
     1024000000   -1,057025865e-01   -4,953828454e-02    5,492607951e-01   -2,685971260e-01    0,000000000e+00    0,000000000e+00    0,000000000e+00    0,000000000e+00
     1038000000   -1,111710668e-01   -3,234717250e-02    3,271120787e-01   -5,024799109e-01    0,000000000e+00    0,000000000e+00    0,000000000e+00    0,000000000e+00
     1052000000   -1,138818711e-01   -2,420716546e-02    1,794690825e-02   -5,751848221e-01    0,000000000e+00    0,000000000e+00    0,000000000e+00    0,000000000e+00
     1066000000   -1,092720926e-01   -9,759935550e-03   -2,751206458e-01   -4,712653756e-01    0,000000000e+00    0,000000000e+00    0,000000000e+00    0,000000000e+00
     1080000000   -9,895826876e-02    1,620790921e-02   -4,611010849e-01   -2,406951189e-01    0,000000000e+00    0,000000000e+00    0,000000000e+00    0,000000000e+00
     1094000000   -6,701558083e-02    2,821139060e-02   -4,951339662e-01    4,136855900e-02    0,000000000e+00    0,000000000e+00    0,000000000e+00    0,000000000e+00
     1108000000   -2,116394415e-02    6,310774945e-03   -3,822428584e-01    2,953042388e-01    0,000000000e+00    0,000000000e+00    0,000000000e+00    0,000000000e+00
     1122000000   -3,494140459e-03   -4,375550151e-02   -1,499454379e-01    4,558279514e-01    0,000000000e+00    0,000000000e+00    0,000000000e+00    0,000000000e+00
     1136000000   -1,375541463e-02   -1,050425470e-01    1,380175501e-01    4,737046063e-01    0,000000000e+00    0,000000000e+00    0,000000000e+00    0,000000000e+00
     1150000000   -6,614173204e-02   -1,479485780e-01    4,108685553e-01    3,270910084e-01    0,000000000e+00    0,000000000e+00    0,000000000e+00    0,000000000e+00
     1164000000   -1,404753178e-01   -1,621940583e-01    5,696227551e-01    3,593025729e-02    0,000000000e+00    0,000000000e+00    0,000000000e+00    0,000000000e+00
     1178000000   -2,073822767e-01   -1,110395193e-01    5,324099660e-01   -3,240768909e-01    0,000000000e+00    0,000000000e+00    0,000000000e+00    0,000000000e+00
     1192000000   -2,260554582e-01   -4,563748091e-02    2,722501755e-01   -6,073719263e-01    0,000000000e+00    0,000000000e+00    0,000000000e+00    0,000000000e+00
     1206000000   -2,116552144e-01   -7,272178307e-03   -1,009590253e-01   -6,732513905e-01    0,000000000e+00    0,000000000e+00    0,000000000e+00    0,000000000e+00
     1220000000   -2,062623799e-01    1,802266203e-02   -4,333775938e-01   -5,149486065e-01    0,000000000e+00    0,000000000e+00    0,000000000e+00    0,000000000e+00
     1234000000   -2,147617638e-01    7,395433635e-02   -5,854520798e-01   -2,169256359e-01    0,000000000e+00    0,000000000e+00    0,000000000e+00    0,000000000e+00
     1248000000   -1,381433010e-01    1,553395092e-01   -5,664299130e-01    5,056747049e-02    0,000000000e+00    0,000000000e+00    0,000000000e+00    0,000000000e+00
     1262000000   -1,342463773e-02    1,434729695e-01   -4,617475867e-01    2,856267989e-01    0,000000000e+00    0,000000000e+00    0,000000000e+00    0,000000000e+00
     1276000000    6,284886599e-02    5,206038430e-02   -2,597613335e-01    4,530818462e-01    0,000000000e+00    0,000000000e+00    0,000000000e+00    0,000000000e+00
     1290000000    7,999359071e-02   -6,507234275e-02    8,703955449e-03    5,139106512e-01    0,000000000e+00    0,000000000e+00    0,000000000e+00    0,000000000e+00
     1304000000    3,115227818e-02   -1,781145036e-01    2,803010046e-01    4,591324925e-01    0,000000000e+00    0,000000000e+00    0,000000000e+00    0,000000000e+00
     1318000000   -8,612877876e-02   -2,594057918e-01    5,130752921e-01    2,766484618e-01    0,000000000e+00    0,000000000e+00    0,000000000e+00    0,000000000e+00
     1332000000   -2,411687821e-01   -2,527322471e-01    6,291353106e-01   -3,112962469e-02    0,000000000e+00    0,000000000e+00    0,000000000e+00    0,000000000e+00
     1346000000   -3,687281609e-01   -1,552937329e-01    5,503693223e-01   -3,882930279e-01    0,000000000e+00    0,000000000e+00    0,000000000e+00    0,000000000e+00
     1360000000   -3,902110159e-01    4,432968795e-03    2,641326785e-01   -6,172754765e-01    0,000000000e+00    0,000000000e+00    0,000000000e+00    0,000000000e+00
     1374000000   -3,301278353e-01    1,181137413e-01   -9,633576125e-02   -6,286700368e-01    0,000000000e+00    0,000000000e+00    0,000000000e+00    0,000000000e+00
     1388000000   -2,413925529e-01    1,697224826e-01   -3,690512776e-01   -4,198458195e-01    0,000000000e+00    0,000000000e+00    0,000000000e+00    0,000000000e+00
     1402000000   -1,560264379e-01    1,754126698e-01   -4,631825984e-01   -1,149347723e-01    0,000000000e+00    0,000000000e+00    0,000000000e+00    0,000000000e+00
     1416000000   -8,620430529e-02    1,537181437e-01   -3,919909894e-01    1,908981949e-01    0,000000000e+00    0,000000000e+00    0,000000000e+00    0,000000000e+00
     1430000000   -3,257280588e-02    9,918672591e-02   -1,742497236e-01    4,221060872e-01    0,000000000e+00    0,000000000e+00    0,000000000e+00    0,000000000e+00
     1444000000   -4,068630282e-03    1,506625488e-02    1,119233444e-01    5,123820305e-01    0,000000000e+00    0,000000000e+00    0,000000000e+00    0,000000000e+00
     1458000000   -2,987843007e-02   -7,740283012e-02    4,264922738e-01    4,737040401e-01    0,000000000e+00    0,000000000e+00    0,000000000e+00    0,000000000e+00
     1472000000   -1,105662659e-01   -1,449934691e-01    7,105423808e-01    3,054273725e-01    0,000000000e+00    0,000000000e+00    0,000000000e+00    0,000000000e+00
     1486000000   -2,173429281e-01   -1,507105976e-01    8,729662895e-01   -2,895784937e-02    0,000000000e+00    0,000000000e+00    0,000000000e+00    0,000000000e+00
     1500000000   -2,920070589e-01   -7,860511541e-02    8,461971283e-01   -4,154203534e-01    0,000000000e+00    0,000000000e+00    0,000000000e+00    0,000000000e+00
