! NanoVNA-App
! Date: 2025-09-26 09:58:50
! Start: 100MHz Stop: 1,5GHz Points: 101
! S-Parameter data: F S11 S21 S12 S22
# Hz S RI R 50
!     Frequency           S11_Real           S11_Imag           S21_Real           S21_Imag           S12_Real           S12_Imag           S22_Real           S22_Imag
      100000000    3,585177287e-02    2,686675079e-02    4,404203892e-01   -6,702554226e-01    0,000000000e+00    0,000000000e+00    0,000000000e+00    0,000000000e+00
      114000000    6,051528454e-02    1,487044967e-03    1,202405151e-02   -7,960478067e-01    0,000000000e+00    0,000000000e+00    0,000000000e+00    0,000000000e+00
      128000000    6,753438711e-02   -4,275731742e-02   -4,091847539e-01   -6,783350706e-01    0,000000000e+00    0,000000000e+00    0,000000000e+00    0,000000000e+00
      142000000    4,240479320e-02   -8,868849277e-02   -7,064851522e-01   -3,604785800e-01    0,000000000e+00    0,000000000e+00    0,000000000e+00    0,000000000e+00
      156000000   -1,057490241e-02   -1,089306921e-01   -7,932236195e-01    6,888113171e-02    0,000000000e+00    0,000000000e+00    0,000000000e+00    0,000000000e+00
      170000000   -6,297856569e-02   -9,059815854e-02   -6,365363002e-01    4,878883362e-01    0,000000000e+00    0,000000000e+00    0,000000000e+00    0,000000000e+00
      184000000   -8,841787279e-02   -4,651064426e-02   -2,719841003e-01    7,573955655e-01    0,000000000e+00    0,000000000e+00    0,000000000e+00    0,000000000e+00
      198000000   -8,227325231e-02   -5,418282934e-03    1,813904941e-01    7,825657129e-01    0,000000000e+00    0,000000000e+00    0,000000000e+00    0,000000000e+00
      212000000   -6,187292188e-02    1,894586533e-02    5,719910264e-01    5,579808354e-01    0,000000000e+00    0,000000000e+00    0,000000000e+00    0,000000000e+00
      226000000   -4,004705697e-02    3,251662478e-02    7,775828838e-01    1,609314531e-01    0,000000000e+00    0,000000000e+00    0,000000000e+00    0,000000000e+00
      240000000   -1,296542957e-02    4,117959738e-02    7,363131642e-01   -2,794498801e-01    0,000000000e+00    0,000000000e+00    0,000000000e+00    0,000000000e+00
      254000000    2,307662368e-02    3,498840705e-02    4,681811631e-01   -6,229053140e-01    0,000000000e+00    0,000000000e+00    0,000000000e+00    0,000000000e+00
      268000000    5,380718037e-02    2,573823556e-03    6,679168344e-02   -7,684939504e-01    0,000000000e+00    0,000000000e+00    0,000000000e+00    0,000000000e+00
      282000000    5,645453185e-02   -4,694768414e-02   -3,456057310e-01   -6,836427450e-01    0,000000000e+00    0,000000000e+00    0,000000000e+00    0,000000000e+00
      296000000    2,423126437e-02   -8,537879586e-02   -6,559381485e-01   -3,983582258e-01    0,000000000e+00    0,000000000e+00    0,000000000e+00    0,000000000e+00
      310000000   -2,075402439e-02   -8,853300661e-02   -7,751309872e-01    1,216139086e-02    0,000000000e+00    0,000000000e+00    0,000000000e+00    0,000000000e+00
      324000000   -4,729086533e-02   -6,214780360e-02   -6,483554244e-01    4,301533401e-01    0,000000000e+00    0,000000000e+00    0,000000000e+00    0,000000000e+00
      338000000   -4,071306810e-02   -3,640097752e-02   -3,107708395e-01    7,107225060e-01    0,000000000e+00    0,000000000e+00    0,000000000e+00    0,000000000e+00
      352000000   -2,282145061e-02   -3,697251529e-02    1,202765107e-01    7,590882182e-01    0,000000000e+00    0,000000000e+00    0,000000000e+00    0,000000000e+00
      366000000   -2,221451700e-02   -5,563155934e-02    5,041854978e-01    5,715869069e-01    0,000000000e+00    0,000000000e+00    0,000000000e+00    0,000000000e+00
      380000000   -4,365256429e-02   -6,441786885e-02    7,268884778e-01    2,112723738e-01    0,000000000e+00    0,000000000e+00    0,000000000e+00    0,000000000e+00
      394000000   -6,499175727e-02   -5,025738850e-02    7,234529853e-01   -2,140313089e-01    0,000000000e+00    0,000000000e+00    0,000000000e+00    0,000000000e+00
      408000000   -6,584432721e-02   -2,690127864e-02    4,897313416e-01   -5,690163970e-01    0,000000000e+00    0,000000000e+00    0,000000000e+00    0,000000000e+00
      422000000   -5,234522745e-02   -1,699405536e-02    1,059082448e-01   -7,394757271e-01    0,000000000e+00    0,000000000e+00    0,000000000e+00    0,000000000e+00
      436000000   -4,699029028e-02   -1,983382925e-02   -3,069598973e-01   -6,769656539e-01    0,000000000e+00    0,000000000e+00    0,000000000e+00    0,000000000e+00
      450000000   -5,304923654e-02   -1,542239171e-02   -6,196043491e-01   -4,011642635e-01    0,000000000e+00    0,000000000e+00    0,000000000e+00    0,000000000e+00
      464000000   -5,096996948e-02    7,009542082e-03   -7,314920425e-01    4,007773474e-03    0,000000000e+00    0,000000000e+00    0,000000000e+00    0,000000000e+00
      478000000   -1,982529834e-02    2,801939286e-02   -5,990357995e-01    3,987733424e-01    0,000000000e+00    0,000000000e+00    0,000000000e+00    0,000000000e+00
      492000000    2,989321388e-02    1,485175267e-02   -2,802308798e-01    6,454101801e-01    0,000000000e+00    0,000000000e+00    0,000000000e+00    0,000000000e+00
      506000000    6,069560349e-02   -3,892984241e-02    1,048639938e-01    6,803582907e-01    0,000000000e+00    0,000000000e+00    0,000000000e+00    0,000000000e+00
      520000000    4,463061318e-02   -1,058701277e-01    4,474650323e-01    5,176160932e-01    0,000000000e+00    0,000000000e+00    0,000000000e+00    0,000000000e+00
      534000000   -1,400859281e-02   -1,469414383e-01    6,502133012e-01    2,038107365e-01    0,000000000e+00    0,000000000e+00    0,000000000e+00    0,000000000e+00
      548000000   -8,512619138e-02   -1,424526870e-01    6,583046913e-01   -1,794696152e-01    0,000000000e+00    0,000000000e+00    0,000000000e+00    0,000000000e+00
      562000000   -1,392462105e-01   -9,783567488e-02    4,431958497e-01   -5,101286769e-01    0,000000000e+00    0,000000000e+00    0,000000000e+00    0,000000000e+00
      576000000   -1,604954600e-01   -2,369762212e-02    6,691326201e-02   -6,476953030e-01    0,000000000e+00    0,000000000e+00    0,000000000e+00    0,000000000e+00
      590000000   -1,060023084e-01    6,694466621e-02   -2,787114382e-01   -5,157914758e-01    0,000000000e+00    0,000000000e+00    0,000000000e+00    0,000000000e+00
      604000000    2,698024735e-02    1,622227952e-02   -3,967373967e-01   -3,206368983e-01    0,000000000e+00    0,000000000e+00    0,000000000e+00    0,000000000e+00
      618000000   -3,069940209e-02   -8,540979773e-02   -5,639083385e-01   -1,349777281e-01    0,000000000e+00    0,000000000e+00    0,000000000e+00    0,000000000e+00
      632000000   -9,788541496e-02   -4,846183583e-02   -5,920147896e-01    2,204009145e-01    0,000000000e+00    0,000000000e+00    0,000000000e+00    0,000000000e+00
      646000000   -8,473022282e-02    6,795935798e-03   -3,732241094e-01    5,269606113e-01    0,000000000e+00    0,000000000e+00    0,000000000e+00    0,000000000e+00
      660000000   -3,862130269e-02    1,691838354e-02   -2,302294783e-02    6,431444883e-01    0,000000000e+00    0,000000000e+00    0,000000000e+00    0,000000000e+00
      674000000   -9,868129157e-03   -7,700267714e-03    3,220266700e-01    5,493554473e-01    0,000000000e+00    0,000000000e+00    0,000000000e+00    0,000000000e+00
      688000000   -1,107283123e-02   -3,628954664e-02    5,610040426e-01    2,910075784e-01    0,000000000e+00    0,000000000e+00    0,000000000e+00    0,000000000e+00
      702000000   -2,074000053e-02   -4,932643473e-02    6,222441792e-01   -5,984891206e-02    0,000000000e+00    0,000000000e+00    0,000000000e+00    0,000000000e+00
      716000000   -2,193757705e-02   -5,433502421e-02    4,864194989e-01   -3,838606775e-01    0,000000000e+00    0,000000000e+00    0,000000000e+00    0,000000000e+00
      730000000   -1,952329464e-02   -7,319336385e-02    1,971092373e-01   -5,782558322e-01    0,000000000e+00    0,000000000e+00    0,000000000e+00    0,000000000e+00
      744000000   -3,391554952e-02   -1,018147245e-01   -1,408457458e-01   -5,868949890e-01    0,000000000e+00    0,000000000e+00    0,000000000e+00    0,000000000e+00
      758000000   -7,463110238e-02   -1,195791289e-01   -4,324440956e-01   -4,197180271e-01    0,000000000e+00    0,000000000e+00    0,000000000e+00    0,000000000e+00
      772000000   -1,262628883e-01   -1,055368111e-01   -5,933220983e-01   -1,206371561e-01    0,000000000e+00    0,000000000e+00    0,000000000e+00    0,000000000e+00
      786000000   -1,565210968e-01   -5,894490331e-02   -5,666337013e-01    2,213165164e-01    0,000000000e+00    0,000000000e+00    0,000000000e+00    0,000000000e+00
      800000000   -1,507026851e-01   -5,849036388e-03   -3,569630682e-01    4,921624064e-01    0,000000000e+00    0,000000000e+00    0,000000000e+00    0,000000000e+00
      814000000   -1,188481376e-01    3,039426170e-02   -3,828920051e-02    6,039209962e-01    0,000000000e+00    0,000000000e+00    0,000000000e+00    0,000000000e+00
      828000000   -7,854418457e-02    4,083335772e-02    2,844564319e-01    5,321670771e-01    0,000000000e+00    0,000000000e+00    0,000000000e+00    0,000000000e+00
      842000000   -4,407192394e-02    3,416568041e-02    5,160256624e-01    3,000327349e-01    0,000000000e+00    0,000000000e+00    0,000000000e+00    0,000000000e+00
      856000000   -1,681830734e-02    1,766664162e-02    5,890863538e-01   -1,570466533e-02    0,000000000e+00    0,000000000e+00    0,000000000e+00    0,000000000e+00
      870000000    7,236410864e-03   -1,039308216e-02    4,813691974e-01   -3,179370165e-01    0,000000000e+00    0,000000000e+00    0,000000000e+00    0,000000000e+00
      884000000    1,574093662e-02   -5,585844070e-02    2,377998233e-01   -5,111835003e-01    0,000000000e+00    0,000000000e+00    0,000000000e+00    0,000000000e+00
      898000000   -7,094776724e-03   -1,076847985e-01   -6,424023211e-02   -5,517333746e-01    0,000000000e+00    0,000000000e+00    0,000000000e+00    0,000000000e+00
      912000000   -6,962575763e-02   -1,322536021e-01   -4,011251032e-01   -4,070748985e-01    0,000000000e+00    0,000000000e+00    0,000000000e+00    0,000000000e+00
      926000000   -1,302383095e-01   -1,090190634e-01   -5,619378686e-01   -1,386329532e-01    0,000000000e+00    0,000000000e+00    0,000000000e+00    0,000000000e+00
      940000000   -1,558691710e-01   -4,978754371e-02   -5,537970066e-01    1,969237924e-01    0,000000000e+00    0,000000000e+00    0,000000000e+00    0,000000000e+00
      954000000   -1,293381602e-01    1,796686905e-03   -3,609817326e-01    4,704574049e-01    0,000000000e+00    0,000000000e+00    0,000000000e+00    0,000000000e+00
      968000000   -8,715599775e-02    1,032471471e-02   -6,256522238e-02    5,931201577e-01    0,000000000e+00    0,000000000e+00    0,000000000e+00    0,000000000e+00
      982000000   -6,281666458e-02   -1,588629559e-02    2,584180832e-01    5,457338691e-01    0,000000000e+00    0,000000000e+00    0,000000000e+00    0,000000000e+00
      996000000   -6,298848987e-02   -4,199025780e-02    5,042715073e-01    3,471194804e-01    0,000000000e+00    0,000000000e+00    0,000000000e+00    0,000000000e+00
     1010000000   -8,700781316e-02   -5,463067815e-02    6,165288091e-01    4,724667966e-02    0,000000000e+00    0,000000000e+00    0,000000000e+00    0,000000000e+00
     1024000000   -1,024597809e-01   -4,405527934e-02    5,494806170e-01   -2,709108889e-01    0,000000000e+00    0,000000000e+00    0,000000000e+00    0,000000000e+00
     1038000000   -1,098578796e-01   -3,332282230e-02    3,264765143e-01   -5,042019486e-01    0,000000000e+00    0,000000000e+00    0,000000000e+00    0,000000000e+00
     1052000000   -1,092582121e-01   -2,552858926e-02    1,481684949e-02   -5,742079020e-01    0,000000000e+00    0,000000000e+00    0,000000000e+00    0,000000000e+00
     1066000000   -1,134062484e-01   -1,197806187e-02   -2,784879506e-01   -4,744295180e-01    0,000000000e+00    0,000000000e+00    0,000000000e+00    0,000000000e+00
     1080000000   -1,006352678e-01    1,718572527e-02   -4,573960602e-01   -2,442000508e-01    0,000000000e+00    0,000000000e+00    0,000000000e+00    0,000000000e+00
     1094000000   -6,656794995e-02    2,591725439e-02   -4,936049581e-01    3,985258937e-02    0,000000000e+00    0,000000000e+00    0,000000000e+00    0,000000000e+00
     1108000000   -2,099645138e-02    2,711001784e-03   -3,834669292e-01    2,938338220e-01    0,000000000e+00    0,000000000e+00    0,000000000e+00    0,000000000e+00
     1122000000   -4,462617915e-03   -4,428028315e-02   -1,547209769e-01    4,567912817e-01    0,000000000e+00    0,000000000e+00    0,000000000e+00    0,000000000e+00
     1136000000   -1,627901010e-02   -1,044188738e-01    1,385497898e-01    4,785190225e-01    0,000000000e+00    0,000000000e+00    0,000000000e+00    0,000000000e+00
     1150000000   -6,942220777e-02   -1,463548094e-01    4,148473740e-01    3,304580152e-01    0,000000000e+00    0,000000000e+00    0,000000000e+00    0,000000000e+00
     1164000000   -1,458907872e-01   -1,540273875e-01    5,768587589e-01    3,210619837e-02    0,000000000e+00    0,000000000e+00    0,000000000e+00    0,000000000e+00
     1178000000   -2,011995018e-01   -1,095598862e-01    5,310540199e-01   -3,284613788e-01    0,000000000e+00    0,000000000e+00    0,000000000e+00    0,000000000e+00
     1192000000   -2,178286016e-01   -4,556493089e-02    2,718494236e-01   -6,089637280e-01    0,000000000e+00    0,000000000e+00    0,000000000e+00    0,000000000e+00
     1206000000   -2,073021978e-01   -7,433771156e-03   -1,065599769e-01   -6,781657934e-01    0,000000000e+00    0,000000000e+00    0,000000000e+00    0,000000000e+00
     1220000000   -2,099684030e-01    1,168527361e-02   -4,402410388e-01   -5,134664178e-01    0,000000000e+00    0,000000000e+00    0,000000000e+00    0,000000000e+00
     1234000000   -2,157067657e-01    7,539109141e-02   -5,819993019e-01   -2,176557928e-01    0,000000000e+00    0,000000000e+00    0,000000000e+00    0,000000000e+00
     1248000000   -1,446815431e-01    1,562103480e-01   -5,643963814e-01    5,393177643e-02    0,000000000e+00    0,000000000e+00    0,000000000e+00    0,000000000e+00
     1262000000   -1,129673794e-02    1,464797556e-01   -4,588202834e-01    2,845238447e-01    0,000000000e+00    0,000000000e+00    0,000000000e+00    0,000000000e+00
     1276000000    6,397621334e-02    4,994163662e-02   -2,597781420e-01    4,523951113e-01    0,000000000e+00    0,000000000e+00    0,000000000e+00    0,000000000e+00
     1290000000    8,236178011e-02   -6,713308394e-02    6,273480598e-03    5,196862817e-01    0,000000000e+00    0,000000000e+00    0,000000000e+00    0,000000000e+00
     1304000000    3,281279653e-02   -1,824314296e-01    2,777849734e-01    4,581174254e-01    0,000000000e+00    0,000000000e+00    0,000000000e+00    0,000000000e+00
     1318000000   -8,694311231e-02   -2,589071989e-01    5,161564350e-01    2,703945339e-01    0,000000000e+00    0,000000000e+00    0,000000000e+00    0,000000000e+00
     1332000000   -2,399774641e-01   -2,532565594e-01    6,331046224e-01   -3,650818765e-02    0,000000000e+00    0,000000000e+00    0,000000000e+00    0,000000000e+00
     1346000000   -3,656151295e-01   -1,472675800e-01    5,469330549e-01   -3,895187974e-01    0,000000000e+00    0,000000000e+00    0,000000000e+00    0,000000000e+00
     1360000000   -3,915555477e-01   -2,205532277e-03    2,661010027e-01   -6,219921708e-01    0,000000000e+00    0,000000000e+00    0,000000000e+00    0,000000000e+00
     1374000000   -3,347374797e-01    1,155119687e-01   -1,000110283e-01   -6,182658672e-01    0,000000000e+00    0,000000000e+00    0,000000000e+00    0,000000000e+00
     1388000000   -2,429931313e-01    1,665728837e-01   -3,691010475e-01   -4,190087914e-01    0,000000000e+00    0,000000000e+00    0,000000000e+00    0,000000000e+00
     1402000000   -1,556779891e-01    1,769905835e-01   -4,753099680e-01   -1,118737087e-01    0,000000000e+00    0,000000000e+00    0,000000000e+00    0,000000000e+00
     1416000000   -8,558692783e-02    1,505531520e-01   -3,956803083e-01    1,999521255e-01    0,000000000e+00    0,000000000e+00    0,000000000e+00    0,000000000e+00
     1430000000   -3,051077016e-02    9,365512431e-02   -1,979196817e-01    4,279998243e-01    0,000000000e+00    0,000000000e+00    0,000000000e+00    0,000000000e+00
     1444000000   -4,545286298e-03    1,767588779e-02    1,176149845e-01    5,189353824e-01    0,000000000e+00    0,000000000e+00    0,000000000e+00    0,000000000e+00
     1458000000   -2,930650860e-02   -7,627773285e-02    4,391212463e-01    4,845243692e-01    0,000000000e+00    0,000000000e+00    0,000000000e+00    0,000000000e+00
     1472000000   -1,081056073e-01   -1,485724896e-01    7,254052162e-01    2,899369299e-01    0,000000000e+00    0,000000000e+00    0,000000000e+00    0,000000000e+00
     1486000000   -2,218108326e-01   -1,496538371e-01    8,728281856e-01   -4,155727103e-02    0,000000000e+00    0,000000000e+00    0,000000000e+00    0,000000000e+00
     1500000000   -2,953161299e-01   -7,996029407e-02    8,268111348e-01   -4,233686328e-01    0,000000000e+00    0,000000000e+00    0,000000000e+00    0,000000000e+00
