! NanoVNA-App
! Date: 2025-09-26 09:58:25
! Start: 100MHz Stop: 1,5GHz Points: 101
! S-Parameter data: F S11 S21 S12 S22
# Hz S RI R 50
!     Frequency           S11_Real           S11_Imag           S21_Real           S21_Imag           S12_Real           S12_Imag           S22_Real           S22_Imag
      100000000    3,579112887e-02    2,685560472e-02    4,404380322e-01   -6,702619791e-01    0,000000000e+00    0,000000000e+00    0,000000000e+00    0,000000000e+00
      114000000    6,045490876e-02    1,480241073e-03    1,209585462e-02   -7,958626151e-01    0,000000000e+00    0,000000000e+00    0,000000000e+00    0,000000000e+00
      128000000    6,754676253e-02   -4,271463305e-02   -4,090198576e-01   -6,782229543e-01    0,000000000e+00    0,000000000e+00    0,000000000e+00    0,000000000e+00
      142000000    4,237817228e-02   -8,858866245e-02   -7,062119842e-01   -3,604317904e-01    0,000000000e+00    0,000000000e+00    0,000000000e+00    0,000000000e+00
      156000000   -9,596989490e-03   -1,095805168e-01   -7,949588895e-01    6,968297064e-02    0,000000000e+00    0,000000000e+00    0,000000000e+00    0,000000000e+00
      170000000   -6,296028942e-02   -9,049475193e-02   -6,366562247e-01    4,879009426e-01    0,000000000e+00    0,000000000e+00    0,000000000e+00    0,000000000e+00
      184000000   -8,833915740e-02   -4,647437483e-02   -2,719998956e-01    7,575924993e-01    0,000000000e+00    0,000000000e+00    0,000000000e+00    0,000000000e+00
      198000000   -8,218054473e-02   -5,328364205e-03    1,812680960e-01    7,824801207e-01    0,000000000e+00    0,000000000e+00    0,000000000e+00    0,000000000e+00
      212000000   -6,176235527e-02    1,901290566e-02    5,719225407e-01    5,577967167e-01    0,000000000e+00    0,000000000e+00    0,000000000e+00    0,000000000e+00
      226000000   -3,997645900e-02    3,252889961e-02    7,775184512e-01    1,609071195e-01    0,000000000e+00    0,000000000e+00    0,000000000e+00    0,000000000e+00
      240000000   -1,295383461e-02    4,115693271e-02    7,364111543e-01   -2,795659602e-01    0,000000000e+00    0,000000000e+00    0,000000000e+00    0,000000000e+00
      254000000    2,313257009e-02    3,490277380e-02    4,681695104e-01   -6,226500273e-01    0,000000000e+00    0,000000000e+00    0,000000000e+00    0,000000000e+00
      268000000    5,378880352e-02    2,527996665e-03    6,665263325e-02   -7,681764364e-01    0,000000000e+00    0,000000000e+00    0,000000000e+00    0,000000000e+00
      282000000    5,629489571e-02   -4,680695757e-02   -3,459883332e-01   -6,837999225e-01    0,000000000e+00    0,000000000e+00    0,000000000e+00    0,000000000e+00
      296000000    2,423289232e-02   -8,539836854e-02   -6,559675336e-01   -3,984161019e-01    0,000000000e+00    0,000000000e+00    0,000000000e+00    0,000000000e+00
      310000000   -2,099126764e-02   -8,874797076e-02   -7,745937705e-01    1,218686812e-02    0,000000000e+00    0,000000000e+00    0,000000000e+00    0,000000000e+00
      324000000   -4,737383872e-02   -6,195972487e-02   -6,475289464e-01    4,316985011e-01    0,000000000e+00    0,000000000e+00    0,000000000e+00    0,000000000e+00
      338000000   -4,117551073e-02   -3,638367727e-02   -3,112876117e-01    7,115206122e-01    0,000000000e+00    0,000000000e+00    0,000000000e+00    0,000000000e+00
      352000000   -2,312550321e-02   -3,653061390e-02    1,198498756e-01    7,584415674e-01    0,000000000e+00    0,000000000e+00    0,000000000e+00    0,000000000e+00
      366000000   -2,221445926e-02   -5,519905686e-02    5,037618876e-01    5,716750026e-01    0,000000000e+00    0,000000000e+00    0,000000000e+00    0,000000000e+00
      380000000   -4,391491786e-02   -6,443403661e-02    7,271519303e-01    2,112063468e-01    0,000000000e+00    0,000000000e+00    0,000000000e+00    0,000000000e+00
      394000000   -6,462796777e-02   -5,018166080e-02    7,236434221e-01   -2,140931189e-01    0,000000000e+00    0,000000000e+00    0,000000000e+00    0,000000000e+00
      408000000   -6,555476785e-02   -2,718399651e-02    4,901427925e-01   -5,698344707e-01    0,000000000e+00    0,000000000e+00    0,000000000e+00    0,000000000e+00
      422000000   -5,243342370e-02   -1,685160398e-02    1,054308563e-01   -7,391067743e-01    0,000000000e+00    0,000000000e+00    0,000000000e+00    0,000000000e+00
      436000000   -4,719148204e-02   -1,970739104e-02   -3,069020808e-01   -6,764641404e-01    0,000000000e+00    0,000000000e+00    0,000000000e+00    0,000000000e+00
      450000000   -5,263986439e-02   -1,580817997e-02   -6,198388338e-01   -4,003336728e-01    0,000000000e+00    0,000000000e+00    0,000000000e+00    0,000000000e+00
      464000000   -5,088320374e-02    6,378872320e-03   -7,308842540e-01    3,674847540e-03    0,000000000e+00    0,000000000e+00    0,000000000e+00    0,000000000e+00
      478000000   -1,993371733e-02    2,761047520e-02   -5,986112356e-01    3,980598748e-01    0,000000000e+00    0,000000000e+00    0,000000000e+00    0,000000000e+00
      492000000    3,003679216e-02    1,465785038e-02   -2,802501917e-01    6,442594528e-01    0,000000000e+00    0,000000000e+00    0,000000000e+00    0,000000000e+00
      506000000    6,048042327e-02   -3,867520764e-02    1,056234613e-01    6,806983352e-01    0,000000000e+00    0,000000000e+00    0,000000000e+00    0,000000000e+00
      520000000    4,419213161e-02   -1,045999303e-01    4,436211288e-01    5,184580088e-01    0,000000000e+00    0,000000000e+00    0,000000000e+00    0,000000000e+00
      534000000   -1,420374773e-02   -1,463770568e-01    6,492962241e-01    2,044952065e-01    0,000000000e+00    0,000000000e+00    0,000000000e+00    0,000000000e+00
      548000000   -8,546108752e-02   -1,411223263e-01    6,577242613e-01   -1,781172454e-01    0,000000000e+00    0,000000000e+00    0,000000000e+00    0,000000000e+00
      562000000   -1,381805390e-01   -9,518894553e-02    4,437048733e-01   -5,069983006e-01    0,000000000e+00    0,000000000e+00    0,000000000e+00    0,000000000e+00
      576000000   -1,544765830e-01   -2,431292087e-02    7,375087589e-02   -6,464132667e-01    0,000000000e+00    0,000000000e+00    0,000000000e+00    0,000000000e+00
      590000000   -1,038103476e-01    5,335787684e-02   -2,693375349e-01   -5,309100151e-01    0,000000000e+00    0,000000000e+00    0,000000000e+00    0,000000000e+00
      604000000    5,951497238e-03    1,906905696e-02   -4,215911031e-01   -3,223072588e-01    0,000000000e+00    0,000000000e+00    0,000000000e+00    0,000000000e+00
      618000000   -2,674963512e-02   -7,071665674e-02   -5,625188947e-01   -1,182025224e-01    0,000000000e+00    0,000000000e+00    0,000000000e+00    0,000000000e+00
      632000000   -8,738721907e-02   -4,805863276e-02   -5,809348822e-01    2,214846760e-01    0,000000000e+00    0,000000000e+00    0,000000000e+00    0,000000000e+00
      646000000   -8,066310734e-02    2,614741970e-04   -3,694821298e-01    5,218770504e-01    0,000000000e+00    0,000000000e+00    0,000000000e+00    0,000000000e+00
      660000000   -4,031579196e-02    1,281060185e-02   -2,405945957e-02    6,384243369e-01    0,000000000e+00    0,000000000e+00    0,000000000e+00    0,000000000e+00
      674000000   -1,392078865e-02   -9,233456105e-03    3,184636533e-01    5,483486056e-01    0,000000000e+00    0,000000000e+00    0,000000000e+00    0,000000000e+00
      688000000   -1,401341800e-02   -3,527485952e-02    5,584237576e-01    2,915548384e-01    0,000000000e+00    0,000000000e+00    0,000000000e+00    0,000000000e+00
      702000000   -2,211722732e-02   -4,554417729e-02    6,209623814e-01   -5,714130774e-02    0,000000000e+00    0,000000000e+00    0,000000000e+00    0,000000000e+00
      716000000   -2,097187750e-02   -5,239126459e-02    4,870288074e-01   -3,804398775e-01    0,000000000e+00    0,000000000e+00    0,000000000e+00    0,000000000e+00
      730000000   -1,784698479e-02   -7,088457048e-02    2,001193166e-01   -5,743224621e-01    0,000000000e+00    0,000000000e+00    0,000000000e+00    0,000000000e+00
      744000000   -3,056817316e-02   -1,020138413e-01   -1,377036870e-01   -5,858477950e-01    0,000000000e+00    0,000000000e+00    0,000000000e+00    0,000000000e+00
      758000000   -7,364070415e-02   -1,236481890e-01   -4,283443987e-01   -4,218333066e-01    0,000000000e+00    0,000000000e+00    0,000000000e+00    0,000000000e+00
      772000000   -1,277798563e-01   -1,084801257e-01   -5,933800936e-01   -1,268992573e-01    0,000000000e+00    0,000000000e+00    0,000000000e+00    0,000000000e+00
      786000000   -1,620410681e-01   -5,831796303e-02   -5,727734566e-01    2,174767554e-01    0,000000000e+00    0,000000000e+00    0,000000000e+00    0,000000000e+00
      800000000   -1,527032852e-01   -9,520974127e-04   -3,637618423e-01    4,946075380e-01    0,000000000e+00    0,000000000e+00    0,000000000e+00    0,000000000e+00
      814000000   -1,154443324e-01    3,445564955e-02   -4,051904753e-02    6,089272499e-01    0,000000000e+00    0,000000000e+00    0,000000000e+00    0,000000000e+00
      828000000   -7,435077429e-02    4,087599367e-02    2,882101238e-01    5,341725349e-01    0,000000000e+00    0,000000000e+00    0,000000000e+00    0,000000000e+00
      842000000   -4,288806394e-02    3,073595650e-02    5,202158093e-01    3,002471924e-01    0,000000000e+00    0,000000000e+00    0,000000000e+00    0,000000000e+00
      856000000   -1,872087643e-02    1,494225301e-02    5,912023187e-01   -1,877562515e-02    0,000000000e+00    0,000000000e+00    0,000000000e+00    0,000000000e+00
      870000000    3,325643018e-03   -1,147448085e-02    4,801717103e-01   -3,203625083e-01    0,000000000e+00    0,000000000e+00    0,000000000e+00    0,000000000e+00
      884000000    1,376891695e-02   -5,439564213e-02    2,353028208e-01   -5,128886104e-01    0,000000000e+00    0,000000000e+00    0,000000000e+00    0,000000000e+00
      898000000   -6,871428341e-03   -1,046424285e-01   -6,598353386e-02   -5,505969524e-01    0,000000000e+00    0,000000000e+00    0,000000000e+00    0,000000000e+00
      912000000   -6,770785153e-02   -1,304159015e-01   -3,963413835e-01   -4,164201617e-01    0,000000000e+00    0,000000000e+00    0,000000000e+00    0,000000000e+00
      926000000   -1,283356398e-01   -1,108729020e-01   -5,623725653e-01   -1,372343749e-01    0,000000000e+00    0,000000000e+00    0,000000000e+00    0,000000000e+00
      940000000   -1,537050754e-01   -5,300150812e-02   -5,538405180e-01    1,962946355e-01    0,000000000e+00    0,000000000e+00    0,000000000e+00    0,000000000e+00
      954000000   -1,330227405e-01   -4,751261324e-03   -3,626695871e-01    4,704536200e-01    0,000000000e+00    0,000000000e+00    0,000000000e+00    0,000000000e+00
      968000000   -8,961264789e-02    1,012851391e-02   -6,084647775e-02    5,958396792e-01    0,000000000e+00    0,000000000e+00    0,000000000e+00    0,000000000e+00
      982000000   -6,329102069e-02   -1,191102527e-02    2,571597099e-01    5,498881936e-01    0,000000000e+00    0,000000000e+00    0,000000000e+00    0,000000000e+00
      996000000   -6,664529443e-02   -3,931874037e-02    5,062575936e-01    3,466221094e-01    0,000000000e+00    0,000000000e+00    0,000000000e+00    0,000000000e+00
     1010000000   -8,649147302e-02   -5,189963803e-02    6,153504252e-01    4,503181204e-02    0,000000000e+00    0,000000000e+00    0,000000000e+00    0,000000000e+00
     1024000000   -9,883979708e-02   -4,535217211e-02    5,489360094e-01   -2,725084126e-01    0,000000000e+00    0,000000000e+00    0,000000000e+00    0,000000000e+00
     1038000000   -1,074088216e-01   -3,481799364e-02    3,208857477e-01   -5,029324889e-01    0,000000000e+00    0,000000000e+00    0,000000000e+00    0,000000000e+00
     1052000000   -1,111848354e-01   -2,329308726e-02    1,574858464e-02   -5,717893243e-01    0,000000000e+00    0,000000000e+00    0,000000000e+00    0,000000000e+00
     1066000000   -1,126463041e-01   -1,132084802e-02   -2,723239660e-01   -4,716694951e-01    0,000000000e+00    0,000000000e+00    0,000000000e+00    0,000000000e+00
     1080000000   -1,006926894e-01    1,653951220e-02   -4,528307319e-01   -2,408773750e-01    0,000000000e+00    0,000000000e+00    0,000000000e+00    0,000000000e+00
     1094000000   -5,968633294e-02    2,238050848e-02   -4,917769134e-01    3,389740363e-02    0,000000000e+00    0,000000000e+00    0,000000000e+00    0,000000000e+00
     1108000000   -2,686810307e-02    4,186648584e-05   -3,831805587e-01    2,926872373e-01    0,000000000e+00    0,000000000e+00    0,000000000e+00    0,000000000e+00
     1122000000   -5,175848491e-03   -4,726909101e-02   -1,557135880e-01    4,595065415e-01    0,000000000e+00    0,000000000e+00    0,000000000e+00    0,000000000e+00
     1136000000   -1,664489135e-02   -1,065539792e-01    1,390410215e-01    4,817011356e-01    0,000000000e+00    0,000000000e+00    0,000000000e+00    0,000000000e+00
     1150000000   -6,957827508e-02   -1,462126523e-01    4,134231806e-01    3,329609931e-01    0,000000000e+00    0,000000000e+00    0,000000000e+00    0,000000000e+00
     1164000000   -1,443372220e-01   -1,530418992e-01    5,752096176e-01    3,449610248e-02    0,000000000e+00    0,000000000e+00    0,000000000e+00    0,000000000e+00
     1178000000   -2,033908367e-01   -1,115535945e-01    5,389112234e-01   -3,309351206e-01    0,000000000e+00    0,000000000e+00    0,000000000e+00    0,000000000e+00
     1192000000   -2,198243439e-01   -4,492379352e-02    2,706272900e-01   -6,106817126e-01    0,000000000e+00    0,000000000e+00    0,000000000e+00    0,000000000e+00
     1206000000   -1,991806626e-01   -1,160499547e-02   -1,026440486e-01   -6,790999174e-01    0,000000000e+00    0,000000000e+00    0,000000000e+00    0,000000000e+00
     1220000000   -2,029710859e-01    6,215859670e-03   -4,365373850e-01   -5,115443468e-01    0,000000000e+00    0,000000000e+00    0,000000000e+00    0,000000000e+00
     1234000000   -2,169850767e-01    7,412027568e-02   -5,803444982e-01   -2,146019936e-01    0,000000000e+00    0,000000000e+00    0,000000000e+00    0,000000000e+00
     1248000000   -1,423444301e-01    1,560616791e-01   -5,619844794e-01    5,643263459e-02    0,000000000e+00    0,000000000e+00    0,000000000e+00    0,000000000e+00
     1262000000   -1,712462679e-02    1,452053934e-01   -4,647012949e-01    2,814780474e-01    0,000000000e+00    0,000000000e+00    0,000000000e+00    0,000000000e+00
     1276000000    6,285542995e-02    5,291198194e-02   -2,613466680e-01    4,570298791e-01    0,000000000e+00    0,000000000e+00    0,000000000e+00    0,000000000e+00
     1290000000    8,460494131e-02   -6,395178288e-02    4,957764875e-03    5,166555643e-01    0,000000000e+00    0,000000000e+00    0,000000000e+00    0,000000000e+00
     1304000000    2,702508494e-02   -1,841471046e-01    2,751379609e-01    4,548127949e-01    0,000000000e+00    0,000000000e+00    0,000000000e+00    0,000000000e+00
     1318000000   -8,527819067e-02   -2,637341619e-01    5,186564326e-01    2,709541321e-01    0,000000000e+00    0,000000000e+00    0,000000000e+00    0,000000000e+00
     1332000000   -2,315448970e-01   -2,553526461e-01    6,436592937e-01   -3,798605874e-02    0,000000000e+00    0,000000000e+00    0,000000000e+00    0,000000000e+00
     1346000000   -3,610303104e-01   -1,501257420e-01    5,556558967e-01   -3,925015330e-01    0,000000000e+00    0,000000000e+00    0,000000000e+00    0,000000000e+00
     1360000000   -3,883700371e-01    1,151161268e-03    2,705619037e-01   -6,151682138e-01    0,000000000e+00    0,000000000e+00    0,000000000e+00    0,000000000e+00
     1374000000   -3,309957385e-01    1,176959649e-01   -9,862192720e-02   -6,079641581e-01    0,000000000e+00    0,000000000e+00    0,000000000e+00    0,000000000e+00
     1388000000   -2,397494316e-01    1,710286736e-01   -3,616724014e-01   -4,138086140e-01    0,000000000e+00    0,000000000e+00    0,000000000e+00    0,000000000e+00
     1402000000   -1,577430665e-01    1,732927263e-01   -4,652739763e-01   -1,045440137e-01    0,000000000e+00    0,000000000e+00    0,000000000e+00    0,000000000e+00
     1416000000   -8,616428077e-02    1,513159871e-01   -3,804574311e-01    1,978697777e-01    0,000000000e+00    0,000000000e+00    0,000000000e+00    0,000000000e+00
     1430000000   -3,032900020e-02    9,223724157e-02   -1,576448083e-01    4,228599072e-01    0,000000000e+00    0,000000000e+00    0,000000000e+00    0,000000000e+00
     1444000000   -6,526285782e-03    1,643271372e-02    1,219720244e-01    5,142062902e-01    0,000000000e+00    0,000000000e+00    0,000000000e+00    0,000000000e+00
     1458000000   -1,789846085e-02   -8,294634521e-02    4,329647124e-01    4,689725339e-01    0,000000000e+00    0,000000000e+00    0,000000000e+00    0,000000000e+00
     1472000000   -1,049473509e-01   -1,449855417e-01    7,320876718e-01    2,999843061e-01    0,000000000e+00    0,000000000e+00    0,000000000e+00    0,000000000e+00
     1486000000   -2,208575755e-01   -1,507992893e-01    8,834665418e-01   -4,875166342e-02    0,000000000e+00    0,000000000e+00    0,000000000e+00    0,000000000e+00
     1500000000   -2,981342375e-01   -7,724685967e-02    8,361634016e-01   -4,457769692e-01    0,000000000e+00    0,000000000e+00    0,000000000e+00    0,000000000e+00
