! NanoVNA-App
! Date: 2025-09-25 17:45:56
! Start: 100MHz Stop: 1,5GHz Points: 101
! S-Parameter data: F S11 S21 S12 S22
# Hz S RI R 50
!     Frequency           S11_Real           S11_Imag           S21_Real           S21_Imag           S12_Real           S12_Imag           S22_Real           S22_Imag
      100000000    3,575002775e-02    2,665433474e-02    4,403755367e-01   -6,695646644e-01    0,000000000e+00    0,000000000e+00    0,000000000e+00    0,000000000e+00
      114000000    6,036863849e-02    1,495234552e-03    1,238079835e-02   -7,954314351e-01    0,000000000e+00    0,000000000e+00    0,000000000e+00    0,000000000e+00
      128000000    6,752122194e-02   -4,265356809e-02   -4,087064564e-01   -6,780117750e-01    0,000000000e+00    0,000000000e+00    0,000000000e+00    0,000000000e+00
      142000000    4,242680594e-02   -8,852507174e-02   -7,055193782e-01   -3,603745103e-01    0,000000000e+00    0,000000000e+00    0,000000000e+00    0,000000000e+00
      156000000   -1,055219769e-02   -1,086347252e-01   -7,924036980e-01    6,808774173e-02    0,000000000e+00    0,000000000e+00    0,000000000e+00    0,000000000e+00
      170000000   -6,294861436e-02   -9,034186602e-02   -6,364128590e-01    4,873782694e-01    0,000000000e+00    0,000000000e+00    0,000000000e+00    0,000000000e+00
      184000000   -8,797762543e-02   -4,604200274e-02   -2,720216513e-01    7,564167380e-01    0,000000000e+00    0,000000000e+00    0,000000000e+00    0,000000000e+00
      198000000   -8,130765706e-02   -5,088492297e-03    1,804905832e-01    7,819632292e-01    0,000000000e+00    0,000000000e+00    0,000000000e+00    0,000000000e+00
      212000000   -6,057082862e-02    1,864152960e-02    5,707176924e-01    5,572137833e-01    0,000000000e+00    0,000000000e+00    0,000000000e+00    0,000000000e+00
      226000000   -3,917559609e-02    3,127855808e-02    7,764806747e-01    1,611424088e-01    0,000000000e+00    0,000000000e+00    0,000000000e+00    0,000000000e+00
      240000000   -1,303428411e-02    3,966648877e-02    7,356033325e-01   -2,790563405e-01    0,000000000e+00    0,000000000e+00    0,000000000e+00    0,000000000e+00
      254000000    2,209962718e-02    3,379691765e-02    4,676564038e-01   -6,222286820e-01    0,000000000e+00    0,000000000e+00    0,000000000e+00    0,000000000e+00
      268000000    5,247990415e-02    2,280613873e-03    6,621779501e-02   -7,672443390e-01    0,000000000e+00    0,000000000e+00    0,000000000e+00    0,000000000e+00
      282000000    5,541088060e-02   -4,644119367e-02   -3,462077379e-01   -6,827612519e-01    0,000000000e+00    0,000000000e+00    0,000000000e+00    0,000000000e+00
      296000000    2,347892337e-02   -8,472678810e-02   -6,560496688e-01   -3,971196413e-01    0,000000000e+00    0,000000000e+00    0,000000000e+00    0,000000000e+00
      310000000   -2,083726227e-02   -8,773558587e-02   -7,732890248e-01    1,217461936e-02    0,000000000e+00    0,000000000e+00    0,000000000e+00    0,000000000e+00
      324000000   -4,730127007e-02   -6,077543646e-02   -6,468253732e-01    4,316108227e-01    0,000000000e+00    0,000000000e+00    0,000000000e+00    0,000000000e+00
      338000000   -4,053115472e-02   -3,486547992e-02   -3,075555563e-01    7,102746367e-01    0,000000000e+00    0,000000000e+00    0,000000000e+00    0,000000000e+00
      352000000   -2,159612626e-02   -3,586290777e-02    1,210623085e-01    7,573376894e-01    0,000000000e+00    0,000000000e+00    0,000000000e+00    0,000000000e+00
      366000000   -2,022084221e-02   -5,556860566e-02    5,038719177e-01    5,700914264e-01    0,000000000e+00    0,000000000e+00    0,000000000e+00    0,000000000e+00
      380000000   -4,151151702e-02   -6,576274335e-02    7,263438702e-01    2,101573646e-01    0,000000000e+00    0,000000000e+00    0,000000000e+00    0,000000000e+00
      394000000   -6,410727650e-02   -5,245256424e-02    7,221547365e-01   -2,141344696e-01    0,000000000e+00    0,000000000e+00    0,000000000e+00    0,000000000e+00
      408000000   -6,611879170e-02   -2,912375517e-02    4,897961318e-01   -5,688844919e-01    0,000000000e+00    0,000000000e+00    0,000000000e+00    0,000000000e+00
      422000000   -5,383744463e-02   -1,827890426e-02    1,048654318e-01   -7,391885519e-01    0,000000000e+00    0,000000000e+00    0,000000000e+00    0,000000000e+00
      436000000   -4,818576202e-02   -2,046565711e-02   -3,074073792e-01   -6,753369570e-01    0,000000000e+00    0,000000000e+00    0,000000000e+00    0,000000000e+00
      450000000   -5,452935025e-02   -1,569142565e-02   -6,209215522e-01   -3,994427025e-01    0,000000000e+00    0,000000000e+00    0,000000000e+00    0,000000000e+00
      464000000   -5,203477293e-02    6,590912119e-03   -7,298125625e-01    4,330197349e-03    0,000000000e+00    0,000000000e+00    0,000000000e+00    0,000000000e+00
      478000000   -2,154952101e-02    2,769429609e-02   -5,985625386e-01    3,977096379e-01    0,000000000e+00    0,000000000e+00    0,000000000e+00    0,000000000e+00
      492000000    2,780668065e-02    1,607987843e-02   -2,800653875e-01    6,445494294e-01    0,000000000e+00    0,000000000e+00    0,000000000e+00    0,000000000e+00
      506000000    5,903828517e-02   -3,558985144e-02    1,054483801e-01    6,800451875e-01    0,000000000e+00    0,000000000e+00    0,000000000e+00    0,000000000e+00
      520000000    4,565163329e-02   -1,007583514e-01    4,443510473e-01    5,210805535e-01    0,000000000e+00    0,000000000e+00    0,000000000e+00    0,000000000e+00
      534000000   -1,009327453e-02   -1,422886997e-01    6,496527791e-01    2,063793242e-01    0,000000000e+00    0,000000000e+00    0,000000000e+00    0,000000000e+00
      548000000   -7,783361524e-02   -1,392984539e-01    6,613790989e-01   -1,751648933e-01    0,000000000e+00    0,000000000e+00    0,000000000e+00    0,000000000e+00
      562000000   -1,258445680e-01   -1,007315069e-01    4,550141096e-01   -5,091700554e-01    0,000000000e+00    0,000000000e+00    0,000000000e+00    0,000000000e+00
      576000000   -1,468344033e-01   -4,721494019e-02    8,608461171e-02   -6,667093039e-01    0,000000000e+00    0,000000000e+00    0,000000000e+00    0,000000000e+00
      590000000   -1,399608850e-01    1,718542166e-02   -3,020298183e-01   -5,749933124e-01    0,000000000e+00    0,000000000e+00    0,000000000e+00    0,000000000e+00
      604000000   -6,194838881e-02    8,275581151e-02   -5,161803365e-01   -2,596412003e-01    0,000000000e+00    0,000000000e+00    0,000000000e+00    0,000000000e+00
      618000000    6,448547542e-02   -7,676093373e-03   -4,638403952e-01   -2,125779167e-02    0,000000000e+00    0,000000000e+00    0,000000000e+00    0,000000000e+00
      632000000   -4,725804925e-02   -1,190470383e-01   -5,206585526e-01    1,479061991e-01    0,000000000e+00    0,000000000e+00    0,000000000e+00    0,000000000e+00
      646000000   -1,130446643e-01   -3,643933311e-02   -3,968729973e-01    4,773483574e-01    0,000000000e+00    0,000000000e+00    0,000000000e+00    0,000000000e+00
      660000000   -7,175365835e-02    1,751908287e-02   -5,553562194e-02    6,371258497e-01    0,000000000e+00    0,000000000e+00    0,000000000e+00    0,000000000e+00
      674000000   -2,668666281e-02    8,635240607e-03    3,047490716e-01    5,608983040e-01    0,000000000e+00    0,000000000e+00    0,000000000e+00    0,000000000e+00
      688000000   -1,047448814e-02   -1,878984831e-02    5,560101867e-01    3,041146398e-01    0,000000000e+00    0,000000000e+00    0,000000000e+00    0,000000000e+00
      702000000   -1,149156503e-02   -3,727689385e-02    6,244636178e-01   -4,862646759e-02    0,000000000e+00    0,000000000e+00    0,000000000e+00    0,000000000e+00
      716000000   -9,098412469e-03   -5,166115984e-02    4,947445393e-01   -3,760332465e-01    0,000000000e+00    0,000000000e+00    0,000000000e+00    0,000000000e+00
      730000000   -8,968748152e-03   -7,856954634e-02    2,089974433e-01   -5,756760240e-01    0,000000000e+00    0,000000000e+00    0,000000000e+00    0,000000000e+00
      744000000   -3,053989075e-02   -1,125777289e-01   -1,323506981e-01   -5,939180851e-01    0,000000000e+00    0,000000000e+00    0,000000000e+00    0,000000000e+00
      758000000   -7,871653885e-02   -1,311551481e-01   -4,306910634e-01   -4,328015149e-01    0,000000000e+00    0,000000000e+00    0,000000000e+00    0,000000000e+00
      772000000   -1,386018544e-01   -1,102851927e-01   -6,031570435e-01   -1,330306679e-01    0,000000000e+00    0,000000000e+00    0,000000000e+00    0,000000000e+00
      786000000   -1,700650603e-01   -5,191772431e-02   -5,852205753e-01    2,223467827e-01    0,000000000e+00    0,000000000e+00    0,000000000e+00    0,000000000e+00
      800000000   -1,527233720e-01    1,183999330e-02   -3,685720265e-01    5,080482364e-01    0,000000000e+00    0,000000000e+00    0,000000000e+00    0,000000000e+00
      814000000   -1,053134724e-01    4,154074192e-02   -3,384100646e-02    6,194706559e-01    0,000000000e+00    0,000000000e+00    0,000000000e+00    0,000000000e+00
      828000000   -6,116814539e-02    3,691899404e-02    2,976388633e-01    5,373859406e-01    0,000000000e+00    0,000000000e+00    0,000000000e+00    0,000000000e+00
      842000000   -3,656862676e-02    1,905999333e-02    5,294569135e-01    2,966355085e-01    0,000000000e+00    0,000000000e+00    0,000000000e+00    0,000000000e+00
      856000000   -2,275183052e-02    3,504046472e-03    5,969360471e-01   -2,686946280e-02    0,000000000e+00    0,000000000e+00    0,000000000e+00    0,000000000e+00
      870000000   -7,394650485e-03   -1,636234112e-02    4,816128016e-01   -3,296944499e-01    0,000000000e+00    0,000000000e+00    0,000000000e+00    0,000000000e+00
      884000000    2,204650780e-03   -4,969756305e-02    2,310289890e-01   -5,194723010e-01    0,000000000e+00    0,000000000e+00    0,000000000e+00    0,000000000e+00
      898000000   -1,028530952e-02   -9,333333373e-02   -7,236826420e-02   -5,560649037e-01    0,000000000e+00    0,000000000e+00    0,000000000e+00    0,000000000e+00
      912000000   -6,288228184e-02   -1,219594851e-01   -4,006337225e-01   -4,181240201e-01    0,000000000e+00    0,000000000e+00    0,000000000e+00    0,000000000e+00
      926000000   -1,175979599e-01   -1,110216826e-01   -5,735483170e-01   -1,359313577e-01    0,000000000e+00    0,000000000e+00    0,000000000e+00    0,000000000e+00
      940000000   -1,512771696e-01   -5,992581323e-02   -5,671082139e-01    2,081179917e-01    0,000000000e+00    0,000000000e+00    0,000000000e+00    0,000000000e+00
      954000000   -1,404009014e-01   -3,799038008e-03   -3,636898696e-01    4,954916835e-01    0,000000000e+00    0,000000000e+00    0,000000000e+00    0,000000000e+00
      968000000   -9,428095818e-02    1,491937973e-02   -3,497735411e-02    6,240430474e-01    0,000000000e+00    0,000000000e+00    0,000000000e+00    0,000000000e+00
      982000000   -5,963633209e-02    1,562989899e-03    2,999482155e-01    5,504322648e-01    0,000000000e+00    0,000000000e+00    0,000000000e+00    0,000000000e+00
      996000000   -4,772355035e-02   -3,278319910e-02    5,446554422e-01    3,124641776e-01    0,000000000e+00    0,000000000e+00    0,000000000e+00    0,000000000e+00
     1010000000   -5,575758964e-02   -6,234319136e-02    6,190012693e-01   -1,740256138e-02    0,000000000e+00    0,000000000e+00    0,000000000e+00    0,000000000e+00
     1024000000   -8,104074746e-02   -7,959756255e-02    5,001652241e-01   -3,190624714e-01    0,000000000e+00    0,000000000e+00    0,000000000e+00    0,000000000e+00
     1038000000   -1,303290129e-01   -8,598931879e-02    2,535303235e-01   -4,947548509e-01    0,000000000e+00    0,000000000e+00    0,000000000e+00    0,000000000e+00
     1052000000   -1,781833023e-01   -4,615924507e-02   -2,921627648e-02   -5,092422366e-01    0,000000000e+00    0,000000000e+00    0,000000000e+00    0,000000000e+00
     1066000000   -1,666145474e-01    4,821965843e-02   -2,400477678e-01   -3,874431551e-01    0,000000000e+00    0,000000000e+00    0,000000000e+00    0,000000000e+00
     1080000000   -7,873539627e-02    8,916991204e-02   -3,655647635e-01   -2,297909856e-01    0,000000000e+00    0,000000000e+00    0,000000000e+00    0,000000000e+00
     1094000000    1,447425922e-03    4,862771556e-02   -4,410481155e-01   -2,736409940e-02    0,000000000e+00    0,000000000e+00    0,000000000e+00    0,000000000e+00
     1108000000    2,240926214e-02   -2,541169152e-02   -4,048871398e-01    2,268628329e-01    0,000000000e+00    0,000000000e+00    0,000000000e+00    0,000000000e+00
     1122000000    4,446652718e-03   -8,567273617e-02   -1,989255399e-01    4,452027977e-01    0,000000000e+00    0,000000000e+00    0,000000000e+00    0,000000000e+00
     1136000000   -2,983647585e-02   -1,340736896e-01    1,115245223e-01    5,024935007e-01    0,000000000e+00    0,000000000e+00    0,000000000e+00    0,000000000e+00
     1150000000   -9,056244791e-02   -1,610388458e-01    4,193385839e-01    3,590977192e-01    0,000000000e+00    0,000000000e+00    0,000000000e+00    0,000000000e+00
     1164000000   -1,674711853e-01   -1,431316286e-01    5,964489579e-01    4,427605495e-02    0,000000000e+00    0,000000000e+00    0,000000000e+00    0,000000000e+00
     1178000000   -2,187993377e-01   -8,389376104e-02    5,558829904e-01   -3,427908421e-01    0,000000000e+00    0,000000000e+00    0,000000000e+00    0,000000000e+00
     1192000000   -2,126948088e-01   -1,919034682e-02    2,776241004e-01   -6,404113770e-01    0,000000000e+00    0,000000000e+00    0,000000000e+00    0,000000000e+00
     1206000000   -1,781110913e-01    1,310636383e-02   -1,215651035e-01   -7,047992349e-01    0,000000000e+00    0,000000000e+00    0,000000000e+00    0,000000000e+00
     1220000000   -1,675840765e-01   -1,468148781e-03   -4,823382199e-01   -5,302156806e-01    0,000000000e+00    0,000000000e+00    0,000000000e+00    0,000000000e+00
     1234000000   -2,095794976e-01    2,500741929e-02   -6,459878087e-01   -1,765884310e-01    0,000000000e+00    0,000000000e+00    0,000000000e+00    0,000000000e+00
     1248000000   -1,892558187e-01    1,297532022e-01   -5,469524264e-01    1,324735284e-01    0,000000000e+00    0,000000000e+00    0,000000000e+00    0,000000000e+00
     1262000000   -4,409584776e-02    1,681983322e-01   -3,930124938e-01    2,846892476e-01    0,000000000e+00    0,000000000e+00    0,000000000e+00    0,000000000e+00
     1276000000    6,855583936e-02    8,592691272e-02   -2,229661345e-01    4,118735194e-01    0,000000000e+00    0,000000000e+00    0,000000000e+00    0,000000000e+00
     1290000000    9,810058773e-02   -4,427051172e-02   -5,819938146e-03    4,793358743e-01    0,000000000e+00    0,000000000e+00    0,000000000e+00    0,000000000e+00
     1304000000    5,171698332e-02   -1,783832610e-01    2,542010844e-01    4,328483343e-01    0,000000000e+00    0,000000000e+00    0,000000000e+00    0,000000000e+00
     1318000000   -6,802662462e-02   -2,696522474e-01    4,747841060e-01    2,635920644e-01    0,000000000e+00    0,000000000e+00    0,000000000e+00    0,000000000e+00
     1332000000   -2,281060517e-01   -2,742641866e-01    6,053146124e-01   -1,654832251e-02    0,000000000e+00    0,000000000e+00    0,000000000e+00    0,000000000e+00
     1346000000   -3,692761660e-01   -1,725130230e-01    5,432549119e-01   -3,606589139e-01    0,000000000e+00    0,000000000e+00    0,000000000e+00    0,000000000e+00
     1360000000   -4,131172597e-01   -1,305105817e-02    2,706209719e-01   -5,953640342e-01    0,000000000e+00    0,000000000e+00    0,000000000e+00    0,000000000e+00
     1374000000   -3,526632786e-01    1,219524369e-01   -6,551656127e-02   -6,014342904e-01    0,000000000e+00    0,000000000e+00    0,000000000e+00    0,000000000e+00
     1388000000   -2,584438920e-01    1,785877794e-01   -3,335764706e-01   -4,271847010e-01    0,000000000e+00    0,000000000e+00    0,000000000e+00    0,000000000e+00
     1402000000   -1,622891873e-01    1,934275627e-01   -4,395339489e-01   -1,228136867e-01    0,000000000e+00    0,000000000e+00    0,000000000e+00    0,000000000e+00
     1416000000   -8,257077634e-02    1,621283740e-01   -3,753201067e-01    1,701182872e-01    0,000000000e+00    0,000000000e+00    0,000000000e+00    0,000000000e+00
     1430000000   -1,965984888e-02    1,094956845e-01   -1,664053351e-01    3,907966912e-01    0,000000000e+00    0,000000000e+00    0,000000000e+00    0,000000000e+00
     1444000000   -1,024421188e-03    1,610504277e-02    9,421025962e-02    4,957413375e-01    0,000000000e+00    0,000000000e+00    0,000000000e+00    0,000000000e+00
     1458000000   -1,404431835e-02   -8,368098736e-02    3,909021616e-01    4,647513330e-01    0,000000000e+00    0,000000000e+00    0,000000000e+00    0,000000000e+00
     1472000000   -9,164677560e-02   -1,557756215e-01    7,027367949e-01    3,184578717e-01    0,000000000e+00    0,000000000e+00    0,000000000e+00    0,000000000e+00
     1486000000   -2,135612369e-01   -1,731726229e-01    8,548032045e-01   -6,390987430e-03    0,000000000e+00    0,000000000e+00    0,000000000e+00    0,000000000e+00
     1500000000   -3,014565408e-01   -1,021635011e-01    8,471326828e-01   -3,859872222e-01    0,000000000e+00    0,000000000e+00    0,000000000e+00    0,000000000e+00
