! NanoVNA-App
! Date: 2025-09-26 09:58:41
! Start: 100MHz Stop: 1,5GHz Points: 101
! S-Parameter data: F S11 S21 S12 S22
# Hz S RI R 50
!     Frequency           S11_Real           S11_Imag           S21_Real           S21_Imag           S12_Real           S12_Imag           S22_Real           S22_Imag
      100000000    3,577688709e-02    2,681659162e-02    4,403730929e-01   -6,702994108e-01    0,000000000e+00    0,000000000e+00    0,000000000e+00    0,000000000e+00
      114000000    6,042925268e-02    1,454452751e-03    1,195546146e-02   -7,960237265e-01    0,000000000e+00    0,000000000e+00    0,000000000e+00    0,000000000e+00
      128000000    6,746625900e-02   -4,272561893e-02   -4,094244242e-01   -6,785066128e-01    0,000000000e+00    0,000000000e+00    0,000000000e+00    0,000000000e+00
      142000000    4,229119793e-02   -8,859432489e-02   -7,063485384e-01   -3,605110347e-01    0,000000000e+00    0,000000000e+00    0,000000000e+00    0,000000000e+00
      156000000   -9,669745341e-03   -1,094685048e-01   -7,950411439e-01    6,975633651e-02    0,000000000e+00    0,000000000e+00    0,000000000e+00    0,000000000e+00
      170000000   -6,305021793e-02   -9,050207585e-02   -6,366267800e-01    4,882640541e-01    0,000000000e+00    0,000000000e+00    0,000000000e+00    0,000000000e+00
      184000000   -8,833905309e-02   -4,641160369e-02   -2,719972134e-01    7,572532892e-01    0,000000000e+00    0,000000000e+00    0,000000000e+00    0,000000000e+00
      198000000   -8,213838935e-02   -5,376772024e-03    1,817020327e-01    7,823771238e-01    0,000000000e+00    0,000000000e+00    0,000000000e+00    0,000000000e+00
      212000000   -6,176479533e-02    1,893789321e-02    5,719538927e-01    5,574881434e-01    0,000000000e+00    0,000000000e+00    0,000000000e+00    0,000000000e+00
      226000000   -3,997209668e-02    3,253335878e-02    7,776626348e-01    1,607237011e-01    0,000000000e+00    0,000000000e+00    0,000000000e+00    0,000000000e+00
      240000000   -1,292433031e-02    4,111709818e-02    7,363133430e-01   -2,797109187e-01    0,000000000e+00    0,000000000e+00    0,000000000e+00    0,000000000e+00
      254000000    2,309400216e-02    3,486175835e-02    4,679331183e-01   -6,230666637e-01    0,000000000e+00    0,000000000e+00    0,000000000e+00    0,000000000e+00
      268000000    5,378426239e-02    2,501889132e-03    6,666598469e-02   -7,683992386e-01    0,000000000e+00    0,000000000e+00    0,000000000e+00    0,000000000e+00
      282000000    5,625595897e-02   -4,695045948e-02   -3,459331691e-01   -6,834667325e-01    0,000000000e+00    0,000000000e+00    0,000000000e+00    0,000000000e+00
      296000000    2,405937016e-02   -8,550913632e-02   -6,562165022e-01   -3,980352283e-01    0,000000000e+00    0,000000000e+00    0,000000000e+00    0,000000000e+00
      310000000   -2,084190957e-02   -8,866354823e-02   -7,746052146e-01    1,271934249e-02    0,000000000e+00    0,000000000e+00    0,000000000e+00    0,000000000e+00
      324000000   -4,719395563e-02   -6,178447232e-02   -6,487224102e-01    4,318474531e-01    0,000000000e+00    0,000000000e+00    0,000000000e+00    0,000000000e+00
      338000000   -4,089757428e-02   -3,616231307e-02   -3,099635541e-01    7,096535563e-01    0,000000000e+00    0,000000000e+00    0,000000000e+00    0,000000000e+00
      352000000   -2,274887636e-02   -3,678006679e-02    1,211116239e-01    7,591214776e-01    0,000000000e+00    0,000000000e+00    0,000000000e+00    0,000000000e+00
      366000000   -2,193573676e-02   -5,536411330e-02    5,038530827e-01    5,705618858e-01    0,000000000e+00    0,000000000e+00    0,000000000e+00    0,000000000e+00
      380000000   -4,356198013e-02   -6,424884498e-02    7,272464037e-01    2,115321010e-01    0,000000000e+00    0,000000000e+00    0,000000000e+00    0,000000000e+00
      394000000   -6,493584812e-02   -5,035343394e-02    7,232128978e-01   -2,145277262e-01    0,000000000e+00    0,000000000e+00    0,000000000e+00    0,000000000e+00
      408000000   -6,564380974e-02   -2,721096575e-02    4,899484813e-01   -5,693346262e-01    0,000000000e+00    0,000000000e+00    0,000000000e+00    0,000000000e+00
      422000000   -5,206883326e-02   -1,731636189e-02    1,056660116e-01   -7,403859496e-01    0,000000000e+00    0,000000000e+00    0,000000000e+00    0,000000000e+00
      436000000   -4,707484320e-02   -2,025542036e-02   -3,075473905e-01   -6,777821779e-01    0,000000000e+00    0,000000000e+00    0,000000000e+00    0,000000000e+00
      450000000   -5,306529254e-02   -1,556001324e-02   -6,192365289e-01   -4,001714885e-01    0,000000000e+00    0,000000000e+00    0,000000000e+00    0,000000000e+00
      464000000   -5,132738873e-02    6,542904302e-03   -7,316234708e-01    4,286038224e-03    0,000000000e+00    0,000000000e+00    0,000000000e+00    0,000000000e+00
      478000000   -1,995228231e-02    2,795158140e-02   -5,988720655e-01    3,993983567e-01    0,000000000e+00    0,000000000e+00    0,000000000e+00    0,000000000e+00
      492000000    2,976420335e-02    1,505160518e-02   -2,792738974e-01    6,448049545e-01    0,000000000e+00    0,000000000e+00    0,000000000e+00    0,000000000e+00
      506000000    6,071698293e-02   -3,846843168e-02    1,058756411e-01    6,805262566e-01    0,000000000e+00    0,000000000e+00    0,000000000e+00    0,000000000e+00
      520000000    4,455213621e-02   -1,048862413e-01    4,419398308e-01    5,178440809e-01    0,000000000e+00    0,000000000e+00    0,000000000e+00    0,000000000e+00
      534000000   -1,350985188e-02   -1,465730667e-01    6,506015658e-01    2,036952227e-01    0,000000000e+00    0,000000000e+00    0,000000000e+00    0,000000000e+00
      548000000   -8,466975391e-02   -1,424719691e-01    6,581275463e-01   -1,802759767e-01    0,000000000e+00    0,000000000e+00    0,000000000e+00    0,000000000e+00
      562000000   -1,385609806e-01   -9,782186151e-02    4,435414672e-01   -5,112564564e-01    0,000000000e+00    0,000000000e+00    0,000000000e+00    0,000000000e+00
      576000000   -1,605435014e-01   -2,571231872e-02    6,606259197e-02   -6,497115493e-01    0,000000000e+00    0,000000000e+00    0,000000000e+00    0,000000000e+00
      590000000   -1,108122095e-01    6,750930101e-02   -2,821196318e-01   -5,153627396e-01    0,000000000e+00    0,000000000e+00    0,000000000e+00    0,000000000e+00
      604000000    3,106147237e-02    2,341033705e-02   -3,951181769e-01   -3,092241883e-01    0,000000000e+00    0,000000000e+00    0,000000000e+00    0,000000000e+00
      618000000   -2,717397176e-02   -9,021452814e-02   -5,577833652e-01   -1,388177127e-01    0,000000000e+00    0,000000000e+00    0,000000000e+00    0,000000000e+00
      632000000   -9,886940569e-02   -5,225684866e-02   -5,918809772e-01    2,158806324e-01    0,000000000e+00    0,000000000e+00    0,000000000e+00    0,000000000e+00
      646000000   -8,711028099e-02    6,396793760e-03   -3,747695684e-01    5,266745090e-01    0,000000000e+00    0,000000000e+00    0,000000000e+00    0,000000000e+00
      660000000   -4,055193812e-02    1,791984588e-02   -2,261101082e-02    6,436854601e-01    0,000000000e+00    0,000000000e+00    0,000000000e+00    0,000000000e+00
      674000000   -1,081314869e-02   -5,739348009e-03    3,220439851e-01    5,516188145e-01    0,000000000e+00    0,000000000e+00    0,000000000e+00    0,000000000e+00
      688000000   -9,721451439e-03   -3,593855351e-02    5,620219111e-01    2,908444107e-01    0,000000000e+00    0,000000000e+00    0,000000000e+00    0,000000000e+00
      702000000   -1,848169789e-02   -4,884068295e-02    6,236220002e-01   -5,947216228e-02    0,000000000e+00    0,000000000e+00    0,000000000e+00    0,000000000e+00
      716000000   -2,056350186e-02   -5,536362529e-02    4,870492220e-01   -3,844215274e-01    0,000000000e+00    0,000000000e+00    0,000000000e+00    0,000000000e+00
      730000000   -1,912153140e-02   -7,312276959e-02    1,976345927e-01   -5,789477229e-01    0,000000000e+00    0,000000000e+00    0,000000000e+00    0,000000000e+00
      744000000   -3,454106301e-02   -1,019042805e-01   -1,428295821e-01   -5,874266028e-01    0,000000000e+00    0,000000000e+00    0,000000000e+00    0,000000000e+00
      758000000   -7,590341568e-02   -1,207604259e-01   -4,341543317e-01   -4,189977944e-01    0,000000000e+00    0,000000000e+00    0,000000000e+00    0,000000000e+00
      772000000   -1,273073405e-01   -1,041567102e-01   -5,945764184e-01   -1,192965880e-01    0,000000000e+00    0,000000000e+00    0,000000000e+00    0,000000000e+00
      786000000   -1,549729854e-01   -5,696752667e-02   -5,664255619e-01    2,237123847e-01    0,000000000e+00    0,000000000e+00    0,000000000e+00    0,000000000e+00
      800000000   -1,491748691e-01   -6,099228282e-03   -3,550400436e-01    4,925118983e-01    0,000000000e+00    0,000000000e+00    0,000000000e+00    0,000000000e+00
      814000000   -1,185167730e-01    2,877525054e-02   -3,866689652e-02    6,014799476e-01    0,000000000e+00    0,000000000e+00    0,000000000e+00    0,000000000e+00
      828000000   -7,982356846e-02    4,007875547e-02    2,832740545e-01    5,297023654e-01    0,000000000e+00    0,000000000e+00    0,000000000e+00    0,000000000e+00
      842000000   -4,561803490e-02    3,500423953e-02    5,148777962e-01    2,994336486e-01    0,000000000e+00    0,000000000e+00    0,000000000e+00    0,000000000e+00
      856000000   -1,547039021e-02    1,923965476e-02    5,883052349e-01   -1,622280851e-02    0,000000000e+00    0,000000000e+00    0,000000000e+00    0,000000000e+00
      870000000    8,387486450e-03   -1,016248949e-02    4,808155894e-01   -3,170025945e-01    0,000000000e+00    0,000000000e+00    0,000000000e+00    0,000000000e+00
      884000000    1,713157073e-02   -5,736764893e-02    2,373439819e-01   -5,113698840e-01    0,000000000e+00    0,000000000e+00    0,000000000e+00    0,000000000e+00
      898000000   -5,871744361e-03   -1,097465008e-01   -6,478621066e-02   -5,515986085e-01    0,000000000e+00    0,000000000e+00    0,000000000e+00    0,000000000e+00
      912000000   -7,045353949e-02   -1,343771368e-01   -4,021531641e-01   -4,110786021e-01    0,000000000e+00    0,000000000e+00    0,000000000e+00    0,000000000e+00
      926000000   -1,339995414e-01   -1,095819175e-01   -5,639199615e-01   -1,375821978e-01    0,000000000e+00    0,000000000e+00    0,000000000e+00    0,000000000e+00
      940000000   -1,609260440e-01   -4,962879792e-02   -5,542160273e-01    2,002457380e-01    0,000000000e+00    0,000000000e+00    0,000000000e+00    0,000000000e+00
      954000000   -1,279414147e-01    1,468255301e-03   -3,558163345e-01    4,704838693e-01    0,000000000e+00    0,000000000e+00    0,000000000e+00    0,000000000e+00
      968000000   -7,958453149e-02    8,367647417e-03   -5,780021474e-02    5,915458202e-01    0,000000000e+00    0,000000000e+00    0,000000000e+00    0,000000000e+00
      982000000   -5,626805499e-02   -1,992606930e-02    2,553483844e-01    5,401013494e-01    0,000000000e+00    0,000000000e+00    0,000000000e+00    0,000000000e+00
      996000000   -6,538602710e-02   -4,416879267e-02    5,013276339e-01    3,438999355e-01    0,000000000e+00    0,000000000e+00    0,000000000e+00    0,000000000e+00
     1010000000   -8,373982459e-02   -5,521655083e-02    6,123589873e-01    5,006063357e-02    0,000000000e+00    0,000000000e+00    0,000000000e+00    0,000000000e+00
     1024000000   -1,056256369e-01   -4,905544221e-02    5,504972935e-01   -2,682259381e-01    0,000000000e+00    0,000000000e+00    0,000000000e+00    0,000000000e+00
     1038000000   -1,106484532e-01   -3,813430667e-02    3,248191178e-01   -5,019020438e-01    0,000000000e+00    0,000000000e+00    0,000000000e+00    0,000000000e+00
     1052000000   -1,125325859e-01   -2,185343578e-02    1,638984866e-02   -5,751280189e-01    0,000000000e+00    0,000000000e+00    0,000000000e+00    0,000000000e+00
     1066000000   -1,147412285e-01   -8,031475358e-03   -2,707493901e-01   -4,721712172e-01    0,000000000e+00    0,000000000e+00    0,000000000e+00    0,000000000e+00
     1080000000   -1,040228382e-01    1,451986190e-02   -4,605516195e-01   -2,412465662e-01    0,000000000e+00    0,000000000e+00    0,000000000e+00    0,000000000e+00
     1094000000   -6,334679574e-02    2,443547547e-02   -4,921697974e-01    4,335688427e-02    0,000000000e+00    0,000000000e+00    0,000000000e+00    0,000000000e+00
     1108000000   -2,121786959e-02    7,541286293e-03   -3,797352314e-01    2,963077724e-01    0,000000000e+00    0,000000000e+00    0,000000000e+00    0,000000000e+00
     1122000000    1,216332530e-04   -4,343267530e-02   -1,487679332e-01    4,563127756e-01    0,000000000e+00    0,000000000e+00    0,000000000e+00    0,000000000e+00
     1136000000   -1,309235673e-02   -9,912817180e-02    1,423674822e-01    4,715576470e-01    0,000000000e+00    0,000000000e+00    0,000000000e+00    0,000000000e+00
     1150000000   -6,011470407e-02   -1,486501843e-01    4,110828936e-01    3,280138969e-01    0,000000000e+00    0,000000000e+00    0,000000000e+00    0,000000000e+00
     1164000000   -1,414034367e-01   -1,556958705e-01    5,719876885e-01    3,559328616e-02    0,000000000e+00    0,000000000e+00    0,000000000e+00    0,000000000e+00
     1178000000   -2,036353201e-01   -1,155976951e-01    5,315096974e-01   -3,261681199e-01    0,000000000e+00    0,000000000e+00    0,000000000e+00    0,000000000e+00
     1192000000   -2,217185497e-01   -4,942212626e-02    2,745234072e-01   -6,056866050e-01    0,000000000e+00    0,000000000e+00    0,000000000e+00    0,000000000e+00
     1206000000   -2,049309611e-01   -6,713216193e-03   -1,002184227e-01   -6,765338778e-01    0,000000000e+00    0,000000000e+00    0,000000000e+00    0,000000000e+00
     1220000000   -2,055154890e-01    1,497017685e-02   -4,308453798e-01   -5,119022131e-01    0,000000000e+00    0,000000000e+00    0,000000000e+00    0,000000000e+00
     1234000000   -2,123706937e-01    7,738424838e-02   -5,833126903e-01   -2,189389318e-01    0,000000000e+00    0,000000000e+00    0,000000000e+00    0,000000000e+00
     1248000000   -1,415761113e-01    1,554745734e-01   -5,650746226e-01    5,327137560e-02    0,000000000e+00    0,000000000e+00    0,000000000e+00    0,000000000e+00
     1262000000   -1,121363696e-02    1,407893449e-01   -4,639390707e-01    2,774771452e-01    0,000000000e+00    0,000000000e+00    0,000000000e+00    0,000000000e+00
     1276000000    6,759436429e-02    4,983524978e-02   -2,590065002e-01    4,523215592e-01    0,000000000e+00    0,000000000e+00    0,000000000e+00    0,000000000e+00
     1290000000    8,167992532e-02   -6,908558309e-02    4,977050703e-03    5,175446272e-01    0,000000000e+00    0,000000000e+00    0,000000000e+00    0,000000000e+00
     1304000000    2,931498177e-02   -1,803449690e-01    2,741058767e-01    4,580431879e-01    0,000000000e+00    0,000000000e+00    0,000000000e+00    0,000000000e+00
     1318000000   -8,771400154e-02   -2,584992945e-01    5,131847858e-01    2,762026191e-01    0,000000000e+00    0,000000000e+00    0,000000000e+00    0,000000000e+00
     1332000000   -2,423492074e-01   -2,508357167e-01    6,356148720e-01   -3,560453281e-02    0,000000000e+00    0,000000000e+00    0,000000000e+00    0,000000000e+00
     1346000000   -3,647103608e-01   -1,492295712e-01    5,472429395e-01   -3,785012960e-01    0,000000000e+00    0,000000000e+00    0,000000000e+00    0,000000000e+00
     1360000000   -3,906311989e-01    1,566096907e-03    2,593418956e-01   -6,156089306e-01    0,000000000e+00    0,000000000e+00    0,000000000e+00    0,000000000e+00
     1374000000   -3,305257857e-01    1,221841797e-01   -9,483458847e-02   -6,180096269e-01    0,000000000e+00    0,000000000e+00    0,000000000e+00    0,000000000e+00
     1388000000   -2,390742451e-01    1,727441251e-01   -3,591290712e-01   -4,155440032e-01    0,000000000e+00    0,000000000e+00    0,000000000e+00    0,000000000e+00
     1402000000   -1,558898240e-01    1,746516377e-01   -4,702361822e-01   -1,184846312e-01    0,000000000e+00    0,000000000e+00    0,000000000e+00    0,000000000e+00
     1416000000   -8,506315947e-02    1,480679214e-01   -3,890160620e-01    1,929486990e-01    0,000000000e+00    0,000000000e+00    0,000000000e+00    0,000000000e+00
     1430000000   -2,911444940e-02    9,650062770e-02   -1,759918630e-01    4,090869129e-01    0,000000000e+00    0,000000000e+00    0,000000000e+00    0,000000000e+00
     1444000000   -2,216463909e-03    1,521226391e-02    1,156117693e-01    5,027404428e-01    0,000000000e+00    0,000000000e+00    0,000000000e+00    0,000000000e+00
     1458000000   -2,644654363e-02   -7,779451460e-02    4,300838113e-01    4,765406549e-01    0,000000000e+00    0,000000000e+00    0,000000000e+00    0,000000000e+00
     1472000000   -1,047752649e-01   -1,447111815e-01    7,242261767e-01    3,139636517e-01    0,000000000e+00    0,000000000e+00    0,000000000e+00    0,000000000e+00
     1486000000   -2,182494551e-01   -1,426501721e-01    8,903390765e-01   -2,075335011e-02    0,000000000e+00    0,000000000e+00    0,000000000e+00    0,000000000e+00
     1500000000   -2,991467714e-01   -7,140463591e-02    8,366376758e-01   -4,218825996e-01    0,000000000e+00    0,000000000e+00    0,000000000e+00    0,000000000e+00
