! NanoVNA-App
! Date: 2025-09-26 09:58:17
! Start: 100MHz Stop: 1,5GHz Points: 101
! S-Parameter data: F S11 S21 S12 S22
# Hz S RI R 50
!     Frequency           S11_Real           S11_Imag           S21_Real           S21_Imag           S12_Real           S12_Imag           S22_Real           S22_Imag
      100000000    3,595463559e-02    2,682959102e-02    4,404445291e-01   -6,701876521e-01    0,000000000e+00    0,000000000e+00    0,000000000e+00    0,000000000e+00
      114000000    6,057330221e-02    1,308820443e-03    1,220994722e-02   -7,959782481e-01    0,000000000e+00    0,000000000e+00    0,000000000e+00    0,000000000e+00
      128000000    6,754060090e-02   -4,301518947e-02   -4,090500176e-01   -6,783316731e-01    0,000000000e+00    0,000000000e+00    0,000000000e+00    0,000000000e+00
      142000000    4,222327471e-02   -8,890169114e-02   -7,063021064e-01   -3,607651889e-01    0,000000000e+00    0,000000000e+00    0,000000000e+00    0,000000000e+00
      156000000   -9,933760390e-03   -1,098126024e-01   -7,949351668e-01    6,944376230e-02    0,000000000e+00    0,000000000e+00    0,000000000e+00    0,000000000e+00
      170000000   -6,339021027e-02   -9,047359973e-02   -6,369999647e-01    4,877778292e-01    0,000000000e+00    0,000000000e+00    0,000000000e+00    0,000000000e+00
      184000000   -8,868992329e-02   -4,608388990e-02   -2,721605301e-01    7,571970224e-01    0,000000000e+00    0,000000000e+00    0,000000000e+00    0,000000000e+00
      198000000   -8,221974969e-02   -4,838759545e-03    1,809464693e-01    7,825280428e-01    0,000000000e+00    0,000000000e+00    0,000000000e+00    0,000000000e+00
      212000000   -6,153243408e-02    1,947542466e-02    5,716525912e-01    5,578529239e-01    0,000000000e+00    0,000000000e+00    0,000000000e+00    0,000000000e+00
      226000000   -3,944399208e-02    3,283427656e-02    7,774057984e-01    1,612008363e-01    0,000000000e+00    0,000000000e+00    0,000000000e+00    0,000000000e+00
      240000000   -1,232389081e-02    4,108539224e-02    7,363539934e-01   -2,790670693e-01    0,000000000e+00    0,000000000e+00    0,000000000e+00    0,000000000e+00
      254000000    2,354878560e-02    3,446777537e-02    4,687799811e-01   -6,225790381e-01    0,000000000e+00    0,000000000e+00    0,000000000e+00    0,000000000e+00
      268000000    5,393082276e-02    1,874259789e-03    6,771338731e-02   -7,676916718e-01    0,000000000e+00    0,000000000e+00    0,000000000e+00    0,000000000e+00
      282000000    5,618521199e-02   -4,757603630e-02   -3,454917669e-01   -6,840577126e-01    0,000000000e+00    0,000000000e+00    0,000000000e+00    0,000000000e+00
      296000000    2,351468429e-02   -8,591609448e-02   -6,559932828e-01   -3,991747499e-01    0,000000000e+00    0,000000000e+00    0,000000000e+00    0,000000000e+00
      310000000   -2,173685282e-02   -8,857589960e-02   -7,743627429e-01    1,187891606e-02    0,000000000e+00    0,000000000e+00    0,000000000e+00    0,000000000e+00
      324000000   -4,812231287e-02   -6,117049232e-02   -6,488395929e-01    4,310153127e-01    0,000000000e+00    0,000000000e+00    0,000000000e+00    0,000000000e+00
      338000000   -4,130228236e-02   -3,518458083e-02   -3,113211691e-01    7,094796300e-01    0,000000000e+00    0,000000000e+00    0,000000000e+00    0,000000000e+00
      352000000   -2,278603800e-02   -3,562670574e-02    1,191449985e-01    7,585584521e-01    0,000000000e+00    0,000000000e+00    0,000000000e+00    0,000000000e+00
      366000000   -2,169760689e-02   -5,427183956e-02    5,032586455e-01    5,724669099e-01    0,000000000e+00    0,000000000e+00    0,000000000e+00    0,000000000e+00
      380000000   -4,253536463e-02   -6,405024230e-02    7,272079587e-01    2,122598439e-01    0,000000000e+00    0,000000000e+00    0,000000000e+00    0,000000000e+00
      394000000   -6,374606490e-02   -5,071765929e-02    7,235875726e-01   -2,132936269e-01    0,000000000e+00    0,000000000e+00    0,000000000e+00    0,000000000e+00
      408000000   -6,487333030e-02   -2,794706635e-02    4,907495379e-01   -5,690711141e-01    0,000000000e+00    0,000000000e+00    0,000000000e+00    0,000000000e+00
      422000000   -5,196361244e-02   -1,793731563e-02    1,061274260e-01   -7,396401763e-01    0,000000000e+00    0,000000000e+00    0,000000000e+00    0,000000000e+00
      436000000   -4,666657001e-02   -2,173192427e-02   -3,050957918e-01   -6,781535149e-01    0,000000000e+00    0,000000000e+00    0,000000000e+00    0,000000000e+00
      450000000   -5,375774950e-02   -1,639899798e-02   -6,194686890e-01   -4,021451473e-01    0,000000000e+00    0,000000000e+00    0,000000000e+00    0,000000000e+00
      464000000   -5,240667611e-02    5,772645120e-03   -7,315484285e-01    1,953721279e-03    0,000000000e+00    0,000000000e+00    0,000000000e+00    0,000000000e+00
      478000000   -2,183870226e-02    2,713703178e-02   -6,011615396e-01    3,965518177e-01    0,000000000e+00    0,000000000e+00    0,000000000e+00    0,000000000e+00
      492000000    2,774029784e-02    1,599748060e-02   -2,822458446e-01    6,448326111e-01    0,000000000e+00    0,000000000e+00    0,000000000e+00    0,000000000e+00
      506000000    5,869356170e-02   -3,580462560e-02    1,030943021e-01    6,831639409e-01    0,000000000e+00    0,000000000e+00    0,000000000e+00    0,000000000e+00
      520000000    4,468342289e-02   -1,012417004e-01    4,439760447e-01    5,176120400e-01    0,000000000e+00    0,000000000e+00    0,000000000e+00    0,000000000e+00
      534000000   -1,063203719e-02   -1,420397609e-01    6,513772011e-01    2,090861946e-01    0,000000000e+00    0,000000000e+00    0,000000000e+00    0,000000000e+00
      548000000   -7,752504200e-02   -1,391697973e-01    6,638823152e-01   -1,735500693e-01    0,000000000e+00    0,000000000e+00    0,000000000e+00    0,000000000e+00
      562000000   -1,253695488e-01   -1,021604985e-01    4,578832984e-01   -5,093161464e-01    0,000000000e+00    0,000000000e+00    0,000000000e+00    0,000000000e+00
      576000000   -1,480240077e-01   -4,963416979e-02    8,865131438e-02   -6,685994864e-01    0,000000000e+00    0,000000000e+00    0,000000000e+00    0,000000000e+00
      590000000   -1,458969116e-01    1,720968075e-02   -3,025427759e-01   -5,801440477e-01    0,000000000e+00    0,000000000e+00    0,000000000e+00    0,000000000e+00
      604000000   -6,527703255e-02    9,514968842e-02   -5,183351636e-01   -2,513777018e-01    0,000000000e+00    0,000000000e+00    0,000000000e+00    0,000000000e+00
      618000000    8,385232091e-02   -1,142236590e-02   -4,429880381e-01   -3,406628221e-02    0,000000000e+00    0,000000000e+00    0,000000000e+00    0,000000000e+00
      632000000   -5,574312806e-02   -1,247354150e-01   -5,400254726e-01    1,344626248e-01    0,000000000e+00    0,000000000e+00    0,000000000e+00    0,000000000e+00
      646000000   -1,152460873e-01   -3,113111109e-02   -4,074889421e-01    4,853560627e-01    0,000000000e+00    0,000000000e+00    0,000000000e+00    0,000000000e+00
      660000000   -6,860544533e-02    1,773474365e-02   -5,337266251e-02    6,450116038e-01    0,000000000e+00    0,000000000e+00    0,000000000e+00    0,000000000e+00
      674000000   -2,462502755e-02    7,326633204e-03    3,074707091e-01    5,666167140e-01    0,000000000e+00    0,000000000e+00    0,000000000e+00    0,000000000e+00
      688000000   -1,147834305e-02   -2,110956982e-02    5,594362020e-01    3,069146276e-01    0,000000000e+00    0,000000000e+00    0,000000000e+00    0,000000000e+00
      702000000   -1,231423300e-02   -3,851992264e-02    6,299268603e-01   -4,779282957e-02    0,000000000e+00    0,000000000e+00    0,000000000e+00    0,000000000e+00
      716000000   -1,146608312e-02   -5,155010521e-02    4,978431761e-01   -3,779939413e-01    0,000000000e+00    0,000000000e+00    0,000000000e+00    0,000000000e+00
      730000000   -9,999782778e-03   -7,767552137e-02    2,111537457e-01   -5,798953772e-01    0,000000000e+00    0,000000000e+00    0,000000000e+00    0,000000000e+00
      744000000   -3,071985394e-02   -1,121160462e-01   -1,307751983e-01   -5,965158343e-01    0,000000000e+00    0,000000000e+00    0,000000000e+00    0,000000000e+00
      758000000   -7,916587591e-02   -1,301600039e-01   -4,319642484e-01   -4,359970689e-01    0,000000000e+00    0,000000000e+00    0,000000000e+00    0,000000000e+00
      772000000   -1,378624737e-01   -1,108904779e-01   -6,058345437e-01   -1,353849620e-01    0,000000000e+00    0,000000000e+00    0,000000000e+00    0,000000000e+00
      786000000   -1,704770178e-01   -5,063919723e-02   -5,883961320e-01    2,220685631e-01    0,000000000e+00    0,000000000e+00    0,000000000e+00    0,000000000e+00
      800000000   -1,516530663e-01    1,174121909e-02   -3,702664673e-01    5,097271800e-01    0,000000000e+00    0,000000000e+00    0,000000000e+00    0,000000000e+00
      814000000   -1,049356461e-01    4,106844962e-02   -3,451160714e-02    6,231206656e-01    0,000000000e+00    0,000000000e+00    0,000000000e+00    0,000000000e+00
      828000000   -6,168610975e-02    3,576469794e-02    2,993546128e-01    5,413696766e-01    0,000000000e+00    0,000000000e+00    0,000000000e+00    0,000000000e+00
      842000000   -3,785101697e-02    1,842686720e-02    5,328977704e-01    2,977793217e-01    0,000000000e+00    0,000000000e+00    0,000000000e+00    0,000000000e+00
      856000000   -2,310910821e-02    3,626080230e-03    5,997813344e-01   -2,880169638e-02    0,000000000e+00    0,000000000e+00    0,000000000e+00    0,000000000e+00
      870000000   -6,971429102e-03   -1,500736736e-02    4,803892970e-01   -3,336417973e-01    0,000000000e+00    0,000000000e+00    0,000000000e+00    0,000000000e+00
      884000000    2,419215161e-03   -4,902070761e-02    2,258106172e-01   -5,212959647e-01    0,000000000e+00    0,000000000e+00    0,000000000e+00    0,000000000e+00
      898000000   -1,181844436e-02   -9,206753224e-02   -7,885655016e-02   -5,505430102e-01    0,000000000e+00    0,000000000e+00    0,000000000e+00    0,000000000e+00
      912000000   -6,289022416e-02   -1,163131073e-01   -4,077866673e-01   -4,036606252e-01    0,000000000e+00    0,000000000e+00    0,000000000e+00    0,000000000e+00
      926000000   -1,141647324e-01   -1,084494814e-01   -5,606284142e-01   -1,309550107e-01    0,000000000e+00    0,000000000e+00    0,000000000e+00    0,000000000e+00
      940000000   -1,431169063e-01   -6,877067685e-02   -5,522007346e-01    1,946688592e-01    0,000000000e+00    0,000000000e+00    0,000000000e+00    0,000000000e+00
      954000000   -1,348364949e-01   -2,159583941e-02   -3,673875034e-01    4,754186869e-01    0,000000000e+00    0,000000000e+00    0,000000000e+00    0,000000000e+00
      968000000   -1,074743122e-01    3,632951062e-03   -5,606107041e-02    6,118009686e-01    0,000000000e+00    0,000000000e+00    0,000000000e+00    0,000000000e+00
      982000000   -7,611815631e-02   -3,852961585e-03    2,776708007e-01    5,575852394e-01    0,000000000e+00    0,000000000e+00    0,000000000e+00    0,000000000e+00
      996000000   -6,271434575e-02   -2,440937981e-02    5,313320756e-01    3,296995461e-01    0,000000000e+00    0,000000000e+00    0,000000000e+00    0,000000000e+00
     1010000000   -6,594667584e-02   -3,990373760e-02    6,184876561e-01    7,336667273e-03    0,000000000e+00    0,000000000e+00    0,000000000e+00    0,000000000e+00
     1024000000   -7,757154107e-02   -5,079703405e-02    5,165027380e-01   -2,998779416e-01    0,000000000e+00    0,000000000e+00    0,000000000e+00    0,000000000e+00
     1038000000   -9,900318831e-02   -6,416939944e-02    2,872136235e-01   -4,957450330e-01    0,000000000e+00    0,000000000e+00    0,000000000e+00    0,000000000e+00
     1052000000   -1,321555823e-01   -4,995797575e-02   -2,839147812e-03   -5,413059592e-01    0,000000000e+00    0,000000000e+00    0,000000000e+00    0,000000000e+00
     1066000000   -1,460761279e-01   -5,880705081e-03   -2,583548427e-01   -4,311704040e-01    0,000000000e+00    0,000000000e+00    0,000000000e+00    0,000000000e+00
     1080000000   -1,140523255e-01    4,677433893e-02   -4,142903686e-01   -2,314639837e-01    0,000000000e+00    0,000000000e+00    0,000000000e+00    0,000000000e+00
     1094000000   -4,572716728e-02    4,625790939e-02   -4,629641473e-01    9,307814762e-03    0,000000000e+00    0,000000000e+00    0,000000000e+00    0,000000000e+00
     1108000000    1,981146866e-03    1,445631962e-03   -3,900359571e-01    2,559912801e-01    0,000000000e+00    0,000000000e+00    0,000000000e+00    0,000000000e+00
     1122000000    1,357345469e-02   -5,966883153e-02   -1,830564886e-01    4,444677234e-01    0,000000000e+00    0,000000000e+00    0,000000000e+00    0,000000000e+00
     1136000000   -1,268401276e-02   -1,180390045e-01    1,160426438e-01    4,841773212e-01    0,000000000e+00    0,000000000e+00    0,000000000e+00    0,000000000e+00
     1150000000   -7,742928714e-02   -1,598416567e-01    4,037198424e-01    3,505225778e-01    0,000000000e+00    0,000000000e+00    0,000000000e+00    0,000000000e+00
     1164000000   -1,561685205e-01   -1,596752107e-01    5,824810266e-01    5,195149034e-02    0,000000000e+00    0,000000000e+00    0,000000000e+00    0,000000000e+00
     1178000000   -2,116638273e-01   -1,067619771e-01    5,509613752e-01   -3,223497570e-01    0,000000000e+00    0,000000000e+00    0,000000000e+00    0,000000000e+00
     1192000000   -2,224555016e-01   -3,372520953e-02    2,903176844e-01   -6,166873574e-01    0,000000000e+00    0,000000000e+00    0,000000000e+00    0,000000000e+00
     1206000000   -1,991964877e-01   -2,851066180e-03   -9,871162474e-02   -6,914833188e-01    0,000000000e+00    0,000000000e+00    0,000000000e+00    0,000000000e+00
     1220000000   -1,963763684e-01    9,561545216e-03   -4,416189492e-01   -5,252442956e-01    0,000000000e+00    0,000000000e+00    0,000000000e+00    0,000000000e+00
     1234000000   -2,185900360e-01    6,072659791e-02   -5,993921161e-01   -2,121905535e-01    0,000000000e+00    0,000000000e+00    0,000000000e+00    0,000000000e+00
     1248000000   -1,466259658e-01    1,610713899e-01   -5,689410567e-01    6,856576353e-02    0,000000000e+00    0,000000000e+00    0,000000000e+00    0,000000000e+00
     1262000000   -1,716373675e-02    1,507183611e-01   -4,574080706e-01    2,835986614e-01    0,000000000e+00    0,000000000e+00    0,000000000e+00    0,000000000e+00
     1276000000    7,235412300e-02    5,625616759e-02   -2,585979998e-01    4,551193416e-01    0,000000000e+00    0,000000000e+00    0,000000000e+00    0,000000000e+00
     1290000000    8,066882938e-02   -6,768843532e-02   -2,182034776e-03    5,125832558e-01    0,000000000e+00    0,000000000e+00    0,000000000e+00    0,000000000e+00
     1304000000    3,411486745e-02   -1,797230393e-01    2,747626901e-01    4,622680247e-01    0,000000000e+00    0,000000000e+00    0,000000000e+00    0,000000000e+00
     1318000000   -8,595302701e-02   -2,622723579e-01    5,133309364e-01    2,676015198e-01    0,000000000e+00    0,000000000e+00    0,000000000e+00    0,000000000e+00
     1332000000   -2,386390567e-01   -2,617794871e-01    6,317005157e-01   -3,297017515e-02    0,000000000e+00    0,000000000e+00    0,000000000e+00    0,000000000e+00
     1346000000   -3,593183160e-01   -1,584663838e-01    5,417746305e-01   -3,983939886e-01    0,000000000e+00    0,000000000e+00    0,000000000e+00    0,000000000e+00
     1360000000   -3,947940767e-01    2,746890765e-03    2,515776753e-01   -6,145299077e-01    0,000000000e+00    0,000000000e+00    0,000000000e+00    0,000000000e+00
     1374000000   -3,387170732e-01    1,176177189e-01   -9,662488848e-02   -6,167702079e-01    0,000000000e+00    0,000000000e+00    0,000000000e+00    0,000000000e+00
     1388000000   -2,459919751e-01    1,766678095e-01   -3,616172969e-01   -4,074439704e-01    0,000000000e+00    0,000000000e+00    0,000000000e+00    0,000000000e+00
     1402000000   -1,579885334e-01    1,798574626e-01   -4,582204819e-01   -1,089330390e-01    0,000000000e+00    0,000000000e+00    0,000000000e+00    0,000000000e+00
     1416000000   -7,884015143e-02    1,477399617e-01   -3,797413111e-01    1,891141385e-01    0,000000000e+00    0,000000000e+00    0,000000000e+00    0,000000000e+00
     1430000000   -2,990572900e-02    9,587062895e-02   -1,930525750e-01    4,262108803e-01    0,000000000e+00    0,000000000e+00    0,000000000e+00    0,000000000e+00
     1444000000    9,264606051e-04    1,485759020e-02    1,177475899e-01    5,074466467e-01    0,000000000e+00    0,000000000e+00    0,000000000e+00    0,000000000e+00
     1458000000   -2,555298992e-02   -8,087830245e-02    4,263437688e-01    4,711180627e-01    0,000000000e+00    0,000000000e+00    0,000000000e+00    0,000000000e+00
     1472000000   -1,085074693e-01   -1,522705108e-01    6,994051933e-01    2,867346406e-01    0,000000000e+00    0,000000000e+00    0,000000000e+00    0,000000000e+00
     1486000000   -2,284044772e-01   -1,443850994e-01    8,692696095e-01   -2,300744317e-02    0,000000000e+00    0,000000000e+00    0,000000000e+00    0,000000000e+00
     1500000000   -3,000741303e-01   -8,056147397e-02    8,165788054e-01   -4,235188663e-01    0,000000000e+00    0,000000000e+00    0,000000000e+00    0,000000000e+00
