! NanoVNA-App
! Date: 2025-09-26 09:58:27
! Start: 100MHz Stop: 1,5GHz Points: 101
! S-Parameter data: F S11 S21 S12 S22
# Hz S RI R 50
!     Frequency           S11_Real           S11_Imag           S21_Real           S21_Imag           S12_Real           S12_Imag           S22_Real           S22_Imag
      100000000    3,582317755e-02    2,687722072e-02    4,404184222e-01   -6,702566743e-01    0,000000000e+00    0,000000000e+00    0,000000000e+00    0,000000000e+00
      114000000    6,049330160e-02    1,500685816e-03    1,209719013e-02   -7,959941626e-01    0,000000000e+00    0,000000000e+00    0,000000000e+00    0,000000000e+00
      128000000    6,758996844e-02   -4,271652550e-02   -4,093863368e-01   -6,784148812e-01    0,000000000e+00    0,000000000e+00    0,000000000e+00    0,000000000e+00
      142000000    4,240898788e-02   -8,866778761e-02   -7,064661384e-01   -3,605735302e-01    0,000000000e+00    0,000000000e+00    0,000000000e+00    0,000000000e+00
      156000000   -9,597208351e-03   -1,095582470e-01   -7,949597239e-01    6,964787841e-02    0,000000000e+00    0,000000000e+00    0,000000000e+00    0,000000000e+00
      170000000   -6,309086829e-02   -9,058763087e-02   -6,365019083e-01    4,880437851e-01    0,000000000e+00    0,000000000e+00    0,000000000e+00    0,000000000e+00
      184000000   -8,843414485e-02   -4,646814615e-02   -2,718663216e-01    7,574152946e-01    0,000000000e+00    0,000000000e+00    0,000000000e+00    0,000000000e+00
      198000000   -8,223955333e-02   -5,334628280e-03    1,814588606e-01    7,825871110e-01    0,000000000e+00    0,000000000e+00    0,000000000e+00    0,000000000e+00
      212000000   -6,185040250e-02    1,906322688e-02    5,719371438e-01    5,578176379e-01    0,000000000e+00    0,000000000e+00    0,000000000e+00    0,000000000e+00
      226000000   -3,999024630e-02    3,265488893e-02    7,774228454e-01    1,608471572e-01    0,000000000e+00    0,000000000e+00    0,000000000e+00    0,000000000e+00
      240000000   -1,293938421e-02    4,120843858e-02    7,362632751e-01   -2,793927491e-01    0,000000000e+00    0,000000000e+00    0,000000000e+00    0,000000000e+00
      254000000    2,310794219e-02    3,497304767e-02    4,684602916e-01   -6,230888367e-01    0,000000000e+00    0,000000000e+00    0,000000000e+00    0,000000000e+00
      268000000    5,380812660e-02    2,570710378e-03    6,696245819e-02   -7,679725885e-01    0,000000000e+00    0,000000000e+00    0,000000000e+00    0,000000000e+00
      282000000    5,639524013e-02   -4,699888825e-02   -3,455456197e-01   -6,833916903e-01    0,000000000e+00    0,000000000e+00    0,000000000e+00    0,000000000e+00
      296000000    2,425464243e-02   -8,529405296e-02   -6,559312344e-01   -3,983303607e-01    0,000000000e+00    0,000000000e+00    0,000000000e+00    0,000000000e+00
      310000000   -2,085940540e-02   -8,880262077e-02   -7,750698924e-01    1,289229654e-02    0,000000000e+00    0,000000000e+00    0,000000000e+00    0,000000000e+00
      324000000   -4,726489633e-02   -6,177785620e-02   -6,483454108e-01    4,311257303e-01    0,000000000e+00    0,000000000e+00    0,000000000e+00    0,000000000e+00
      338000000   -4,091581330e-02   -3,624218702e-02   -3,117665946e-01    7,096270919e-01    0,000000000e+00    0,000000000e+00    0,000000000e+00    0,000000000e+00
      352000000   -2,288513631e-02   -3,685060889e-02    1,199410483e-01    7,596557736e-01    0,000000000e+00    0,000000000e+00    0,000000000e+00    0,000000000e+00
      366000000   -2,219749615e-02   -5,538059399e-02    5,036031604e-01    5,719186068e-01    0,000000000e+00    0,000000000e+00    0,000000000e+00    0,000000000e+00
      380000000   -4,366024956e-02   -6,438213587e-02    7,272336483e-01    2,120926827e-01    0,000000000e+00    0,000000000e+00    0,000000000e+00    0,000000000e+00
      394000000   -6,510335207e-02   -5,047614127e-02    7,234730124e-01   -2,145298868e-01    0,000000000e+00    0,000000000e+00    0,000000000e+00    0,000000000e+00
      408000000   -6,572635472e-02   -2,696852200e-02    4,896300435e-01   -5,690182447e-01    0,000000000e+00    0,000000000e+00    0,000000000e+00    0,000000000e+00
      422000000   -5,221803114e-02   -1,689180918e-02    1,052023023e-01   -7,392364144e-01    0,000000000e+00    0,000000000e+00    0,000000000e+00    0,000000000e+00
      436000000   -4,708501697e-02   -1,957293041e-02   -3,063125312e-01   -6,761354208e-01    0,000000000e+00    0,000000000e+00    0,000000000e+00    0,000000000e+00
      450000000   -5,333065242e-02   -1,548791025e-02   -6,197188497e-01   -4,010385573e-01    0,000000000e+00    0,000000000e+00    0,000000000e+00    0,000000000e+00
      464000000   -5,113961920e-02    6,545718759e-03   -7,316435575e-01    3,529838519e-03    0,000000000e+00    0,000000000e+00    0,000000000e+00    0,000000000e+00
      478000000   -1,961446740e-02    2,746705711e-02   -5,993963480e-01    3,975447416e-01    0,000000000e+00    0,000000000e+00    0,000000000e+00    0,000000000e+00
      492000000    3,005884402e-02    1,418642607e-02   -2,802158296e-01    6,448341608e-01    0,000000000e+00    0,000000000e+00    0,000000000e+00    0,000000000e+00
      506000000    6,017947197e-02   -3,884796053e-02    1,050930172e-01    6,810403466e-01    0,000000000e+00    0,000000000e+00    0,000000000e+00    0,000000000e+00
      520000000    4,469860718e-02   -1,055489406e-01    4,461169541e-01    5,188840032e-01    0,000000000e+00    0,000000000e+00    0,000000000e+00    0,000000000e+00
      534000000   -1,405106019e-02   -1,457843333e-01    6,491988301e-01    2,051841319e-01    0,000000000e+00    0,000000000e+00    0,000000000e+00    0,000000000e+00
      548000000   -8,563090116e-02   -1,411611438e-01    6,573249102e-01   -1,778199077e-01    0,000000000e+00    0,000000000e+00    0,000000000e+00    0,000000000e+00
      562000000   -1,377873719e-01   -9,559886903e-02    4,446479678e-01   -5,076278448e-01    0,000000000e+00    0,000000000e+00    0,000000000e+00    0,000000000e+00
      576000000   -1,545217931e-01   -2,435159311e-02    7,321073860e-02   -6,466614604e-01    0,000000000e+00    0,000000000e+00    0,000000000e+00    0,000000000e+00
      590000000   -1,034189761e-01    5,298283696e-02   -2,691474855e-01   -5,290496945e-01    0,000000000e+00    0,000000000e+00    0,000000000e+00    0,000000000e+00
      604000000    5,139858462e-03    1,936297491e-02   -4,230674505e-01   -3,220689297e-01    0,000000000e+00    0,000000000e+00    0,000000000e+00    0,000000000e+00
      618000000   -2,635622956e-02   -7,012407482e-02   -5,613970160e-01   -1,172288060e-01    0,000000000e+00    0,000000000e+00    0,000000000e+00    0,000000000e+00
      632000000   -8,675908297e-02   -4,856953770e-02   -5,799861550e-01    2,214836776e-01    0,000000000e+00    0,000000000e+00    0,000000000e+00    0,000000000e+00
      646000000   -8,104059845e-02    1,551682653e-04   -3,688319921e-01    5,206946731e-01    0,000000000e+00    0,000000000e+00    0,000000000e+00    0,000000000e+00
      660000000   -4,026728123e-02    1,275820751e-02   -2,489583008e-02    6,376808286e-01    0,000000000e+00    0,000000000e+00    0,000000000e+00    0,000000000e+00
      674000000   -1,366463955e-02   -1,035290118e-02    3,186594248e-01    5,489780903e-01    0,000000000e+00    0,000000000e+00    0,000000000e+00    0,000000000e+00
      688000000   -1,340487041e-02   -3,514764458e-02    5,584684610e-01    2,916633487e-01    0,000000000e+00    0,000000000e+00    0,000000000e+00    0,000000000e+00
      702000000   -2,195296809e-02   -4,546636343e-02    6,245205998e-01   -5,356637761e-02    0,000000000e+00    0,000000000e+00    0,000000000e+00    0,000000000e+00
      716000000   -2,115095779e-02   -5,249075964e-02    4,870262146e-01   -3,808361292e-01    0,000000000e+00    0,000000000e+00    0,000000000e+00    0,000000000e+00
      730000000   -1,656085439e-02   -7,112638652e-02    1,997568309e-01   -5,746037960e-01    0,000000000e+00    0,000000000e+00    0,000000000e+00    0,000000000e+00
      744000000   -3,048190847e-02   -1,020675600e-01   -1,375519335e-01   -5,861530900e-01    0,000000000e+00    0,000000000e+00    0,000000000e+00    0,000000000e+00
      758000000   -7,377153635e-02   -1,238183379e-01   -4,277673364e-01   -4,221545160e-01    0,000000000e+00    0,000000000e+00    0,000000000e+00    0,000000000e+00
      772000000   -1,285592020e-01   -1,096893474e-01   -5,935686827e-01   -1,273061186e-01    0,000000000e+00    0,000000000e+00    0,000000000e+00    0,000000000e+00
      786000000   -1,618963331e-01   -5,918287113e-02   -5,726163387e-01    2,175352126e-01    0,000000000e+00    0,000000000e+00    0,000000000e+00    0,000000000e+00
      800000000   -1,537670344e-01    2,618063882e-04   -3,635987043e-01    4,952242970e-01    0,000000000e+00    0,000000000e+00    0,000000000e+00    0,000000000e+00
      814000000   -1,153156236e-01    3,489779308e-02   -3,967314959e-02    6,108552814e-01    0,000000000e+00    0,000000000e+00    0,000000000e+00    0,000000000e+00
      828000000   -7,388101518e-02    4,014052451e-02    2,880731821e-01    5,359590650e-01    0,000000000e+00    0,000000000e+00    0,000000000e+00    0,000000000e+00
      842000000   -4,257388785e-02    3,030383401e-02    5,211457610e-01    2,996360064e-01    0,000000000e+00    0,000000000e+00    0,000000000e+00    0,000000000e+00
      856000000   -1,870075054e-02    1,443388406e-02    5,916337371e-01   -1,934919693e-02    0,000000000e+00    0,000000000e+00    0,000000000e+00    0,000000000e+00
      870000000    4,337000195e-03   -1,139575616e-02    4,809541702e-01   -3,205012977e-01    0,000000000e+00    0,000000000e+00    0,000000000e+00    0,000000000e+00
      884000000    1,317432616e-02   -5,429964885e-02    2,355198711e-01   -5,138213634e-01    0,000000000e+00    0,000000000e+00    0,000000000e+00    0,000000000e+00
      898000000   -7,276464719e-03   -1,044213772e-01   -6,736866385e-02   -5,512655377e-01    0,000000000e+00    0,000000000e+00    0,000000000e+00    0,000000000e+00
      912000000   -6,841570139e-02   -1,302171350e-01   -3,994702101e-01   -4,124841392e-01    0,000000000e+00    0,000000000e+00    0,000000000e+00    0,000000000e+00
      926000000   -1,284529865e-01   -1,090380624e-01   -5,627337098e-01   -1,341184080e-01    0,000000000e+00    0,000000000e+00    0,000000000e+00    0,000000000e+00
      940000000   -1,573491246e-01   -5,156921595e-02   -5,540425181e-01    1,980444640e-01    0,000000000e+00    0,000000000e+00    0,000000000e+00    0,000000000e+00
      954000000   -1,293437630e-01   -1,343357726e-03   -3,617143035e-01    4,697587192e-01    0,000000000e+00    0,000000000e+00    0,000000000e+00    0,000000000e+00
      968000000   -8,760175109e-02    1,073955931e-02   -5,868117511e-02    5,956833363e-01    0,000000000e+00    0,000000000e+00    0,000000000e+00    0,000000000e+00
      982000000   -6,201673299e-02   -1,195033640e-02    2,581973374e-01    5,494385958e-01    0,000000000e+00    0,000000000e+00    0,000000000e+00    0,000000000e+00
      996000000   -6,588770449e-02   -3,828860074e-02    5,075113773e-01    3,471202254e-01    0,000000000e+00    0,000000000e+00    0,000000000e+00    0,000000000e+00
     1010000000   -8,156315237e-02   -5,407031253e-02    6,144613624e-01    4,554267600e-02    0,000000000e+00    0,000000000e+00    0,000000000e+00    0,000000000e+00
     1024000000   -1,005723104e-01   -4,962462187e-02    5,472859740e-01   -2,736331820e-01    0,000000000e+00    0,000000000e+00    0,000000000e+00    0,000000000e+00
     1038000000   -1,057282761e-01   -3,740798309e-02    3,223784268e-01   -5,002629161e-01    0,000000000e+00    0,000000000e+00    0,000000000e+00    0,000000000e+00
     1052000000   -1,100797653e-01   -2,527253143e-02    1,593828388e-02   -5,708797574e-01    0,000000000e+00    0,000000000e+00    0,000000000e+00    0,000000000e+00
     1066000000   -1,171192527e-01   -1,109487657e-02   -2,758131921e-01   -4,723489583e-01    0,000000000e+00    0,000000000e+00    0,000000000e+00    0,000000000e+00
     1080000000   -9,770740569e-02    1,735642180e-02   -4,544209838e-01   -2,403541356e-01    0,000000000e+00    0,000000000e+00    0,000000000e+00    0,000000000e+00
     1094000000   -6,355673075e-02    2,746308409e-02   -4,929171801e-01    3,691020608e-02    0,000000000e+00    0,000000000e+00    0,000000000e+00    0,000000000e+00
     1108000000   -2,278313600e-02    7,505473332e-04   -3,853044808e-01    2,917220891e-01    0,000000000e+00    0,000000000e+00    0,000000000e+00    0,000000000e+00
     1122000000   -6,501866970e-03   -4,391875491e-02   -1,547885090e-01    4,583019316e-01    0,000000000e+00    0,000000000e+00    0,000000000e+00    0,000000000e+00
     1136000000   -1,825618371e-02   -1,041128933e-01    1,395110190e-01    4,786586761e-01    0,000000000e+00    0,000000000e+00    0,000000000e+00    0,000000000e+00
     1150000000   -6,650310010e-02   -1,529461443e-01    4,139533937e-01    3,324767649e-01    0,000000000e+00    0,000000000e+00    0,000000000e+00    0,000000000e+00
     1164000000   -1,444400400e-01   -1,519669145e-01    5,759619474e-01    3,444498777e-02    0,000000000e+00    0,000000000e+00    0,000000000e+00    0,000000000e+00
     1178000000   -2,010131031e-01   -1,084378809e-01    5,362764597e-01   -3,318794072e-01    0,000000000e+00    0,000000000e+00    0,000000000e+00    0,000000000e+00
     1192000000   -2,147192061e-01   -4,490351677e-02    2,743680775e-01   -6,096698046e-01    0,000000000e+00    0,000000000e+00    0,000000000e+00    0,000000000e+00
     1206000000   -2,024467885e-01   -1,280463953e-02   -1,072687581e-01   -6,751998067e-01    0,000000000e+00    0,000000000e+00    0,000000000e+00    0,000000000e+00
     1220000000   -2,108856887e-01    1,057548728e-02   -4,366373718e-01   -5,095080733e-01    0,000000000e+00    0,000000000e+00    0,000000000e+00    0,000000000e+00
     1234000000   -2,190724611e-01    7,141893357e-02   -5,865036845e-01   -2,155333161e-01    0,000000000e+00    0,000000000e+00    0,000000000e+00    0,000000000e+00
     1248000000   -1,418469846e-01    1,597075611e-01   -5,649747849e-01    5,541742593e-02    0,000000000e+00    0,000000000e+00    0,000000000e+00    0,000000000e+00
     1262000000   -1,226036716e-02    1,421153545e-01   -4,594753981e-01    2,794763744e-01    0,000000000e+00    0,000000000e+00    0,000000000e+00    0,000000000e+00
     1276000000    6,520101428e-02    5,362750217e-02   -2,614242136e-01    4,565679729e-01    0,000000000e+00    0,000000000e+00    0,000000000e+00    0,000000000e+00
     1290000000    8,210602403e-02   -6,695663184e-02    1,604097080e-03    5,186370611e-01    0,000000000e+00    0,000000000e+00    0,000000000e+00    0,000000000e+00
     1304000000    2,999025397e-02   -1,807971150e-01    2,762113214e-01    4,647962749e-01    0,000000000e+00    0,000000000e+00    0,000000000e+00    0,000000000e+00
     1318000000   -8,825448900e-02   -2,583393753e-01    5,093533993e-01    2,727143764e-01    0,000000000e+00    0,000000000e+00    0,000000000e+00    0,000000000e+00
     1332000000   -2,399238199e-01   -2,600831687e-01    6,294536591e-01   -4,482032731e-02    0,000000000e+00    0,000000000e+00    0,000000000e+00    0,000000000e+00
     1346000000   -3,606941104e-01   -1,465766281e-01    5,505582094e-01   -3,900220692e-01    0,000000000e+00    0,000000000e+00    0,000000000e+00    0,000000000e+00
     1360000000   -3,929472268e-01    2,246256336e-04    2,576670945e-01   -6,258801818e-01    0,000000000e+00    0,000000000e+00    0,000000000e+00    0,000000000e+00
     1374000000   -3,320977092e-01    1,194796786e-01   -9,192248434e-02   -6,258266568e-01    0,000000000e+00    0,000000000e+00    0,000000000e+00    0,000000000e+00
     1388000000   -2,409299016e-01    1,711563468e-01   -3,670668602e-01   -4,212236404e-01    0,000000000e+00    0,000000000e+00    0,000000000e+00    0,000000000e+00
     1402000000   -1,581021547e-01    1,735983640e-01   -4,718294740e-01   -1,161087900e-01    0,000000000e+00    0,000000000e+00    0,000000000e+00    0,000000000e+00
     1416000000   -8,384304494e-02    1,516749859e-01   -3,879246116e-01    2,018660903e-01    0,000000000e+00    0,000000000e+00    0,000000000e+00    0,000000000e+00
     1430000000   -3,258939460e-02    9,669896215e-02   -1,885644197e-01    4,220084548e-01    0,000000000e+00    0,000000000e+00    0,000000000e+00    0,000000000e+00
     1444000000   -2,143632388e-03    1,221217588e-02    1,212661862e-01    5,118556619e-01    0,000000000e+00    0,000000000e+00    0,000000000e+00    0,000000000e+00
     1458000000   -2,921077423e-02   -7,791667432e-02    4,364128709e-01    4,733358622e-01    0,000000000e+00    0,000000000e+00    0,000000000e+00    0,000000000e+00
     1472000000   -1,128879413e-01   -1,450907439e-01    7,081832290e-01    2,966594696e-01    0,000000000e+00    0,000000000e+00    0,000000000e+00    0,000000000e+00
     1486000000   -2,148522735e-01   -1,452527493e-01    8,970698714e-01   -4,074998572e-02    0,000000000e+00    0,000000000e+00    0,000000000e+00    0,000000000e+00
     1500000000   -2,990089655e-01   -6,840230525e-02    8,381588459e-01   -4,155857563e-01    0,000000000e+00    0,000000000e+00    0,000000000e+00    0,000000000e+00
