! NanoVNA-App
! Date: 2025-09-26 09:58:44
! Start: 100MHz Stop: 1,5GHz Points: 101
! S-Parameter data: F S11 S21 S12 S22
# Hz S RI R 50
!     Frequency           S11_Real           S11_Imag           S21_Real           S21_Imag           S12_Real           S12_Imag           S22_Real           S22_Imag
      100000000    3,583377227e-02    2,686581202e-02    4,404625893e-01   -6,703090072e-01    0,000000000e+00    0,000000000e+00    0,000000000e+00    0,000000000e+00
      114000000    6,045995653e-02    1,435915823e-03    1,213637274e-02   -7,958776355e-01    0,000000000e+00    0,000000000e+00    0,000000000e+00    0,000000000e+00
      128000000    6,759526581e-02   -4,274556413e-02   -4,094224870e-01   -6,784795523e-01    0,000000000e+00    0,000000000e+00    0,000000000e+00    0,000000000e+00
      142000000    4,236540571e-02   -8,863468468e-02   -7,062859535e-01   -3,604383171e-01    0,000000000e+00    0,000000000e+00    0,000000000e+00    0,000000000e+00
      156000000   -1,075933222e-02   -1,088095531e-01   -7,931242585e-01    6,845010817e-02    0,000000000e+00    0,000000000e+00    0,000000000e+00    0,000000000e+00
      170000000   -6,300698221e-02   -9,057655185e-02   -6,365562081e-01    4,878613055e-01    0,000000000e+00    0,000000000e+00    0,000000000e+00    0,000000000e+00
      184000000   -8,839117736e-02   -4,646332189e-02   -2,719648182e-01    7,570194602e-01    0,000000000e+00    0,000000000e+00    0,000000000e+00    0,000000000e+00
      198000000   -8,223252743e-02   -5,366042722e-03    1,813925356e-01    7,827650905e-01    0,000000000e+00    0,000000000e+00    0,000000000e+00    0,000000000e+00
      212000000   -6,187810376e-02    1,897247322e-02    5,720100403e-01    5,578929782e-01    0,000000000e+00    0,000000000e+00    0,000000000e+00    0,000000000e+00
      226000000   -3,999061510e-02    3,260729462e-02    7,775973678e-01    1,608491838e-01    0,000000000e+00    0,000000000e+00    0,000000000e+00    0,000000000e+00
      240000000   -1,292426325e-02    4,123925790e-02    7,362623215e-01   -2,796333432e-01    0,000000000e+00    0,000000000e+00    0,000000000e+00    0,000000000e+00
      254000000    2,309562080e-02    3,498321772e-02    4,684542418e-01   -6,225300431e-01    0,000000000e+00    0,000000000e+00    0,000000000e+00    0,000000000e+00
      268000000    5,377421901e-02    2,595578320e-03    6,679095328e-02   -7,684082389e-01    0,000000000e+00    0,000000000e+00    0,000000000e+00    0,000000000e+00
      282000000    5,637683719e-02   -4,684820399e-02   -3,457782567e-01   -6,838930845e-01    0,000000000e+00    0,000000000e+00    0,000000000e+00    0,000000000e+00
      296000000    2,417838760e-02   -8,538313210e-02   -6,558148861e-01   -3,980194628e-01    0,000000000e+00    0,000000000e+00    0,000000000e+00    0,000000000e+00
      310000000   -2,076961286e-02   -8,854607493e-02   -7,758198977e-01    1,127263810e-02    0,000000000e+00    0,000000000e+00    0,000000000e+00    0,000000000e+00
      324000000   -4,738628119e-02   -6,197555363e-02   -6,477752328e-01    4,309117198e-01    0,000000000e+00    0,000000000e+00    0,000000000e+00    0,000000000e+00
      338000000   -4,054424167e-02   -3,642314300e-02   -3,122738302e-01    7,111389041e-01    0,000000000e+00    0,000000000e+00    0,000000000e+00    0,000000000e+00
      352000000   -2,287855744e-02   -3,684613854e-02    1,207321063e-01    7,596958876e-01    0,000000000e+00    0,000000000e+00    0,000000000e+00    0,000000000e+00
      366000000   -2,234827355e-02   -5,543103442e-02    5,032837391e-01    5,718368292e-01    0,000000000e+00    0,000000000e+00    0,000000000e+00    0,000000000e+00
      380000000   -4,355420172e-02   -6,441836059e-02    7,278208137e-01    2,112593651e-01    0,000000000e+00    0,000000000e+00    0,000000000e+00    0,000000000e+00
      394000000   -6,489091367e-02   -5,032715201e-02    7,238736153e-01   -2,136302143e-01    0,000000000e+00    0,000000000e+00    0,000000000e+00    0,000000000e+00
      408000000   -6,576079875e-02   -2,708791569e-02    4,900147915e-01   -5,705808401e-01    0,000000000e+00    0,000000000e+00    0,000000000e+00    0,000000000e+00
      422000000   -5,226089805e-02   -1,737057604e-02    1,057550013e-01   -7,410777807e-01    0,000000000e+00    0,000000000e+00    0,000000000e+00    0,000000000e+00
      436000000   -4,700751603e-02   -1,961673610e-02   -3,071170151e-01   -6,771579385e-01    0,000000000e+00    0,000000000e+00    0,000000000e+00    0,000000000e+00
      450000000   -5,313662812e-02   -1,547596510e-02   -6,210299134e-01   -4,005343020e-01    0,000000000e+00    0,000000000e+00    0,000000000e+00    0,000000000e+00
      464000000   -5,076386780e-02    6,948709954e-03   -7,315737009e-01    3,785490757e-03    0,000000000e+00    0,000000000e+00    0,000000000e+00    0,000000000e+00
      478000000   -1,956599392e-02    2,782773785e-02   -5,989168882e-01    3,985815346e-01    0,000000000e+00    0,000000000e+00    0,000000000e+00    0,000000000e+00
      492000000    2,992126718e-02    1,478448976e-02   -2,796150446e-01    6,446991563e-01    0,000000000e+00    0,000000000e+00    0,000000000e+00    0,000000000e+00
      506000000    6,062264740e-02   -3,896672279e-02    1,065678746e-01    6,803553700e-01    0,000000000e+00    0,000000000e+00    0,000000000e+00    0,000000000e+00
      520000000    4,455623403e-02   -1,056796610e-01    4,455226362e-01    5,188283324e-01    0,000000000e+00    0,000000000e+00    0,000000000e+00    0,000000000e+00
      534000000   -1,392887160e-02   -1,461562663e-01    6,494979858e-01    2,042718083e-01    0,000000000e+00    0,000000000e+00    0,000000000e+00    0,000000000e+00
      548000000   -8,539061993e-02   -1,420311481e-01    6,573539972e-01   -1,791626066e-01    0,000000000e+00    0,000000000e+00    0,000000000e+00    0,000000000e+00
      562000000   -1,394960731e-01   -9,719467163e-02    4,425623715e-01   -5,101254582e-01    0,000000000e+00    0,000000000e+00    0,000000000e+00    0,000000000e+00
      576000000   -1,599404663e-01   -2,410110831e-02    6,767953932e-02   -6,484435797e-01    0,000000000e+00    0,000000000e+00    0,000000000e+00    0,000000000e+00
      590000000   -1,056314558e-01    6,646645814e-02   -2,740807533e-01   -5,162332058e-01    0,000000000e+00    0,000000000e+00    0,000000000e+00    0,000000000e+00
      604000000    2,571069263e-02    1,585180871e-02   -3,985510468e-01   -3,206270933e-01    0,000000000e+00    0,000000000e+00    0,000000000e+00    0,000000000e+00
      618000000   -3,090908192e-02   -8,449621499e-02   -5,641937256e-01   -1,347215027e-01    0,000000000e+00    0,000000000e+00    0,000000000e+00    0,000000000e+00
      632000000   -9,701532871e-02   -4,918649793e-02   -5,917196870e-01    2,197788358e-01    0,000000000e+00    0,000000000e+00    0,000000000e+00    0,000000000e+00
      646000000   -8,454704285e-02    6,278289482e-03   -3,729461133e-01    5,276066065e-01    0,000000000e+00    0,000000000e+00    0,000000000e+00    0,000000000e+00
      660000000   -3,935483471e-02    1,667870209e-02   -2,302520908e-02    6,420586109e-01    0,000000000e+00    0,000000000e+00    0,000000000e+00    0,000000000e+00
      674000000   -1,024470106e-02   -7,580105215e-03    3,216849267e-01    5,499960184e-01    0,000000000e+00    0,000000000e+00    0,000000000e+00    0,000000000e+00
      688000000   -1,023330912e-02   -3,614060208e-02    5,607321262e-01    2,911780477e-01    0,000000000e+00    0,000000000e+00    0,000000000e+00    0,000000000e+00
      702000000   -2,036522888e-02   -4,758241028e-02    6,263316274e-01   -6,095616147e-02    0,000000000e+00    0,000000000e+00    0,000000000e+00    0,000000000e+00
      716000000   -2,217152342e-02   -5,412916467e-02    4,873030484e-01   -3,847362995e-01    0,000000000e+00    0,000000000e+00    0,000000000e+00    0,000000000e+00
      730000000   -1,998654753e-02   -7,182636857e-02    1,983665973e-01   -5,788531899e-01    0,000000000e+00    0,000000000e+00    0,000000000e+00    0,000000000e+00
      744000000   -3,479967639e-02   -1,015423834e-01   -1,423321366e-01   -5,874316096e-01    0,000000000e+00    0,000000000e+00    0,000000000e+00    0,000000000e+00
      758000000   -7,567958534e-02   -1,200760156e-01   -4,325646758e-01   -4,191716611e-01    0,000000000e+00    0,000000000e+00    0,000000000e+00    0,000000000e+00
      772000000   -1,254838109e-01   -1,051570699e-01   -5,931453109e-01   -1,211961210e-01    0,000000000e+00    0,000000000e+00    0,000000000e+00    0,000000000e+00
      786000000   -1,573079675e-01   -5,912759155e-02   -5,674843192e-01    2,210594118e-01    0,000000000e+00    0,000000000e+00    0,000000000e+00    0,000000000e+00
      800000000   -1,506923288e-01   -4,412920680e-03   -3,587000966e-01    4,923880398e-01    0,000000000e+00    0,000000000e+00    0,000000000e+00    0,000000000e+00
      814000000   -1,178512946e-01    3,018198907e-02   -3,970921412e-02    6,048426628e-01    0,000000000e+00    0,000000000e+00    0,000000000e+00    0,000000000e+00
      828000000   -7,827080786e-02    4,108972847e-02    2,855949402e-01    5,316590667e-01    0,000000000e+00    0,000000000e+00    0,000000000e+00    0,000000000e+00
      842000000   -4,469404742e-02    3,400862589e-02    5,169367790e-01    3,004189432e-01    0,000000000e+00    0,000000000e+00    0,000000000e+00    0,000000000e+00
      856000000   -1,632153429e-02    1,745990478e-02    5,896501541e-01   -1,630549319e-02    0,000000000e+00    0,000000000e+00    0,000000000e+00    0,000000000e+00
      870000000    5,954963621e-03   -1,112758182e-02    4,813520908e-01   -3,182068169e-01    0,000000000e+00    0,000000000e+00    0,000000000e+00    0,000000000e+00
      884000000    1,578452066e-02   -5,650021881e-02    2,365268916e-01   -5,119369626e-01    0,000000000e+00    0,000000000e+00    0,000000000e+00    0,000000000e+00
      898000000   -7,075965405e-03   -1,071279645e-01   -6,616272032e-02   -5,534671545e-01    0,000000000e+00    0,000000000e+00    0,000000000e+00    0,000000000e+00
      912000000   -7,010056823e-02   -1,332049966e-01   -3,991807997e-01   -4,077410102e-01    0,000000000e+00    0,000000000e+00    0,000000000e+00    0,000000000e+00
      926000000   -1,328956187e-01   -1,098918766e-01   -5,654813647e-01   -1,380798370e-01    0,000000000e+00    0,000000000e+00    0,000000000e+00    0,000000000e+00
      940000000   -1,560142487e-01   -4,909236357e-02   -5,528365970e-01    1,977023333e-01    0,000000000e+00    0,000000000e+00    0,000000000e+00    0,000000000e+00
      954000000   -1,314488649e-01   -3,021565033e-03   -3,617798686e-01    4,682250619e-01    0,000000000e+00    0,000000000e+00    0,000000000e+00    0,000000000e+00
      968000000   -8,765897900e-02    5,717195570e-03   -5,869838223e-02    5,931491256e-01    0,000000000e+00    0,000000000e+00    0,000000000e+00    0,000000000e+00
      982000000   -6,094685569e-02   -1,697787829e-02    2,566025853e-01    5,482311845e-01    0,000000000e+00    0,000000000e+00    0,000000000e+00    0,000000000e+00
      996000000   -6,735404581e-02   -3,919203207e-02    5,050724745e-01    3,484933972e-01    0,000000000e+00    0,000000000e+00    0,000000000e+00    0,000000000e+00
     1010000000   -8,352954686e-02   -5,479453504e-02    6,157703400e-01    4,664621875e-02    0,000000000e+00    0,000000000e+00    0,000000000e+00    0,000000000e+00
     1024000000   -1,044463739e-01   -4,497636855e-02    5,517230034e-01   -2,723858654e-01    0,000000000e+00    0,000000000e+00    0,000000000e+00    0,000000000e+00
     1038000000   -1,092930287e-01   -3,740792349e-02    3,256359994e-01   -5,037216544e-01    0,000000000e+00    0,000000000e+00    0,000000000e+00    0,000000000e+00
     1052000000   -1,100311354e-01   -2,348911203e-02    1,536542643e-02   -5,752698779e-01    0,000000000e+00    0,000000000e+00    0,000000000e+00    0,000000000e+00
     1066000000   -1,135000363e-01   -1,122248825e-02   -2,781699300e-01   -4,714232087e-01    0,000000000e+00    0,000000000e+00    0,000000000e+00    0,000000000e+00
     1080000000   -9,827408940e-02    1,195932366e-02   -4,580729008e-01   -2,425739169e-01    0,000000000e+00    0,000000000e+00    0,000000000e+00    0,000000000e+00
     1094000000   -6,674318016e-02    2,403849736e-02   -4,935616553e-01    3,862039745e-02    0,000000000e+00    0,000000000e+00    0,000000000e+00    0,000000000e+00
     1108000000   -2,649102174e-02    4,217605456e-04   -3,833798170e-01    2,924825549e-01    0,000000000e+00    0,000000000e+00    0,000000000e+00    0,000000000e+00
     1122000000   -2,312316326e-03   -4,049855471e-02   -1,546511948e-01    4,590351582e-01    0,000000000e+00    0,000000000e+00    0,000000000e+00    0,000000000e+00
     1136000000   -1,367225405e-02   -1,042109728e-01    1,378954351e-01    4,764441550e-01    0,000000000e+00    0,000000000e+00    0,000000000e+00    0,000000000e+00
     1150000000   -6,523482502e-02   -1,498876810e-01    4,133270085e-01    3,311015964e-01    0,000000000e+00    0,000000000e+00    0,000000000e+00    0,000000000e+00
     1164000000   -1,394948959e-01   -1,527652293e-01    5,759321451e-01    3,393589333e-02    0,000000000e+00    0,000000000e+00    0,000000000e+00    0,000000000e+00
     1178000000   -2,056600451e-01   -1,104319692e-01    5,379554033e-01   -3,305443525e-01    0,000000000e+00    0,000000000e+00    0,000000000e+00    0,000000000e+00
     1192000000   -2,209088504e-01   -4,938433692e-02    2,710701823e-01   -6,075617075e-01    0,000000000e+00    0,000000000e+00    0,000000000e+00    0,000000000e+00
     1206000000   -2,070665359e-01   -6,819864735e-03   -1,048798040e-01   -6,775912046e-01    0,000000000e+00    0,000000000e+00    0,000000000e+00    0,000000000e+00
     1220000000   -2,048736662e-01    7,305432577e-03   -4,351235926e-01   -5,114955306e-01    0,000000000e+00    0,000000000e+00    0,000000000e+00    0,000000000e+00
     1234000000   -2,188755721e-01    7,328567654e-02   -5,872817039e-01   -2,143418193e-01    0,000000000e+00    0,000000000e+00    0,000000000e+00    0,000000000e+00
     1248000000   -1,420322359e-01    1,608348489e-01   -5,680754185e-01    5,385287106e-02    0,000000000e+00    0,000000000e+00    0,000000000e+00    0,000000000e+00
     1262000000   -1,667295024e-02    1,420800686e-01   -4,617767632e-01    2,781832814e-01    0,000000000e+00    0,000000000e+00    0,000000000e+00    0,000000000e+00
     1276000000    6,730861962e-02    5,448681861e-02   -2,605966628e-01    4,519648254e-01    0,000000000e+00    0,000000000e+00    0,000000000e+00    0,000000000e+00
     1290000000    7,994372398e-02   -6,422364712e-02    2,526835306e-03    5,184548497e-01    0,000000000e+00    0,000000000e+00    0,000000000e+00    0,000000000e+00
     1304000000    2,940860577e-02   -1,787032187e-01    2,740125656e-01    4,650144279e-01    0,000000000e+00    0,000000000e+00    0,000000000e+00    0,000000000e+00
     1318000000   -8,572036773e-02   -2,556416690e-01    5,162922144e-01    2,760200202e-01    0,000000000e+00    0,000000000e+00    0,000000000e+00    0,000000000e+00
     1332000000   -2,353686839e-01   -2,534551024e-01    6,372514367e-01   -3,902119771e-02    0,000000000e+00    0,000000000e+00    0,000000000e+00    0,000000000e+00
     1346000000   -3,612990081e-01   -1,469009221e-01    5,522002578e-01   -3,862740993e-01    0,000000000e+00    0,000000000e+00    0,000000000e+00    0,000000000e+00
     1360000000   -3,884982169e-01    4,128713161e-03    2,600129843e-01   -6,196134686e-01    0,000000000e+00    0,000000000e+00    0,000000000e+00    0,000000000e+00
     1374000000   -3,285927773e-01    1,159004867e-01   -9,917663783e-02   -6,133893132e-01    0,000000000e+00    0,000000000e+00    0,000000000e+00    0,000000000e+00
     1388000000   -2,407729179e-01    1,699340045e-01   -3,599065244e-01   -4,218061566e-01    0,000000000e+00    0,000000000e+00    0,000000000e+00    0,000000000e+00
     1402000000   -1,542805284e-01    1,749507040e-01   -4,688791931e-01   -1,058596522e-01    0,000000000e+00    0,000000000e+00    0,000000000e+00    0,000000000e+00
     1416000000   -8,420998603e-02    1,511828452e-01   -3,852968216e-01    1,991441399e-01    0,000000000e+00    0,000000000e+00    0,000000000e+00    0,000000000e+00
     1430000000   -3,275388107e-02    9,478667378e-02   -1,821371317e-01    4,340898097e-01    0,000000000e+00    0,000000000e+00    0,000000000e+00    0,000000000e+00
     1444000000   -4,687917419e-03    1,361672767e-02    1,080218479e-01    5,095311403e-01    0,000000000e+00    0,000000000e+00    0,000000000e+00    0,000000000e+00
     1458000000   -3,044008650e-02   -8,000842482e-02    4,241025448e-01    4,803161621e-01    0,000000000e+00    0,000000000e+00    0,000000000e+00    0,000000000e+00
     1472000000   -1,102654561e-01   -1,493787020e-01    7,017492056e-01    2,940129936e-01    0,000000000e+00    0,000000000e+00    0,000000000e+00    0,000000000e+00
     1486000000   -2,192543149e-01   -1,440292448e-01    8,854077458e-01   -3,472517431e-02    0,000000000e+00    0,000000000e+00    0,000000000e+00    0,000000000e+00
     1500000000   -3,048428595e-01   -7,172515243e-02    8,264128566e-01   -4,154867530e-01    0,000000000e+00    0,000000000e+00    0,000000000e+00    0,000000000e+00
