! NanoVNA-App
! Date: 2025-09-26 09:58:44
! Start: 100MHz Stop: 1,5GHz Points: 101
! S-Parameter data: F S11 S21 S12 S22
# Hz S RI R 50
!     Frequency           S11_Real           S11_Imag           S21_Real           S21_Imag           S12_Real           S12_Imag           S22_Real           S22_Imag
      100000000    3,583225980e-02    2,685967460e-02    4,404538274e-01   -6,702619195e-01    0,000000000e+00    0,000000000e+00    0,000000000e+00    0,000000000e+00
      114000000    6,047854200e-02    1,467996743e-03    1,220875606e-02   -7,959623337e-01    0,000000000e+00    0,000000000e+00    0,000000000e+00    0,000000000e+00
      128000000    6,758270413e-02   -4,276737943e-02   -4,091655314e-01   -6,784924269e-01    0,000000000e+00    0,000000000e+00    0,000000000e+00    0,000000000e+00
      142000000    4,236269742e-02   -8,870657533e-02   -7,063975930e-01   -3,606962562e-01    0,000000000e+00    0,000000000e+00    0,000000000e+00    0,000000000e+00
      156000000   -9,951777756e-03   -1,091167033e-01   -7,947573066e-01    6,883300841e-02    0,000000000e+00    0,000000000e+00    0,000000000e+00    0,000000000e+00
      170000000   -6,299067289e-02   -9,064676613e-02   -6,364666820e-01    4,878465235e-01    0,000000000e+00    0,000000000e+00    0,000000000e+00    0,000000000e+00
      184000000   -8,839163929e-02   -4,644154757e-02   -2,719120085e-01    7,575848103e-01    0,000000000e+00    0,000000000e+00    0,000000000e+00    0,000000000e+00
      198000000   -8,226408064e-02   -5,383440293e-03    1,815763116e-01    7,825230360e-01    0,000000000e+00    0,000000000e+00    0,000000000e+00    0,000000000e+00
      212000000   -6,186503544e-02    1,897136867e-02    5,718834996e-01    5,578301549e-01    0,000000000e+00    0,000000000e+00    0,000000000e+00    0,000000000e+00
      226000000   -4,005091265e-02    3,252473474e-02    7,775599360e-01    1,608432084e-01    0,000000000e+00    0,000000000e+00    0,000000000e+00    0,000000000e+00
      240000000   -1,293540839e-02    4,119890928e-02    7,363958359e-01   -2,796436250e-01    0,000000000e+00    0,000000000e+00    0,000000000e+00    0,000000000e+00
      254000000    2,310521528e-02    3,494948521e-02    4,685187340e-01   -6,228336692e-01    0,000000000e+00    0,000000000e+00    0,000000000e+00    0,000000000e+00
      268000000    5,378244445e-02    2,571052406e-03    6,691110879e-02   -7,680076361e-01    0,000000000e+00    0,000000000e+00    0,000000000e+00    0,000000000e+00
      282000000    5,641009659e-02   -4,684828967e-02   -3,460260034e-01   -6,837249398e-01    0,000000000e+00    0,000000000e+00    0,000000000e+00    0,000000000e+00
      296000000    2,421627380e-02   -8,530319482e-02   -6,561875939e-01   -3,984492421e-01    0,000000000e+00    0,000000000e+00    0,000000000e+00    0,000000000e+00
      310000000   -2,079763263e-02   -8,855974674e-02   -7,753540874e-01    1,312572695e-02    0,000000000e+00    0,000000000e+00    0,000000000e+00    0,000000000e+00
      324000000   -4,724092782e-02   -6,175841764e-02   -6,483188868e-01    4,311508536e-01    0,000000000e+00    0,000000000e+00    0,000000000e+00    0,000000000e+00
      338000000   -4,056057334e-02   -3,647148982e-02   -3,103760779e-01    7,120162249e-01    0,000000000e+00    0,000000000e+00    0,000000000e+00    0,000000000e+00
      352000000   -2,260432020e-02   -3,676125780e-02    1,202904731e-01    7,586792111e-01    0,000000000e+00    0,000000000e+00    0,000000000e+00    0,000000000e+00
      366000000   -2,208054811e-02   -5,552241206e-02    5,038224459e-01    5,715523958e-01    0,000000000e+00    0,000000000e+00    0,000000000e+00    0,000000000e+00
      380000000   -4,361370951e-02   -6,445090473e-02    7,279132605e-01    2,116279304e-01    0,000000000e+00    0,000000000e+00    0,000000000e+00    0,000000000e+00
      394000000   -6,491575390e-02   -5,029994994e-02    7,236007452e-01   -2,143269777e-01    0,000000000e+00    0,000000000e+00    0,000000000e+00    0,000000000e+00
      408000000   -6,601585448e-02   -2,713861316e-02    4,890118241e-01   -5,698260665e-01    0,000000000e+00    0,000000000e+00    0,000000000e+00    0,000000000e+00
      422000000   -5,229777098e-02   -1,713078655e-02    1,057053208e-01   -7,394235730e-01    0,000000000e+00    0,000000000e+00    0,000000000e+00    0,000000000e+00
      436000000   -4,740114138e-02   -1,981824264e-02   -3,070403337e-01   -6,770340800e-01    0,000000000e+00    0,000000000e+00    0,000000000e+00    0,000000000e+00
      450000000   -5,280025303e-02   -1,522676647e-02   -6,197819114e-01   -4,002551734e-01    0,000000000e+00    0,000000000e+00    0,000000000e+00    0,000000000e+00
      464000000   -5,115260184e-02    6,859302986e-03   -7,315140367e-01    4,014778882e-03    0,000000000e+00    0,000000000e+00    0,000000000e+00    0,000000000e+00
      478000000   -1,952817105e-02    2,792350389e-02   -5,987376571e-01    3,989697695e-01    0,000000000e+00    0,000000000e+00    0,000000000e+00    0,000000000e+00
      492000000    3,020777181e-02    1,452157181e-02   -2,791539729e-01    6,451376677e-01    0,000000000e+00    0,000000000e+00    0,000000000e+00    0,000000000e+00
      506000000    6,066548452e-02   -3,887574375e-02    1,062083393e-01    6,797707677e-01    0,000000000e+00    0,000000000e+00    0,000000000e+00    0,000000000e+00
      520000000    4,480123147e-02   -1,056700274e-01    4,441253543e-01    5,172924995e-01    0,000000000e+00    0,000000000e+00    0,000000000e+00    0,000000000e+00
      534000000   -1,379948109e-02   -1,462300271e-01    6,509819627e-01    2,041564137e-01    0,000000000e+00    0,000000000e+00    0,000000000e+00    0,000000000e+00
      548000000   -8,545530587e-02   -1,422333717e-01    6,581029296e-01   -1,797702909e-01    0,000000000e+00    0,000000000e+00    0,000000000e+00    0,000000000e+00
      562000000   -1,394398063e-01   -9,722311050e-02    4,423005879e-01   -5,100935102e-01    0,000000000e+00    0,000000000e+00    0,000000000e+00    0,000000000e+00
      576000000   -1,599354744e-01   -2,410157025e-02    6,718768924e-02   -6,474583745e-01    0,000000000e+00    0,000000000e+00    0,000000000e+00    0,000000000e+00
      590000000   -1,059180796e-01    6,650225818e-02   -2,784199715e-01   -5,161159039e-01    0,000000000e+00    0,000000000e+00    0,000000000e+00    0,000000000e+00
      604000000    2,607776038e-02    1,646051183e-02   -3,979430199e-01   -3,202366233e-01    0,000000000e+00    0,000000000e+00    0,000000000e+00    0,000000000e+00
      618000000   -3,098762967e-02   -8,490690589e-02   -5,640932322e-01   -1,353151053e-01    0,000000000e+00    0,000000000e+00    0,000000000e+00    0,000000000e+00
      632000000   -9,707804024e-02   -4,926893860e-02   -5,916097164e-01    2,195174545e-01    0,000000000e+00    0,000000000e+00    0,000000000e+00    0,000000000e+00
      646000000   -8,488847315e-02    6,087180227e-03   -3,732534349e-01    5,278425217e-01    0,000000000e+00    0,000000000e+00    0,000000000e+00    0,000000000e+00
      660000000   -3,923754767e-02    1,687004976e-02   -2,275842987e-02    6,440447569e-01    0,000000000e+00    0,000000000e+00    0,000000000e+00    0,000000000e+00
      674000000   -1,050370373e-02   -8,478345349e-03    3,215829730e-01    5,505986810e-01    0,000000000e+00    0,000000000e+00    0,000000000e+00    0,000000000e+00
      688000000   -1,018632017e-02   -3,668200597e-02    5,605946779e-01    2,907901704e-01    0,000000000e+00    0,000000000e+00    0,000000000e+00    0,000000000e+00
      702000000   -2,176751941e-02   -4,925041646e-02    6,260826588e-01   -5,632807314e-02    0,000000000e+00    0,000000000e+00    0,000000000e+00    0,000000000e+00
      716000000   -2,158882841e-02   -5,431423336e-02    4,871038496e-01   -3,839094639e-01    0,000000000e+00    0,000000000e+00    0,000000000e+00    0,000000000e+00
      730000000   -1,940249465e-02   -7,303956151e-02    1,979501992e-01   -5,778078437e-01    0,000000000e+00    0,000000000e+00    0,000000000e+00    0,000000000e+00
      744000000   -3,463884071e-02   -1,018700600e-01   -1,417541355e-01   -5,860002041e-01    0,000000000e+00    0,000000000e+00    0,000000000e+00    0,000000000e+00
      758000000   -7,548452914e-02   -1,208702549e-01   -4,329494834e-01   -4,196309447e-01    0,000000000e+00    0,000000000e+00    0,000000000e+00    0,000000000e+00
      772000000   -1,267018020e-01   -1,048503518e-01   -5,934093595e-01   -1,210120693e-01    0,000000000e+00    0,000000000e+00    0,000000000e+00    0,000000000e+00
      786000000   -1,576924473e-01   -5,818590894e-02   -5,676747561e-01    2,215726674e-01    0,000000000e+00    0,000000000e+00    0,000000000e+00    0,000000000e+00
      800000000   -1,513386667e-01   -5,159308668e-03   -3,579282165e-01    4,927313030e-01    0,000000000e+00    0,000000000e+00    0,000000000e+00    0,000000000e+00
      814000000   -1,179946214e-01    3,084857948e-02   -3,981669247e-02    6,045770049e-01    0,000000000e+00    0,000000000e+00    0,000000000e+00    0,000000000e+00
      828000000   -7,774479687e-02    4,036897421e-02    2,847513556e-01    5,316346288e-01    0,000000000e+00    0,000000000e+00    0,000000000e+00    0,000000000e+00
      842000000   -4,490388930e-02    3,381017596e-02    5,171228647e-01    3,001887798e-01    0,000000000e+00    0,000000000e+00    0,000000000e+00    0,000000000e+00
      856000000   -1,718698628e-02    1,722947881e-02    5,895968080e-01   -1,660940424e-02    0,000000000e+00    0,000000000e+00    0,000000000e+00    0,000000000e+00
      870000000    6,915380713e-03   -1,035520714e-02    4,815013707e-01   -3,174857199e-01    0,000000000e+00    0,000000000e+00    0,000000000e+00    0,000000000e+00
      884000000    1,600954868e-02   -5,639473349e-02    2,364141643e-01   -5,115624666e-01    0,000000000e+00    0,000000000e+00    0,000000000e+00    0,000000000e+00
      898000000   -6,841136143e-03   -1,076330841e-01   -6,461911649e-02   -5,521668196e-01    0,000000000e+00    0,000000000e+00    0,000000000e+00    0,000000000e+00
      912000000   -6,949793547e-02   -1,326386333e-01   -3,939754963e-01   -4,177570045e-01    0,000000000e+00    0,000000000e+00    0,000000000e+00    0,000000000e+00
      926000000   -1,313308626e-01   -1,116953567e-01   -5,626289845e-01   -1,398231387e-01    0,000000000e+00    0,000000000e+00    0,000000000e+00    0,000000000e+00
      940000000   -1,543329507e-01   -5,019773915e-02   -5,541421175e-01    1,965510845e-01    0,000000000e+00    0,000000000e+00    0,000000000e+00    0,000000000e+00
      954000000   -1,275405288e-01    2,565545219e-05   -3,611361980e-01    4,713962376e-01    0,000000000e+00    0,000000000e+00    0,000000000e+00    0,000000000e+00
      968000000   -8,418055624e-02    9,615187533e-03   -5,659817532e-02    5,937666893e-01    0,000000000e+00    0,000000000e+00    0,000000000e+00    0,000000000e+00
      982000000   -6,012267619e-02   -1,733253524e-02    2,580088377e-01    5,447499752e-01    0,000000000e+00    0,000000000e+00    0,000000000e+00    0,000000000e+00
      996000000   -6,755162776e-02   -4,212964326e-02    5,034068823e-01    3,488653600e-01    0,000000000e+00    0,000000000e+00    0,000000000e+00    0,000000000e+00
     1010000000   -8,819197863e-02   -5,426294357e-02    6,164804101e-01    4,746407643e-02    0,000000000e+00    0,000000000e+00    0,000000000e+00    0,000000000e+00
     1024000000   -1,039078683e-01   -4,307902977e-02    5,500418544e-01   -2,709995806e-01    0,000000000e+00    0,000000000e+00    0,000000000e+00    0,000000000e+00
     1038000000   -1,049051881e-01   -3,743235022e-02    3,268341422e-01   -5,035054088e-01    0,000000000e+00    0,000000000e+00    0,000000000e+00    0,000000000e+00
     1052000000   -1,141777337e-01   -2,435735799e-02    1,465049013e-02   -5,752232075e-01    0,000000000e+00    0,000000000e+00    0,000000000e+00    0,000000000e+00
     1066000000   -1,168626472e-01   -7,510547061e-03   -2,746830285e-01   -4,747426510e-01    0,000000000e+00    0,000000000e+00    0,000000000e+00    0,000000000e+00
     1080000000   -9,635689110e-02    1,645868085e-02   -4,597765803e-01   -2,407980859e-01    0,000000000e+00    0,000000000e+00    0,000000000e+00    0,000000000e+00
     1094000000   -6,479547173e-02    2,826371230e-02   -4,941894710e-01    3,911968321e-02    0,000000000e+00    0,000000000e+00    0,000000000e+00    0,000000000e+00
     1108000000   -2,586466819e-02    5,537582561e-03   -3,798798621e-01    2,923085093e-01    0,000000000e+00    0,000000000e+00    0,000000000e+00    0,000000000e+00
     1122000000   -7,674474036e-04   -4,520174116e-02   -1,535723656e-01    4,562432766e-01    0,000000000e+00    0,000000000e+00    0,000000000e+00    0,000000000e+00
     1136000000   -1,752734743e-02   -1,017652601e-01    1,372874826e-01    4,768687189e-01    0,000000000e+00    0,000000000e+00    0,000000000e+00    0,000000000e+00
     1150000000   -6,852751225e-02   -1,499898285e-01    4,129513800e-01    3,274258971e-01    0,000000000e+00    0,000000000e+00    0,000000000e+00    0,000000000e+00
     1164000000   -1,451647878e-01   -1,506810784e-01    5,750805736e-01    3,693519533e-02    0,000000000e+00    0,000000000e+00    0,000000000e+00    0,000000000e+00
     1178000000   -1,998972893e-01   -1,109876111e-01    5,374023318e-01   -3,277604580e-01    0,000000000e+00    0,000000000e+00    0,000000000e+00    0,000000000e+00
     1192000000   -2,164135128e-01   -4,575559497e-02    2,711624801e-01   -6,079648733e-01    0,000000000e+00    0,000000000e+00    0,000000000e+00    0,000000000e+00
     1206000000   -2,043784559e-01   -1,141675469e-02   -1,045139953e-01   -6,792650819e-01    0,000000000e+00    0,000000000e+00    0,000000000e+00    0,000000000e+00
     1220000000   -2,051461935e-01    8,745150641e-03   -4,310412109e-01   -5,098108649e-01    0,000000000e+00    0,000000000e+00    0,000000000e+00    0,000000000e+00
     1234000000   -2,221498489e-01    7,279019058e-02   -5,850576162e-01   -2,125511765e-01    0,000000000e+00    0,000000000e+00    0,000000000e+00    0,000000000e+00
     1248000000   -1,445916593e-01    1,532704383e-01   -5,632052422e-01    5,081225559e-02    0,000000000e+00    0,000000000e+00    0,000000000e+00    0,000000000e+00
     1262000000   -1,335386280e-02    1,415798515e-01   -4,582227170e-01    2,781080306e-01    0,000000000e+00    0,000000000e+00    0,000000000e+00    0,000000000e+00
     1276000000    6,274980307e-02    5,331098661e-02   -2,627231479e-01    4,540957212e-01    0,000000000e+00    0,000000000e+00    0,000000000e+00    0,000000000e+00
     1290000000    7,676655054e-02   -6,701045483e-02   -1,856037561e-04    5,174754858e-01    0,000000000e+00    0,000000000e+00    0,000000000e+00    0,000000000e+00
     1304000000    2,899993397e-02   -1,788967997e-01    2,789694071e-01    4,653050005e-01    0,000000000e+00    0,000000000e+00    0,000000000e+00    0,000000000e+00
     1318000000   -8,823292702e-02   -2,568144202e-01    5,110312700e-01    2,736152411e-01    0,000000000e+00    0,000000000e+00    0,000000000e+00    0,000000000e+00
     1332000000   -2,380299419e-01   -2,507534027e-01    6,342840195e-01   -3,084770218e-02    0,000000000e+00    0,000000000e+00    0,000000000e+00    0,000000000e+00
     1346000000   -3,627513349e-01   -1,503212303e-01    5,520384312e-01   -3,880981803e-01    0,000000000e+00    0,000000000e+00    0,000000000e+00    0,000000000e+00
     1360000000   -3,902249634e-01    3,557165153e-03    2,632914782e-01   -6,170657277e-01    0,000000000e+00    0,000000000e+00    0,000000000e+00    0,000000000e+00
     1374000000   -3,294935226e-01    1,183729544e-01   -8,451841772e-02   -6,167656183e-01    0,000000000e+00    0,000000000e+00    0,000000000e+00    0,000000000e+00
     1388000000   -2,435545772e-01    1,685671359e-01   -3,637654483e-01   -4,231061041e-01    0,000000000e+00    0,000000000e+00    0,000000000e+00    0,000000000e+00
     1402000000   -1,549108475e-01    1,718767732e-01   -4,686199129e-01   -1,094302982e-01    0,000000000e+00    0,000000000e+00    0,000000000e+00    0,000000000e+00
     1416000000   -9,016240388e-02    1,507863998e-01   -3,886849582e-01    1,986229420e-01    0,000000000e+00    0,000000000e+00    0,000000000e+00    0,000000000e+00
     1430000000   -3,227690607e-02    9,391271323e-02   -1,835695654e-01    4,083646238e-01    0,000000000e+00    0,000000000e+00    0,000000000e+00    0,000000000e+00
     1444000000   -8,062280715e-03    1,271225512e-02    1,025070995e-01    5,160019994e-01    0,000000000e+00    0,000000000e+00    0,000000000e+00    0,000000000e+00
     1458000000   -2,984353155e-02   -7,467983663e-02    4,239908457e-01    4,943921268e-01    0,000000000e+00    0,000000000e+00    0,000000000e+00    0,000000000e+00
     1472000000   -1,134521514e-01   -1,441141367e-01    7,079166174e-01    3,013792336e-01    0,000000000e+00    0,000000000e+00    0,000000000e+00    0,000000000e+00
     1486000000   -2,186405808e-01   -1,474670172e-01    8,866811395e-01   -2,269004099e-02    0,000000000e+00    0,000000000e+00    0,000000000e+00    0,000000000e+00
     1500000000   -2,959063053e-01   -7,033898681e-02    8,286282420e-01   -4,172087908e-01    0,000000000e+00    0,000000000e+00    0,000000000e+00    0,000000000e+00
