! NanoVNA-App
! Date: 2025-09-26 09:58:33
! Start: 100MHz Stop: 1,5GHz Points: 101
! S-Parameter data: F S11 S21 S12 S22
# Hz S RI R 50
!     Frequency           S11_Real           S11_Imag           S21_Real           S21_Imag           S12_Real           S12_Imag           S22_Real           S22_Imag
      100000000    3,581843898e-02    2,686855197e-02    4,404421151e-01   -6,702767611e-01    0,000000000e+00    0,000000000e+00    0,000000000e+00    0,000000000e+00
      114000000    6,046703458e-02    1,472085249e-03    1,205700357e-02   -7,960785031e-01    0,000000000e+00    0,000000000e+00    0,000000000e+00    0,000000000e+00
      128000000    6,758433580e-02   -4,273870587e-02   -4,090775847e-01   -6,782773137e-01    0,000000000e+00    0,000000000e+00    0,000000000e+00    0,000000000e+00
      142000000    4,231918231e-02   -8,863809705e-02   -7,065372467e-01   -3,604793251e-01    0,000000000e+00    0,000000000e+00    0,000000000e+00    0,000000000e+00
      156000000   -1,074900478e-02   -1,086186767e-01   -7,931448221e-01    6,850533932e-02    0,000000000e+00    0,000000000e+00    0,000000000e+00    0,000000000e+00
      170000000   -6,304291636e-02   -9,053187072e-02   -6,364611387e-01    4,879421890e-01    0,000000000e+00    0,000000000e+00    0,000000000e+00    0,000000000e+00
      184000000   -8,841323107e-02   -4,644922540e-02   -2,719165385e-01    7,575143576e-01    0,000000000e+00    0,000000000e+00    0,000000000e+00    0,000000000e+00
      198000000   -8,219149709e-02   -5,366043653e-03    1,813432425e-01    7,825513482e-01    0,000000000e+00    0,000000000e+00    0,000000000e+00    0,000000000e+00
      212000000   -6,184460595e-02    1,898373477e-02    5,720777512e-01    5,578230619e-01    0,000000000e+00    0,000000000e+00    0,000000000e+00    0,000000000e+00
      226000000   -3,993106633e-02    3,257493302e-02    7,775906324e-01    1,608068496e-01    0,000000000e+00    0,000000000e+00    0,000000000e+00    0,000000000e+00
      240000000   -1,292045042e-02    4,121792689e-02    7,364176512e-01   -2,796670198e-01    0,000000000e+00    0,000000000e+00    0,000000000e+00    0,000000000e+00
      254000000    2,308490127e-02    3,494479135e-02    4,679358900e-01   -6,228528619e-01    0,000000000e+00    0,000000000e+00    0,000000000e+00    0,000000000e+00
      268000000    5,380354449e-02    2,583994297e-03    6,696886569e-02   -7,683715820e-01    0,000000000e+00    0,000000000e+00    0,000000000e+00    0,000000000e+00
      282000000    5,629294366e-02   -4,688142613e-02   -3,461010158e-01   -6,837540865e-01    0,000000000e+00    0,000000000e+00    0,000000000e+00    0,000000000e+00
      296000000    2,413375117e-02   -8,534744382e-02   -6,559536457e-01   -3,983317018e-01    0,000000000e+00    0,000000000e+00    0,000000000e+00    0,000000000e+00
      310000000   -2,078808472e-02   -8,870920539e-02   -7,746852636e-01    1,144487970e-02    0,000000000e+00    0,000000000e+00    0,000000000e+00    0,000000000e+00
      324000000   -4,709064215e-02   -6,189453602e-02   -6,483964324e-01    4,316641986e-01    0,000000000e+00    0,000000000e+00    0,000000000e+00    0,000000000e+00
      338000000   -4,084963724e-02   -3,622241691e-02   -3,124389052e-01    7,089168429e-01    0,000000000e+00    0,000000000e+00    0,000000000e+00    0,000000000e+00
      352000000   -2,273186110e-02   -3,689121082e-02    1,202550679e-01    7,579485774e-01    0,000000000e+00    0,000000000e+00    0,000000000e+00    0,000000000e+00
      366000000   -2,215567417e-02   -5,533092469e-02    5,035756230e-01    5,711546540e-01    0,000000000e+00    0,000000000e+00    0,000000000e+00    0,000000000e+00
      380000000   -4,344557971e-02   -6,437164545e-02    7,273438573e-01    2,119905055e-01    0,000000000e+00    0,000000000e+00    0,000000000e+00    0,000000000e+00
      394000000   -6,480770558e-02   -5,056075752e-02    7,236081958e-01   -2,139727175e-01    0,000000000e+00    0,000000000e+00    0,000000000e+00    0,000000000e+00
      408000000   -6,576327235e-02   -2,724408172e-02    4,899151921e-01   -5,698837638e-01    0,000000000e+00    0,000000000e+00    0,000000000e+00    0,000000000e+00
      422000000   -5,238191783e-02   -1,742029004e-02    1,059932336e-01   -7,413365841e-01    0,000000000e+00    0,000000000e+00    0,000000000e+00    0,000000000e+00
      436000000   -4,722959548e-02   -1,948727667e-02   -3,071812391e-01   -6,763876677e-01    0,000000000e+00    0,000000000e+00    0,000000000e+00    0,000000000e+00
      450000000   -5,293026939e-02   -1,519534178e-02   -6,191909313e-01   -4,005675316e-01    0,000000000e+00    0,000000000e+00    0,000000000e+00    0,000000000e+00
      464000000   -5,089543387e-02    6,790169515e-03   -7,310636640e-01    3,862059675e-03    0,000000000e+00    0,000000000e+00    0,000000000e+00    0,000000000e+00
      478000000   -1,984239556e-02    2,765689231e-02   -5,990117192e-01    3,985039890e-01    0,000000000e+00    0,000000000e+00    0,000000000e+00    0,000000000e+00
      492000000    3,001743369e-02    1,457251888e-02   -2,793854177e-01    6,449845433e-01    0,000000000e+00    0,000000000e+00    0,000000000e+00    0,000000000e+00
      506000000    6,087980047e-02   -3,877306730e-02    1,055272520e-01    6,815085411e-01    0,000000000e+00    0,000000000e+00    0,000000000e+00    0,000000000e+00
      520000000    4,463873804e-02   -1,051264927e-01    4,453189075e-01    5,178413391e-01    0,000000000e+00    0,000000000e+00    0,000000000e+00    0,000000000e+00
      534000000   -1,371204481e-02   -1,465018690e-01    6,501851678e-01    2,041822523e-01    0,000000000e+00    0,000000000e+00    0,000000000e+00    0,000000000e+00
      548000000   -8,549637347e-02   -1,424913406e-01    6,579875350e-01   -1,795751005e-01    0,000000000e+00    0,000000000e+00    0,000000000e+00    0,000000000e+00
      562000000   -1,392945796e-01   -9,727241099e-02    4,428485334e-01   -5,098569989e-01    0,000000000e+00    0,000000000e+00    0,000000000e+00    0,000000000e+00
      576000000   -1,594640166e-01   -2,410522476e-02    6,857852638e-02   -6,483816504e-01    0,000000000e+00    0,000000000e+00    0,000000000e+00    0,000000000e+00
      590000000   -1,058204770e-01    6,538894027e-02   -2,760936618e-01   -5,198691487e-01    0,000000000e+00    0,000000000e+00    0,000000000e+00    0,000000000e+00
      604000000    2,443140186e-02    1,705002040e-02   -4,005088806e-01   -3,191868961e-01    0,000000000e+00    0,000000000e+00    0,000000000e+00    0,000000000e+00
      618000000   -3,051686473e-02   -8,444110304e-02   -5,637698174e-01   -1,331043988e-01    0,000000000e+00    0,000000000e+00    0,000000000e+00    0,000000000e+00
      632000000   -9,636553377e-02   -4,893353954e-02   -5,905673504e-01    2,198653817e-01    0,000000000e+00    0,000000000e+00    0,000000000e+00    0,000000000e+00
      646000000   -8,458872885e-02    5,580479745e-03   -3,737367392e-01    5,267024636e-01    0,000000000e+00    0,000000000e+00    0,000000000e+00    0,000000000e+00
      660000000   -3,986859694e-02    1,729610190e-02   -2,325119264e-02    6,423868537e-01    0,000000000e+00    0,000000000e+00    0,000000000e+00    0,000000000e+00
      674000000   -1,058298443e-02   -8,092902601e-03    3,208324313e-01    5,508010387e-01    0,000000000e+00    0,000000000e+00    0,000000000e+00    0,000000000e+00
      688000000   -1,136249304e-02   -3,562769666e-02    5,611706376e-01    2,906203270e-01    0,000000000e+00    0,000000000e+00    0,000000000e+00    0,000000000e+00
      702000000   -2,175828256e-02   -4,812300950e-02    6,232603788e-01   -5,875104293e-02    0,000000000e+00    0,000000000e+00    0,000000000e+00    0,000000000e+00
      716000000   -2,222516201e-02   -5,419561267e-02    4,861801863e-01   -3,841400743e-01    0,000000000e+00    0,000000000e+00    0,000000000e+00    0,000000000e+00
      730000000   -1,855231076e-02   -7,207118720e-02    1,976670474e-01   -5,774945617e-01    0,000000000e+00    0,000000000e+00    0,000000000e+00    0,000000000e+00
      744000000   -3,329841048e-02   -1,017817631e-01   -1,413782835e-01   -5,866917968e-01    0,000000000e+00    0,000000000e+00    0,000000000e+00    0,000000000e+00
      758000000   -7,491273433e-02   -1,207748801e-01   -4,321274161e-01   -4,202310145e-01    0,000000000e+00    0,000000000e+00    0,000000000e+00    0,000000000e+00
      772000000   -1,276747733e-01   -1,054335684e-01   -5,943955183e-01   -1,226320937e-01    0,000000000e+00    0,000000000e+00    0,000000000e+00    0,000000000e+00
      786000000   -1,576358229e-01   -5,777535215e-02   -5,699137449e-01    2,213271409e-01    0,000000000e+00    0,000000000e+00    0,000000000e+00    0,000000000e+00
      800000000   -1,513977200e-01   -3,116507083e-03   -3,589256406e-01    4,938633442e-01    0,000000000e+00    0,000000000e+00    0,000000000e+00    0,000000000e+00
      814000000   -1,169403493e-01    3,117267415e-02   -3,911168128e-02    6,065813303e-01    0,000000000e+00    0,000000000e+00    0,000000000e+00    0,000000000e+00
      828000000   -7,675267756e-02    3,955941275e-02    2,865142822e-01    5,310323238e-01    0,000000000e+00    0,000000000e+00    0,000000000e+00    0,000000000e+00
      842000000   -4,440142214e-02    3,252710402e-02    5,176481009e-01    2,992467582e-01    0,000000000e+00    0,000000000e+00    0,000000000e+00    0,000000000e+00
      856000000   -1,809985377e-02    1,668973640e-02    5,890357494e-01   -1,809501834e-02    0,000000000e+00    0,000000000e+00    0,000000000e+00    0,000000000e+00
      870000000    5,795349833e-03   -1,068852469e-02    4,809325933e-01   -3,192503750e-01    0,000000000e+00    0,000000000e+00    0,000000000e+00    0,000000000e+00
      884000000    1,558970660e-02   -5,522044748e-02    2,364185601e-01   -5,127614737e-01    0,000000000e+00    0,000000000e+00    0,000000000e+00    0,000000000e+00
      898000000   -6,718642544e-03   -1,069907397e-01   -6,631702185e-02   -5,526486635e-01    0,000000000e+00    0,000000000e+00    0,000000000e+00    0,000000000e+00
      912000000   -6,966885924e-02   -1,318854839e-01   -3,895441294e-01   -4,181704521e-01    0,000000000e+00    0,000000000e+00    0,000000000e+00    0,000000000e+00
      926000000   -1,304009110e-01   -1,107056066e-01   -5,609814525e-01   -1,358826607e-01    0,000000000e+00    0,000000000e+00    0,000000000e+00    0,000000000e+00
      940000000   -1,549934894e-01   -5,049099401e-02   -5,517706871e-01    1,985789388e-01    0,000000000e+00    0,000000000e+00    0,000000000e+00    0,000000000e+00
      954000000   -1,320675462e-01   -1,343929325e-03   -3,594036698e-01    4,698486328e-01    0,000000000e+00    0,000000000e+00    0,000000000e+00    0,000000000e+00
      968000000   -8,498056978e-02    1,142089628e-02   -5,646568537e-02    5,924602747e-01    0,000000000e+00    0,000000000e+00    0,000000000e+00    0,000000000e+00
      982000000   -6,080256030e-02   -1,288013626e-02    2,568042278e-01    5,441755056e-01    0,000000000e+00    0,000000000e+00    0,000000000e+00    0,000000000e+00
      996000000   -6,642119586e-02   -4,077384621e-02    5,023728013e-01    3,465093970e-01    0,000000000e+00    0,000000000e+00    0,000000000e+00    0,000000000e+00
     1010000000   -8,831238747e-02   -5,281163752e-02    6,147822738e-01    4,646264017e-02    0,000000000e+00    0,000000000e+00    0,000000000e+00    0,000000000e+00
     1024000000   -9,996794909e-02   -4,334438965e-02    5,500923395e-01   -2,712512612e-01    0,000000000e+00    0,000000000e+00    0,000000000e+00    0,000000000e+00
     1038000000   -1,070383489e-01   -3,339412808e-02    3,235063255e-01   -5,028361082e-01    0,000000000e+00    0,000000000e+00    0,000000000e+00    0,000000000e+00
     1052000000   -1,109122410e-01   -3,041536175e-02    1,575231366e-02   -5,737667084e-01    0,000000000e+00    0,000000000e+00    0,000000000e+00    0,000000000e+00
     1066000000   -1,173697636e-01   -7,712318096e-03   -2,748866975e-01   -4,740856886e-01    0,000000000e+00    0,000000000e+00    0,000000000e+00    0,000000000e+00
     1080000000   -1,026579216e-01    1,369527448e-02   -4,589588940e-01   -2,401428223e-01    0,000000000e+00    0,000000000e+00    0,000000000e+00    0,000000000e+00
     1094000000   -6,647385657e-02    2,278865315e-02   -4,923181236e-01    3,954789415e-02    0,000000000e+00    0,000000000e+00    0,000000000e+00    0,000000000e+00
     1108000000   -2,434820496e-02    6,552929990e-03   -3,799869716e-01    2,901763618e-01    0,000000000e+00    0,000000000e+00    0,000000000e+00    0,000000000e+00
     1122000000   -8,277687011e-04   -4,428714886e-02   -1,533625573e-01    4,563865960e-01    0,000000000e+00    0,000000000e+00    0,000000000e+00    0,000000000e+00
     1136000000   -1,703706756e-02   -1,013526767e-01    1,398841739e-01    4,755698442e-01    0,000000000e+00    0,000000000e+00    0,000000000e+00    0,000000000e+00
     1150000000   -6,392149627e-02   -1,501963437e-01    4,136959612e-01    3,260235488e-01    0,000000000e+00    0,000000000e+00    0,000000000e+00    0,000000000e+00
     1164000000   -1,401813775e-01   -1,531689167e-01    5,722577572e-01    3,464715555e-02    0,000000000e+00    0,000000000e+00    0,000000000e+00    0,000000000e+00
     1178000000   -2,039822191e-01   -1,083182022e-01    5,309217572e-01   -3,302903473e-01    0,000000000e+00    0,000000000e+00    0,000000000e+00    0,000000000e+00
     1192000000   -2,181445509e-01   -5,115149915e-02    2,761235535e-01   -6,091530919e-01    0,000000000e+00    0,000000000e+00    0,000000000e+00    0,000000000e+00
     1206000000   -2,088741064e-01   -7,697592955e-03   -1,021934897e-01   -6,739009619e-01    0,000000000e+00    0,000000000e+00    0,000000000e+00    0,000000000e+00
     1220000000   -2,078285217e-01    1,285726577e-02   -4,356103837e-01   -5,118757486e-01    0,000000000e+00    0,000000000e+00    0,000000000e+00    0,000000000e+00
     1234000000   -2,209775150e-01    7,339332998e-02   -5,865268707e-01   -2,181967944e-01    0,000000000e+00    0,000000000e+00    0,000000000e+00    0,000000000e+00
     1248000000   -1,439516246e-01    1,587089747e-01   -5,634806752e-01    5,375189707e-02    0,000000000e+00    0,000000000e+00    0,000000000e+00    0,000000000e+00
     1262000000   -1,146566961e-02    1,427900344e-01   -4,596960545e-01    2,799403667e-01    0,000000000e+00    0,000000000e+00    0,000000000e+00    0,000000000e+00
     1276000000    6,629146636e-02    5,267041177e-02   -2,553205192e-01    4,552916586e-01    0,000000000e+00    0,000000000e+00    0,000000000e+00    0,000000000e+00
     1290000000    7,879552990e-02   -6,499166787e-02    3,291915171e-03    5,172879696e-01    0,000000000e+00    0,000000000e+00    0,000000000e+00    0,000000000e+00
     1304000000    2,594285458e-02   -1,822933406e-01    2,762825191e-01    4,585450292e-01    0,000000000e+00    0,000000000e+00    0,000000000e+00    0,000000000e+00
     1318000000   -8,740404993e-02   -2,596298456e-01    5,101832747e-01    2,693012655e-01    0,000000000e+00    0,000000000e+00    0,000000000e+00    0,000000000e+00
     1332000000   -2,398539037e-01   -2,570832968e-01    6,305989027e-01   -3,422462940e-02    0,000000000e+00    0,000000000e+00    0,000000000e+00    0,000000000e+00
     1346000000   -3,625831604e-01   -1,552740335e-01    5,438604951e-01   -3,946700692e-01    0,000000000e+00    0,000000000e+00    0,000000000e+00    0,000000000e+00
     1360000000   -3,899784684e-01    4,184327554e-03    2,593232095e-01   -6,096838117e-01    0,000000000e+00    0,000000000e+00    0,000000000e+00    0,000000000e+00
     1374000000   -3,295448720e-01    1,174836010e-01   -9,292858839e-02   -6,208401918e-01    0,000000000e+00    0,000000000e+00    0,000000000e+00    0,000000000e+00
     1388000000   -2,401901335e-01    1,711373776e-01   -3,670426607e-01   -4,290612042e-01    0,000000000e+00    0,000000000e+00    0,000000000e+00    0,000000000e+00
     1402000000   -1,590322703e-01    1,711329818e-01   -4,644979537e-01   -1,086229533e-01    0,000000000e+00    0,000000000e+00    0,000000000e+00    0,000000000e+00
     1416000000   -8,594886959e-02    1,479322612e-01   -3,934568167e-01    1,974981427e-01    0,000000000e+00    0,000000000e+00    0,000000000e+00    0,000000000e+00
     1430000000   -2,738617361e-02    8,970771730e-02   -1,789644659e-01    4,041370153e-01    0,000000000e+00    0,000000000e+00    0,000000000e+00    0,000000000e+00
     1444000000   -1,741415006e-03    1,813179068e-02    1,224142164e-01    5,168685317e-01    0,000000000e+00    0,000000000e+00    0,000000000e+00    0,000000000e+00
     1458000000   -2,787771635e-02   -7,856782526e-02    4,250905216e-01    4,718334973e-01    0,000000000e+00    0,000000000e+00    0,000000000e+00    0,000000000e+00
     1472000000   -1,074543372e-01   -1,410651505e-01    7,146575451e-01    2,963280678e-01    0,000000000e+00    0,000000000e+00    0,000000000e+00    0,000000000e+00
     1486000000   -2,213287354e-01   -1,409900188e-01    8,746212721e-01   -2,380643971e-02    0,000000000e+00    0,000000000e+00    0,000000000e+00    0,000000000e+00
     1500000000   -2,997950017e-01   -7,484979182e-02    8,212651014e-01   -4,221848547e-01    0,000000000e+00    0,000000000e+00    0,000000000e+00    0,000000000e+00
