! NanoVNA-App
! Date: 2025-09-25 15:34:48
! Start: 100MHz Stop: 1,5GHz Points: 101
! S-Parameter data: F S11 S21 S12 S22
# Hz S RI R 50
!     Frequency           S11_Real           S11_Imag           S21_Real           S21_Imag           S12_Real           S12_Imag           S22_Real           S22_Imag
      100000000   -2,884126455e-02   -4,178263713e-03    3,741303384e-01   -7,217833400e-01    0,000000000e+00    0,000000000e+00    0,000000000e+00    0,000000000e+00
      114000000   -1,647178084e-02    1,150466036e-02   -8,910919726e-02   -8,055577278e-01    0,000000000e+00    0,000000000e+00    0,000000000e+00    0,000000000e+00
      128000000    3,487538313e-03    1,057845354e-02   -5,146661997e-01   -6,206496358e-01    0,000000000e+00    0,000000000e+00    0,000000000e+00    0,000000000e+00
      142000000    1,456245873e-02   -2,960483078e-03   -7,671816349e-01   -2,366436720e-01    0,000000000e+00    0,000000000e+00    0,000000000e+00    0,000000000e+00
      156000000    1,440661680e-02   -1,487793587e-02   -7,645837069e-01    2,179564983e-01    0,000000000e+00    0,000000000e+00    0,000000000e+00    0,000000000e+00
      170000000    1,672847755e-02   -2,254589647e-02   -5,183020234e-01    6,047474742e-01    0,000000000e+00    0,000000000e+00    0,000000000e+00    0,000000000e+00
      184000000    2,095640078e-02   -3,709973395e-02   -1,014309153e-01    7,862456441e-01    0,000000000e+00    0,000000000e+00    0,000000000e+00    0,000000000e+00
      198000000    1,300356071e-02   -6,248850375e-02    3,435347378e-01    7,123779058e-01    0,000000000e+00    0,000000000e+00    0,000000000e+00    0,000000000e+00
      212000000   -1,867279969e-02   -8,130508661e-02    6,781324148e-01    4,099796414e-01    0,000000000e+00    0,000000000e+00    0,000000000e+00    0,000000000e+00
      226000000   -6,172121689e-02   -6,924457848e-02    7,958121300e-01   -3,054655716e-02    0,000000000e+00    0,000000000e+00    0,000000000e+00    0,000000000e+00
      240000000   -8,260676265e-02   -2,565578744e-02    6,459714174e-01   -4,668969214e-01    0,000000000e+00    0,000000000e+00    0,000000000e+00    0,000000000e+00
      254000000   -6,348937750e-02    1,720831916e-02    2,761159241e-01   -7,432026267e-01    0,000000000e+00    0,000000000e+00    0,000000000e+00    0,000000000e+00
      268000000   -2,388298698e-02    2,890915424e-02   -1,782384664e-01   -7,639412880e-01    0,000000000e+00    0,000000000e+00    0,000000000e+00    0,000000000e+00
      282000000    4,132340662e-03    1,193433255e-02   -5,618935823e-01   -5,355234146e-01    0,000000000e+00    0,000000000e+00    0,000000000e+00    0,000000000e+00
      296000000    9,648904204e-03   -7,917397656e-03   -7,597551942e-01   -1,395229399e-01    0,000000000e+00    0,000000000e+00    0,000000000e+00    0,000000000e+00
      310000000    1,107444149e-02   -1,626212522e-02   -7,120575309e-01    2,976332903e-01    0,000000000e+00    0,000000000e+00    0,000000000e+00    0,000000000e+00
      324000000    1,954898983e-02   -2,661853470e-02   -4,276285768e-01    6,373418570e-01    0,000000000e+00    0,000000000e+00    0,000000000e+00    0,000000000e+00
      338000000    2,601506561e-02   -5,226454511e-02   -8,445758373e-03    7,623434663e-01    0,000000000e+00    0,000000000e+00    0,000000000e+00    0,000000000e+00
      352000000    7,277185563e-03   -8,478911966e-02    4,058243930e-01    6,392112374e-01    0,000000000e+00    0,000000000e+00    0,000000000e+00    0,000000000e+00
      366000000   -3,481072932e-02   -9,571988136e-02    6,906242967e-01    3,107487857e-01    0,000000000e+00    0,000000000e+00    0,000000000e+00    0,000000000e+00
      380000000   -7,075343281e-02   -7,153815776e-02    7,472440600e-01   -1,259565800e-01    0,000000000e+00    0,000000000e+00    0,000000000e+00    0,000000000e+00
      394000000   -7,264363021e-02   -3,240110353e-02    5,465018749e-01   -5,217548013e-01    0,000000000e+00    0,000000000e+00    0,000000000e+00    0,000000000e+00
      408000000   -4,650425166e-02   -1,595604233e-02    1,605768055e-01   -7,314057946e-01    0,000000000e+00    0,000000000e+00    0,000000000e+00    0,000000000e+00
      422000000   -2,822407335e-02   -3,201053664e-02   -2,683520615e-01   -6,949523687e-01    0,000000000e+00    0,000000000e+00    0,000000000e+00    0,000000000e+00
      436000000   -4,068636522e-02   -5,205501989e-02   -6,039549708e-01   -4,323359728e-01    0,000000000e+00    0,000000000e+00    0,000000000e+00    0,000000000e+00
      450000000   -6,741842628e-02   -4,374842346e-02   -7,405364513e-01   -2,109756693e-02    0,000000000e+00    0,000000000e+00    0,000000000e+00    0,000000000e+00
      464000000   -7,333668321e-02   -1,171202026e-02   -6,184258461e-01    3,976851404e-01    0,000000000e+00    0,000000000e+00    0,000000000e+00    0,000000000e+00
      478000000   -4,801848531e-02    1,168598793e-02   -2,826739550e-01    6,676124930e-01    0,000000000e+00    0,000000000e+00    0,000000000e+00    0,000000000e+00
      492000000   -1,581810974e-02    5,915066693e-03    1,378885359e-01    7,012588382e-01    0,000000000e+00    0,000000000e+00    0,000000000e+00    0,000000000e+00
      506000000   -2,395492047e-03   -1,568839140e-02    4,982288778e-01    5,028790236e-01    0,000000000e+00    0,000000000e+00    0,000000000e+00    0,000000000e+00
      520000000   -5,513802171e-03   -3,138475865e-02    6,879695654e-01    1,399331540e-01    0,000000000e+00    0,000000000e+00    0,000000000e+00    0,000000000e+00
      534000000   -4,045293666e-03   -3,822224587e-02    6,431351900e-01   -2,622437179e-01    0,000000000e+00    0,000000000e+00    0,000000000e+00    0,000000000e+00
      548000000    6,172006484e-03   -5,355175212e-02    3,818947673e-01   -5,672973394e-01    0,000000000e+00    0,000000000e+00    0,000000000e+00    0,000000000e+00
      562000000    2,879450796e-03   -8,918099105e-02    2,624984365e-03   -6,724305749e-01    0,000000000e+00    0,000000000e+00    0,000000000e+00    0,000000000e+00
      576000000   -3,379658237e-02   -1,242136136e-01   -3,690505028e-01   -5,574324727e-01    0,000000000e+00    0,000000000e+00    0,000000000e+00    0,000000000e+00
      590000000   -9,650175273e-02   -1,227092743e-01   -6,202157140e-01   -2,622758448e-01    0,000000000e+00    0,000000000e+00    0,000000000e+00    0,000000000e+00
      604000000   -1,396914572e-01   -7,204947621e-02   -6,653682590e-01    1,376501769e-01    0,000000000e+00    0,000000000e+00    0,000000000e+00    0,000000000e+00
      618000000   -1,291419864e-01   -9,479868226e-03   -4,647826254e-01    4,949088991e-01    0,000000000e+00    0,000000000e+00    0,000000000e+00    0,000000000e+00
      632000000   -8,459825069e-02    1,654806361e-02   -9,852966666e-02    6,645454764e-01    0,000000000e+00    0,000000000e+00    0,000000000e+00    0,000000000e+00
      646000000   -5,103990063e-02    4,260317655e-05    2,882139385e-01    5,950333476e-01    0,000000000e+00    0,000000000e+00    0,000000000e+00    0,000000000e+00
      660000000   -5,251214653e-02   -2,192667313e-02    5,670485497e-01    3,231876791e-01    0,000000000e+00    0,000000000e+00    0,000000000e+00    0,000000000e+00
      674000000   -6,963472068e-02   -1,708904468e-02    6,430584788e-01   -6,542734057e-02    0,000000000e+00    0,000000000e+00    0,000000000e+00    0,000000000e+00
      688000000   -6,856177002e-02    9,369940497e-03    4,709022641e-01   -4,284850955e-01    0,000000000e+00    0,000000000e+00    0,000000000e+00    0,000000000e+00
      702000000   -3,851620480e-02    2,705909312e-02    1,191084087e-01   -6,127063036e-01    0,000000000e+00    0,000000000e+00    0,000000000e+00    0,000000000e+00
      716000000    2,861938905e-03    1,843402907e-02   -2,640774846e-01   -5,464992523e-01    0,000000000e+00    0,000000000e+00    0,000000000e+00    0,000000000e+00
      730000000    3,661891446e-02   -1,172367204e-02   -5,283393264e-01   -2,688872814e-01    0,000000000e+00    0,000000000e+00    0,000000000e+00    0,000000000e+00
      744000000    6,556887925e-02   -6,300636381e-02   -5,641278625e-01    1,066976339e-01    0,000000000e+00    0,000000000e+00    0,000000000e+00    0,000000000e+00
      758000000    6,687586755e-02   -1,518780291e-01   -3,634037375e-01    4,101220667e-01    0,000000000e+00    0,000000000e+00    0,000000000e+00    0,000000000e+00
      772000000   -1,294619683e-02   -2,619991601e-01   -3,441503271e-02    5,161681771e-01    0,000000000e+00    0,000000000e+00    0,000000000e+00    0,000000000e+00
      786000000   -2,067234814e-01   -3,035011292e-01    2,741534412e-01    3,959789276e-01    0,000000000e+00    0,000000000e+00    0,000000000e+00    0,000000000e+00
      800000000   -4,249751866e-01   -1,300323457e-01    4,175438881e-01    9,934952855e-02    0,000000000e+00    0,000000000e+00    0,000000000e+00    0,000000000e+00
      814000000   -3,895696998e-01    2,218752056e-01    2,818277478e-01   -1,732172817e-01    0,000000000e+00    0,000000000e+00    0,000000000e+00    0,000000000e+00
      828000000   -5,002002418e-02    3,688031733e-01    5,523052439e-02   -1,895494163e-01    0,000000000e+00    0,000000000e+00    0,000000000e+00    0,000000000e+00
      842000000    2,349663824e-01    1,859108955e-01   -1,745371334e-02   -7,090312988e-02    0,000000000e+00    0,000000000e+00    0,000000000e+00    0,000000000e+00
      856000000    2,807218134e-01   -1,244907454e-01    4,471390694e-02   -1,306499355e-02    0,000000000e+00    0,000000000e+00    0,000000000e+00    0,000000000e+00
      870000000    7,508891821e-02   -3,766319454e-01    1,138317809e-01   -9,116456658e-02    0,000000000e+00    0,000000000e+00    0,000000000e+00    0,000000000e+00
      884000000   -2,953374982e-01   -3,621816337e-01    2,793154493e-02   -2,459811568e-01    0,000000000e+00    0,000000000e+00    0,000000000e+00    0,000000000e+00
      898000000   -4,720804393e-01    8,089094423e-03   -2,215192914e-01   -2,290699333e-01    0,000000000e+00    0,000000000e+00    0,000000000e+00    0,000000000e+00
      912000000   -2,248885036e-01    2,948303223e-01   -3,534014821e-01    6,435143203e-02    0,000000000e+00    0,000000000e+00    0,000000000e+00    0,000000000e+00
      926000000    6,809718162e-02    2,653774321e-01   -2,160034329e-01    2,678484321e-01    0,000000000e+00    0,000000000e+00    0,000000000e+00    0,000000000e+00
      940000000    2,163516432e-01    7,831615955e-02   -3,515737876e-02    3,290574551e-01    0,000000000e+00    0,000000000e+00    0,000000000e+00    0,000000000e+00
      954000000    2,247774154e-01   -1,272043586e-01    1,318592280e-01    3,065364659e-01    0,000000000e+00    0,000000000e+00    0,000000000e+00    0,000000000e+00
      968000000    1,172951907e-01   -3,041841090e-01    2,711045742e-01    2,182498872e-01    0,000000000e+00    0,000000000e+00    0,000000000e+00    0,000000000e+00
      982000000   -8,052700013e-02   -3,870669305e-01    3,661394417e-01    6,340874732e-02    0,000000000e+00    0,000000000e+00    0,000000000e+00    0,000000000e+00
      996000000   -3,147370219e-01   -3,263275921e-01    3,686858416e-01   -1,446228027e-01    0,000000000e+00    0,000000000e+00    0,000000000e+00    0,000000000e+00
     1010000000   -4,622643888e-01   -1,135782599e-01    2,214613259e-01   -3,427408636e-01    0,000000000e+00    0,000000000e+00    0,000000000e+00    0,000000000e+00
     1024000000   -4,111751318e-01    1,493729949e-01   -3,307075799e-02   -3,949024081e-01    0,000000000e+00    0,000000000e+00    0,000000000e+00    0,000000000e+00
     1038000000   -2,158537954e-01    2,942374349e-01   -2,465954572e-01   -2,624174058e-01    0,000000000e+00    0,000000000e+00    0,000000000e+00    0,000000000e+00
     1052000000   -5,752768368e-03    2,809378803e-01   -3,183953166e-01   -4,537052289e-02    0,000000000e+00    0,000000000e+00    0,000000000e+00    0,000000000e+00
     1066000000    1,361959726e-01    1,662376374e-01   -2,576192319e-01    1,407334208e-01    0,000000000e+00    0,000000000e+00    0,000000000e+00    0,000000000e+00
     1080000000    1,931978613e-01    2,270196332e-03   -1,172385886e-01    2,629156411e-01    0,000000000e+00    0,000000000e+00    0,000000000e+00    0,000000000e+00
     1094000000    1,560593694e-01   -1,758645326e-01    6,409300864e-02    3,058821559e-01    0,000000000e+00    0,000000000e+00    0,000000000e+00    0,000000000e+00
     1108000000   -1,593905268e-03   -3,071559966e-01    2,743533254e-01    2,461264133e-01    0,000000000e+00    0,000000000e+00    0,000000000e+00    0,000000000e+00
     1122000000   -2,453303784e-01   -2,644531131e-01    4,700100422e-01    1,652855054e-02    0,000000000e+00    0,000000000e+00    0,000000000e+00    0,000000000e+00
     1136000000   -3,224621713e-01    3,134169430e-02    3,967333734e-01   -3,919419348e-01    0,000000000e+00    0,000000000e+00    0,000000000e+00    0,000000000e+00
     1150000000   -3,997511417e-02    1,557070762e-01    6,165670231e-03   -5,430281162e-01    0,000000000e+00    0,000000000e+00    0,000000000e+00    0,000000000e+00
     1164000000    1,259453744e-01   -6,353037804e-02   -2,781812549e-01   -3,801711798e-01    0,000000000e+00    0,000000000e+00    0,000000000e+00    0,000000000e+00
     1178000000    2,046569623e-02   -3,021500111e-01   -3,678119779e-01   -1,522567272e-01    0,000000000e+00    0,000000000e+00    0,000000000e+00    0,000000000e+00
     1192000000   -2,680016756e-01   -3,671432137e-01   -3,269666135e-01    6,154616550e-02    0,000000000e+00    0,000000000e+00    0,000000000e+00    0,000000000e+00
     1206000000   -5,225490928e-01   -1,602451205e-01   -1,687085778e-01    1,819072962e-01    0,000000000e+00    0,000000000e+00    0,000000000e+00    0,000000000e+00
     1220000000   -5,114208460e-01    1,736872196e-01    5,210670177e-03    1,573254317e-01    0,000000000e+00    0,000000000e+00    0,000000000e+00    0,000000000e+00
     1234000000   -2,863065302e-01    3,613881171e-01    7,012919337e-02    6,574256718e-02    0,000000000e+00    0,000000000e+00    0,000000000e+00    0,000000000e+00
     1248000000   -4,489462823e-02    3,600936830e-01    5,272593349e-02   -7,450334262e-03    0,000000000e+00    0,000000000e+00    0,000000000e+00    0,000000000e+00
     1262000000    1,216865554e-01    2,555987537e-01    1,695131138e-02   -2,474331297e-02    0,000000000e+00    0,000000000e+00    0,000000000e+00    0,000000000e+00
     1276000000    2,101156116e-01    9,867020696e-02   -3,448180389e-03    4,398030695e-03    0,000000000e+00    0,000000000e+00    0,000000000e+00    0,000000000e+00
     1290000000    2,251627147e-01   -7,451873273e-02    2,302927710e-02    4,589216411e-02    0,000000000e+00    0,000000000e+00    0,000000000e+00    0,000000000e+00
     1304000000    1,519872993e-01   -2,430469841e-01    1,332213134e-01    6,483136117e-02    0,000000000e+00    0,000000000e+00    0,000000000e+00    0,000000000e+00
     1318000000    3,709879890e-02   -3,349719644e-01    1,335905045e-01   -1,610915363e-01    0,000000000e+00    0,000000000e+00    0,000000000e+00    0,000000000e+00
     1332000000   -1,314967275e-01   -4,366368353e-01   -4,764268175e-02   -4,341452196e-02    0,000000000e+00    0,000000000e+00    0,000000000e+00    0,000000000e+00
     1346000000   -3,931201100e-01   -4,077431560e-01    3,003720567e-02    6,903323531e-02    0,000000000e+00    0,000000000e+00    0,000000000e+00    0,000000000e+00
     1360000000   -6,065274477e-01   -1,949892938e-01    1,330902576e-01    6,808619201e-02    0,000000000e+00    0,000000000e+00    0,000000000e+00    0,000000000e+00
     1374000000   -6,345900297e-01    1,255615354e-01    1,992821246e-01    5,003715865e-03    0,000000000e+00    0,000000000e+00    0,000000000e+00    0,000000000e+00
     1388000000   -4,640278220e-01    3,708625138e-01    2,107317597e-01   -7,299957424e-02    0,000000000e+00    0,000000000e+00    0,000000000e+00    0,000000000e+00
     1402000000   -2,308096588e-01    4,519372582e-01    1,876208335e-01   -1,016969532e-01    0,000000000e+00    0,000000000e+00    0,000000000e+00    0,000000000e+00
     1416000000   -2,610935830e-02    4,122273922e-01    1,665932834e-01   -9,443853050e-02    0,000000000e+00    0,000000000e+00    0,000000000e+00    0,000000000e+00
     1430000000    1,209300831e-01    2,996073365e-01    1,671458781e-01   -9,926560521e-02    0,000000000e+00    0,000000000e+00    0,000000000e+00    0,000000000e+00
     1444000000    2,058221549e-01    1,524201035e-01    1,637886018e-01   -8,912644535e-02    0,000000000e+00    0,000000000e+00    0,000000000e+00    0,000000000e+00
     1458000000    2,374276817e-01   -1,942259632e-02    1,483101398e-01   -6,822614372e-02    0,000000000e+00    0,000000000e+00    0,000000000e+00    0,000000000e+00
     1472000000    1,888496131e-01   -2,037777752e-01    1,425924301e-01   -2,972365357e-02    0,000000000e+00    0,000000000e+00    0,000000000e+00    0,000000000e+00
     1486000000    6,029715016e-02   -3,733361661e-01    1,631036848e-01    4,139428213e-02    0,000000000e+00    0,000000000e+00    0,000000000e+00    0,000000000e+00
     1500000000   -1,675375402e-01   -4,978896677e-01    2,521070540e-01    9,087065607e-02    0,000000000e+00    0,000000000e+00    0,000000000e+00    0,000000000e+00
