! NanoVNA-App
! Date: 2025-09-25 15:32:24
! Start: 100MHz Stop: 1,5GHz Points: 101
! S-Parameter data: F S11 S21 S12 S22
# Hz S RI R 50
!     Frequency           S11_Real           S11_Imag           S21_Real           S21_Imag           S12_Real           S12_Imag           S22_Real           S22_Imag
      100000000   -2,885301784e-02   -4,173623864e-03    3,740909398e-01   -7,217831612e-01    0,000000000e+00    0,000000000e+00    0,000000000e+00    0,000000000e+00
      114000000   -1,649350673e-02    1,151424740e-02   -8,915992081e-02   -8,055552840e-01    0,000000000e+00    0,000000000e+00    0,000000000e+00    0,000000000e+00
      128000000    3,499171929e-03    1,053573471e-02   -5,147185922e-01   -6,205976605e-01    0,000000000e+00    0,000000000e+00    0,000000000e+00    0,000000000e+00
      142000000    1,455910131e-02   -2,948916983e-03   -7,669640183e-01   -2,366581261e-01    0,000000000e+00    0,000000000e+00    0,000000000e+00    0,000000000e+00
      156000000    1,473683771e-02   -1,478884276e-02   -7,659538984e-01    2,215093374e-01    0,000000000e+00    0,000000000e+00    0,000000000e+00    0,000000000e+00
      170000000    1,671844721e-02   -2,258465253e-02   -5,180656910e-01    6,048246622e-01    0,000000000e+00    0,000000000e+00    0,000000000e+00    0,000000000e+00
      184000000    2,101983316e-02   -3,708545491e-02   -1,013259068e-01    7,859446406e-01    0,000000000e+00    0,000000000e+00    0,000000000e+00    0,000000000e+00
      198000000    1,302725356e-02   -6,247279048e-02    3,431302309e-01    7,124058008e-01    0,000000000e+00    0,000000000e+00    0,000000000e+00    0,000000000e+00
      212000000   -1,867320761e-02   -8,129424602e-02    6,781373620e-01    4,099346697e-01    0,000000000e+00    0,000000000e+00    0,000000000e+00    0,000000000e+00
      226000000   -6,165421009e-02   -6,919312477e-02    7,957611680e-01   -3,060372174e-02    0,000000000e+00    0,000000000e+00    0,000000000e+00    0,000000000e+00
      240000000   -8,260313421e-02   -2,561697736e-02    6,462942362e-01   -4,671255946e-01    0,000000000e+00    0,000000000e+00    0,000000000e+00    0,000000000e+00
      254000000   -6,350515038e-02    1,727352105e-02    2,761245668e-01   -7,433581948e-01    0,000000000e+00    0,000000000e+00    0,000000000e+00    0,000000000e+00
      268000000   -2,386109531e-02    2,883898839e-02   -1,783870459e-01   -7,642709613e-01    0,000000000e+00    0,000000000e+00    0,000000000e+00    0,000000000e+00
      282000000    4,226585384e-03    1,192267798e-02   -5,617153049e-01   -5,357346535e-01    0,000000000e+00    0,000000000e+00    0,000000000e+00    0,000000000e+00
      296000000    9,822416119e-03   -7,813668810e-03   -7,597807646e-01   -1,396053731e-01    0,000000000e+00    0,000000000e+00    0,000000000e+00    0,000000000e+00
      310000000    1,101708692e-02   -1,632792130e-02   -7,114791870e-01    2,987193465e-01    0,000000000e+00    0,000000000e+00    0,000000000e+00    0,000000000e+00
      324000000    1,966119558e-02   -2,664260566e-02   -4,269092977e-01    6,380368471e-01    0,000000000e+00    0,000000000e+00    0,000000000e+00    0,000000000e+00
      338000000    2,555282228e-02   -5,225479975e-02   -1,133780088e-02    7,630531192e-01    0,000000000e+00    0,000000000e+00    0,000000000e+00    0,000000000e+00
      352000000    7,487305440e-03   -8,486768603e-02    4,070850015e-01    6,396682262e-01    0,000000000e+00    0,000000000e+00    0,000000000e+00    0,000000000e+00
      366000000   -3,453969583e-02   -9,533471614e-02    6,910721660e-01    3,112855256e-01    0,000000000e+00    0,000000000e+00    0,000000000e+00    0,000000000e+00
      380000000   -7,060708106e-02   -7,132401317e-02    7,474766970e-01   -1,263986975e-01    0,000000000e+00    0,000000000e+00    0,000000000e+00    0,000000000e+00
      394000000   -7,265561074e-02   -3,222929686e-02    5,459165573e-01   -5,212597847e-01    0,000000000e+00    0,000000000e+00    0,000000000e+00    0,000000000e+00
      408000000   -4,646916315e-02   -1,588894241e-02    1,603502333e-01   -7,316102386e-01    0,000000000e+00    0,000000000e+00    0,000000000e+00    0,000000000e+00
      422000000   -2,859185264e-02   -3,200766817e-02   -2,683066130e-01   -6,957857013e-01    0,000000000e+00    0,000000000e+00    0,000000000e+00    0,000000000e+00
      436000000   -4,035716876e-02   -5,168056861e-02   -6,040138006e-01   -4,318392873e-01    0,000000000e+00    0,000000000e+00    0,000000000e+00    0,000000000e+00
      450000000   -6,765062362e-02   -4,341522232e-02   -7,408329248e-01   -2,097096294e-02    0,000000000e+00    0,000000000e+00    0,000000000e+00    0,000000000e+00
      464000000   -7,320542634e-02   -1,187595259e-02   -6,185624599e-01    3,975555003e-01    0,000000000e+00    0,000000000e+00    0,000000000e+00    0,000000000e+00
      478000000   -4,787502065e-02    1,179584395e-02   -2,825038731e-01    6,674672961e-01    0,000000000e+00    0,000000000e+00    0,000000000e+00    0,000000000e+00
      492000000   -1,551056094e-02    5,886966828e-03    1,376451105e-01    7,018860579e-01    0,000000000e+00    0,000000000e+00    0,000000000e+00    0,000000000e+00
      506000000   -2,618710743e-03   -1,548510231e-02    4,986297488e-01    5,026282668e-01    0,000000000e+00    0,000000000e+00    0,000000000e+00    0,000000000e+00
      520000000   -5,019602831e-03   -3,156887740e-02    6,882175207e-01    1,409381032e-01    0,000000000e+00    0,000000000e+00    0,000000000e+00    0,000000000e+00
      534000000   -3,622777760e-03   -3,838562965e-02    6,439455152e-01   -2,627300620e-01    0,000000000e+00    0,000000000e+00    0,000000000e+00    0,000000000e+00
      548000000    5,945044104e-03   -5,388842151e-02    3,807942271e-01   -5,674682260e-01    0,000000000e+00    0,000000000e+00    0,000000000e+00    0,000000000e+00
      562000000    2,803667914e-03   -8,976463228e-02    1,888535335e-03   -6,719389558e-01    0,000000000e+00    0,000000000e+00    0,000000000e+00    0,000000000e+00
      576000000   -3,412115574e-02   -1,240418777e-01   -3,689793646e-01   -5,572736859e-01    0,000000000e+00    0,000000000e+00    0,000000000e+00    0,000000000e+00
      590000000   -9,626121074e-02   -1,224538460e-01   -6,213354468e-01   -2,650128901e-01    0,000000000e+00    0,000000000e+00    0,000000000e+00    0,000000000e+00
      604000000   -1,396891624e-01   -7,157318294e-02   -6,650459766e-01    1,379202157e-01    0,000000000e+00    0,000000000e+00    0,000000000e+00    0,000000000e+00
      618000000   -1,292397827e-01   -9,468219243e-03   -4,647146463e-01    4,939838350e-01    0,000000000e+00    0,000000000e+00    0,000000000e+00    0,000000000e+00
      632000000   -8,358953893e-02    1,665270515e-02   -9,803105891e-02    6,635076404e-01    0,000000000e+00    0,000000000e+00    0,000000000e+00    0,000000000e+00
      646000000   -5,168087408e-02    5,899854004e-04    2,870579362e-01    5,953531861e-01    0,000000000e+00    0,000000000e+00    0,000000000e+00    0,000000000e+00
      660000000   -5,279887468e-02   -2,100807615e-02    5,680471659e-01    3,230059445e-01    0,000000000e+00    0,000000000e+00    0,000000000e+00    0,000000000e+00
      674000000   -7,013145834e-02   -1,838328689e-02    6,431211829e-01   -6,551839411e-02    0,000000000e+00    0,000000000e+00    0,000000000e+00    0,000000000e+00
      688000000   -6,812887639e-02    8,460450917e-03    4,712024629e-01   -4,279086292e-01    0,000000000e+00    0,000000000e+00    0,000000000e+00    0,000000000e+00
      702000000   -3,707451001e-02    2,718496881e-02    1,158751100e-01   -6,132677794e-01    0,000000000e+00    0,000000000e+00    0,000000000e+00    0,000000000e+00
      716000000    2,013856545e-03    1,718091778e-02   -2,646044493e-01   -5,468561053e-01    0,000000000e+00    0,000000000e+00    0,000000000e+00    0,000000000e+00
      730000000    3,691315278e-02   -1,164438576e-02   -5,285375118e-01   -2,685927749e-01    0,000000000e+00    0,000000000e+00    0,000000000e+00    0,000000000e+00
      744000000    6,582779437e-02   -6,265823543e-02   -5,644263625e-01    1,065312028e-01    0,000000000e+00    0,000000000e+00    0,000000000e+00    0,000000000e+00
      758000000    6,603438407e-02   -1,524872631e-01   -3,632032573e-01    4,104836285e-01    0,000000000e+00    0,000000000e+00    0,000000000e+00    0,000000000e+00
      772000000   -1,336871833e-02   -2,631309628e-01   -3,414113820e-02    5,155508518e-01    0,000000000e+00    0,000000000e+00    0,000000000e+00    0,000000000e+00
      786000000   -2,062492222e-01   -3,018969893e-01    2,744271159e-01    3,946325779e-01    0,000000000e+00    0,000000000e+00    0,000000000e+00    0,000000000e+00
      800000000   -4,263052344e-01   -1,300531328e-01    4,176225364e-01    9,897226095e-02    0,000000000e+00    0,000000000e+00    0,000000000e+00    0,000000000e+00
      814000000   -3,903886080e-01    2,215608656e-01    2,820376456e-01   -1,732418984e-01    0,000000000e+00    0,000000000e+00    0,000000000e+00    0,000000000e+00
      828000000   -4,871554673e-02    3,681649268e-01    5,562688783e-02   -1,886331886e-01    0,000000000e+00    0,000000000e+00    0,000000000e+00    0,000000000e+00
      842000000    2,348461151e-01    1,855773628e-01   -1,716465689e-02   -7,082015276e-02    0,000000000e+00    0,000000000e+00    0,000000000e+00    0,000000000e+00
      856000000    2,804023325e-01   -1,242318675e-01    4,481473938e-02   -1,326968614e-02    0,000000000e+00    0,000000000e+00    0,000000000e+00    0,000000000e+00
      870000000    7,426346093e-02   -3,761084080e-01    1,135569438e-01   -9,103418887e-02    0,000000000e+00    0,000000000e+00    0,000000000e+00    0,000000000e+00
      884000000   -2,959396541e-01   -3,612948656e-01    2,857270092e-02   -2,450371534e-01    0,000000000e+00    0,000000000e+00    0,000000000e+00    0,000000000e+00
      898000000   -4,720470011e-01    7,998997346e-03   -2,221245170e-01   -2,287572175e-01    0,000000000e+00    0,000000000e+00    0,000000000e+00    0,000000000e+00
      912000000   -2,254874706e-01    2,940329015e-01   -3,563686013e-01    7,040746510e-02    0,000000000e+00    0,000000000e+00    0,000000000e+00    0,000000000e+00
      926000000    6,839711964e-02    2,652109861e-01   -2,150477916e-01    2,653289437e-01    0,000000000e+00    0,000000000e+00    0,000000000e+00    0,000000000e+00
      940000000    2,160438150e-01    7,857248932e-02   -3,605147451e-02    3,293557465e-01    0,000000000e+00    0,000000000e+00    0,000000000e+00    0,000000000e+00
      954000000    2,241835445e-01   -1,297048330e-01    1,299785078e-01    3,058252633e-01    0,000000000e+00    0,000000000e+00    0,000000000e+00    0,000000000e+00
      968000000    1,133071110e-01   -2,986285388e-01    2,698156238e-01    2,183826268e-01    0,000000000e+00    0,000000000e+00    0,000000000e+00    0,000000000e+00
      982000000   -8,028499782e-02   -3,862775266e-01    3,667991459e-01    6,494091451e-02    0,000000000e+00    0,000000000e+00    0,000000000e+00    0,000000000e+00
      996000000   -3,184332550e-01   -3,311347365e-01    3,686060607e-01   -1,435820758e-01    0,000000000e+00    0,000000000e+00    0,000000000e+00    0,000000000e+00
     1010000000   -4,641574621e-01   -1,082900017e-01    2,242088765e-01   -3,428116143e-01    0,000000000e+00    0,000000000e+00    0,000000000e+00    0,000000000e+00
     1024000000   -4,108768404e-01    1,461011469e-01   -3,349716961e-02   -3,911262155e-01    0,000000000e+00    0,000000000e+00    0,000000000e+00    0,000000000e+00
     1038000000   -2,195599824e-01    2,937663496e-01   -2,466555983e-01   -2,623590529e-01    0,000000000e+00    0,000000000e+00    0,000000000e+00    0,000000000e+00
     1052000000   -6,283077877e-03    2,801609337e-01   -3,169009984e-01   -4,659739137e-02    0,000000000e+00    0,000000000e+00    0,000000000e+00    0,000000000e+00
     1066000000    1,370470077e-01    1,597727239e-01   -2,593431473e-01    1,450208277e-01    0,000000000e+00    0,000000000e+00    0,000000000e+00    0,000000000e+00
     1080000000    1,960093379e-01   -1,852022717e-03   -1,195872650e-01    2,645114660e-01    0,000000000e+00    0,000000000e+00    0,000000000e+00    0,000000000e+00
     1094000000    1,513913870e-01   -1,746990681e-01    6,573291123e-02    3,058148026e-01    0,000000000e+00    0,000000000e+00    0,000000000e+00    0,000000000e+00
     1108000000   -1,088723075e-03   -3,028926551e-01    2,775763273e-01    2,446508706e-01    0,000000000e+00    0,000000000e+00    0,000000000e+00    0,000000000e+00
     1122000000   -2,483713180e-01   -2,674037516e-01    4,690490067e-01    1,262086723e-02    0,000000000e+00    0,000000000e+00    0,000000000e+00    0,000000000e+00
     1136000000   -3,219357133e-01    3,501185030e-02    3,968729377e-01   -3,941510320e-01    0,000000000e+00    0,000000000e+00    0,000000000e+00    0,000000000e+00
     1150000000   -3,948884085e-02    1,549785286e-01    8,904113434e-03   -5,424204469e-01    0,000000000e+00    0,000000000e+00    0,000000000e+00    0,000000000e+00
     1164000000    1,223362535e-01   -6,089435890e-02   -2,783424258e-01   -3,792610466e-01    0,000000000e+00    0,000000000e+00    0,000000000e+00    0,000000000e+00
     1178000000    2,070306055e-02   -3,054641783e-01   -3,672733009e-01   -1,493512988e-01    0,000000000e+00    0,000000000e+00    0,000000000e+00    0,000000000e+00
     1192000000   -2,685448825e-01   -3,725684285e-01   -3,209039271e-01    5,888254195e-02    0,000000000e+00    0,000000000e+00    0,000000000e+00    0,000000000e+00
     1206000000   -5,183705688e-01   -1,625482291e-01   -1,674243808e-01    1,803271770e-01    0,000000000e+00    0,000000000e+00    0,000000000e+00    0,000000000e+00
     1220000000   -5,109704137e-01    1,717317104e-01    7,006061496e-04    1,565078646e-01    0,000000000e+00    0,000000000e+00    0,000000000e+00    0,000000000e+00
     1234000000   -2,863895297e-01    3,568728566e-01    7,161413878e-02    6,091269478e-02    0,000000000e+00    0,000000000e+00    0,000000000e+00    0,000000000e+00
     1248000000   -4,693185166e-02    3,678235710e-01    5,519416928e-02   -2,759638475e-03    0,000000000e+00    0,000000000e+00    0,000000000e+00    0,000000000e+00
     1262000000    1,192708313e-01    2,542543709e-01    1,722071320e-02   -2,397364564e-02    0,000000000e+00    0,000000000e+00    0,000000000e+00    0,000000000e+00
     1276000000    2,079777420e-01    9,773612022e-02   -2,788022161e-03    3,603691701e-03    0,000000000e+00    0,000000000e+00    0,000000000e+00    0,000000000e+00
     1290000000    2,254898548e-01   -7,469768077e-02    2,248036303e-02    4,991418868e-02    0,000000000e+00    0,000000000e+00    0,000000000e+00    0,000000000e+00
     1304000000    1,572788209e-01   -2,417679578e-01    1,325501651e-01    6,855852157e-02    0,000000000e+00    0,000000000e+00    0,000000000e+00    0,000000000e+00
     1318000000    3,517703339e-02   -3,344772756e-01    1,351117194e-01   -1,644080579e-01    0,000000000e+00    0,000000000e+00    0,000000000e+00    0,000000000e+00
     1332000000   -1,274981201e-01   -4,405170381e-01   -4,085242003e-02   -5,234245583e-02    0,000000000e+00    0,000000000e+00    0,000000000e+00    0,000000000e+00
     1346000000   -3,928252757e-01   -4,081441462e-01    2,344490401e-02    6,811933219e-02    0,000000000e+00    0,000000000e+00    0,000000000e+00    0,000000000e+00
     1360000000   -5,998281837e-01   -1,874052584e-01    1,448753029e-01    7,442368567e-02    0,000000000e+00    0,000000000e+00    0,000000000e+00    0,000000000e+00
     1374000000   -6,320581436e-01    1,297337711e-01    2,067187279e-01    1,196838822e-02    0,000000000e+00    0,000000000e+00    0,000000000e+00    0,000000000e+00
     1388000000   -4,655662775e-01    3,673213124e-01    2,128240913e-01   -6,936128438e-02    0,000000000e+00    0,000000000e+00    0,000000000e+00    0,000000000e+00
     1402000000   -2,402143031e-01    4,517380595e-01    1,763130724e-01   -8,475106955e-02    0,000000000e+00    0,000000000e+00    0,000000000e+00    0,000000000e+00
     1416000000   -2,979626320e-02    4,116322100e-01    1,577883214e-01   -9,991353005e-02    0,000000000e+00    0,000000000e+00    0,000000000e+00    0,000000000e+00
     1430000000    1,238411292e-01    3,016198277e-01    1,740504056e-01   -9,704823047e-02    0,000000000e+00    0,000000000e+00    0,000000000e+00    0,000000000e+00
     1444000000    2,064471841e-01    1,524685323e-01    1,566494852e-01   -9,440623224e-02    0,000000000e+00    0,000000000e+00    0,000000000e+00    0,000000000e+00
     1458000000    2,315645963e-01   -2,323194779e-02    1,372732818e-01   -7,327985764e-02    0,000000000e+00    0,000000000e+00    0,000000000e+00    0,000000000e+00
     1472000000    1,982800663e-01   -2,002782524e-01    1,478449702e-01   -2,225312591e-02    0,000000000e+00    0,000000000e+00    0,000000000e+00    0,000000000e+00
     1486000000    6,202146038e-02   -3,728848100e-01    1,667909175e-01    4,413436353e-02    0,000000000e+00    0,000000000e+00    0,000000000e+00    0,000000000e+00
     1500000000   -1,745096296e-01   -4,867174029e-01    2,199682444e-01    9,512040019e-02    0,000000000e+00    0,000000000e+00    0,000000000e+00    0,000000000e+00
