! NanoVNA-App
! Date: 2025-09-25 15:35:38
! Start: 100MHz Stop: 1,5GHz Points: 101
! S-Parameter data: F S11 S21 S12 S22
# Hz S RI R 50
!     Frequency           S11_Real           S11_Imag           S21_Real           S21_Imag           S12_Real           S12_Imag           S22_Real           S22_Imag
      100000000   -2,882555500e-02   -4,176887684e-03    3,740799725e-01   -7,217723131e-01    0,000000000e+00    0,000000000e+00    0,000000000e+00    0,000000000e+00
      114000000   -1,646861061e-02    1,150585525e-02   -8,920876682e-02   -8,053351045e-01    0,000000000e+00    0,000000000e+00    0,000000000e+00    0,000000000e+00
      128000000    3,487835405e-03    1,058230735e-02   -5,147643685e-01   -6,205377579e-01    0,000000000e+00    0,000000000e+00    0,000000000e+00    0,000000000e+00
      142000000    1,455686335e-02   -2,958400873e-03   -7,671375871e-01   -2,365425825e-01    0,000000000e+00    0,000000000e+00    0,000000000e+00    0,000000000e+00
      156000000    1,484112721e-02   -1,497338060e-02   -7,669911385e-01    2,183682024e-01    0,000000000e+00    0,000000000e+00    0,000000000e+00    0,000000000e+00
      170000000    1,676915959e-02   -2,252753265e-02   -5,178157687e-01    6,044818759e-01    0,000000000e+00    0,000000000e+00    0,000000000e+00    0,000000000e+00
      184000000    2,103420720e-02   -3,715290502e-02   -1,013898849e-01    7,857766151e-01    0,000000000e+00    0,000000000e+00    0,000000000e+00    0,000000000e+00
      198000000    1,302291267e-02   -6,246997416e-02    3,434748054e-01    7,123793364e-01    0,000000000e+00    0,000000000e+00    0,000000000e+00    0,000000000e+00
      212000000   -1,862744242e-02   -8,132366836e-02    6,779274344e-01    4,098520875e-01    0,000000000e+00    0,000000000e+00    0,000000000e+00    0,000000000e+00
      226000000   -6,163727492e-02   -6,923028827e-02    7,957188487e-01   -3,054350615e-02    0,000000000e+00    0,000000000e+00    0,000000000e+00    0,000000000e+00
      240000000   -8,257646114e-02   -2,561226860e-02    6,463559270e-01   -4,669914842e-01    0,000000000e+00    0,000000000e+00    0,000000000e+00    0,000000000e+00
      254000000   -6,343363225e-02    1,729062200e-02    2,762597799e-01   -7,434540987e-01    0,000000000e+00    0,000000000e+00    0,000000000e+00    0,000000000e+00
      268000000   -2,386552095e-02    2,886138856e-02   -1,778871864e-01   -7,642098069e-01    0,000000000e+00    0,000000000e+00    0,000000000e+00    0,000000000e+00
      282000000    4,151878413e-03    1,195730362e-02   -5,618508458e-01   -5,357667804e-01    0,000000000e+00    0,000000000e+00    0,000000000e+00    0,000000000e+00
      296000000    9,582529776e-03   -7,801410276e-03   -7,597934008e-01   -1,396733969e-01    0,000000000e+00    0,000000000e+00    0,000000000e+00    0,000000000e+00
      310000000    1,123727299e-02   -1,628557220e-02   -7,113578320e-01    2,986122966e-01    0,000000000e+00    0,000000000e+00    0,000000000e+00    0,000000000e+00
      324000000    1,942674071e-02   -2,642425895e-02   -4,279012978e-01    6,377123594e-01    0,000000000e+00    0,000000000e+00    0,000000000e+00    0,000000000e+00
      338000000    2,545623109e-02   -5,228908733e-02   -9,356655180e-03    7,634540796e-01    0,000000000e+00    0,000000000e+00    0,000000000e+00    0,000000000e+00
      352000000    7,342713419e-03   -8,469957858e-02    4,065192938e-01    6,389023066e-01    0,000000000e+00    0,000000000e+00    0,000000000e+00    0,000000000e+00
      366000000   -3,490601480e-02   -9,569068998e-02    6,905790567e-01    3,109458685e-01    0,000000000e+00    0,000000000e+00    0,000000000e+00    0,000000000e+00
      380000000   -7,090289146e-02   -7,110456377e-02    7,472813725e-01   -1,257389933e-01    0,000000000e+00    0,000000000e+00    0,000000000e+00    0,000000000e+00
      394000000   -7,267957181e-02   -3,243849427e-02    5,464622378e-01   -5,228540897e-01    0,000000000e+00    0,000000000e+00    0,000000000e+00    0,000000000e+00
      408000000   -4,659814388e-02   -1,618205756e-02    1,600264609e-01   -7,309206128e-01    0,000000000e+00    0,000000000e+00    0,000000000e+00    0,000000000e+00
      422000000   -2,833053842e-02   -3,208050132e-02   -2,679751515e-01   -6,945825815e-01    0,000000000e+00    0,000000000e+00    0,000000000e+00    0,000000000e+00
      436000000   -4,061158746e-02   -5,207915977e-02   -6,044114232e-01   -4,326354861e-01    0,000000000e+00    0,000000000e+00    0,000000000e+00    0,000000000e+00
      450000000   -6,756614894e-02   -4,402946308e-02   -7,406226397e-01   -2,119437419e-02    0,000000000e+00    0,000000000e+00    0,000000000e+00    0,000000000e+00
      464000000   -7,362558693e-02   -1,168685220e-02   -6,186218262e-01    3,976646364e-01    0,000000000e+00    0,000000000e+00    0,000000000e+00    0,000000000e+00
      478000000   -4,783019796e-02    1,169135608e-02   -2,820279896e-01    6,682031751e-01    0,000000000e+00    0,000000000e+00    0,000000000e+00    0,000000000e+00
      492000000   -1,577254757e-02    5,791829433e-03    1,382068694e-01    7,008699179e-01    0,000000000e+00    0,000000000e+00    0,000000000e+00    0,000000000e+00
      506000000   -2,700367477e-03   -1,561183576e-02    4,980796278e-01    5,028512478e-01    0,000000000e+00    0,000000000e+00    0,000000000e+00    0,000000000e+00
      520000000   -5,283341743e-03   -3,183219209e-02    6,888110638e-01    1,408629715e-01    0,000000000e+00    0,000000000e+00    0,000000000e+00    0,000000000e+00
      534000000   -3,794450546e-03   -3,852095455e-02    6,430017948e-01   -2,630939186e-01    0,000000000e+00    0,000000000e+00    0,000000000e+00    0,000000000e+00
      548000000    6,333661266e-03   -5,423342064e-02    3,821217418e-01   -5,675111413e-01    0,000000000e+00    0,000000000e+00    0,000000000e+00    0,000000000e+00
      562000000    2,791393548e-03   -8,959325403e-02    1,905046520e-03   -6,724068522e-01    0,000000000e+00    0,000000000e+00    0,000000000e+00    0,000000000e+00
      576000000   -3,439820558e-02   -1,242407933e-01   -3,693083823e-01   -5,566557050e-01    0,000000000e+00    0,000000000e+00    0,000000000e+00    0,000000000e+00
      590000000   -9,636618942e-02   -1,227978468e-01   -6,226414442e-01   -2,640061975e-01    0,000000000e+00    0,000000000e+00    0,000000000e+00    0,000000000e+00
      604000000   -1,392231137e-01   -7,159138471e-02   -6,651352644e-01    1,380083263e-01    0,000000000e+00    0,000000000e+00    0,000000000e+00    0,000000000e+00
      618000000   -1,293540746e-01   -9,449833073e-03   -4,646633267e-01    4,947361648e-01    0,000000000e+00    0,000000000e+00    0,000000000e+00    0,000000000e+00
      632000000   -8,444692194e-02    1,691785455e-02   -9,928179532e-02    6,631612778e-01    0,000000000e+00    0,000000000e+00    0,000000000e+00    0,000000000e+00
      646000000   -5,150778592e-02    4,400743928e-04    2,885012627e-01    5,949763656e-01    0,000000000e+00    0,000000000e+00    0,000000000e+00    0,000000000e+00
      660000000   -5,270243064e-02   -2,123214863e-02    5,672763586e-01    3,228712678e-01    0,000000000e+00    0,000000000e+00    0,000000000e+00    0,000000000e+00
      674000000   -7,055827230e-02   -1,741264202e-02    6,433194280e-01   -6,550497562e-02    0,000000000e+00    0,000000000e+00    0,000000000e+00    0,000000000e+00
      688000000   -6,775205582e-02    8,429846726e-03    4,719271362e-01   -4,274146259e-01    0,000000000e+00    0,000000000e+00    0,000000000e+00    0,000000000e+00
      702000000   -3,749646991e-02    2,724724263e-02    1,187760159e-01   -6,123390794e-01    0,000000000e+00    0,000000000e+00    0,000000000e+00    0,000000000e+00
      716000000    2,419009339e-03    1,840326749e-02   -2,643297017e-01   -5,466105938e-01    0,000000000e+00    0,000000000e+00    0,000000000e+00    0,000000000e+00
      730000000    3,704998642e-02   -1,159591414e-02   -5,286799669e-01   -2,693289220e-01    0,000000000e+00    0,000000000e+00    0,000000000e+00    0,000000000e+00
      744000000    6,466277689e-02   -6,257860363e-02   -5,642676950e-01    1,061085463e-01    0,000000000e+00    0,000000000e+00    0,000000000e+00    0,000000000e+00
      758000000    6,644219160e-02   -1,517809778e-01   -3,632268012e-01    4,096670747e-01    0,000000000e+00    0,000000000e+00    0,000000000e+00    0,000000000e+00
      772000000   -1,236236561e-02   -2,630756497e-01   -3,488937020e-02    5,148854256e-01    0,000000000e+00    0,000000000e+00    0,000000000e+00    0,000000000e+00
      786000000   -2,069504261e-01   -3,027928174e-01    2,750632167e-01    3,965717852e-01    0,000000000e+00    0,000000000e+00    0,000000000e+00    0,000000000e+00
      800000000   -4,257773459e-01   -1,295610666e-01    4,170208573e-01    9,886774421e-02    0,000000000e+00    0,000000000e+00    0,000000000e+00    0,000000000e+00
      814000000   -3,906253576e-01    2,216370553e-01    2,827690542e-01   -1,727189124e-01    0,000000000e+00    0,000000000e+00    0,000000000e+00    0,000000000e+00
      828000000   -4,989050701e-02    3,685749173e-01    5,548845977e-02   -1,893251389e-01    0,000000000e+00    0,000000000e+00    0,000000000e+00    0,000000000e+00
      842000000    2,351739854e-01    1,861265153e-01   -1,754660346e-02   -7,095893472e-02    0,000000000e+00    0,000000000e+00    0,000000000e+00    0,000000000e+00
      856000000    2,804980278e-01   -1,245983690e-01    4,525440559e-02   -1,312792860e-02    0,000000000e+00    0,000000000e+00    0,000000000e+00    0,000000000e+00
      870000000    7,518014312e-02   -3,765501678e-01    1,136867180e-01   -9,099295735e-02    0,000000000e+00    0,000000000e+00    0,000000000e+00    0,000000000e+00
      884000000   -2,951154709e-01   -3,628987968e-01    2,861209214e-02   -2,456757426e-01    0,000000000e+00    0,000000000e+00    0,000000000e+00    0,000000000e+00
      898000000   -4,721022844e-01    8,236100897e-03   -2,212517262e-01   -2,280000746e-01    0,000000000e+00    0,000000000e+00    0,000000000e+00    0,000000000e+00
      912000000   -2,256898582e-01    2,947634161e-01   -3,525313437e-01    7,037966698e-02    0,000000000e+00    0,000000000e+00    0,000000000e+00    0,000000000e+00
      926000000    6,624433398e-02    2,629204690e-01   -2,169942558e-01    2,636469603e-01    0,000000000e+00    0,000000000e+00    0,000000000e+00    0,000000000e+00
      940000000    2,158088833e-01    8,146587759e-02   -3,624860942e-02    3,306523263e-01    0,000000000e+00    0,000000000e+00    0,000000000e+00    0,000000000e+00
      954000000    2,252065688e-01   -1,283155382e-01    1,307641417e-01    3,072361350e-01    0,000000000e+00    0,000000000e+00    0,000000000e+00    0,000000000e+00
      968000000    1,136945337e-01   -2,995961308e-01    2,713389993e-01    2,166646868e-01    0,000000000e+00    0,000000000e+00    0,000000000e+00    0,000000000e+00
      982000000   -8,169347793e-02   -3,840116262e-01    3,660429418e-01    6,548039615e-02    0,000000000e+00    0,000000000e+00    0,000000000e+00    0,000000000e+00
      996000000   -3,173030615e-01   -3,295290768e-01    3,699164093e-01   -1,457453817e-01    0,000000000e+00    0,000000000e+00    0,000000000e+00    0,000000000e+00
     1010000000   -4,634600878e-01   -1,137785614e-01    2,248422801e-01   -3,417021036e-01    0,000000000e+00    0,000000000e+00    0,000000000e+00    0,000000000e+00
     1024000000   -4,101928174e-01    1,472310424e-01   -3,386338800e-02   -3,941218853e-01    0,000000000e+00    0,000000000e+00    0,000000000e+00    0,000000000e+00
     1038000000   -2,210324109e-01    2,904629707e-01   -2,474970371e-01   -2,587862313e-01    0,000000000e+00    0,000000000e+00    0,000000000e+00    0,000000000e+00
     1052000000   -1,010335423e-02    2,758817971e-01   -3,160740733e-01   -4,394159466e-02    0,000000000e+00    0,000000000e+00    0,000000000e+00    0,000000000e+00
     1066000000    1,381276697e-01    1,609373242e-01   -2,585642040e-01    1,440224349e-01    0,000000000e+00    0,000000000e+00    0,000000000e+00    0,000000000e+00
     1080000000    1,917905062e-01   -9,698878275e-04   -1,188732460e-01    2,648489773e-01    0,000000000e+00    0,000000000e+00    0,000000000e+00    0,000000000e+00
     1094000000    1,560655385e-01   -1,716717184e-01    6,417286396e-02    3,043650091e-01    0,000000000e+00    0,000000000e+00    0,000000000e+00    0,000000000e+00
     1108000000    1,251633745e-03   -3,066131473e-01    2,760719657e-01    2,466648072e-01    0,000000000e+00    0,000000000e+00    0,000000000e+00    0,000000000e+00
     1122000000   -2,447840869e-01   -2,642734945e-01    4,716210663e-01    1,351584028e-02    0,000000000e+00    0,000000000e+00    0,000000000e+00    0,000000000e+00
     1136000000   -3,205240071e-01    3,110480122e-02    3,974941969e-01   -3,929938972e-01    0,000000000e+00    0,000000000e+00    0,000000000e+00    0,000000000e+00
     1150000000   -3,783722967e-02    1,490760595e-01    6,544600241e-03   -5,438964963e-01    0,000000000e+00    0,000000000e+00    0,000000000e+00    0,000000000e+00
     1164000000    1,272368133e-01   -6,200534478e-02   -2,771274149e-01   -3,775771260e-01    0,000000000e+00    0,000000000e+00    0,000000000e+00    0,000000000e+00
     1178000000    1,544586848e-02   -3,037836552e-01   -3,682873547e-01   -1,508505046e-01    0,000000000e+00    0,000000000e+00    0,000000000e+00    0,000000000e+00
     1192000000   -2,658501565e-01   -3,713524640e-01   -3,212242424e-01    5,766686052e-02    0,000000000e+00    0,000000000e+00    0,000000000e+00    0,000000000e+00
     1206000000   -5,215489864e-01   -1,614967883e-01   -1,689325422e-01    1,808843613e-01    0,000000000e+00    0,000000000e+00    0,000000000e+00    0,000000000e+00
     1220000000   -5,045559406e-01    1,700888425e-01    8,305897005e-03    1,551681757e-01    0,000000000e+00    0,000000000e+00    0,000000000e+00    0,000000000e+00
     1234000000   -2,801252604e-01    3,644366264e-01    7,085286081e-02    6,383951753e-02    0,000000000e+00    0,000000000e+00    0,000000000e+00    0,000000000e+00
     1248000000   -4,527081549e-02    3,614179194e-01    5,594361201e-02   -5,765735637e-03    0,000000000e+00    0,000000000e+00    0,000000000e+00    0,000000000e+00
     1262000000    1,206787974e-01    2,587286532e-01    1,660410129e-02   -2,056587115e-02    0,000000000e+00    0,000000000e+00    0,000000000e+00    0,000000000e+00
     1276000000    2,132692635e-01    1,041217893e-01   -3,413440660e-03    2,541873604e-03    0,000000000e+00    0,000000000e+00    0,000000000e+00    0,000000000e+00
     1290000000    2,216873914e-01   -7,246229798e-02    2,061333880e-02    5,300628021e-02    0,000000000e+00    0,000000000e+00    0,000000000e+00    0,000000000e+00
     1304000000    1,569059044e-01   -2,445366681e-01    1,356367469e-01    6,705396622e-02    0,000000000e+00    0,000000000e+00    0,000000000e+00    0,000000000e+00
     1318000000    3,461850807e-02   -3,352248073e-01    1,310095787e-01   -1,612163633e-01    0,000000000e+00    0,000000000e+00    0,000000000e+00    0,000000000e+00
     1332000000   -1,286080182e-01   -4,382453561e-01   -4,636911675e-02   -4,441713914e-02    0,000000000e+00    0,000000000e+00    0,000000000e+00    0,000000000e+00
     1346000000   -3,924686611e-01   -4,086875319e-01    2,866016328e-02    6,615800411e-02    0,000000000e+00    0,000000000e+00    0,000000000e+00    0,000000000e+00
     1360000000   -6,139709353e-01   -1,912935227e-01    1,333762258e-01    6,477801502e-02    0,000000000e+00    0,000000000e+00    0,000000000e+00    0,000000000e+00
     1374000000   -6,399272084e-01    1,336633861e-01    2,007856518e-01    6,476181094e-03    0,000000000e+00    0,000000000e+00    0,000000000e+00    0,000000000e+00
     1388000000   -4,724532366e-01    3,692154586e-01    1,939921379e-01   -6,438475102e-02    0,000000000e+00    0,000000000e+00    0,000000000e+00    0,000000000e+00
     1402000000   -2,354189605e-01    4,535311759e-01    1,885879189e-01   -9,117985517e-02    0,000000000e+00    0,000000000e+00    0,000000000e+00    0,000000000e+00
     1416000000   -2,670187503e-02    4,086351991e-01    1,678800434e-01   -9,440465271e-02    0,000000000e+00    0,000000000e+00    0,000000000e+00    0,000000000e+00
     1430000000    1,369571388e-01    2,949711084e-01    1,577694863e-01   -1,218564138e-01    0,000000000e+00    0,000000000e+00    0,000000000e+00    0,000000000e+00
     1444000000    2,060832530e-01    1,539662629e-01    1,531071067e-01   -8,961764723e-02    0,000000000e+00    0,000000000e+00    0,000000000e+00    0,000000000e+00
     1458000000    2,365420908e-01   -1,966882125e-02    1,539820582e-01   -7,567232102e-02    0,000000000e+00    0,000000000e+00    0,000000000e+00    0,000000000e+00
     1472000000    1,960728616e-01   -2,017776370e-01    1,489291042e-01   -1,603977568e-02    0,000000000e+00    0,000000000e+00    0,000000000e+00    0,000000000e+00
     1486000000    6,189913303e-02   -3,727317750e-01    1,657396853e-01    3,487822413e-02    0,000000000e+00    0,000000000e+00    0,000000000e+00    0,000000000e+00
     1500000000   -1,781082004e-01   -4,931033850e-01    2,417800426e-01    9,944537282e-02    0,000000000e+00    0,000000000e+00    0,000000000e+00    0,000000000e+00
