! NanoVNA-App
! Date: 2025-09-25 15:30:47
! Start: 100MHz Stop: 1,5GHz Points: 101
! S-Parameter data: F S11 S21 S12 S22
# Hz S RI R 50
!     Frequency           S11_Real           S11_Imag           S21_Real           S21_Imag           S12_Real           S12_Imag           S22_Real           S22_Imag
      100000000   -2,887871303e-02   -4,179930780e-03    3,740979135e-01   -7,218335867e-01    0,000000000e+00    0,000000000e+00    0,000000000e+00    0,000000000e+00
      114000000   -1,654358767e-02    1,152647659e-02   -8,913220465e-02   -8,055644631e-01    0,000000000e+00    0,000000000e+00    0,000000000e+00    0,000000000e+00
      128000000    3,380640643e-03    1,053945534e-02   -5,146949887e-01   -6,205834150e-01    0,000000000e+00    0,000000000e+00    0,000000000e+00    0,000000000e+00
      142000000    1,453772094e-02   -2,932141069e-03   -7,672699094e-01   -2,365489751e-01    0,000000000e+00    0,000000000e+00    0,000000000e+00    0,000000000e+00
      156000000    1,550112292e-02   -1,501523796e-02   -7,712625861e-01    2,217278481e-01    0,000000000e+00    0,000000000e+00    0,000000000e+00    0,000000000e+00
      170000000    1,669172198e-02   -2,250375040e-02   -5,180243850e-01    6,045098901e-01    0,000000000e+00    0,000000000e+00    0,000000000e+00    0,000000000e+00
      184000000    2,097498067e-02   -3,705989569e-02   -1,015103832e-01    7,861068845e-01    0,000000000e+00    0,000000000e+00    0,000000000e+00    0,000000000e+00
      198000000    1,299723331e-02   -6,243500113e-02    3,433115482e-01    7,123745084e-01    0,000000000e+00    0,000000000e+00    0,000000000e+00    0,000000000e+00
      212000000   -1,865251176e-02   -8,127899468e-02    6,780288219e-01    4,099842608e-01    0,000000000e+00    0,000000000e+00    0,000000000e+00    0,000000000e+00
      226000000   -6,163939834e-02   -6,919313967e-02    7,957727313e-01   -3,058530577e-02    0,000000000e+00    0,000000000e+00    0,000000000e+00    0,000000000e+00
      240000000   -8,254577219e-02   -2,561852336e-02    6,459504962e-01   -4,672049582e-01    0,000000000e+00    0,000000000e+00    0,000000000e+00    0,000000000e+00
      254000000   -6,353463233e-02    1,723933779e-02    2,760303020e-01   -7,432475090e-01    0,000000000e+00    0,000000000e+00    0,000000000e+00    0,000000000e+00
      268000000   -2,385185845e-02    2,894365601e-02   -1,781452596e-01   -7,644127607e-01    0,000000000e+00    0,000000000e+00    0,000000000e+00    0,000000000e+00
      282000000    4,196646623e-03    1,195358112e-02   -5,622361898e-01   -5,357767344e-01    0,000000000e+00    0,000000000e+00    0,000000000e+00    0,000000000e+00
      296000000    9,642574005e-03   -7,723838091e-03   -7,600258589e-01   -1,397634000e-01    0,000000000e+00    0,000000000e+00    0,000000000e+00    0,000000000e+00
      310000000    1,117898524e-02   -1,622137427e-02   -7,115396857e-01    2,980240583e-01    0,000000000e+00    0,000000000e+00    0,000000000e+00    0,000000000e+00
      324000000    1,964382268e-02   -2,665445767e-02   -4,275590777e-01    6,368363500e-01    0,000000000e+00    0,000000000e+00    0,000000000e+00    0,000000000e+00
      338000000    2,532045543e-02   -5,196424946e-02   -5,958419293e-03    7,626672983e-01    0,000000000e+00    0,000000000e+00    0,000000000e+00    0,000000000e+00
      352000000    7,397317328e-03   -8,489657193e-02    4,067296386e-01    6,401039362e-01    0,000000000e+00    0,000000000e+00    0,000000000e+00    0,000000000e+00
      366000000   -3,448145464e-02   -9,578120708e-02    6,907120347e-01    3,112282157e-01    0,000000000e+00    0,000000000e+00    0,000000000e+00    0,000000000e+00
      380000000   -7,088084519e-02   -7,124026865e-02    7,473278642e-01   -1,259704381e-01    0,000000000e+00    0,000000000e+00    0,000000000e+00    0,000000000e+00
      394000000   -7,261390239e-02   -3,250071034e-02    5,469440222e-01   -5,223520994e-01    0,000000000e+00    0,000000000e+00    0,000000000e+00    0,000000000e+00
      408000000   -4,637718201e-02   -1,609290950e-02    1,602940857e-01   -7,326971292e-01    0,000000000e+00    0,000000000e+00    0,000000000e+00    0,000000000e+00
      422000000   -2,848464623e-02   -3,213506192e-02   -2,676819563e-01   -6,949471831e-01    0,000000000e+00    0,000000000e+00    0,000000000e+00    0,000000000e+00
      436000000   -4,085702449e-02   -5,165483430e-02   -6,040518880e-01   -4,321086705e-01    0,000000000e+00    0,000000000e+00    0,000000000e+00    0,000000000e+00
      450000000   -6,762900203e-02   -4,367148876e-02   -7,406484485e-01   -2,116253041e-02    0,000000000e+00    0,000000000e+00    0,000000000e+00    0,000000000e+00
      464000000   -7,363261282e-02   -1,166082080e-02   -6,183958650e-01    3,974018395e-01    0,000000000e+00    0,000000000e+00    0,000000000e+00    0,000000000e+00
      478000000   -4,776012897e-02    1,173907705e-02   -2,822388411e-01    6,674088240e-01    0,000000000e+00    0,000000000e+00    0,000000000e+00    0,000000000e+00
      492000000   -1,591308974e-02    6,326064467e-03    1,378684640e-01    7,024668455e-01    0,000000000e+00    0,000000000e+00    0,000000000e+00    0,000000000e+00
      506000000   -2,654290292e-03   -1,550568454e-02    4,979365170e-01    5,022088289e-01    0,000000000e+00    0,000000000e+00    0,000000000e+00    0,000000000e+00
      520000000   -5,097173620e-03   -3,190838918e-02    6,899548769e-01    1,420336217e-01    0,000000000e+00    0,000000000e+00    0,000000000e+00    0,000000000e+00
      534000000   -3,522728570e-03   -3,846958652e-02    6,440417767e-01   -2,626845837e-01    0,000000000e+00    0,000000000e+00    0,000000000e+00    0,000000000e+00
      548000000    6,306778640e-03   -5,384488031e-02    3,812030554e-01   -5,668728948e-01    0,000000000e+00    0,000000000e+00    0,000000000e+00    0,000000000e+00
      562000000    3,237006720e-03   -8,897043765e-02    2,991732676e-03   -6,720948815e-01    0,000000000e+00    0,000000000e+00    0,000000000e+00    0,000000000e+00
      576000000   -3,438220546e-02   -1,245904043e-01   -3,688406050e-01   -5,572670698e-01    0,000000000e+00    0,000000000e+00    0,000000000e+00    0,000000000e+00
      590000000   -9,628336132e-02   -1,225413233e-01   -6,199201941e-01   -2,628025413e-01    0,000000000e+00    0,000000000e+00    0,000000000e+00    0,000000000e+00
      604000000   -1,395021230e-01   -7,146951556e-02   -6,651532054e-01    1,382305920e-01    0,000000000e+00    0,000000000e+00    0,000000000e+00    0,000000000e+00
      618000000   -1,292712688e-01   -9,428188205e-03   -4,651758671e-01    4,946195185e-01    0,000000000e+00    0,000000000e+00    0,000000000e+00    0,000000000e+00
      632000000   -8,443967998e-02    1,664388925e-02   -9,902606159e-02    6,639658809e-01    0,000000000e+00    0,000000000e+00    0,000000000e+00    0,000000000e+00
      646000000   -5,070427805e-02    9,221012588e-04    2,876601517e-01    5,955861211e-01    0,000000000e+00    0,000000000e+00    0,000000000e+00    0,000000000e+00
      660000000   -5,281600356e-02   -2,217284963e-02    5,676073432e-01    3,224971592e-01    0,000000000e+00    0,000000000e+00    0,000000000e+00    0,000000000e+00
      674000000   -6,956912577e-02   -1,810359769e-02    6,430096626e-01   -6,559170038e-02    0,000000000e+00    0,000000000e+00    0,000000000e+00    0,000000000e+00
      688000000   -6,861341745e-02    8,258438669e-03    4,715427160e-01   -4,278589487e-01    0,000000000e+00    0,000000000e+00    0,000000000e+00    0,000000000e+00
      702000000   -3,707038984e-02    2,680966258e-02    1,171044558e-01   -6,161184311e-01    0,000000000e+00    0,000000000e+00    0,000000000e+00    0,000000000e+00
      716000000    1,489731018e-03    1,789102703e-02   -2,640499771e-01   -5,466247797e-01    0,000000000e+00    0,000000000e+00    0,000000000e+00    0,000000000e+00
      730000000    3,698401526e-02   -1,160277147e-02   -5,287362933e-01   -2,685315311e-01    0,000000000e+00    0,000000000e+00    0,000000000e+00    0,000000000e+00
      744000000    6,495254487e-02   -6,212490052e-02   -5,642364621e-01    1,061629355e-01    0,000000000e+00    0,000000000e+00    0,000000000e+00    0,000000000e+00
      758000000    6,696021557e-02   -1,521752179e-01   -3,633417189e-01    4,107429683e-01    0,000000000e+00    0,000000000e+00    0,000000000e+00    0,000000000e+00
      772000000   -1,314202510e-02   -2,628275752e-01   -3,523707390e-02    5,157468915e-01    0,000000000e+00    0,000000000e+00    0,000000000e+00    0,000000000e+00
      786000000   -2,066595107e-01   -3,036791384e-01    2,753704190e-01    3,951317370e-01    0,000000000e+00    0,000000000e+00    0,000000000e+00    0,000000000e+00
      800000000   -4,264442623e-01   -1,298142225e-01    4,172305763e-01    9,848213941e-02    0,000000000e+00    0,000000000e+00    0,000000000e+00    0,000000000e+00
      814000000   -3,890134394e-01    2,222008854e-01    2,823544741e-01   -1,726028621e-01    0,000000000e+00    0,000000000e+00    0,000000000e+00    0,000000000e+00
      828000000   -4,973492399e-02    3,667565584e-01    5,512078479e-02   -1,894701421e-01    0,000000000e+00    0,000000000e+00    0,000000000e+00    0,000000000e+00
      842000000    2,353361249e-01    1,858608276e-01   -1,701468229e-02   -7,016346604e-02    0,000000000e+00    0,000000000e+00    0,000000000e+00    0,000000000e+00
      856000000    2,804077566e-01   -1,246232167e-01    4,540183023e-02   -1,302457042e-02    0,000000000e+00    0,000000000e+00    0,000000000e+00    0,000000000e+00
      870000000    7,483497262e-02   -3,765077293e-01    1,140741706e-01   -9,143789858e-02    0,000000000e+00    0,000000000e+00    0,000000000e+00    0,000000000e+00
      884000000   -2,962085307e-01   -3,612901270e-01    2,852806076e-02   -2,458648682e-01    0,000000000e+00    0,000000000e+00    0,000000000e+00    0,000000000e+00
      898000000   -4,712379575e-01    9,363667108e-03   -2,219824344e-01   -2,274460495e-01    0,000000000e+00    0,000000000e+00    0,000000000e+00    0,000000000e+00
      912000000   -2,264446914e-01    2,946087122e-01   -3,372326791e-01    6,581860781e-02    0,000000000e+00    0,000000000e+00    0,000000000e+00    0,000000000e+00
      926000000    6,871823221e-02    2,642466128e-01   -2,156301439e-01    2,636906207e-01    0,000000000e+00    0,000000000e+00    0,000000000e+00    0,000000000e+00
      940000000    2,149292529e-01    7,868188620e-02   -3,672228009e-02    3,301760554e-01    0,000000000e+00    0,000000000e+00    0,000000000e+00    0,000000000e+00
      954000000    2,215318084e-01   -1,252563000e-01    1,299030930e-01    3,092654347e-01    0,000000000e+00    0,000000000e+00    0,000000000e+00    0,000000000e+00
      968000000    1,134239286e-01   -2,994022071e-01    2,717050016e-01    2,179289162e-01    0,000000000e+00    0,000000000e+00    0,000000000e+00    0,000000000e+00
      982000000   -7,933586091e-02   -3,867951632e-01    3,670262396e-01    6,598995626e-02    0,000000000e+00    0,000000000e+00    0,000000000e+00    0,000000000e+00
      996000000   -3,158460855e-01   -3,260787129e-01    3,689867258e-01   -1,454999000e-01    0,000000000e+00    0,000000000e+00    0,000000000e+00    0,000000000e+00
     1010000000   -4,656348825e-01   -1,076377183e-01    2,241221815e-01   -3,431124687e-01    0,000000000e+00    0,000000000e+00    0,000000000e+00    0,000000000e+00
     1024000000   -4,176732302e-01    1,485740244e-01   -3,302424029e-02   -3,902582824e-01    0,000000000e+00    0,000000000e+00    0,000000000e+00    0,000000000e+00
     1038000000   -2,187551409e-01    2,885448039e-01   -2,480232716e-01   -2,610277236e-01    0,000000000e+00    0,000000000e+00    0,000000000e+00    0,000000000e+00
     1052000000   -5,922574084e-03    2,774922550e-01   -3,190779388e-01   -4,502385482e-02    0,000000000e+00    0,000000000e+00    0,000000000e+00    0,000000000e+00
     1066000000    1,387558877e-01    1,624886543e-01   -2,578150034e-01    1,426124424e-01    0,000000000e+00    0,000000000e+00    0,000000000e+00    0,000000000e+00
     1080000000    1,958305091e-01    1,801415812e-03   -1,187255159e-01    2,624880672e-01    0,000000000e+00    0,000000000e+00    0,000000000e+00    0,000000000e+00
     1094000000    1,563167870e-01   -1,777691394e-01    6,396412104e-02    3,017984033e-01    0,000000000e+00    0,000000000e+00    0,000000000e+00    0,000000000e+00
     1108000000   -3,279573051e-03   -3,086168468e-01    2,772066891e-01    2,478280962e-01    0,000000000e+00    0,000000000e+00    0,000000000e+00    0,000000000e+00
     1122000000   -2,514039874e-01   -2,604199350e-01    4,726062119e-01    1,203310303e-02    0,000000000e+00    0,000000000e+00    0,000000000e+00    0,000000000e+00
     1136000000   -3,137255907e-01    3,239881620e-02    4,005421102e-01   -3,953023553e-01    0,000000000e+00    0,000000000e+00    0,000000000e+00    0,000000000e+00
     1150000000   -4,143828526e-02    1,477168649e-01    3,231635317e-03   -5,431087613e-01    0,000000000e+00    0,000000000e+00    0,000000000e+00    0,000000000e+00
     1164000000    1,225697100e-01   -6,185065582e-02   -2,781616449e-01   -3,788089752e-01    0,000000000e+00    0,000000000e+00    0,000000000e+00    0,000000000e+00
     1178000000    2,068759687e-02   -3,047707677e-01   -3,640509844e-01   -1,496811211e-01    0,000000000e+00    0,000000000e+00    0,000000000e+00    0,000000000e+00
     1192000000   -2,636274099e-01   -3,662730455e-01   -3,217262924e-01    5,712334067e-02    0,000000000e+00    0,000000000e+00    0,000000000e+00    0,000000000e+00
     1206000000   -5,221014619e-01   -1,598590016e-01   -1,696813703e-01    1,840783954e-01    0,000000000e+00    0,000000000e+00    0,000000000e+00    0,000000000e+00
     1220000000   -5,039155483e-01    1,733301133e-01    3,511455609e-03    1,578512639e-01    0,000000000e+00    0,000000000e+00    0,000000000e+00    0,000000000e+00
     1234000000   -2,890152633e-01    3,659754992e-01    6,524570286e-02    6,098359823e-02    0,000000000e+00    0,000000000e+00    0,000000000e+00    0,000000000e+00
     1248000000   -3,910642117e-02    3,645406961e-01    5,834809318e-02   -9,107064456e-03    0,000000000e+00    0,000000000e+00    0,000000000e+00    0,000000000e+00
     1262000000    1,233931184e-01    2,542871237e-01    2,017143741e-02   -2,487061732e-02    0,000000000e+00    0,000000000e+00    0,000000000e+00    0,000000000e+00
     1276000000    2,111585438e-01    1,010705903e-01   -5,488303024e-03    4,504971672e-03    0,000000000e+00    0,000000000e+00    0,000000000e+00    0,000000000e+00
     1290000000    2,268677205e-01   -7,333100587e-02    1,930439845e-02    5,104546994e-02    0,000000000e+00    0,000000000e+00    0,000000000e+00    0,000000000e+00
     1304000000    1,532876790e-01   -2,426984608e-01    1,342851669e-01    6,135481969e-02    0,000000000e+00    0,000000000e+00    0,000000000e+00    0,000000000e+00
     1318000000    3,552730009e-02   -3,358760774e-01    1,251094043e-01   -1,634313613e-01    0,000000000e+00    0,000000000e+00    0,000000000e+00    0,000000000e+00
     1332000000   -1,315001249e-01   -4,411210120e-01   -4,937308282e-02   -4,956090450e-02    0,000000000e+00    0,000000000e+00    0,000000000e+00    0,000000000e+00
     1346000000   -3,957931399e-01   -4,033080339e-01    1,645511016e-02    6,865200400e-02    0,000000000e+00    0,000000000e+00    0,000000000e+00    0,000000000e+00
     1360000000   -6,047629714e-01   -1,837329417e-01    1,390990764e-01    6,942681223e-02    0,000000000e+00    0,000000000e+00    0,000000000e+00    0,000000000e+00
     1374000000   -6,280704141e-01    1,307869852e-01    2,110752910e-01    1,069235709e-02    0,000000000e+00    0,000000000e+00    0,000000000e+00    0,000000000e+00
     1388000000   -4,684284925e-01    3,655909300e-01    2,061547935e-01   -7,277670503e-02    0,000000000e+00    0,000000000e+00    0,000000000e+00    0,000000000e+00
     1402000000   -2,405567467e-01    4,521628618e-01    1,764304787e-01   -9,972266108e-02    0,000000000e+00    0,000000000e+00    0,000000000e+00    0,000000000e+00
     1416000000   -2,614289522e-02    4,131941497e-01    1,730477661e-01   -1,144341305e-01    0,000000000e+00    0,000000000e+00    0,000000000e+00    0,000000000e+00
     1430000000    1,217909157e-01    2,974027395e-01    1,605027169e-01   -1,088194177e-01    0,000000000e+00    0,000000000e+00    0,000000000e+00    0,000000000e+00
     1444000000    2,087488323e-01    1,485283822e-01    1,558525562e-01   -9,219067544e-02    0,000000000e+00    0,000000000e+00    0,000000000e+00    0,000000000e+00
     1458000000    2,325499952e-01   -2,010605671e-02    1,484531164e-01   -8,389444649e-02    0,000000000e+00    0,000000000e+00    0,000000000e+00    0,000000000e+00
     1472000000    1,952611804e-01   -2,085778713e-01    1,522005647e-01   -3,138528392e-02    0,000000000e+00    0,000000000e+00    0,000000000e+00    0,000000000e+00
     1486000000    6,146768853e-02   -3,748663366e-01    1,806145459e-01    3,165071085e-02    0,000000000e+00    0,000000000e+00    0,000000000e+00    0,000000000e+00
     1500000000   -1,680699140e-01   -4,961749315e-01    2,423513383e-01    8,412937820e-02    0,000000000e+00    0,000000000e+00    0,000000000e+00    0,000000000e+00
