! NanoVNA-App
! Date: 2025-09-25 15:31:52
! Start: 100MHz Stop: 1,5GHz Points: 101
! S-Parameter data: F S11 S21 S12 S22
# Hz S RI R 50
!     Frequency           S11_Real           S11_Imag           S21_Real           S21_Imag           S12_Real           S12_Imag           S22_Real           S22_Imag
      100000000   -2,888344042e-02   -4,178732168e-03    3,741096556e-01   -7,217560410e-01    0,000000000e+00    0,000000000e+00    0,000000000e+00    0,000000000e+00
      114000000   -1,654135063e-02    1,150916424e-02   -8,910665661e-02   -8,054736853e-01    0,000000000e+00    0,000000000e+00    0,000000000e+00    0,000000000e+00
      128000000    3,455327824e-03    1,059740502e-02   -5,147289038e-01   -6,206942797e-01    0,000000000e+00    0,000000000e+00    0,000000000e+00    0,000000000e+00
      142000000    1,454816014e-02   -2,950470895e-03   -7,670392990e-01   -2,365129292e-01    0,000000000e+00    0,000000000e+00    0,000000000e+00    0,000000000e+00
      156000000    1,598020643e-02   -1,437107753e-02   -7,697771788e-01    2,241685241e-01    0,000000000e+00    0,000000000e+00    0,000000000e+00    0,000000000e+00
      170000000    1,665747352e-02   -2,254331112e-02   -5,182648897e-01    6,047180891e-01    0,000000000e+00    0,000000000e+00    0,000000000e+00    0,000000000e+00
      184000000    2,097896673e-02   -3,711071983e-02   -1,015603617e-01    7,862176299e-01    0,000000000e+00    0,000000000e+00    0,000000000e+00    0,000000000e+00
      198000000    1,300604455e-02   -6,247792020e-02    3,433234990e-01    7,123429775e-01    0,000000000e+00    0,000000000e+00    0,000000000e+00    0,000000000e+00
      212000000   -1,866001263e-02   -8,128236234e-02    6,781775951e-01    4,098249674e-01    0,000000000e+00    0,000000000e+00    0,000000000e+00    0,000000000e+00
      226000000   -6,168935075e-02   -6,920396537e-02    7,958245873e-01   -3,058000654e-02    0,000000000e+00    0,000000000e+00    0,000000000e+00    0,000000000e+00
      240000000   -8,255109191e-02   -2,565510944e-02    6,458863616e-01   -4,670337141e-01    0,000000000e+00    0,000000000e+00    0,000000000e+00    0,000000000e+00
      254000000   -6,347877532e-02    1,723618060e-02    2,760681510e-01   -7,434899807e-01    0,000000000e+00    0,000000000e+00    0,000000000e+00    0,000000000e+00
      268000000   -2,385214716e-02    2,899472788e-02   -1,778928488e-01   -7,642365694e-01    0,000000000e+00    0,000000000e+00    0,000000000e+00    0,000000000e+00
      282000000    4,145777784e-03    1,194843836e-02   -5,616999865e-01   -5,354107618e-01    0,000000000e+00    0,000000000e+00    0,000000000e+00    0,000000000e+00
      296000000    9,675453417e-03   -7,846129127e-03   -7,598055005e-01   -1,394709200e-01    0,000000000e+00    0,000000000e+00    0,000000000e+00    0,000000000e+00
      310000000    1,114247553e-02   -1,622970216e-02   -7,117460370e-01    2,974669039e-01    0,000000000e+00    0,000000000e+00    0,000000000e+00    0,000000000e+00
      324000000    1,953683980e-02   -2,661693841e-02   -4,272826612e-01    6,381393075e-01    0,000000000e+00    0,000000000e+00    0,000000000e+00    0,000000000e+00
      338000000    2,561526187e-02   -5,207573995e-02   -9,514044039e-03    7,603805065e-01    0,000000000e+00    0,000000000e+00    0,000000000e+00    0,000000000e+00
      352000000    7,658743765e-03   -8,467070758e-02    4,069746435e-01    6,400869489e-01    0,000000000e+00    0,000000000e+00    0,000000000e+00    0,000000000e+00
      366000000   -3,509058058e-02   -9,558884054e-02    6,909985542e-01    3,109737337e-01    0,000000000e+00    0,000000000e+00    0,000000000e+00    0,000000000e+00
      380000000   -7,078982890e-02   -7,118624449e-02    7,473756671e-01   -1,256802827e-01    0,000000000e+00    0,000000000e+00    0,000000000e+00    0,000000000e+00
      394000000   -7,267510891e-02   -3,230844438e-02    5,479161739e-01   -5,213387609e-01    0,000000000e+00    0,000000000e+00    0,000000000e+00    0,000000000e+00
      408000000   -4,638446122e-02   -1,632069796e-02    1,609841287e-01   -7,314024568e-01    0,000000000e+00    0,000000000e+00    0,000000000e+00    0,000000000e+00
      422000000   -2,840164118e-02   -3,208027035e-02   -2,679140270e-01   -6,948971748e-01    0,000000000e+00    0,000000000e+00    0,000000000e+00    0,000000000e+00
      436000000   -4,043985531e-02   -5,198847875e-02   -6,034508944e-01   -4,319184721e-01    0,000000000e+00    0,000000000e+00    0,000000000e+00    0,000000000e+00
      450000000   -6,739182025e-02   -4,384626821e-02   -7,403555512e-01   -2,130805701e-02    0,000000000e+00    0,000000000e+00    0,000000000e+00    0,000000000e+00
      464000000   -7,310803235e-02   -1,141589601e-02   -6,186893582e-01    3,977103829e-01    0,000000000e+00    0,000000000e+00    0,000000000e+00    0,000000000e+00
      478000000   -4,751152173e-02    1,190311369e-02   -2,822289169e-01    6,683009267e-01    0,000000000e+00    0,000000000e+00    0,000000000e+00    0,000000000e+00
      492000000   -1,549880300e-02    6,008726079e-03    1,376409084e-01    7,012950778e-01    0,000000000e+00    0,000000000e+00    0,000000000e+00    0,000000000e+00
      506000000   -2,223859774e-03   -1,548718009e-02    4,984571040e-01    5,033339858e-01    0,000000000e+00    0,000000000e+00    0,000000000e+00    0,000000000e+00
      520000000   -4,922229797e-03   -3,131552786e-02    6,884968281e-01    1,419211477e-01    0,000000000e+00    0,000000000e+00    0,000000000e+00    0,000000000e+00
      534000000   -3,652946558e-03   -3,839058056e-02    6,438301206e-01   -2,623542845e-01    0,000000000e+00    0,000000000e+00    0,000000000e+00    0,000000000e+00
      548000000    6,315863226e-03   -5,377858877e-02    3,819157183e-01   -5,674446821e-01    0,000000000e+00    0,000000000e+00    0,000000000e+00    0,000000000e+00
      562000000    2,814633306e-03   -8,964043111e-02    2,480029128e-03   -6,714552045e-01    0,000000000e+00    0,000000000e+00    0,000000000e+00    0,000000000e+00
      576000000   -3,442339227e-02   -1,246126965e-01   -3,689381182e-01   -5,574868917e-01    0,000000000e+00    0,000000000e+00    0,000000000e+00    0,000000000e+00
      590000000   -9,623064846e-02   -1,229333878e-01   -6,202064157e-01   -2,651288509e-01    0,000000000e+00    0,000000000e+00    0,000000000e+00    0,000000000e+00
      604000000   -1,394543648e-01   -7,209069282e-02   -6,645778418e-01    1,374644786e-01    0,000000000e+00    0,000000000e+00    0,000000000e+00    0,000000000e+00
      618000000   -1,291525215e-01   -9,038720280e-03   -4,648257792e-01    4,946851730e-01    0,000000000e+00    0,000000000e+00    0,000000000e+00    0,000000000e+00
      632000000   -8,445906639e-02    1,653465070e-02   -9,771401435e-02    6,636914611e-01    0,000000000e+00    0,000000000e+00    0,000000000e+00    0,000000000e+00
      646000000   -5,096133053e-02    1,265476807e-03    2,883498371e-01    5,953816772e-01    0,000000000e+00    0,000000000e+00    0,000000000e+00    0,000000000e+00
      660000000   -5,289449915e-02   -2,193608880e-02    5,679798722e-01    3,234338760e-01    0,000000000e+00    0,000000000e+00    0,000000000e+00    0,000000000e+00
      674000000   -6,966624409e-02   -1,788992994e-02    6,429341435e-01   -6,535175443e-02    0,000000000e+00    0,000000000e+00    0,000000000e+00    0,000000000e+00
      688000000   -6,780212373e-02    9,053094313e-03    4,713068306e-01   -4,279990196e-01    0,000000000e+00    0,000000000e+00    0,000000000e+00    0,000000000e+00
      702000000   -3,721445054e-02    2,601158433e-02    1,171117499e-01   -6,107800603e-01    0,000000000e+00    0,000000000e+00    0,000000000e+00    0,000000000e+00
      716000000    1,821436919e-03    1,845037378e-02   -2,647841871e-01   -5,474111438e-01    0,000000000e+00    0,000000000e+00    0,000000000e+00    0,000000000e+00
      730000000    3,635329008e-02   -1,066902746e-02   -5,287716389e-01   -2,692702413e-01    0,000000000e+00    0,000000000e+00    0,000000000e+00    0,000000000e+00
      744000000    6,483179331e-02   -6,272003055e-02   -5,643110871e-01    1,065466329e-01    0,000000000e+00    0,000000000e+00    0,000000000e+00    0,000000000e+00
      758000000    6,660589576e-02   -1,515436471e-01   -3,627927005e-01    4,104281068e-01    0,000000000e+00    0,000000000e+00    0,000000000e+00    0,000000000e+00
      772000000   -1,330129337e-02   -2,620250583e-01   -3,393304348e-02    5,158182979e-01    0,000000000e+00    0,000000000e+00    0,000000000e+00    0,000000000e+00
      786000000   -2,061228007e-01   -3,026263416e-01    2,739433646e-01    3,951773047e-01    0,000000000e+00    0,000000000e+00    0,000000000e+00    0,000000000e+00
      800000000   -4,244668782e-01   -1,297305077e-01    4,175480306e-01    9,918380529e-02    0,000000000e+00    0,000000000e+00    0,000000000e+00    0,000000000e+00
      814000000   -3,897345364e-01    2,212694287e-01    2,817767560e-01   -1,729668677e-01    0,000000000e+00    0,000000000e+00    0,000000000e+00    0,000000000e+00
      828000000   -5,081425607e-02    3,689412773e-01    5,482760072e-02   -1,897075772e-01    0,000000000e+00    0,000000000e+00    0,000000000e+00    0,000000000e+00
      842000000    2,350379080e-01    1,861918122e-01   -1,738541760e-02   -7,036091387e-02    0,000000000e+00    0,000000000e+00    0,000000000e+00    0,000000000e+00
      856000000    2,805288434e-01   -1,248373836e-01    4,594966024e-02   -1,368995197e-02    0,000000000e+00    0,000000000e+00    0,000000000e+00    0,000000000e+00
      870000000    7,483138144e-02   -3,757732511e-01    1,134864613e-01   -9,123702347e-02    0,000000000e+00    0,000000000e+00    0,000000000e+00    0,000000000e+00
      884000000   -2,969664633e-01   -3,614836633e-01    2,852086723e-02   -2,454642951e-01    0,000000000e+00    0,000000000e+00    0,000000000e+00    0,000000000e+00
      898000000   -4,731758833e-01    8,625714108e-03   -2,223599553e-01   -2,281093150e-01    0,000000000e+00    0,000000000e+00    0,000000000e+00    0,000000000e+00
      912000000   -2,252127677e-01    2,951620817e-01   -3,486681581e-01    6,061264500e-02    0,000000000e+00    0,000000000e+00    0,000000000e+00    0,000000000e+00
      926000000    6,782108545e-02    2,624459863e-01   -2,163287550e-01    2,628326714e-01    0,000000000e+00    0,000000000e+00    0,000000000e+00    0,000000000e+00
      940000000    2,140151560e-01    7,961967587e-02   -3,638748825e-02    3,297252059e-01    0,000000000e+00    0,000000000e+00    0,000000000e+00    0,000000000e+00
      954000000    2,210146189e-01   -1,293666810e-01    1,290340722e-01    3,079621494e-01    0,000000000e+00    0,000000000e+00    0,000000000e+00    0,000000000e+00
      968000000    1,176654994e-01   -3,030402064e-01    2,711441815e-01    2,178819180e-01    0,000000000e+00    0,000000000e+00    0,000000000e+00    0,000000000e+00
      982000000   -7,984568179e-02   -3,875548244e-01    3,686350286e-01    6,506526470e-02    0,000000000e+00    0,000000000e+00    0,000000000e+00    0,000000000e+00
      996000000   -3,184872866e-01   -3,314047158e-01    3,700487614e-01   -1,450727284e-01    0,000000000e+00    0,000000000e+00    0,000000000e+00    0,000000000e+00
     1010000000   -4,643973410e-01   -1,079313084e-01    2,226051092e-01   -3,406222463e-01    0,000000000e+00    0,000000000e+00    0,000000000e+00    0,000000000e+00
     1024000000   -4,179139733e-01    1,501677185e-01   -3,034809977e-02   -3,951630294e-01    0,000000000e+00    0,000000000e+00    0,000000000e+00    0,000000000e+00
     1038000000   -2,154462934e-01    2,938715219e-01   -2,484319210e-01   -2,605358362e-01    0,000000000e+00    0,000000000e+00    0,000000000e+00    0,000000000e+00
     1052000000   -9,184932336e-03    2,820056081e-01   -3,172060549e-01   -4,574228451e-02    0,000000000e+00    0,000000000e+00    0,000000000e+00    0,000000000e+00
     1066000000    1,380117685e-01    1,623976231e-01   -2,605128586e-01    1,441994458e-01    0,000000000e+00    0,000000000e+00    0,000000000e+00    0,000000000e+00
     1080000000    1,953025907e-01   -6,945719360e-04   -1,199091971e-01    2,634489238e-01    0,000000000e+00    0,000000000e+00    0,000000000e+00    0,000000000e+00
     1094000000    1,524204463e-01   -1,723567247e-01    6,414674968e-02    3,029004633e-01    0,000000000e+00    0,000000000e+00    0,000000000e+00    0,000000000e+00
     1108000000   -2,916533267e-03   -3,045757115e-01    2,784599960e-01    2,449241579e-01    0,000000000e+00    0,000000000e+00    0,000000000e+00    0,000000000e+00
     1122000000   -2,509424388e-01   -2,669256926e-01    4,739991426e-01    1,418208238e-02    0,000000000e+00    0,000000000e+00    0,000000000e+00    0,000000000e+00
     1136000000   -3,143670857e-01    2,993229032e-02    3,994264007e-01   -3,934363723e-01    0,000000000e+00    0,000000000e+00    0,000000000e+00    0,000000000e+00
     1150000000   -3,446532413e-02    1,500178277e-01    8,138247766e-03   -5,406360030e-01    0,000000000e+00    0,000000000e+00    0,000000000e+00    0,000000000e+00
     1164000000    1,224300191e-01   -6,633673608e-02   -2,771229744e-01   -3,788807392e-01    0,000000000e+00    0,000000000e+00    0,000000000e+00    0,000000000e+00
     1178000000    1,810820773e-02   -3,063167930e-01   -3,676435351e-01   -1,541136801e-01    0,000000000e+00    0,000000000e+00    0,000000000e+00    0,000000000e+00
     1192000000   -2,627073228e-01   -3,693905771e-01   -3,244973719e-01    5,393899605e-02    0,000000000e+00    0,000000000e+00    0,000000000e+00    0,000000000e+00
     1206000000   -5,223619342e-01   -1,630077511e-01   -1,650557518e-01    1,807693392e-01    0,000000000e+00    0,000000000e+00    0,000000000e+00    0,000000000e+00
     1220000000   -5,121300817e-01    1,743023098e-01    7,897959440e-04    1,593650728e-01    0,000000000e+00    0,000000000e+00    0,000000000e+00    0,000000000e+00
     1234000000   -2,860010862e-01    3,620501757e-01    7,184785604e-02    6,297659129e-02    0,000000000e+00    0,000000000e+00    0,000000000e+00    0,000000000e+00
     1248000000   -4,503928497e-02    3,602991104e-01    5,642651767e-02   -4,115831573e-03    0,000000000e+00    0,000000000e+00    0,000000000e+00    0,000000000e+00
     1262000000    1,194900498e-01    2,578662038e-01    1,410401892e-02   -1,989281923e-02    0,000000000e+00    0,000000000e+00    0,000000000e+00    0,000000000e+00
     1276000000    2,145574689e-01    9,934454411e-02   -3,416875843e-03    6,803427357e-03    0,000000000e+00    0,000000000e+00    0,000000000e+00    0,000000000e+00
     1290000000    2,232351005e-01   -7,631367445e-02    1,997536048e-02    4,826114699e-02    0,000000000e+00    0,000000000e+00    0,000000000e+00    0,000000000e+00
     1304000000    1,554768831e-01   -2,434826344e-01    1,354845315e-01    6,411749870e-02    0,000000000e+00    0,000000000e+00    0,000000000e+00    0,000000000e+00
     1318000000    3,676011041e-02   -3,328680098e-01    1,331165135e-01   -1,615810096e-01    0,000000000e+00    0,000000000e+00    0,000000000e+00    0,000000000e+00
     1332000000   -1,316130012e-01   -4,332156181e-01   -4,833137617e-02   -4,656648263e-02    0,000000000e+00    0,000000000e+00    0,000000000e+00    0,000000000e+00
     1346000000   -3,957227170e-01   -4,080232084e-01    2,733287774e-02    7,075716555e-02    0,000000000e+00    0,000000000e+00    0,000000000e+00    0,000000000e+00
     1360000000   -6,170568466e-01   -1,918932348e-01    1,362514347e-01    7,085278630e-02    0,000000000e+00    0,000000000e+00    0,000000000e+00    0,000000000e+00
     1374000000   -6,300154924e-01    1,318763494e-01    2,049885243e-01    1,083697099e-02    0,000000000e+00    0,000000000e+00    0,000000000e+00    0,000000000e+00
     1388000000   -4,678532183e-01    3,749379516e-01    2,120448351e-01   -5,772916973e-02    0,000000000e+00    0,000000000e+00    0,000000000e+00    0,000000000e+00
     1402000000   -2,279329598e-01    4,566956162e-01    1,930099428e-01   -9,415365756e-02    0,000000000e+00    0,000000000e+00    0,000000000e+00    0,000000000e+00
     1416000000   -2,410008945e-02    4,086007476e-01    1,651339233e-01   -1,040799990e-01    0,000000000e+00    0,000000000e+00    0,000000000e+00    0,000000000e+00
     1430000000    1,346753985e-01    2,934164107e-01    1,615241468e-01   -1,363958418e-01    0,000000000e+00    0,000000000e+00    0,000000000e+00    0,000000000e+00
     1444000000    2,094119936e-01    1,490114331e-01    1,443004161e-01   -9,493950009e-02    0,000000000e+00    0,000000000e+00    0,000000000e+00    0,000000000e+00
     1458000000    2,367037982e-01   -1,862750389e-02    1,512575001e-01   -7,089085877e-02    0,000000000e+00    0,000000000e+00    0,000000000e+00    0,000000000e+00
     1472000000    1,893620491e-01   -2,060006261e-01    1,479214877e-01   -4,180523753e-02    0,000000000e+00    0,000000000e+00    0,000000000e+00    0,000000000e+00
     1486000000    5,731643364e-02   -3,790147603e-01    1,584836692e-01    2,768038400e-02    0,000000000e+00    0,000000000e+00    0,000000000e+00    0,000000000e+00
     1500000000   -1,692575067e-01   -5,017552972e-01    2,514012754e-01    8,565755188e-02    0,000000000e+00    0,000000000e+00    0,000000000e+00    0,000000000e+00
