! NanoVNA-App
! Date: 2025-09-25 15:36:16
! Start: 100MHz Stop: 1,5GHz Points: 101
! S-Parameter data: F S11 S21 S12 S22
# Hz S RI R 50
!     Frequency           S11_Real           S11_Imag           S21_Real           S21_Imag           S12_Real           S12_Imag           S22_Real           S22_Imag
      100000000   -2,884790860e-02   -4,158218391e-03    3,740676641e-01   -7,217223048e-01    0,000000000e+00    0,000000000e+00    0,000000000e+00    0,000000000e+00
      114000000   -1,645317674e-02    1,153313741e-02   -8,889226615e-02   -8,054595590e-01    0,000000000e+00    0,000000000e+00    0,000000000e+00    0,000000000e+00
      128000000    3,485412570e-03    1,054361090e-02   -5,144640803e-01   -6,203206182e-01    0,000000000e+00    0,000000000e+00    0,000000000e+00    0,000000000e+00
      142000000    1,455951761e-02   -2,961133607e-03   -7,670846581e-01   -2,365701795e-01    0,000000000e+00    0,000000000e+00    0,000000000e+00    0,000000000e+00
      156000000    1,479557902e-02   -1,497378293e-02   -7,668106556e-01    2,183265388e-01    0,000000000e+00    0,000000000e+00    0,000000000e+00    0,000000000e+00
      170000000    1,668040827e-02   -2,259947918e-02   -5,183014274e-01    6,049848795e-01    0,000000000e+00    0,000000000e+00    0,000000000e+00    0,000000000e+00
      184000000    2,102303505e-02   -3,705877811e-02   -1,011240259e-01    7,860664129e-01    0,000000000e+00    0,000000000e+00    0,000000000e+00    0,000000000e+00
      198000000    1,304950099e-02   -6,248820946e-02    3,434076011e-01    7,120535970e-01    0,000000000e+00    0,000000000e+00    0,000000000e+00    0,000000000e+00
      212000000   -1,864817366e-02   -8,129535615e-02    6,782255769e-01    4,098950922e-01    0,000000000e+00    0,000000000e+00    0,000000000e+00    0,000000000e+00
      226000000   -6,170313433e-02   -6,924149394e-02    7,958301902e-01   -3,062441200e-02    0,000000000e+00    0,000000000e+00    0,000000000e+00    0,000000000e+00
      240000000   -8,253734559e-02   -2,561913244e-02    6,459897757e-01   -4,670926034e-01    0,000000000e+00    0,000000000e+00    0,000000000e+00    0,000000000e+00
      254000000   -6,346460432e-02    1,726192608e-02    2,761019468e-01   -7,435085177e-01    0,000000000e+00    0,000000000e+00    0,000000000e+00    0,000000000e+00
      268000000   -2,389346436e-02    2,887113951e-02   -1,782050878e-01   -7,644874454e-01    0,000000000e+00    0,000000000e+00    0,000000000e+00    0,000000000e+00
      282000000    4,223824944e-03    1,192425936e-02   -5,616240501e-01   -5,352828503e-01    0,000000000e+00    0,000000000e+00    0,000000000e+00    0,000000000e+00
      296000000    9,565229528e-03   -7,823335938e-03   -7,596897483e-01   -1,396757215e-01    0,000000000e+00    0,000000000e+00    0,000000000e+00    0,000000000e+00
      310000000    1,117460243e-02   -1,630999334e-02   -7,125843167e-01    2,994888425e-01    0,000000000e+00    0,000000000e+00    0,000000000e+00    0,000000000e+00
      324000000    1,977208257e-02   -2,659007721e-02   -4,271880090e-01    6,377457976e-01    0,000000000e+00    0,000000000e+00    0,000000000e+00    0,000000000e+00
      338000000    2,573240176e-02   -5,232515931e-02   -7,291371003e-03    7,631967068e-01    0,000000000e+00    0,000000000e+00    0,000000000e+00    0,000000000e+00
      352000000    7,583054248e-03   -8,496700227e-02    4,066315293e-01    6,399885416e-01    0,000000000e+00    0,000000000e+00    0,000000000e+00    0,000000000e+00
      366000000   -3,476354107e-02   -9,554054588e-02    6,906573772e-01    3,110733926e-01    0,000000000e+00    0,000000000e+00    0,000000000e+00    0,000000000e+00
      380000000   -7,077985257e-02   -7,146792859e-02    7,481594682e-01   -1,258877814e-01    0,000000000e+00    0,000000000e+00    0,000000000e+00    0,000000000e+00
      394000000   -7,280414551e-02   -3,238713369e-02    5,456603169e-01   -5,218620896e-01    0,000000000e+00    0,000000000e+00    0,000000000e+00    0,000000000e+00
      408000000   -4,644994438e-02   -1,641987078e-02    1,603741646e-01   -7,319304943e-01    0,000000000e+00    0,000000000e+00    0,000000000e+00    0,000000000e+00
      422000000   -2,843797393e-02   -3,222519159e-02   -2,674314678e-01   -6,955830455e-01    0,000000000e+00    0,000000000e+00    0,000000000e+00    0,000000000e+00
      436000000   -4,067695886e-02   -5,198843405e-02   -6,039202809e-01   -4,321826994e-01    0,000000000e+00    0,000000000e+00    0,000000000e+00    0,000000000e+00
      450000000   -6,754688174e-02   -4,397927970e-02   -7,406547666e-01   -2,129908465e-02    0,000000000e+00    0,000000000e+00    0,000000000e+00    0,000000000e+00
      464000000   -7,359553128e-02   -1,175728347e-02   -6,187606454e-01    3,976158500e-01    0,000000000e+00    0,000000000e+00    0,000000000e+00    0,000000000e+00
      478000000   -4,762739316e-02    1,190195885e-02   -2,820011377e-01    6,673648357e-01    0,000000000e+00    0,000000000e+00    0,000000000e+00    0,000000000e+00
      492000000   -1,581613719e-02    6,266754586e-03    1,375280917e-01    7,014358044e-01    0,000000000e+00    0,000000000e+00    0,000000000e+00    0,000000000e+00
      506000000   -2,813702216e-03   -1,583656482e-02    4,980071485e-01    5,032857060e-01    0,000000000e+00    0,000000000e+00    0,000000000e+00    0,000000000e+00
      520000000   -4,727086984e-03   -3,145061806e-02    6,890633106e-01    1,424560696e-01    0,000000000e+00    0,000000000e+00    0,000000000e+00    0,000000000e+00
      534000000   -3,755658865e-03   -3,823119029e-02    6,439056993e-01   -2,626552582e-01    0,000000000e+00    0,000000000e+00    0,000000000e+00    0,000000000e+00
      548000000    5,890146364e-03   -5,391374975e-02    3,814957142e-01   -5,673996806e-01    0,000000000e+00    0,000000000e+00    0,000000000e+00    0,000000000e+00
      562000000    3,528295783e-03   -8,908321708e-02    2,805414144e-03   -6,719638109e-01    0,000000000e+00    0,000000000e+00    0,000000000e+00    0,000000000e+00
      576000000   -3,432148695e-02   -1,246822998e-01   -3,689874411e-01   -5,572092533e-01    0,000000000e+00    0,000000000e+00    0,000000000e+00    0,000000000e+00
      590000000   -9,658318013e-02   -1,227675676e-01   -6,191874743e-01   -2,641270161e-01    0,000000000e+00    0,000000000e+00    0,000000000e+00    0,000000000e+00
      604000000   -1,396733969e-01   -7,172470540e-02   -6,658668518e-01    1,380145103e-01    0,000000000e+00    0,000000000e+00    0,000000000e+00    0,000000000e+00
      618000000   -1,293984801e-01   -8,529948071e-03   -4,635598958e-01    4,950267076e-01    0,000000000e+00    0,000000000e+00    0,000000000e+00    0,000000000e+00
      632000000   -8,421485126e-02    1,728861779e-02   -9,875024855e-02    6,639060378e-01    0,000000000e+00    0,000000000e+00    0,000000000e+00    0,000000000e+00
      646000000   -5,061068013e-02    5,624756450e-04    2,869689763e-01    5,950511694e-01    0,000000000e+00    0,000000000e+00    0,000000000e+00    0,000000000e+00
      660000000   -5,355753377e-02   -2,116299793e-02    5,687831044e-01    3,233287036e-01    0,000000000e+00    0,000000000e+00    0,000000000e+00    0,000000000e+00
      674000000   -6,972879171e-02   -1,757163368e-02    6,434512734e-01   -6,561031938e-02    0,000000000e+00    0,000000000e+00    0,000000000e+00    0,000000000e+00
      688000000   -6,790745258e-02    9,043506347e-03    4,709444046e-01   -4,282564819e-01    0,000000000e+00    0,000000000e+00    0,000000000e+00    0,000000000e+00
      702000000   -3,843091428e-02    2,651494928e-02    1,168864593e-01   -6,154069901e-01    0,000000000e+00    0,000000000e+00    0,000000000e+00    0,000000000e+00
      716000000    2,566961339e-03    1,856935397e-02   -2,641644478e-01   -5,460538268e-01    0,000000000e+00    0,000000000e+00    0,000000000e+00    0,000000000e+00
      730000000    3,643814474e-02   -1,024872810e-02   -5,287145972e-01   -2,686204016e-01    0,000000000e+00    0,000000000e+00    0,000000000e+00    0,000000000e+00
      744000000    6,438591331e-02   -6,257720292e-02   -5,641259551e-01    1,059489995e-01    0,000000000e+00    0,000000000e+00    0,000000000e+00    0,000000000e+00
      758000000    6,640756130e-02   -1,526226401e-01   -3,632764816e-01    4,107821584e-01    0,000000000e+00    0,000000000e+00    0,000000000e+00    0,000000000e+00
      772000000   -1,310785953e-02   -2,618502975e-01   -3,364228830e-02    5,156650543e-01    0,000000000e+00    0,000000000e+00    0,000000000e+00    0,000000000e+00
      786000000   -2,075017393e-01   -3,030313551e-01    2,752327621e-01    3,952433467e-01    0,000000000e+00    0,000000000e+00    0,000000000e+00    0,000000000e+00
      800000000   -4,261117578e-01   -1,302022934e-01    4,174592793e-01    9,901649505e-02    0,000000000e+00    0,000000000e+00    0,000000000e+00    0,000000000e+00
      814000000   -3,897795677e-01    2,206218839e-01    2,823429406e-01   -1,725613624e-01    0,000000000e+00    0,000000000e+00    0,000000000e+00    0,000000000e+00
      828000000   -4,908305034e-02    3,671224415e-01    5,545447767e-02   -1,891574860e-01    0,000000000e+00    0,000000000e+00    0,000000000e+00    0,000000000e+00
      842000000    2,345840633e-01    1,860018075e-01   -1,711553708e-02   -7,094188035e-02    0,000000000e+00    0,000000000e+00    0,000000000e+00    0,000000000e+00
      856000000    2,803879678e-01   -1,242093816e-01    4,523208737e-02   -1,314898767e-02    0,000000000e+00    0,000000000e+00    0,000000000e+00    0,000000000e+00
      870000000    7,527116686e-02   -3,764872551e-01    1,139053255e-01   -9,143759310e-02    0,000000000e+00    0,000000000e+00    0,000000000e+00    0,000000000e+00
      884000000   -2,951234281e-01   -3,617177606e-01    2,761512063e-02   -2,455814183e-01    0,000000000e+00    0,000000000e+00    0,000000000e+00    0,000000000e+00
      898000000   -4,722974896e-01    9,664405137e-03   -2,213124037e-01   -2,276924700e-01    0,000000000e+00    0,000000000e+00    0,000000000e+00    0,000000000e+00
      912000000   -2,251781821e-01    2,947489917e-01   -3,412115574e-01    5,994461477e-02    0,000000000e+00    0,000000000e+00    0,000000000e+00    0,000000000e+00
      926000000    6,498032808e-02    2,638012469e-01   -2,172946930e-01    2,645490170e-01    0,000000000e+00    0,000000000e+00    0,000000000e+00    0,000000000e+00
      940000000    2,170122862e-01    8,233486116e-02   -3,665860370e-02    3,295136690e-01    0,000000000e+00    0,000000000e+00    0,000000000e+00    0,000000000e+00
      954000000    2,229542583e-01   -1,248456165e-01    1,317131370e-01    3,074295521e-01    0,000000000e+00    0,000000000e+00    0,000000000e+00    0,000000000e+00
      968000000    1,129737422e-01   -3,005458713e-01    2,729054093e-01    2,179972380e-01    0,000000000e+00    0,000000000e+00    0,000000000e+00    0,000000000e+00
      982000000   -8,169207722e-02   -3,867265284e-01    3,645439446e-01    6,430762261e-02    0,000000000e+00    0,000000000e+00    0,000000000e+00    0,000000000e+00
      996000000   -3,198976815e-01   -3,321195841e-01    3,676093817e-01   -1,461085230e-01    0,000000000e+00    0,000000000e+00    0,000000000e+00    0,000000000e+00
     1010000000   -4,664383829e-01   -1,076766327e-01    2,211703211e-01   -3,412196338e-01    0,000000000e+00    0,000000000e+00    0,000000000e+00    0,000000000e+00
     1024000000   -4,100665152e-01    1,508743018e-01   -3,281598538e-02   -3,924618065e-01    0,000000000e+00    0,000000000e+00    0,000000000e+00    0,000000000e+00
     1038000000   -2,189531326e-01    2,897255719e-01   -2,480080426e-01   -2,631199658e-01    0,000000000e+00    0,000000000e+00    0,000000000e+00    0,000000000e+00
     1052000000   -8,199352771e-03    2,762077153e-01   -3,194239438e-01   -4,345545173e-02    0,000000000e+00    0,000000000e+00    0,000000000e+00    0,000000000e+00
     1066000000    1,345272660e-01    1,625914127e-01   -2,593474686e-01    1,461110413e-01    0,000000000e+00    0,000000000e+00    0,000000000e+00    0,000000000e+00
     1080000000    1,959050596e-01    1,741581946e-03   -1,194291338e-01    2,638241649e-01    0,000000000e+00    0,000000000e+00    0,000000000e+00    0,000000000e+00
     1094000000    1,557589769e-01   -1,782794893e-01    6,523007900e-02    3,085638583e-01    0,000000000e+00    0,000000000e+00    0,000000000e+00    0,000000000e+00
     1108000000    2,825132804e-03   -3,056158721e-01    2,766871154e-01    2,462756038e-01    0,000000000e+00    0,000000000e+00    0,000000000e+00    0,000000000e+00
     1122000000   -2,475788891e-01   -2,609758377e-01    4,706700444e-01    1,268913317e-02    0,000000000e+00    0,000000000e+00    0,000000000e+00    0,000000000e+00
     1136000000   -3,163067997e-01    2,815097198e-02    3,981609344e-01   -3,920552433e-01    0,000000000e+00    0,000000000e+00    0,000000000e+00    0,000000000e+00
     1150000000   -4,317885265e-02    1,504602432e-01    5,468240008e-03   -5,464075208e-01    0,000000000e+00    0,000000000e+00    0,000000000e+00    0,000000000e+00
     1164000000    1,252485961e-01   -6,128845364e-02   -2,777342796e-01   -3,779678345e-01    0,000000000e+00    0,000000000e+00    0,000000000e+00    0,000000000e+00
     1178000000    1,758884825e-02   -3,044561744e-01   -3,682851493e-01   -1,505813599e-01    0,000000000e+00    0,000000000e+00    0,000000000e+00    0,000000000e+00
     1192000000   -2,661367357e-01   -3,711196482e-01   -3,217490017e-01    5,526540801e-02    0,000000000e+00    0,000000000e+00    0,000000000e+00    0,000000000e+00
     1206000000   -5,159691572e-01   -1,588709801e-01   -1,618814766e-01    1,815577447e-01    0,000000000e+00    0,000000000e+00    0,000000000e+00    0,000000000e+00
     1220000000   -5,095339417e-01    1,725789458e-01    1,427461044e-03    1,557733864e-01    0,000000000e+00    0,000000000e+00    0,000000000e+00    0,000000000e+00
     1234000000   -2,838443816e-01    3,593538105e-01    6,910211593e-02    6,041501462e-02    0,000000000e+00    0,000000000e+00    0,000000000e+00    0,000000000e+00
     1248000000   -4,043793306e-02    3,668583632e-01    5,994387716e-02   -4,573508631e-03    0,000000000e+00    0,000000000e+00    0,000000000e+00    0,000000000e+00
     1262000000    1,237675697e-01    2,541081905e-01    1,579436287e-02   -2,292699926e-02    0,000000000e+00    0,000000000e+00    0,000000000e+00    0,000000000e+00
     1276000000    2,134730369e-01    1,002435833e-01    1,266559935e-03    2,773691900e-03    0,000000000e+00    0,000000000e+00    0,000000000e+00    0,000000000e+00
     1290000000    2,228782922e-01   -7,178501040e-02    1,829814166e-02    5,397386104e-02    0,000000000e+00    0,000000000e+00    0,000000000e+00    0,000000000e+00
     1304000000    1,541013569e-01   -2,438194901e-01    1,351396739e-01    6,293099374e-02    0,000000000e+00    0,000000000e+00    0,000000000e+00    0,000000000e+00
     1318000000    3,611301258e-02   -3,351368308e-01    1,273085028e-01   -1,648984849e-01    0,000000000e+00    0,000000000e+00    0,000000000e+00    0,000000000e+00
     1332000000   -1,318782121e-01   -4,401353896e-01   -5,017075315e-02   -4,741800576e-02    0,000000000e+00    0,000000000e+00    0,000000000e+00    0,000000000e+00
     1346000000   -3,990878761e-01   -4,062218964e-01    2,292240225e-02    8,058331907e-02    0,000000000e+00    0,000000000e+00    0,000000000e+00    0,000000000e+00
     1360000000   -6,151161194e-01   -1,904206425e-01    1,282501817e-01    6,509388238e-02    0,000000000e+00    0,000000000e+00    0,000000000e+00    0,000000000e+00
     1374000000   -6,305965781e-01    1,294267476e-01    2,038058639e-01    2,105688490e-02    0,000000000e+00    0,000000000e+00    0,000000000e+00    0,000000000e+00
     1388000000   -4,702368677e-01    3,648393452e-01    2,051718086e-01   -5,751200393e-02    0,000000000e+00    0,000000000e+00    0,000000000e+00    0,000000000e+00
     1402000000   -2,300838381e-01    4,557321072e-01    1,929498911e-01   -8,467990905e-02    0,000000000e+00    0,000000000e+00    0,000000000e+00    0,000000000e+00
     1416000000   -2,751537971e-02    4,121630192e-01    1,726408899e-01   -1,100580245e-01    0,000000000e+00    0,000000000e+00    0,000000000e+00    0,000000000e+00
     1430000000    1,218026653e-01    3,015103042e-01    1,465814710e-01   -1,120956615e-01    0,000000000e+00    0,000000000e+00    0,000000000e+00    0,000000000e+00
     1444000000    2,076181620e-01    1,500294507e-01    1,539153457e-01   -9,620194882e-02    0,000000000e+00    0,000000000e+00    0,000000000e+00    0,000000000e+00
     1458000000    2,356998920e-01   -1,978029683e-02    1,376157403e-01   -7,283157110e-02    0,000000000e+00    0,000000000e+00    0,000000000e+00    0,000000000e+00
     1472000000    1,898679435e-01   -2,014478743e-01    1,388740391e-01   -3,033342026e-02    0,000000000e+00    0,000000000e+00    0,000000000e+00    0,000000000e+00
     1486000000    6,844403595e-02   -3,760908544e-01    1,747710407e-01    2,822064608e-02    0,000000000e+00    0,000000000e+00    0,000000000e+00    0,000000000e+00
     1500000000   -1,736356467e-01   -4,990622103e-01    2,483595461e-01    9,193965793e-02    0,000000000e+00    0,000000000e+00    0,000000000e+00    0,000000000e+00
