! NanoVNA-App
! Date: 2025-09-25 15:33:47
! Start: 100MHz Stop: 1,5GHz Points: 101
! S-Parameter data: F S11 S21 S12 S22
# Hz S RI R 50
!     Frequency           S11_Real           S11_Imag           S21_Real           S21_Imag           S12_Real           S12_Imag           S22_Real           S22_Imag
      100000000   -2,886426821e-02   -4,175869282e-03    3,741502166e-01   -7,217836380e-01    0,000000000e+00    0,000000000e+00    0,000000000e+00    0,000000000e+00
      114000000   -1,650876552e-02    1,152667869e-02   -8,909039199e-02   -8,055036068e-01    0,000000000e+00    0,000000000e+00    0,000000000e+00    0,000000000e+00
      128000000    3,519263351e-03    1,054279041e-02   -5,146141052e-01   -6,206314564e-01    0,000000000e+00    0,000000000e+00    0,000000000e+00    0,000000000e+00
      142000000    1,454081479e-02   -2,956175013e-03   -7,670298815e-01   -2,365257293e-01    0,000000000e+00    0,000000000e+00    0,000000000e+00    0,000000000e+00
      156000000    1,438808534e-02   -1,488806214e-02   -7,643452287e-01    2,200902253e-01    0,000000000e+00    0,000000000e+00    0,000000000e+00    0,000000000e+00
      170000000    1,666017994e-02   -2,257842198e-02   -5,182048082e-01    6,049459577e-01    0,000000000e+00    0,000000000e+00    0,000000000e+00    0,000000000e+00
      184000000    2,098444477e-02   -3,707702458e-02   -1,014530361e-01    7,863012552e-01    0,000000000e+00    0,000000000e+00    0,000000000e+00    0,000000000e+00
      198000000    1,297882572e-02   -6,249410659e-02    3,435211480e-01    7,123799920e-01    0,000000000e+00    0,000000000e+00    0,000000000e+00    0,000000000e+00
      212000000   -1,866882108e-02   -8,128383756e-02    6,778810620e-01    4,099736214e-01    0,000000000e+00    0,000000000e+00    0,000000000e+00    0,000000000e+00
      226000000   -6,174312904e-02   -6,909295171e-02    7,958408594e-01   -3,051082417e-02    0,000000000e+00    0,000000000e+00    0,000000000e+00    0,000000000e+00
      240000000   -8,262573183e-02   -2,559106238e-02    6,459718347e-01   -4,670815766e-01    0,000000000e+00    0,000000000e+00    0,000000000e+00    0,000000000e+00
      254000000   -6,352111697e-02    1,725881360e-02    2,758669853e-01   -7,430409193e-01    0,000000000e+00    0,000000000e+00    0,000000000e+00    0,000000000e+00
      268000000   -2,380455844e-02    2,893254161e-02   -1,779275686e-01   -7,643896937e-01    0,000000000e+00    0,000000000e+00    0,000000000e+00    0,000000000e+00
      282000000    4,173866007e-03    1,198122930e-02   -5,617514849e-01   -5,357939601e-01    0,000000000e+00    0,000000000e+00    0,000000000e+00    0,000000000e+00
      296000000    9,635701776e-03   -7,750981487e-03   -7,598876357e-01   -1,395878643e-01    0,000000000e+00    0,000000000e+00    0,000000000e+00    0,000000000e+00
      310000000    1,117236447e-02   -1,613595337e-02   -7,113237381e-01    2,989612520e-01    0,000000000e+00    0,000000000e+00    0,000000000e+00    0,000000000e+00
      324000000    1,959603094e-02   -2,652943134e-02   -4,271592796e-01    6,370890141e-01    0,000000000e+00    0,000000000e+00    0,000000000e+00    0,000000000e+00
      338000000    2,542654984e-02   -5,193755776e-02   -7,210488897e-03    7,613486052e-01    0,000000000e+00    0,000000000e+00    0,000000000e+00    0,000000000e+00
      352000000    7,259772625e-03   -8,490701020e-02    4,065060318e-01    6,405919194e-01    0,000000000e+00    0,000000000e+00    0,000000000e+00    0,000000000e+00
      366000000   -3,481691703e-02   -9,563457221e-02    6,902089119e-01    3,109370470e-01    0,000000000e+00    0,000000000e+00    0,000000000e+00    0,000000000e+00
      380000000   -7,078943402e-02   -7,120679319e-02    7,474814057e-01   -1,261911839e-01    0,000000000e+00    0,000000000e+00    0,000000000e+00    0,000000000e+00
      394000000   -7,254987210e-02   -3,219846264e-02    5,462602377e-01   -5,207989812e-01    0,000000000e+00    0,000000000e+00    0,000000000e+00    0,000000000e+00
      408000000   -4,626110196e-02   -1,622668654e-02    1,621213555e-01   -7,315288186e-01    0,000000000e+00    0,000000000e+00    0,000000000e+00    0,000000000e+00
      422000000   -2,815355547e-02   -3,200409189e-02   -2,670364082e-01   -6,949406266e-01    0,000000000e+00    0,000000000e+00    0,000000000e+00    0,000000000e+00
      436000000   -4,058048874e-02   -5,156720057e-02   -6,035029888e-01   -4,318207204e-01    0,000000000e+00    0,000000000e+00    0,000000000e+00    0,000000000e+00
      450000000   -6,757339090e-02   -4,394393787e-02   -7,408085465e-01   -2,144940197e-02    0,000000000e+00    0,000000000e+00    0,000000000e+00    0,000000000e+00
      464000000   -7,338619977e-02   -1,175941247e-02   -6,184685826e-01    3,977479339e-01    0,000000000e+00    0,000000000e+00    0,000000000e+00    0,000000000e+00
      478000000   -4,808878154e-02    1,188520063e-02   -2,822137475e-01    6,674829721e-01    0,000000000e+00    0,000000000e+00    0,000000000e+00    0,000000000e+00
      492000000   -1,564724743e-02    5,843368825e-03    1,373478770e-01    7,019106150e-01    0,000000000e+00    0,000000000e+00    0,000000000e+00    0,000000000e+00
      506000000   -2,145728795e-03   -1,562947221e-02    4,990631342e-01    5,024816990e-01    0,000000000e+00    0,000000000e+00    0,000000000e+00    0,000000000e+00
      520000000   -5,086396355e-03   -3,147354722e-02    6,888967752e-01    1,419768035e-01    0,000000000e+00    0,000000000e+00    0,000000000e+00    0,000000000e+00
      534000000   -3,798929974e-03   -3,792629763e-02    6,434483528e-01   -2,623212039e-01    0,000000000e+00    0,000000000e+00    0,000000000e+00    0,000000000e+00
      548000000    6,235080305e-03   -5,412585288e-02    3,810686767e-01   -5,671687126e-01    0,000000000e+00    0,000000000e+00    0,000000000e+00    0,000000000e+00
      562000000    2,864057431e-03   -8,948198706e-02    2,749364125e-03   -6,721438766e-01    0,000000000e+00    0,000000000e+00    0,000000000e+00    0,000000000e+00
      576000000   -3,473986685e-02   -1,244728342e-01   -3,699998558e-01   -5,584251285e-01    0,000000000e+00    0,000000000e+00    0,000000000e+00    0,000000000e+00
      590000000   -9,640391171e-02   -1,225905940e-01   -6,210486293e-01   -2,623183429e-01    0,000000000e+00    0,000000000e+00    0,000000000e+00    0,000000000e+00
      604000000   -1,397677511e-01   -7,158534229e-02   -6,654754281e-01    1,380752623e-01    0,000000000e+00    0,000000000e+00    0,000000000e+00    0,000000000e+00
      618000000   -1,296952963e-01   -9,388705716e-03   -4,642540812e-01    4,946827888e-01    0,000000000e+00    0,000000000e+00    0,000000000e+00    0,000000000e+00
      632000000   -8,403588086e-02    1,737208292e-02   -1,004108787e-01    6,642249227e-01    0,000000000e+00    0,000000000e+00    0,000000000e+00    0,000000000e+00
      646000000   -5,048121512e-02    3,502044710e-04    2,875248194e-01    5,940129161e-01    0,000000000e+00    0,000000000e+00    0,000000000e+00    0,000000000e+00
      660000000   -5,368668959e-02   -2,174274437e-02    5,680519938e-01    3,223205805e-01    0,000000000e+00    0,000000000e+00    0,000000000e+00    0,000000000e+00
      674000000   -6,955906749e-02   -1,731587201e-02    6,434172988e-01   -6,560845673e-02    0,000000000e+00    0,000000000e+00    0,000000000e+00    0,000000000e+00
      688000000   -6,849337369e-02    8,298246190e-03    4,713033736e-01   -4,282985628e-01    0,000000000e+00    0,000000000e+00    0,000000000e+00    0,000000000e+00
      702000000   -3,786692023e-02    2,762868628e-02    1,137768179e-01   -6,134032607e-01    0,000000000e+00    0,000000000e+00    0,000000000e+00    0,000000000e+00
      716000000    3,022132907e-03    1,744285598e-02   -2,652283907e-01   -5,467988253e-01    0,000000000e+00    0,000000000e+00    0,000000000e+00    0,000000000e+00
      730000000    3,758831322e-02   -1,112959441e-02   -5,288367271e-01   -2,692788243e-01    0,000000000e+00    0,000000000e+00    0,000000000e+00    0,000000000e+00
      744000000    6,555179507e-02   -6,171043962e-02   -5,643664598e-01    1,063313782e-01    0,000000000e+00    0,000000000e+00    0,000000000e+00    0,000000000e+00
      758000000    6,612057239e-02   -1,517713517e-01   -3,637262583e-01    4,106394947e-01    0,000000000e+00    0,000000000e+00    0,000000000e+00    0,000000000e+00
      772000000   -1,357976533e-02   -2,619605958e-01   -3,377462551e-02    5,157107711e-01    0,000000000e+00    0,000000000e+00    0,000000000e+00    0,000000000e+00
      786000000   -2,056490034e-01   -3,024637699e-01    2,741185129e-01    3,948517144e-01    0,000000000e+00    0,000000000e+00    0,000000000e+00    0,000000000e+00
      800000000   -4,258526266e-01   -1,308425516e-01    4,175422490e-01    9,944541007e-02    0,000000000e+00    0,000000000e+00    0,000000000e+00    0,000000000e+00
      814000000   -3,899059594e-01    2,223179787e-01    2,821313441e-01   -1,734066159e-01    0,000000000e+00    0,000000000e+00    0,000000000e+00    0,000000000e+00
      828000000   -4,994828627e-02    3,684659302e-01    5,545710772e-02   -1,890193373e-01    0,000000000e+00    0,000000000e+00    0,000000000e+00    0,000000000e+00
      842000000    2,354111522e-01    1,857555956e-01   -1,685478911e-02   -7,059156895e-02    0,000000000e+00    0,000000000e+00    0,000000000e+00    0,000000000e+00
      856000000    2,807171643e-01   -1,242980063e-01    4,490603879e-02   -1,290795580e-02    0,000000000e+00    0,000000000e+00    0,000000000e+00    0,000000000e+00
      870000000    7,499089837e-02   -3,764439523e-01    1,138673574e-01   -9,077053517e-02    0,000000000e+00    0,000000000e+00    0,000000000e+00    0,000000000e+00
      884000000   -2,967624664e-01   -3,617693782e-01    2,805364691e-02   -2,452640682e-01    0,000000000e+00    0,000000000e+00    0,000000000e+00    0,000000000e+00
      898000000   -4,728057384e-01    9,056129493e-03   -2,222209573e-01   -2,280447036e-01    0,000000000e+00    0,000000000e+00    0,000000000e+00    0,000000000e+00
      912000000   -2,263835371e-01    2,936173975e-01   -3,540297449e-01    7,024239004e-02    0,000000000e+00    0,000000000e+00    0,000000000e+00    0,000000000e+00
      926000000    6,510630995e-02    2,636303008e-01   -2,178338319e-01    2,638051212e-01    0,000000000e+00    0,000000000e+00    0,000000000e+00    0,000000000e+00
      940000000    2,163079530e-01    7,877812535e-02   -3,518699855e-02    3,266718388e-01    0,000000000e+00    0,000000000e+00    0,000000000e+00    0,000000000e+00
      954000000    2,235856801e-01   -1,286259145e-01    1,316159368e-01    3,056281805e-01    0,000000000e+00    0,000000000e+00    0,000000000e+00    0,000000000e+00
      968000000    1,173879355e-01   -2,992958128e-01    2,705167830e-01    2,195820659e-01    0,000000000e+00    0,000000000e+00    0,000000000e+00    0,000000000e+00
      982000000   -8,252004534e-02   -3,900983632e-01    3,663633764e-01    6,452982873e-02    0,000000000e+00    0,000000000e+00    0,000000000e+00    0,000000000e+00
      996000000   -3,190668821e-01   -3,285257816e-01    3,687796891e-01   -1,461687237e-01    0,000000000e+00    0,000000000e+00    0,000000000e+00    0,000000000e+00
     1010000000   -4,669447839e-01   -1,118091792e-01    2,218019515e-01   -3,410964012e-01    0,000000000e+00    0,000000000e+00    0,000000000e+00    0,000000000e+00
     1024000000   -4,172029197e-01    1,474841535e-01   -3,221928328e-02   -3,927655816e-01    0,000000000e+00    0,000000000e+00    0,000000000e+00    0,000000000e+00
     1038000000   -2,174031287e-01    2,943588793e-01   -2,479863167e-01   -2,622592747e-01    0,000000000e+00    0,000000000e+00    0,000000000e+00    0,000000000e+00
     1052000000   -7,039209362e-03    2,749215961e-01   -3,170484900e-01   -4,580416903e-02    0,000000000e+00    0,000000000e+00    0,000000000e+00    0,000000000e+00
     1066000000    1,382698715e-01    1,623673290e-01   -2,592897713e-01    1,445138007e-01    0,000000000e+00    0,000000000e+00    0,000000000e+00    0,000000000e+00
     1080000000    1,933440119e-01   -3,234638600e-03   -1,176214889e-01    2,623713613e-01    0,000000000e+00    0,000000000e+00    0,000000000e+00    0,000000000e+00
     1094000000    1,550971419e-01   -1,790350676e-01    6,553106010e-02    3,069265485e-01    0,000000000e+00    0,000000000e+00    0,000000000e+00    0,000000000e+00
     1108000000    1,292476081e-03   -3,059765100e-01    2,779851854e-01    2,482024729e-01    0,000000000e+00    0,000000000e+00    0,000000000e+00    0,000000000e+00
     1122000000   -2,505346239e-01   -2,660529613e-01    4,707704186e-01    1,438752841e-02    0,000000000e+00    0,000000000e+00    0,000000000e+00    0,000000000e+00
     1136000000   -3,200209737e-01    2,805527486e-02    3,984135985e-01   -3,922078311e-01    0,000000000e+00    0,000000000e+00    0,000000000e+00    0,000000000e+00
     1150000000   -3,966347873e-02    1,473331004e-01    5,720183253e-03   -5,460842848e-01    0,000000000e+00    0,000000000e+00    0,000000000e+00    0,000000000e+00
     1164000000    1,192228273e-01   -6,088885665e-02   -2,798061967e-01   -3,785219193e-01    0,000000000e+00    0,000000000e+00    0,000000000e+00    0,000000000e+00
     1178000000    1,631201059e-02   -3,069833815e-01   -3,684842288e-01   -1,530593038e-01    0,000000000e+00    0,000000000e+00    0,000000000e+00    0,000000000e+00
     1192000000   -2,653350532e-01   -3,738023937e-01   -3,201075196e-01    5,482004583e-02    0,000000000e+00    0,000000000e+00    0,000000000e+00    0,000000000e+00
     1206000000   -5,155612826e-01   -1,602483392e-01   -1,640078276e-01    1,776220053e-01    0,000000000e+00    0,000000000e+00    0,000000000e+00    0,000000000e+00
     1220000000   -5,083101988e-01    1,765225232e-01    3,992318816e-04    1,616985053e-01    0,000000000e+00    0,000000000e+00    0,000000000e+00    0,000000000e+00
     1234000000   -2,822146118e-01    3,602763116e-01    7,225538790e-02    6,585709006e-02    0,000000000e+00    0,000000000e+00    0,000000000e+00    0,000000000e+00
     1248000000   -5,006840453e-02    3,641272783e-01    5,463690311e-02   -5,290625151e-03    0,000000000e+00    0,000000000e+00    0,000000000e+00    0,000000000e+00
     1262000000    1,240020171e-01    2,589961290e-01    2,178443037e-02   -1,930009574e-02    0,000000000e+00    0,000000000e+00    0,000000000e+00    0,000000000e+00
     1276000000    2,121536583e-01    9,633096308e-02   -2,780409763e-03    2,030271105e-03    0,000000000e+00    0,000000000e+00    0,000000000e+00    0,000000000e+00
     1290000000    2,246500552e-01   -7,354815304e-02    2,229991555e-02    5,218783766e-02    0,000000000e+00    0,000000000e+00    0,000000000e+00    0,000000000e+00
     1304000000    1,575138271e-01   -2,396578044e-01    1,308868527e-01    7,368688285e-02    0,000000000e+00    0,000000000e+00    0,000000000e+00    0,000000000e+00
     1318000000    3,516610712e-02   -3,356967270e-01    1,307890266e-01   -1,716885120e-01    0,000000000e+00    0,000000000e+00    0,000000000e+00    0,000000000e+00
     1332000000   -1,294030100e-01   -4,391691983e-01   -4,782504216e-02   -4,426923767e-02    0,000000000e+00    0,000000000e+00    0,000000000e+00    0,000000000e+00
     1346000000   -3,963208795e-01   -4,066107571e-01    2,692141943e-02    7,038874924e-02    0,000000000e+00    0,000000000e+00    0,000000000e+00    0,000000000e+00
     1360000000   -6,053350568e-01   -1,987113059e-01    1,390341371e-01    6,867833436e-02    0,000000000e+00    0,000000000e+00    0,000000000e+00    0,000000000e+00
     1374000000   -6,386630535e-01    1,236485913e-01    1,990538090e-01    1,351637300e-02    0,000000000e+00    0,000000000e+00    0,000000000e+00    0,000000000e+00
     1388000000   -4,621724486e-01    3,704644740e-01    2,145837694e-01   -6,585629284e-02    0,000000000e+00    0,000000000e+00    0,000000000e+00    0,000000000e+00
     1402000000   -2,351917177e-01    4,506432116e-01    1,914236993e-01   -1,110914573e-01    0,000000000e+00    0,000000000e+00    0,000000000e+00    0,000000000e+00
     1416000000   -2,474769019e-02    4,083366990e-01    1,841220409e-01   -1,093141884e-01    0,000000000e+00    0,000000000e+00    0,000000000e+00    0,000000000e+00
     1430000000    1,053396910e-01    3,054137230e-01    1,531261057e-01   -9,617798775e-02    0,000000000e+00    0,000000000e+00    0,000000000e+00    0,000000000e+00
     1444000000    2,101088315e-01    1,495652944e-01    1,614029855e-01   -1,059283912e-01    0,000000000e+00    0,000000000e+00    0,000000000e+00    0,000000000e+00
     1458000000    2,385774404e-01   -2,117379010e-02    1,388945878e-01   -7,185756415e-02    0,000000000e+00    0,000000000e+00    0,000000000e+00    0,000000000e+00
     1472000000    1,882219464e-01   -2,095602602e-01    1,456607431e-01   -3,848122805e-02    0,000000000e+00    0,000000000e+00    0,000000000e+00    0,000000000e+00
     1486000000    6,009309739e-02   -3,695976436e-01    1,638683826e-01    3,714075312e-02    0,000000000e+00    0,000000000e+00    0,000000000e+00    0,000000000e+00
     1500000000   -1,748856902e-01   -4,909988344e-01    2,340053618e-01    8,465172350e-02    0,000000000e+00    0,000000000e+00    0,000000000e+00    0,000000000e+00
