! NanoVNA-App
! Date: 2025-09-25 15:37:45
! Start: 100MHz Stop: 1,5GHz Points: 101
! S-Parameter data: F S11 S21 S12 S22
# Hz S RI R 50
!     Frequency           S11_Real           S11_Imag           S21_Real           S21_Imag           S12_Real           S12_Imag           S22_Real           S22_Imag
      100000000   -2,882708795e-02   -4,161418881e-03    3,740777373e-01   -7,217530608e-01    0,000000000e+00    0,000000000e+00    0,000000000e+00    0,000000000e+00
      114000000   -1,648171619e-02    1,153547503e-02   -8,907589316e-02   -8,055093288e-01    0,000000000e+00    0,000000000e+00    0,000000000e+00    0,000000000e+00
      128000000    3,572853282e-03    1,058884896e-02   -5,147171021e-01   -6,204538345e-01    0,000000000e+00    0,000000000e+00    0,000000000e+00    0,000000000e+00
      142000000    1,460607722e-02   -2,957530087e-03   -7,671865821e-01   -2,365540564e-01    0,000000000e+00    0,000000000e+00    0,000000000e+00    0,000000000e+00
      156000000    1,570634544e-02   -1,450130157e-02   -7,689409852e-01    2,236164510e-01    0,000000000e+00    0,000000000e+00    0,000000000e+00    0,000000000e+00
      170000000    1,669161394e-02   -2,259400859e-02   -5,180176497e-01    6,046770811e-01    0,000000000e+00    0,000000000e+00    0,000000000e+00    0,000000000e+00
      184000000    2,108632214e-02   -3,710714355e-02   -1,013625637e-01    7,860940099e-01    0,000000000e+00    0,000000000e+00    0,000000000e+00    0,000000000e+00
      198000000    1,311416924e-02   -6,245194003e-02    3,433414996e-01    7,118574977e-01    0,000000000e+00    0,000000000e+00    0,000000000e+00    0,000000000e+00
      212000000   -1,857569814e-02   -8,132665604e-02    6,780574322e-01    4,099840522e-01    0,000000000e+00    0,000000000e+00    0,000000000e+00    0,000000000e+00
      226000000   -6,165032089e-02   -6,916943192e-02    7,957474589e-01   -3,058809042e-02    0,000000000e+00    0,000000000e+00    0,000000000e+00    0,000000000e+00
      240000000   -8,249703050e-02   -2,565362863e-02    6,460334063e-01   -4,670499563e-01    0,000000000e+00    0,000000000e+00    0,000000000e+00    0,000000000e+00
      254000000   -6,343113631e-02    1,721988618e-02    2,760593891e-01   -7,433506250e-01    0,000000000e+00    0,000000000e+00    0,000000000e+00    0,000000000e+00
      268000000   -2,368192375e-02    2,888824418e-02   -1,783351153e-01   -7,640746236e-01    0,000000000e+00    0,000000000e+00    0,000000000e+00    0,000000000e+00
      282000000    4,270992707e-03    1,194118802e-02   -5,619449615e-01   -5,355360508e-01    0,000000000e+00    0,000000000e+00    0,000000000e+00    0,000000000e+00
      296000000    9,810711257e-03   -7,823733613e-03   -7,599707842e-01   -1,395868957e-01    0,000000000e+00    0,000000000e+00    0,000000000e+00    0,000000000e+00
      310000000    1,128198765e-02   -1,625164412e-02   -7,119128704e-01    2,980627418e-01    0,000000000e+00    0,000000000e+00    0,000000000e+00    0,000000000e+00
      324000000    1,985112205e-02   -2,671031468e-02   -4,274205863e-01    6,374545693e-01    0,000000000e+00    0,000000000e+00    0,000000000e+00    0,000000000e+00
      338000000    2,545734681e-02   -5,181946605e-02   -9,268348105e-03    7,601221204e-01    0,000000000e+00    0,000000000e+00    0,000000000e+00    0,000000000e+00
      352000000    7,555524819e-03   -8,466442674e-02    4,070175886e-01    6,406428814e-01    0,000000000e+00    0,000000000e+00    0,000000000e+00    0,000000000e+00
      366000000   -3,453283012e-02   -9,541150928e-02    6,904489994e-01    3,114105165e-01    0,000000000e+00    0,000000000e+00    0,000000000e+00    0,000000000e+00
      380000000   -7,045552135e-02   -7,102426887e-02    7,470317483e-01   -1,260732114e-01    0,000000000e+00    0,000000000e+00    0,000000000e+00    0,000000000e+00
      394000000   -7,251814753e-02   -3,241219744e-02    5,457578897e-01   -5,217568278e-01    0,000000000e+00    0,000000000e+00    0,000000000e+00    0,000000000e+00
      408000000   -4,663920030e-02   -1,599611714e-02    1,608999521e-01   -7,329579592e-01    0,000000000e+00    0,000000000e+00    0,000000000e+00    0,000000000e+00
      422000000   -2,838741615e-02   -3,214412183e-02   -2,679582536e-01   -6,958088875e-01    0,000000000e+00    0,000000000e+00    0,000000000e+00    0,000000000e+00
      436000000   -4,050990939e-02   -5,175575987e-02   -6,045752764e-01   -4,319950640e-01    0,000000000e+00    0,000000000e+00    0,000000000e+00    0,000000000e+00
      450000000   -6,719484925e-02   -4,401817918e-02   -7,400631309e-01   -2,166571282e-02    0,000000000e+00    0,000000000e+00    0,000000000e+00    0,000000000e+00
      464000000   -7,353084534e-02   -1,175318193e-02   -6,187133789e-01    3,971456587e-01    0,000000000e+00    0,000000000e+00    0,000000000e+00    0,000000000e+00
      478000000   -4,786349460e-02    1,150082611e-02   -2,824233770e-01    6,673310399e-01    0,000000000e+00    0,000000000e+00    0,000000000e+00    0,000000000e+00
      492000000   -1,557989232e-02    6,208004896e-03    1,369693726e-01    7,020495534e-01    0,000000000e+00    0,000000000e+00    0,000000000e+00    0,000000000e+00
      506000000   -2,488601953e-03   -1,559230406e-02    4,987134635e-01    5,027167201e-01    0,000000000e+00    0,000000000e+00    0,000000000e+00    0,000000000e+00
      520000000   -5,064788740e-03   -3,199335188e-02    6,892689466e-01    1,413490325e-01    0,000000000e+00    0,000000000e+00    0,000000000e+00    0,000000000e+00
      534000000   -4,112157039e-03   -3,839620948e-02    6,437188387e-01   -2,626458108e-01    0,000000000e+00    0,000000000e+00    0,000000000e+00    0,000000000e+00
      548000000    5,991344340e-03   -5,368788913e-02    3,817566633e-01   -5,668110847e-01    0,000000000e+00    0,000000000e+00    0,000000000e+00    0,000000000e+00
      562000000    3,393019084e-03   -8,960570395e-02    2,424057573e-03   -6,727790236e-01    0,000000000e+00    0,000000000e+00    0,000000000e+00    0,000000000e+00
      576000000   -3,397279233e-02   -1,243897006e-01   -3,697976172e-01   -5,567643642e-01    0,000000000e+00    0,000000000e+00    0,000000000e+00    0,000000000e+00
      590000000   -9,615584463e-02   -1,226286888e-01   -6,205230951e-01   -2,619355023e-01    0,000000000e+00    0,000000000e+00    0,000000000e+00    0,000000000e+00
      604000000   -1,395344883e-01   -7,156978548e-02   -6,655907035e-01    1,380391866e-01    0,000000000e+00    0,000000000e+00    0,000000000e+00    0,000000000e+00
      618000000   -1,295847744e-01   -9,205463342e-03   -4,642973840e-01    4,938630164e-01    0,000000000e+00    0,000000000e+00    0,000000000e+00    0,000000000e+00
      632000000   -8,436414599e-02    1,650990546e-02   -9,906043857e-02    6,643150449e-01    0,000000000e+00    0,000000000e+00    0,000000000e+00    0,000000000e+00
      646000000   -5,094878748e-02   -2,348573471e-04    2,869046032e-01    5,963233113e-01    0,000000000e+00    0,000000000e+00    0,000000000e+00    0,000000000e+00
      660000000   -5,251612142e-02   -2,168489061e-02    5,673511028e-01    3,230699301e-01    0,000000000e+00    0,000000000e+00    0,000000000e+00    0,000000000e+00
      674000000   -6,976866722e-02   -1,727909222e-02    6,433140039e-01   -6,540922076e-02    0,000000000e+00    0,000000000e+00    0,000000000e+00    0,000000000e+00
      688000000   -6,795091927e-02    8,431242779e-03    4,711899757e-01   -4,281701148e-01    0,000000000e+00    0,000000000e+00    0,000000000e+00    0,000000000e+00
      702000000   -3,841758892e-02    2,641368471e-02    1,222769022e-01   -6,072716117e-01    0,000000000e+00    0,000000000e+00    0,000000000e+00    0,000000000e+00
      716000000    2,978107892e-03    1,820698008e-02   -2,648096681e-01   -5,470002294e-01    0,000000000e+00    0,000000000e+00    0,000000000e+00    0,000000000e+00
      730000000    3,671946377e-02   -1,165950298e-02   -5,283825994e-01   -2,692092061e-01    0,000000000e+00    0,000000000e+00    0,000000000e+00    0,000000000e+00
      744000000    6,560669094e-02   -6,283219904e-02   -5,645318031e-01    1,065179557e-01    0,000000000e+00    0,000000000e+00    0,000000000e+00    0,000000000e+00
      758000000    6,719226390e-02   -1,522000432e-01   -3,627583683e-01    4,101214409e-01    0,000000000e+00    0,000000000e+00    0,000000000e+00    0,000000000e+00
      772000000   -1,260760706e-02   -2,630253434e-01   -3,433813900e-02    5,155680180e-01    0,000000000e+00    0,000000000e+00    0,000000000e+00    0,000000000e+00
      786000000   -2,058635801e-01   -3,035756946e-01    2,735830545e-01    3,958024681e-01    0,000000000e+00    0,000000000e+00    0,000000000e+00    0,000000000e+00
      800000000   -4,246351719e-01   -1,301588416e-01    4,174546003e-01    9,886724502e-02    0,000000000e+00    0,000000000e+00    0,000000000e+00    0,000000000e+00
      814000000   -3,902078867e-01    2,206618786e-01    2,826710939e-01   -1,730350107e-01    0,000000000e+00    0,000000000e+00    0,000000000e+00    0,000000000e+00
      828000000   -5,012570322e-02    3,682678342e-01    5,544695631e-02   -1,894734651e-01    0,000000000e+00    0,000000000e+00    0,000000000e+00    0,000000000e+00
      842000000    2,353929132e-01    1,856222153e-01   -1,739454828e-02   -7,131183892e-02    0,000000000e+00    0,000000000e+00    0,000000000e+00    0,000000000e+00
      856000000    2,805135846e-01   -1,242852211e-01    4,545034468e-02   -1,266216766e-02    0,000000000e+00    0,000000000e+00    0,000000000e+00    0,000000000e+00
      870000000    7,573366165e-02   -3,766195774e-01    1,135148332e-01   -9,078193456e-02    0,000000000e+00    0,000000000e+00    0,000000000e+00    0,000000000e+00
      884000000   -2,959141731e-01   -3,619810045e-01    2,850556746e-02   -2,449540049e-01    0,000000000e+00    0,000000000e+00    0,000000000e+00    0,000000000e+00
      898000000   -4,725047052e-01    8,091616444e-03   -2,224443853e-01   -2,285374105e-01    0,000000000e+00    0,000000000e+00    0,000000000e+00    0,000000000e+00
      912000000   -2,271244824e-01    2,925098538e-01   -3,424379230e-01    5,897415429e-02    0,000000000e+00    0,000000000e+00    0,000000000e+00    0,000000000e+00
      926000000    6,819067895e-02    2,629366517e-01   -2,169382423e-01    2,645096779e-01    0,000000000e+00    0,000000000e+00    0,000000000e+00    0,000000000e+00
      940000000    2,150461972e-01    7,816764712e-02   -3,503768519e-02    3,292795122e-01    0,000000000e+00    0,000000000e+00    0,000000000e+00    0,000000000e+00
      954000000    2,234992683e-01   -1,258212179e-01    1,315758079e-01    3,061583936e-01    0,000000000e+00    0,000000000e+00    0,000000000e+00    0,000000000e+00
      968000000    1,143306568e-01   -2,983840108e-01    2,715976834e-01    2,195182890e-01    0,000000000e+00    0,000000000e+00    0,000000000e+00    0,000000000e+00
      982000000   -8,396860212e-02   -3,890462518e-01    3,668635190e-01    6,487558782e-02    0,000000000e+00    0,000000000e+00    0,000000000e+00    0,000000000e+00
      996000000   -3,185635507e-01   -3,320518732e-01    3,682760596e-01   -1,457082629e-01    0,000000000e+00    0,000000000e+00    0,000000000e+00    0,000000000e+00
     1010000000   -4,631102681e-01   -1,059855521e-01    2,213218063e-01   -3,424536586e-01    0,000000000e+00    0,000000000e+00    0,000000000e+00    0,000000000e+00
     1024000000   -4,101635814e-01    1,479650289e-01   -3,473263606e-02   -3,916427195e-01    0,000000000e+00    0,000000000e+00    0,000000000e+00    0,000000000e+00
     1038000000   -2,209376097e-01    2,901955247e-01   -2,471840382e-01   -2,594409883e-01    0,000000000e+00    0,000000000e+00    0,000000000e+00    0,000000000e+00
     1052000000   -4,850117955e-03    2,801760137e-01   -3,161377907e-01   -4,626835883e-02    0,000000000e+00    0,000000000e+00    0,000000000e+00    0,000000000e+00
     1066000000    1,353708059e-01    1,659735590e-01   -2,614332438e-01    1,432227343e-01    0,000000000e+00    0,000000000e+00    0,000000000e+00    0,000000000e+00
     1080000000    1,956884861e-01    8,361494401e-04   -1,198316887e-01    2,627686560e-01    0,000000000e+00    0,000000000e+00    0,000000000e+00    0,000000000e+00
     1094000000    1,533662528e-01   -1,717583388e-01    6,435088068e-02    3,011051118e-01    0,000000000e+00    0,000000000e+00    0,000000000e+00    0,000000000e+00
     1108000000    1,491526607e-03   -3,059964776e-01    2,750387788e-01    2,473772317e-01    0,000000000e+00    0,000000000e+00    0,000000000e+00    0,000000000e+00
     1122000000   -2,458518445e-01   -2,627591491e-01    4,710195363e-01    1,364693884e-02    0,000000000e+00    0,000000000e+00    0,000000000e+00    0,000000000e+00
     1136000000   -3,173582852e-01    3,557765484e-02    3,991193771e-01   -3,938976824e-01    0,000000000e+00    0,000000000e+00    0,000000000e+00    0,000000000e+00
     1150000000   -4,201902077e-02    1,539539099e-01    1,156115788e-03   -5,437892675e-01    0,000000000e+00    0,000000000e+00    0,000000000e+00    0,000000000e+00
     1164000000    1,265749782e-01   -6,256362051e-02   -2,747403979e-01   -3,795063198e-01    0,000000000e+00    0,000000000e+00    0,000000000e+00    0,000000000e+00
     1178000000    1,752666570e-02   -3,036867678e-01   -3,699325919e-01   -1,538110226e-01    0,000000000e+00    0,000000000e+00    0,000000000e+00    0,000000000e+00
     1192000000   -2,683743536e-01   -3,692858219e-01   -3,251344562e-01    5,919420347e-02    0,000000000e+00    0,000000000e+00    0,000000000e+00    0,000000000e+00
     1206000000   -5,177415013e-01   -1,569827348e-01   -1,582695842e-01    1,817836165e-01    0,000000000e+00    0,000000000e+00    0,000000000e+00    0,000000000e+00
     1220000000   -5,056242943e-01    1,780443639e-01    3,889551386e-03    1,619190574e-01    0,000000000e+00    0,000000000e+00    0,000000000e+00    0,000000000e+00
     1234000000   -2,889441848e-01    3,683655560e-01    6,862353534e-02    6,202439964e-02    0,000000000e+00    0,000000000e+00    0,000000000e+00    0,000000000e+00
     1248000000   -4,914716259e-02    3,643260896e-01    5,483609438e-02   -5,827986170e-03    0,000000000e+00    0,000000000e+00    0,000000000e+00    0,000000000e+00
     1262000000    1,216421127e-01    2,555777133e-01    1,789889298e-02   -1,834680140e-02    0,000000000e+00    0,000000000e+00    0,000000000e+00    0,000000000e+00
     1276000000    2,092464268e-01    9,499666095e-02   -1,530982438e-03    1,656332402e-03    0,000000000e+00    0,000000000e+00    0,000000000e+00    0,000000000e+00
     1290000000    2,270209044e-01   -7,259748876e-02    2,409032173e-02    5,390493199e-02    0,000000000e+00    0,000000000e+00    0,000000000e+00    0,000000000e+00
     1304000000    1,541808993e-01   -2,425167710e-01    1,299228072e-01    6,686373055e-02    0,000000000e+00    0,000000000e+00    0,000000000e+00    0,000000000e+00
     1318000000    3,782083467e-02   -3,367080390e-01    1,357735395e-01   -1,669694334e-01    0,000000000e+00    0,000000000e+00    0,000000000e+00    0,000000000e+00
     1332000000   -1,309356987e-01   -4,410699010e-01   -5,113850906e-02   -4,765460640e-02    0,000000000e+00    0,000000000e+00    0,000000000e+00    0,000000000e+00
     1346000000   -3,963988721e-01   -4,031359553e-01    2,090530656e-02    7,605787367e-02    0,000000000e+00    0,000000000e+00    0,000000000e+00    0,000000000e+00
     1360000000   -6,099295020e-01   -1,873170286e-01    1,262755692e-01    7,756808400e-02    0,000000000e+00    0,000000000e+00    0,000000000e+00    0,000000000e+00
     1374000000   -6,339596510e-01    1,271277070e-01    2,090791315e-01    1,420573145e-02    0,000000000e+00    0,000000000e+00    0,000000000e+00    0,000000000e+00
     1388000000   -4,675478339e-01    3,648816943e-01    2,140874565e-01   -6,139113009e-02    0,000000000e+00    0,000000000e+00    0,000000000e+00    0,000000000e+00
     1402000000   -2,345984727e-01    4,545114338e-01    1,827885807e-01   -9,698086232e-02    0,000000000e+00    0,000000000e+00    0,000000000e+00    0,000000000e+00
     1416000000   -2,604436874e-02    4,102974534e-01    1,724856347e-01   -9,748330712e-02    0,000000000e+00    0,000000000e+00    0,000000000e+00    0,000000000e+00
     1430000000    1,156095266e-01    2,962948084e-01    1,380329281e-01   -1,143515110e-01    0,000000000e+00    0,000000000e+00    0,000000000e+00    0,000000000e+00
     1444000000    2,048263699e-01    1,528999656e-01    1,526006758e-01   -9,417655319e-02    0,000000000e+00    0,000000000e+00    0,000000000e+00    0,000000000e+00
     1458000000    2,329921573e-01   -1,761682704e-02    1,416090727e-01   -6,922508031e-02    0,000000000e+00    0,000000000e+00    0,000000000e+00    0,000000000e+00
     1472000000    1,927556843e-01   -2,016667277e-01    1,408122033e-01   -2,774492651e-02    0,000000000e+00    0,000000000e+00    0,000000000e+00    0,000000000e+00
     1486000000    6,413862109e-02   -3,733948767e-01    1,851954162e-01    4,307392240e-02    0,000000000e+00    0,000000000e+00    0,000000000e+00    0,000000000e+00
     1500000000   -1,778021008e-01   -4,940883517e-01    2,442584485e-01    8,754864335e-02    0,000000000e+00    0,000000000e+00    0,000000000e+00    0,000000000e+00
