! NanoVNA-App
! Date: 2025-09-25 15:35:54
! Start: 100MHz Stop: 1,5GHz Points: 101
! S-Parameter data: F S11 S21 S12 S22
# Hz S RI R 50
!     Frequency           S11_Real           S11_Imag           S21_Real           S21_Imag           S12_Real           S12_Imag           S22_Real           S22_Imag
      100000000   -2,883355319e-02   -4,166338127e-03    3,740848899e-01   -7,217164636e-01    0,000000000e+00    0,000000000e+00    0,000000000e+00    0,000000000e+00
      114000000   -1,648490131e-02    1,151403412e-02   -8,895103633e-02   -8,053686619e-01    0,000000000e+00    0,000000000e+00    0,000000000e+00    0,000000000e+00
      128000000    3,501889762e-03    1,054109912e-02   -5,146878362e-01   -6,205013394e-01    0,000000000e+00    0,000000000e+00    0,000000000e+00    0,000000000e+00
      142000000    1,457318757e-02   -2,952258801e-03   -7,671804428e-01   -2,365811467e-01    0,000000000e+00    0,000000000e+00    0,000000000e+00    0,000000000e+00
      156000000    1,441480964e-02   -1,491289400e-02   -7,645138502e-01    2,201980352e-01    0,000000000e+00    0,000000000e+00    0,000000000e+00    0,000000000e+00
      170000000    1,670183800e-02   -2,257156372e-02   -5,180912614e-01    6,046777368e-01    0,000000000e+00    0,000000000e+00    0,000000000e+00    0,000000000e+00
      184000000    2,105466090e-02   -3,705764934e-02   -1,012439132e-01    7,863072753e-01    0,000000000e+00    0,000000000e+00    0,000000000e+00    0,000000000e+00
      198000000    1,301231142e-02   -6,244565919e-02    3,433714509e-01    7,125904560e-01    0,000000000e+00    0,000000000e+00    0,000000000e+00    0,000000000e+00
      212000000   -1,862368174e-02   -8,128873259e-02    6,781622171e-01    4,099305868e-01    0,000000000e+00    0,000000000e+00    0,000000000e+00    0,000000000e+00
      226000000   -6,168486178e-02   -6,921108812e-02    7,958836555e-01   -3,051221557e-02    0,000000000e+00    0,000000000e+00    0,000000000e+00    0,000000000e+00
      240000000   -8,259059489e-02   -2,564226091e-02    6,460551620e-01   -4,668172300e-01    0,000000000e+00    0,000000000e+00    0,000000000e+00    0,000000000e+00
      254000000   -6,347143650e-02    1,729793847e-02    2,762521207e-01   -7,434109449e-01    0,000000000e+00    0,000000000e+00    0,000000000e+00    0,000000000e+00
      268000000   -2,381489240e-02    2,885691822e-02   -1,784034073e-01   -7,640805840e-01    0,000000000e+00    0,000000000e+00    0,000000000e+00    0,000000000e+00
      282000000    4,182219971e-03    1,196321566e-02   -5,618507266e-01   -5,356268883e-01    0,000000000e+00    0,000000000e+00    0,000000000e+00    0,000000000e+00
      296000000    9,872659110e-03   -7,851397619e-03   -7,599444389e-01   -1,396789849e-01    0,000000000e+00    0,000000000e+00    0,000000000e+00    0,000000000e+00
      310000000    1,132881269e-02   -1,620917581e-02   -7,128316760e-01    2,994862795e-01    0,000000000e+00    0,000000000e+00    0,000000000e+00    0,000000000e+00
      324000000    1,954200305e-02   -2,649180032e-02   -4,276075959e-01    6,383353472e-01    0,000000000e+00    0,000000000e+00    0,000000000e+00    0,000000000e+00
      338000000    2,565021627e-02   -5,222265795e-02   -1,130814478e-02    7,605722547e-01    0,000000000e+00    0,000000000e+00    0,000000000e+00    0,000000000e+00
      352000000    7,714806125e-03   -8,463113755e-02    4,068308473e-01    6,391197443e-01    0,000000000e+00    0,000000000e+00    0,000000000e+00    0,000000000e+00
      366000000   -3,476599231e-02   -9,584368020e-02    6,909193397e-01    3,105756938e-01    0,000000000e+00    0,000000000e+00    0,000000000e+00    0,000000000e+00
      380000000   -7,082034647e-02   -7,112045586e-02    7,472849488e-01   -1,263073832e-01    0,000000000e+00    0,000000000e+00    0,000000000e+00    0,000000000e+00
      394000000   -7,284763455e-02   -3,238045424e-02    5,451542139e-01   -5,218945146e-01    0,000000000e+00    0,000000000e+00    0,000000000e+00    0,000000000e+00
      408000000   -4,641092196e-02   -1,626169495e-02    1,618121117e-01   -7,332651615e-01    0,000000000e+00    0,000000000e+00    0,000000000e+00    0,000000000e+00
      422000000   -2,846793644e-02   -3,201409429e-02   -2,677511275e-01   -6,958534718e-01    0,000000000e+00    0,000000000e+00    0,000000000e+00    0,000000000e+00
      436000000   -4,071164131e-02   -5,199990049e-02   -6,046059132e-01   -4,321079850e-01    0,000000000e+00    0,000000000e+00    0,000000000e+00    0,000000000e+00
      450000000   -6,733108312e-02   -4,412532970e-02   -7,407340407e-01   -2,119763009e-02    0,000000000e+00    0,000000000e+00    0,000000000e+00    0,000000000e+00
      464000000   -7,365865260e-02   -1,188072842e-02   -6,185471416e-01    3,978382945e-01    0,000000000e+00    0,000000000e+00    0,000000000e+00    0,000000000e+00
      478000000   -4,783928394e-02    1,178699266e-02   -2,828615010e-01    6,673201919e-01    0,000000000e+00    0,000000000e+00    0,000000000e+00    0,000000000e+00
      492000000   -1,558784675e-02    5,966620054e-03    1,373176575e-01    7,014137506e-01    0,000000000e+00    0,000000000e+00    0,000000000e+00    0,000000000e+00
      506000000   -2,893130528e-03   -1,566260122e-02    4,984243810e-01    5,021305680e-01    0,000000000e+00    0,000000000e+00    0,000000000e+00    0,000000000e+00
      520000000   -4,830054007e-03   -3,142482787e-02    6,866810322e-01    1,432906687e-01    0,000000000e+00    0,000000000e+00    0,000000000e+00    0,000000000e+00
      534000000   -3,867271589e-03   -3,838066012e-02    6,437134743e-01   -2,629366517e-01    0,000000000e+00    0,000000000e+00    0,000000000e+00    0,000000000e+00
      548000000    5,742717069e-03   -5,385211483e-02    3,812924623e-01   -5,676351786e-01    0,000000000e+00    0,000000000e+00    0,000000000e+00    0,000000000e+00
      562000000    2,972219139e-03   -8,920347691e-02    1,658404595e-03   -6,724778414e-01    0,000000000e+00    0,000000000e+00    0,000000000e+00    0,000000000e+00
      576000000   -3,390300274e-02   -1,243230775e-01   -3,695785999e-01   -5,576686263e-01    0,000000000e+00    0,000000000e+00    0,000000000e+00    0,000000000e+00
      590000000   -9,638967365e-02   -1,225976273e-01   -6,227272749e-01   -2,624738514e-01    0,000000000e+00    0,000000000e+00    0,000000000e+00    0,000000000e+00
      604000000   -1,396518946e-01   -7,140877098e-02   -6,651504636e-01    1,379857957e-01    0,000000000e+00    0,000000000e+00    0,000000000e+00    0,000000000e+00
      618000000   -1,299481988e-01   -9,040937759e-03   -4,643172920e-01    4,947044849e-01    0,000000000e+00    0,000000000e+00    0,000000000e+00    0,000000000e+00
      632000000   -8,381695300e-02    1,716684923e-02   -9,912173450e-02    6,637145877e-01    0,000000000e+00    0,000000000e+00    0,000000000e+00    0,000000000e+00
      646000000   -5,083770677e-02    1,880649215e-04    2,872189879e-01    5,947404504e-01    0,000000000e+00    0,000000000e+00    0,000000000e+00    0,000000000e+00
      660000000   -5,349662527e-02   -2,200945839e-02    5,677794814e-01    3,225926161e-01    0,000000000e+00    0,000000000e+00    0,000000000e+00    0,000000000e+00
      674000000   -7,033173740e-02   -1,838176697e-02    6,430549026e-01   -6,565026194e-02    0,000000000e+00    0,000000000e+00    0,000000000e+00    0,000000000e+00
      688000000   -6,797196716e-02    8,565901779e-03    4,717463851e-01   -4,275799990e-01    0,000000000e+00    0,000000000e+00    0,000000000e+00    0,000000000e+00
      702000000   -3,771006316e-02    2,593046427e-02    1,211877391e-01   -6,087108254e-01    0,000000000e+00    0,000000000e+00    0,000000000e+00    0,000000000e+00
      716000000    2,051361836e-03    1,853119023e-02   -2,641009986e-01   -5,462089181e-01    0,000000000e+00    0,000000000e+00    0,000000000e+00    0,000000000e+00
      730000000    3,631409258e-02   -1,055541355e-02   -5,286368728e-01   -2,692179084e-01    0,000000000e+00    0,000000000e+00    0,000000000e+00    0,000000000e+00
      744000000    6,478297710e-02   -6,272475421e-02   -5,640577674e-01    1,062755659e-01    0,000000000e+00    0,000000000e+00    0,000000000e+00    0,000000000e+00
      758000000    6,625144184e-02   -1,514559686e-01   -3,633795083e-01    4,100480974e-01    0,000000000e+00    0,000000000e+00    0,000000000e+00    0,000000000e+00
      772000000   -1,302695554e-02   -2,622490525e-01   -3,422452509e-02    5,150927901e-01    0,000000000e+00    0,000000000e+00    0,000000000e+00    0,000000000e+00
      786000000   -2,066194564e-01   -3,026898503e-01    2,734141052e-01    3,946674466e-01    0,000000000e+00    0,000000000e+00    0,000000000e+00    0,000000000e+00
      800000000   -4,258490503e-01   -1,310250461e-01    4,175019860e-01    9,963524342e-02    0,000000000e+00    0,000000000e+00    0,000000000e+00    0,000000000e+00
      814000000   -3,886541426e-01    2,207409739e-01    2,820752859e-01   -1,733126789e-01    0,000000000e+00    0,000000000e+00    0,000000000e+00    0,000000000e+00
      828000000   -4,880275950e-02    3,684263825e-01    5,493159592e-02   -1,888033003e-01    0,000000000e+00    0,000000000e+00    0,000000000e+00    0,000000000e+00
      842000000    2,349964678e-01    1,852933913e-01   -1,707077399e-02   -7,122917473e-02    0,000000000e+00    0,000000000e+00    0,000000000e+00    0,000000000e+00
      856000000    2,805714309e-01   -1,242971867e-01    4,543311149e-02   -1,329396013e-02    0,000000000e+00    0,000000000e+00    0,000000000e+00    0,000000000e+00
      870000000    7,529508322e-02   -3,760194182e-01    1,132889614e-01   -9,102384001e-02    0,000000000e+00    0,000000000e+00    0,000000000e+00    0,000000000e+00
      884000000   -2,959654033e-01   -3,620734811e-01    2,816173248e-02   -2,456869036e-01    0,000000000e+00    0,000000000e+00    0,000000000e+00    0,000000000e+00
      898000000   -4,726611972e-01    8,175092749e-03   -2,220833749e-01   -2,283037901e-01    0,000000000e+00    0,000000000e+00    0,000000000e+00    0,000000000e+00
      912000000   -2,260067761e-01    2,946591377e-01   -3,531588018e-01    7,445044070e-02    0,000000000e+00    0,000000000e+00    0,000000000e+00    0,000000000e+00
      926000000    6,790229678e-02    2,647607625e-01   -2,142021209e-01    2,649963498e-01    0,000000000e+00    0,000000000e+00    0,000000000e+00    0,000000000e+00
      940000000    2,154806852e-01    8,200947195e-02   -3,458251432e-02    3,289745152e-01    0,000000000e+00    0,000000000e+00    0,000000000e+00    0,000000000e+00
      954000000    2,210665345e-01   -1,250166744e-01    1,313941181e-01    3,081228733e-01    0,000000000e+00    0,000000000e+00    0,000000000e+00    0,000000000e+00
      968000000    1,126678064e-01   -2,994308174e-01    2,711006105e-01    2,193608582e-01    0,000000000e+00    0,000000000e+00    0,000000000e+00    0,000000000e+00
      982000000   -7,977813482e-02   -3,854677379e-01    3,665172160e-01    6,545487791e-02    0,000000000e+00    0,000000000e+00    0,000000000e+00    0,000000000e+00
      996000000   -3,192711473e-01   -3,273041844e-01    3,681069613e-01   -1,454857290e-01    0,000000000e+00    0,000000000e+00    0,000000000e+00    0,000000000e+00
     1010000000   -4,675675333e-01   -1,111653298e-01    2,223244607e-01   -3,427257538e-01    0,000000000e+00    0,000000000e+00    0,000000000e+00    0,000000000e+00
     1024000000   -4,170010686e-01    1,477859765e-01   -3,117531911e-02   -3,929484487e-01    0,000000000e+00    0,000000000e+00    0,000000000e+00    0,000000000e+00
     1038000000   -2,180845141e-01    2,877696157e-01   -2,462506592e-01   -2,593994737e-01    0,000000000e+00    0,000000000e+00    0,000000000e+00    0,000000000e+00
     1052000000   -5,322617013e-03    2,768510580e-01   -3,171246052e-01   -4,511582106e-02    0,000000000e+00    0,000000000e+00    0,000000000e+00    0,000000000e+00
     1066000000    1,382071525e-01    1,633446664e-01   -2,548075616e-01    1,431402713e-01    0,000000000e+00    0,000000000e+00    0,000000000e+00    0,000000000e+00
     1080000000    1,920307130e-01   -3,873369424e-03   -1,182387322e-01    2,623995245e-01    0,000000000e+00    0,000000000e+00    0,000000000e+00    0,000000000e+00
     1094000000    1,540925056e-01   -1,729314923e-01    6,364695728e-02    3,031319082e-01    0,000000000e+00    0,000000000e+00    0,000000000e+00    0,000000000e+00
     1108000000   -4,325367510e-03   -3,016035557e-01    2,771327496e-01    2,454875708e-01    0,000000000e+00    0,000000000e+00    0,000000000e+00    0,000000000e+00
     1122000000   -2,519304454e-01   -2,632261813e-01    4,719300270e-01    1,279044524e-02    0,000000000e+00    0,000000000e+00    0,000000000e+00    0,000000000e+00
     1136000000   -3,145059645e-01    3,333469853e-02    3,995630145e-01   -3,923703432e-01    0,000000000e+00    0,000000000e+00    0,000000000e+00    0,000000000e+00
     1150000000   -3,891818970e-02    1,548314542e-01    4,077945370e-03   -5,442457199e-01    0,000000000e+00    0,000000000e+00    0,000000000e+00    0,000000000e+00
     1164000000    1,199811921e-01   -6,145346910e-02   -2,772838771e-01   -3,784894943e-01    0,000000000e+00    0,000000000e+00    0,000000000e+00    0,000000000e+00
     1178000000    1,727099158e-02   -3,040863872e-01   -3,689114451e-01   -1,499668360e-01    0,000000000e+00    0,000000000e+00    0,000000000e+00    0,000000000e+00
     1192000000   -2,667672336e-01   -3,716071844e-01   -3,198741078e-01    5,575588718e-02    0,000000000e+00    0,000000000e+00    0,000000000e+00    0,000000000e+00
     1206000000   -5,183597207e-01   -1,590412855e-01   -1,654050946e-01    1,823774278e-01    0,000000000e+00    0,000000000e+00    0,000000000e+00    0,000000000e+00
     1220000000   -5,094378591e-01    1,689390689e-01    1,753265853e-03    1,569095254e-01    0,000000000e+00    0,000000000e+00    0,000000000e+00    0,000000000e+00
     1234000000   -2,868995667e-01    3,676364720e-01    6,852870435e-02    5,914455652e-02    0,000000000e+00    0,000000000e+00    0,000000000e+00    0,000000000e+00
     1248000000   -5,293494463e-02    3,612508476e-01    5,051329732e-02   -4,858351313e-03    0,000000000e+00    0,000000000e+00    0,000000000e+00    0,000000000e+00
     1262000000    1,212487221e-01    2,585962415e-01    1,714348793e-02   -2,072128840e-02    0,000000000e+00    0,000000000e+00    0,000000000e+00    0,000000000e+00
     1276000000    2,066622972e-01    9,925964475e-02   -2,020602114e-03    1,693214639e-03    0,000000000e+00    0,000000000e+00    0,000000000e+00    0,000000000e+00
     1290000000    2,236817628e-01   -7,642283291e-02    1,543729194e-02    5,605875701e-02    0,000000000e+00    0,000000000e+00    0,000000000e+00    0,000000000e+00
     1304000000    1,575345993e-01   -2,443855107e-01    1,353692710e-01    6,372057647e-02    0,000000000e+00    0,000000000e+00    0,000000000e+00    0,000000000e+00
     1318000000    3,399367630e-02   -3,345050216e-01    1,279014349e-01   -1,695358306e-01    0,000000000e+00    0,000000000e+00    0,000000000e+00    0,000000000e+00
     1332000000   -1,267707497e-01   -4,358427525e-01   -4,333850741e-02   -4,417898878e-02    0,000000000e+00    0,000000000e+00    0,000000000e+00    0,000000000e+00
     1346000000   -3,909987211e-01   -4,083581269e-01    3,085761890e-02    7,021667063e-02    0,000000000e+00    0,000000000e+00    0,000000000e+00    0,000000000e+00
     1360000000   -6,109982133e-01   -1,820448190e-01    1,416342556e-01    8,054748923e-02    0,000000000e+00    0,000000000e+00    0,000000000e+00    0,000000000e+00
     1374000000   -6,253097653e-01    1,188749522e-01    2,096020877e-01   -2,953363815e-03    0,000000000e+00    0,000000000e+00    0,000000000e+00    0,000000000e+00
     1388000000   -4,745937586e-01    3,706869185e-01    2,064369470e-01   -6,254343688e-02    0,000000000e+00    0,000000000e+00    0,000000000e+00    0,000000000e+00
     1402000000   -2,358366996e-01    4,494681358e-01    1,787987351e-01   -1,046661586e-01    0,000000000e+00    0,000000000e+00    0,000000000e+00    0,000000000e+00
     1416000000   -2,724848501e-02    4,157332778e-01    1,739146411e-01   -9,289979935e-02    0,000000000e+00    0,000000000e+00    0,000000000e+00    0,000000000e+00
     1430000000    1,253064126e-01    3,056489825e-01    1,618883759e-01   -1,063130572e-01    0,000000000e+00    0,000000000e+00    0,000000000e+00    0,000000000e+00
     1444000000    2,109974921e-01    1,531827897e-01    1,566813737e-01   -9,344978631e-02    0,000000000e+00    0,000000000e+00    0,000000000e+00    0,000000000e+00
     1458000000    2,348337471e-01   -2,406945080e-02    1,447101533e-01   -8,016618341e-02    0,000000000e+00    0,000000000e+00    0,000000000e+00    0,000000000e+00
     1472000000    1,945128888e-01   -2,049483359e-01    1,544702053e-01   -2,718178555e-02    0,000000000e+00    0,000000000e+00    0,000000000e+00    0,000000000e+00
     1486000000    6,502972543e-02   -3,817369640e-01    1,712535620e-01    2,360115759e-02    0,000000000e+00    0,000000000e+00    0,000000000e+00    0,000000000e+00
     1500000000   -1,638754755e-01   -4,958993793e-01    2,586581707e-01    7,736770064e-02    0,000000000e+00    0,000000000e+00    0,000000000e+00    0,000000000e+00
