! NanoVNA-App
! Date: 2025-09-25 15:33:54
! Start: 100MHz Stop: 1,5GHz Points: 101
! S-Parameter data: F S11 S21 S12 S22
# Hz S RI R 50
!     Frequency           S11_Real           S11_Imag           S21_Real           S21_Imag           S12_Real           S12_Imag           S22_Real           S22_Imag
      100000000   -2,886529639e-02   -4,168940242e-03    3,741645813e-01   -7,218084335e-01    0,000000000e+00    0,000000000e+00    0,000000000e+00    0,000000000e+00
      114000000   -1,652286015e-02    1,152207609e-02   -8,907404542e-02   -8,054977655e-01    0,000000000e+00    0,000000000e+00    0,000000000e+00    0,000000000e+00
      128000000    3,412133083e-03    1,052495372e-02   -5,146480203e-01   -6,205191016e-01    0,000000000e+00    0,000000000e+00    0,000000000e+00    0,000000000e+00
      142000000    1,453914866e-02   -2,954282332e-03   -7,670724392e-01   -2,366210967e-01    0,000000000e+00    0,000000000e+00    0,000000000e+00    0,000000000e+00
      156000000    1,469420176e-02   -1,503155660e-02   -7,666477561e-01    2,184047997e-01    0,000000000e+00    0,000000000e+00    0,000000000e+00    0,000000000e+00
      170000000    1,667808928e-02   -2,258379199e-02   -5,181478858e-01    6,045550108e-01    0,000000000e+00    0,000000000e+00    0,000000000e+00    0,000000000e+00
      184000000    2,097442187e-02   -3,710394353e-02   -1,012963280e-01    7,862092853e-01    0,000000000e+00    0,000000000e+00    0,000000000e+00    0,000000000e+00
      198000000    1,302114036e-02   -6,246387213e-02    3,433747888e-01    7,123448253e-01    0,000000000e+00    0,000000000e+00    0,000000000e+00    0,000000000e+00
      212000000   -1,862883382e-02   -8,133526891e-02    6,780459881e-01    4,099477530e-01    0,000000000e+00    0,000000000e+00    0,000000000e+00    0,000000000e+00
      226000000   -6,163293123e-02   -6,923754513e-02    7,957145572e-01   -3,056300990e-02    0,000000000e+00    0,000000000e+00    0,000000000e+00    0,000000000e+00
      240000000   -8,259158581e-02   -2,561246976e-02    6,459991336e-01   -4,670537710e-01    0,000000000e+00    0,000000000e+00    0,000000000e+00    0,000000000e+00
      254000000   -6,353729963e-02    1,722628810e-02    2,759610415e-01   -7,432511449e-01    0,000000000e+00    0,000000000e+00    0,000000000e+00    0,000000000e+00
      268000000   -2,395674028e-02    2,891556732e-02   -1,780015230e-01   -7,647644877e-01    0,000000000e+00    0,000000000e+00    0,000000000e+00    0,000000000e+00
      282000000    4,229476675e-03    1,198649220e-02   -5,617590547e-01   -5,354403257e-01    0,000000000e+00    0,000000000e+00    0,000000000e+00    0,000000000e+00
      296000000    9,642016143e-03   -7,819247432e-03   -7,597178817e-01   -1,395805776e-01    0,000000000e+00    0,000000000e+00    0,000000000e+00    0,000000000e+00
      310000000    1,114416588e-02   -1,608417928e-02   -7,132485509e-01    2,988609374e-01    0,000000000e+00    0,000000000e+00    0,000000000e+00    0,000000000e+00
      324000000    1,972386800e-02   -2,650602162e-02   -4,277533293e-01    6,381329894e-01    0,000000000e+00    0,000000000e+00    0,000000000e+00    0,000000000e+00
      338000000    2,578215674e-02   -5,212581158e-02   -8,594858460e-03    7,626869678e-01    0,000000000e+00    0,000000000e+00    0,000000000e+00    0,000000000e+00
      352000000    7,320975885e-03   -8,474155515e-02    4,066176713e-01    6,395974159e-01    0,000000000e+00    0,000000000e+00    0,000000000e+00    0,000000000e+00
      366000000   -3,481157497e-02   -9,536711127e-02    6,902612448e-01    3,112905622e-01    0,000000000e+00    0,000000000e+00    0,000000000e+00    0,000000000e+00
      380000000   -7,101408392e-02   -7,107984275e-02    7,477155328e-01   -1,258764863e-01    0,000000000e+00    0,000000000e+00    0,000000000e+00    0,000000000e+00
      394000000   -7,253603637e-02   -3,237997368e-02    5,468320251e-01   -5,206909180e-01    0,000000000e+00    0,000000000e+00    0,000000000e+00    0,000000000e+00
      408000000   -4,637436569e-02   -1,620511897e-02    1,614845693e-01   -7,318904400e-01    0,000000000e+00    0,000000000e+00    0,000000000e+00    0,000000000e+00
      422000000   -2,836653963e-02   -3,222832456e-02   -2,675042450e-01   -6,946402788e-01    0,000000000e+00    0,000000000e+00    0,000000000e+00    0,000000000e+00
      436000000   -4,059282318e-02   -5,148616433e-02   -6,043422818e-01   -4,315117598e-01    0,000000000e+00    0,000000000e+00    0,000000000e+00    0,000000000e+00
      450000000   -6,708286703e-02   -4,395952821e-02   -7,405729294e-01   -2,144760825e-02    0,000000000e+00    0,000000000e+00    0,000000000e+00    0,000000000e+00
      464000000   -7,331361622e-02   -1,148899458e-02   -6,181976795e-01    3,974571228e-01    0,000000000e+00    0,000000000e+00    0,000000000e+00    0,000000000e+00
      478000000   -4,766933993e-02    1,141967531e-02   -2,822806537e-01    6,672754884e-01    0,000000000e+00    0,000000000e+00    0,000000000e+00    0,000000000e+00
      492000000   -1,553854533e-02    5,789510440e-03    1,379889101e-01    7,018181682e-01    0,000000000e+00    0,000000000e+00    0,000000000e+00    0,000000000e+00
      506000000   -2,225522418e-03   -1,575608552e-02    4,985514581e-01    5,025509596e-01    0,000000000e+00    0,000000000e+00    0,000000000e+00    0,000000000e+00
      520000000   -5,178613588e-03   -3,173748404e-02    6,881356835e-01    1,409292072e-01    0,000000000e+00    0,000000000e+00    0,000000000e+00    0,000000000e+00
      534000000   -3,804665757e-03   -3,861608729e-02    6,434483528e-01   -2,626963854e-01    0,000000000e+00    0,000000000e+00    0,000000000e+00    0,000000000e+00
      548000000    5,939270370e-03   -5,352219939e-02    3,812288046e-01   -5,672836304e-01    0,000000000e+00    0,000000000e+00    0,000000000e+00    0,000000000e+00
      562000000    3,007235005e-03   -8,930057287e-02    2,410597634e-03   -6,723473668e-01    0,000000000e+00    0,000000000e+00    0,000000000e+00    0,000000000e+00
      576000000   -3,449611738e-02   -1,246541589e-01   -3,696092963e-01   -5,574360490e-01    0,000000000e+00    0,000000000e+00    0,000000000e+00    0,000000000e+00
      590000000   -9,643039852e-02   -1,227337047e-01   -6,228249669e-01   -2,636885643e-01    0,000000000e+00    0,000000000e+00    0,000000000e+00    0,000000000e+00
      604000000   -1,394115984e-01   -7,138279080e-02   -6,648823619e-01    1,382611543e-01    0,000000000e+00    0,000000000e+00    0,000000000e+00    0,000000000e+00
      618000000   -1,296605915e-01   -9,559707716e-03   -4,644061327e-01    4,941827357e-01    0,000000000e+00    0,000000000e+00    0,000000000e+00    0,000000000e+00
      632000000   -8,364132792e-02    1,640735380e-02   -9,940886497e-02    6,633845568e-01    0,000000000e+00    0,000000000e+00    0,000000000e+00    0,000000000e+00
      646000000   -5,148831382e-02    8,948105969e-04    2,872768044e-01    5,952718258e-01    0,000000000e+00    0,000000000e+00    0,000000000e+00    0,000000000e+00
      660000000   -5,261177942e-02   -2,129018307e-02    5,682837367e-01    3,231482208e-01    0,000000000e+00    0,000000000e+00    0,000000000e+00    0,000000000e+00
      674000000   -7,017506659e-02   -1,834957674e-02    6,430217028e-01   -6,525938958e-02    0,000000000e+00    0,000000000e+00    0,000000000e+00    0,000000000e+00
      688000000   -6,762681156e-02    8,694263175e-03    4,712703526e-01   -4,282812774e-01    0,000000000e+00    0,000000000e+00    0,000000000e+00    0,000000000e+00
      702000000   -3,652788326e-02    2,699430659e-02    1,184333041e-01   -6,110836864e-01    0,000000000e+00    0,000000000e+00    0,000000000e+00    0,000000000e+00
      716000000    2,221440198e-03    1,729835197e-02   -2,648255825e-01   -5,463381410e-01    0,000000000e+00    0,000000000e+00    0,000000000e+00    0,000000000e+00
      730000000    3,738804907e-02   -1,137611270e-02   -5,287797451e-01   -2,691709399e-01    0,000000000e+00    0,000000000e+00    0,000000000e+00    0,000000000e+00
      744000000    6,573599577e-02   -6,268286705e-02   -5,642399192e-01    1,062709615e-01    0,000000000e+00    0,000000000e+00    0,000000000e+00    0,000000000e+00
      758000000    6,624074280e-02   -1,525058597e-01   -3,636873662e-01    4,107673764e-01    0,000000000e+00    0,000000000e+00    0,000000000e+00    0,000000000e+00
      772000000   -1,279455796e-02   -2,629124522e-01   -3,488189355e-02    5,158756971e-01    0,000000000e+00    0,000000000e+00    0,000000000e+00    0,000000000e+00
      786000000   -2,055881023e-01   -3,030124605e-01    2,735451758e-01    3,956315517e-01    0,000000000e+00    0,000000000e+00    0,000000000e+00    0,000000000e+00
      800000000   -4,250957072e-01   -1,294941604e-01    4,170777798e-01    9,889196604e-02    0,000000000e+00    0,000000000e+00    0,000000000e+00    0,000000000e+00
      814000000   -3,893795013e-01    2,219752967e-01    2,828541398e-01   -1,734273583e-01    0,000000000e+00    0,000000000e+00    0,000000000e+00    0,000000000e+00
      828000000   -4,970758408e-02    3,691376150e-01    5,520465225e-02   -1,893457770e-01    0,000000000e+00    0,000000000e+00    0,000000000e+00    0,000000000e+00
      842000000    2,351713181e-01    1,859190017e-01   -1,665949821e-02   -7,101466507e-02    0,000000000e+00    0,000000000e+00    0,000000000e+00    0,000000000e+00
      856000000    2,806699276e-01   -1,246200204e-01    4,558456317e-02   -1,300799381e-02    0,000000000e+00    0,000000000e+00    0,000000000e+00    0,000000000e+00
      870000000    7,444572449e-02   -3,766533732e-01    1,136272997e-01   -9,163445234e-02    0,000000000e+00    0,000000000e+00    0,000000000e+00    0,000000000e+00
      884000000   -2,949565351e-01   -3,617984354e-01    2,843992971e-02   -2,458889633e-01    0,000000000e+00    0,000000000e+00    0,000000000e+00    0,000000000e+00
      898000000   -4,716356099e-01    9,179803543e-03   -2,216079682e-01   -2,276981771e-01    0,000000000e+00    0,000000000e+00    0,000000000e+00    0,000000000e+00
      912000000   -2,250099480e-01    2,933669686e-01   -3,436602056e-01    7,515582442e-02    0,000000000e+00    0,000000000e+00    0,000000000e+00    0,000000000e+00
      926000000    6,827227026e-02    2,630294561e-01   -2,158006579e-01    2,643979192e-01    0,000000000e+00    0,000000000e+00    0,000000000e+00    0,000000000e+00
      940000000    2,139920145e-01    7,969325036e-02   -3,682093695e-02    3,289458454e-01    0,000000000e+00    0,000000000e+00    0,000000000e+00    0,000000000e+00
      954000000    2,229365408e-01   -1,264105588e-01    1,298105866e-01    3,071472049e-01    0,000000000e+00    0,000000000e+00    0,000000000e+00    0,000000000e+00
      968000000    1,172920465e-01   -3,018679619e-01    2,696275115e-01    2,171887159e-01    0,000000000e+00    0,000000000e+00    0,000000000e+00    0,000000000e+00
      982000000   -8,362869918e-02   -3,889243901e-01    3,662115633e-01    6,447107345e-02    0,000000000e+00    0,000000000e+00    0,000000000e+00    0,000000000e+00
      996000000   -3,173060715e-01   -3,260501623e-01    3,687543273e-01   -1,457459927e-01    0,000000000e+00    0,000000000e+00    0,000000000e+00    0,000000000e+00
     1010000000   -4,657430053e-01   -1,080197543e-01    2,225455195e-01   -3,421177864e-01    0,000000000e+00    0,000000000e+00    0,000000000e+00    0,000000000e+00
     1024000000   -4,113353491e-01    1,515778452e-01   -3,366575018e-02   -3,920713961e-01    0,000000000e+00    0,000000000e+00    0,000000000e+00    0,000000000e+00
     1038000000   -2,193461061e-01    2,950930297e-01   -2,471327186e-01   -2,629979849e-01    0,000000000e+00    0,000000000e+00    0,000000000e+00    0,000000000e+00
     1052000000   -9,527702816e-03    2,804903388e-01   -3,189855814e-01   -4,480873048e-02    0,000000000e+00    0,000000000e+00    0,000000000e+00    0,000000000e+00
     1066000000    1,327831596e-01    1,621676981e-01   -2,575979233e-01    1,436245888e-01    0,000000000e+00    0,000000000e+00    0,000000000e+00    0,000000000e+00
     1080000000    1,929250807e-01    1,689992845e-03   -1,206165478e-01    2,628775537e-01    0,000000000e+00    0,000000000e+00    0,000000000e+00    0,000000000e+00
     1094000000    1,514168084e-01   -1,751397103e-01    6,409733742e-02    3,037716448e-01    0,000000000e+00    0,000000000e+00    0,000000000e+00    0,000000000e+00
     1108000000   -5,188568495e-03   -3,051763475e-01    2,759651244e-01    2,478454262e-01    0,000000000e+00    0,000000000e+00    0,000000000e+00    0,000000000e+00
     1122000000   -2,459043711e-01   -2,618111968e-01    4,732373059e-01    1,347110514e-02    0,000000000e+00    0,000000000e+00    0,000000000e+00    0,000000000e+00
     1136000000   -3,179551959e-01    3,477053717e-02    3,983935416e-01   -3,912434876e-01    0,000000000e+00    0,000000000e+00    0,000000000e+00    0,000000000e+00
     1150000000   -4,148536548e-02    1,535455585e-01    1,832764945e-03   -5,424689054e-01    0,000000000e+00    0,000000000e+00    0,000000000e+00    0,000000000e+00
     1164000000    1,206414551e-01   -6,181243435e-02   -2,770597637e-01   -3,766652644e-01    0,000000000e+00    0,000000000e+00    0,000000000e+00    0,000000000e+00
     1178000000    1,796058193e-02   -3,082852364e-01   -3,676868677e-01   -1,538978666e-01    0,000000000e+00    0,000000000e+00    0,000000000e+00    0,000000000e+00
     1192000000   -2,658811808e-01   -3,714914024e-01   -3,198540211e-01    5,855036899e-02    0,000000000e+00    0,000000000e+00    0,000000000e+00    0,000000000e+00
     1206000000   -5,200541615e-01   -1,578750163e-01   -1,657377332e-01    1,802121699e-01    0,000000000e+00    0,000000000e+00    0,000000000e+00    0,000000000e+00
     1220000000   -5,098432899e-01    1,668163985e-01   -9,235714242e-05    1,574728489e-01    0,000000000e+00    0,000000000e+00    0,000000000e+00    0,000000000e+00
     1234000000   -2,924894691e-01    3,655138612e-01    6,911168993e-02    6,310291588e-02    0,000000000e+00    0,000000000e+00    0,000000000e+00    0,000000000e+00
     1248000000   -4,203310236e-02    3,679898977e-01    5,870822072e-02   -1,546497922e-03    0,000000000e+00    0,000000000e+00    0,000000000e+00    0,000000000e+00
     1262000000    1,245951727e-01    2,519024611e-01    1,946695894e-02   -2,379879169e-02    0,000000000e+00    0,000000000e+00    0,000000000e+00    0,000000000e+00
     1276000000    2,080294639e-01    9,751916677e-02   -5,195194390e-03    3,746968228e-03    0,000000000e+00    0,000000000e+00    0,000000000e+00    0,000000000e+00
     1290000000    2,223601490e-01   -7,174304873e-02    1,920544542e-02    5,136329308e-02    0,000000000e+00    0,000000000e+00    0,000000000e+00    0,000000000e+00
     1304000000    1,548260301e-01   -2,388692498e-01    1,294603646e-01    7,315387577e-02    0,000000000e+00    0,000000000e+00    0,000000000e+00    0,000000000e+00
     1318000000    3,747317940e-02   -3,350432813e-01    1,296911836e-01   -1,671222001e-01    0,000000000e+00    0,000000000e+00    0,000000000e+00    0,000000000e+00
     1332000000   -1,288354844e-01   -4,361093044e-01   -4,199530557e-02   -4,107781127e-02    0,000000000e+00    0,000000000e+00    0,000000000e+00    0,000000000e+00
     1346000000   -3,945326805e-01   -4,044356346e-01    2,098091133e-02    7,299461961e-02    0,000000000e+00    0,000000000e+00    0,000000000e+00    0,000000000e+00
     1360000000   -6,123181581e-01   -1,882282197e-01    1,371289939e-01    7,202717662e-02    0,000000000e+00    0,000000000e+00    0,000000000e+00    0,000000000e+00
     1374000000   -6,350021362e-01    1,283208728e-01    2,000873387e-01    1,126370393e-03    0,000000000e+00    0,000000000e+00    0,000000000e+00    0,000000000e+00
     1388000000   -4,628246129e-01    3,704911768e-01    2,138390988e-01   -5,505733937e-02    0,000000000e+00    0,000000000e+00    0,000000000e+00    0,000000000e+00
     1402000000   -2,341781110e-01    4,492026865e-01    1,855322570e-01   -1,003864780e-01    0,000000000e+00    0,000000000e+00    0,000000000e+00    0,000000000e+00
     1416000000   -2,315303870e-02    4,092708826e-01    1,749751270e-01   -1,108924598e-01    0,000000000e+00    0,000000000e+00    0,000000000e+00    0,000000000e+00
     1430000000    1,204318255e-01    3,036935627e-01    1,553931385e-01   -1,077088565e-01    0,000000000e+00    0,000000000e+00    0,000000000e+00    0,000000000e+00
     1444000000    2,074010074e-01    1,527469903e-01    1,501180679e-01   -1,000575125e-01    0,000000000e+00    0,000000000e+00    0,000000000e+00    0,000000000e+00
     1458000000    2,368088663e-01   -2,209988609e-02    1,397108138e-01   -7,330603898e-02    0,000000000e+00    0,000000000e+00    0,000000000e+00    0,000000000e+00
     1472000000    1,898626834e-01   -2,029018104e-01    1,451170594e-01   -3,889430687e-02    0,000000000e+00    0,000000000e+00    0,000000000e+00    0,000000000e+00
     1486000000    5,887184665e-02   -3,732232451e-01    1,596368402e-01    3,834525868e-02    0,000000000e+00    0,000000000e+00    0,000000000e+00    0,000000000e+00
     1500000000   -1,748838425e-01   -4,990780652e-01    2,376560569e-01    8,193314075e-02    0,000000000e+00    0,000000000e+00    0,000000000e+00    0,000000000e+00
