! NanoVNA-App
! Date: 2025-09-25 15:32:19
! Start: 100MHz Stop: 1,5GHz Points: 101
! S-Parameter data: F S11 S21 S12 S22
# Hz S RI R 50
!     Frequency           S11_Real           S11_Imag           S21_Real           S21_Imag           S12_Real           S12_Imag           S22_Real           S22_Imag
      100000000   -2,886409312e-02   -4,167519510e-03    3,741250634e-01   -7,217629552e-01    0,000000000e+00    0,000000000e+00    0,000000000e+00    0,000000000e+00
      114000000   -1,648567431e-02    1,151792891e-02   -8,892894536e-02   -8,053960204e-01    0,000000000e+00    0,000000000e+00    0,000000000e+00    0,000000000e+00
      128000000    3,475635312e-03    1,051244698e-02   -5,146562457e-01   -6,204879880e-01    0,000000000e+00    0,000000000e+00    0,000000000e+00    0,000000000e+00
      142000000    1,455551106e-02   -2,963540377e-03   -7,669298649e-01   -2,365466505e-01    0,000000000e+00    0,000000000e+00    0,000000000e+00    0,000000000e+00
      156000000    1,439767983e-02   -1,490199566e-02   -7,646934986e-01    2,180318832e-01    0,000000000e+00    0,000000000e+00    0,000000000e+00    0,000000000e+00
      170000000    1,670181192e-02   -2,255166508e-02   -5,183365941e-01    6,045855284e-01    0,000000000e+00    0,000000000e+00    0,000000000e+00    0,000000000e+00
      184000000    2,099337429e-02   -3,711915016e-02   -1,012729332e-01    7,861525416e-01    0,000000000e+00    0,000000000e+00    0,000000000e+00    0,000000000e+00
      198000000    1,300517935e-02   -6,246558949e-02    3,432938159e-01    7,127487659e-01    0,000000000e+00    0,000000000e+00    0,000000000e+00    0,000000000e+00
      212000000   -1,867579855e-02   -8,126267791e-02    6,780886650e-01    4,098770618e-01    0,000000000e+00    0,000000000e+00    0,000000000e+00    0,000000000e+00
      226000000   -6,167925522e-02   -6,924860924e-02    7,957909703e-01   -3,048399836e-02    0,000000000e+00    0,000000000e+00    0,000000000e+00    0,000000000e+00
      240000000   -8,255912364e-02   -2,565162070e-02    6,457776427e-01   -4,667833149e-01    0,000000000e+00    0,000000000e+00    0,000000000e+00    0,000000000e+00
      254000000   -6,351206452e-02    1,724614576e-02    2,762787640e-01   -7,432267666e-01    0,000000000e+00    0,000000000e+00    0,000000000e+00    0,000000000e+00
      268000000   -2,390990965e-02    2,893830650e-02   -1,780124754e-01   -7,644276023e-01    0,000000000e+00    0,000000000e+00    0,000000000e+00    0,000000000e+00
      282000000    4,237104207e-03    1,196441706e-02   -5,621349812e-01   -5,357972980e-01    0,000000000e+00    0,000000000e+00    0,000000000e+00    0,000000000e+00
      296000000    9,811302647e-03   -7,866683416e-03   -7,597642541e-01   -1,394446194e-01    0,000000000e+00    0,000000000e+00    0,000000000e+00    0,000000000e+00
      310000000    1,133043226e-02   -1,618594676e-02   -7,116152644e-01    2,981762886e-01    0,000000000e+00    0,000000000e+00    0,000000000e+00    0,000000000e+00
      324000000    1,933959872e-02   -2,658065967e-02   -4,276085198e-01    6,375336647e-01    0,000000000e+00    0,000000000e+00    0,000000000e+00    0,000000000e+00
      338000000    2,560941130e-02   -5,207531899e-02   -9,595983662e-03    7,621903419e-01    0,000000000e+00    0,000000000e+00    0,000000000e+00    0,000000000e+00
      352000000    7,291432936e-03   -8,495695144e-02    4,069516063e-01    6,389308572e-01    0,000000000e+00    0,000000000e+00    0,000000000e+00    0,000000000e+00
      366000000   -3,446438536e-02   -9,541616589e-02    6,906856298e-01    3,124093711e-01    0,000000000e+00    0,000000000e+00    0,000000000e+00    0,000000000e+00
      380000000   -7,060778141e-02   -7,089689374e-02    7,480707765e-01   -1,262437403e-01    0,000000000e+00    0,000000000e+00    0,000000000e+00    0,000000000e+00
      394000000   -7,252417505e-02   -3,229370341e-02    5,473039746e-01   -5,211369991e-01    0,000000000e+00    0,000000000e+00    0,000000000e+00    0,000000000e+00
      408000000   -4,651803151e-02   -1,621918753e-02    1,610262543e-01   -7,327588797e-01    0,000000000e+00    0,000000000e+00    0,000000000e+00    0,000000000e+00
      422000000   -2,835953236e-02   -3,208307549e-02   -2,671523690e-01   -6,957970262e-01    0,000000000e+00    0,000000000e+00    0,000000000e+00    0,000000000e+00
      436000000   -4,053962603e-02   -5,195583776e-02   -6,035821438e-01   -4,320876300e-01    0,000000000e+00    0,000000000e+00    0,000000000e+00    0,000000000e+00
      450000000   -6,756792963e-02   -4,380367324e-02   -7,408758998e-01   -2,143998630e-02    0,000000000e+00    0,000000000e+00    0,000000000e+00    0,000000000e+00
      464000000   -7,336419821e-02   -1,142510120e-02   -6,183007360e-01    3,975900412e-01    0,000000000e+00    0,000000000e+00    0,000000000e+00    0,000000000e+00
      478000000   -4,752399027e-02    1,181406435e-02   -2,821657360e-01    6,671174765e-01    0,000000000e+00    0,000000000e+00    0,000000000e+00    0,000000000e+00
      492000000   -1,543177385e-02    5,981722381e-03    1,380646974e-01    7,014889717e-01    0,000000000e+00    0,000000000e+00    0,000000000e+00    0,000000000e+00
      506000000   -2,523655770e-03   -1,590690389e-02    4,985474050e-01    5,023745298e-01    0,000000000e+00    0,000000000e+00    0,000000000e+00    0,000000000e+00
      520000000   -4,785437603e-03   -3,116349503e-02    6,873887777e-01    1,435501277e-01    0,000000000e+00    0,000000000e+00    0,000000000e+00    0,000000000e+00
      534000000   -3,624581499e-03   -3,848189861e-02    6,435787082e-01   -2,628719509e-01    0,000000000e+00    0,000000000e+00    0,000000000e+00    0,000000000e+00
      548000000    6,276994012e-03   -5,360118672e-02    3,813467026e-01   -5,672737956e-01    0,000000000e+00    0,000000000e+00    0,000000000e+00    0,000000000e+00
      562000000    3,185688518e-03   -8,905220032e-02    3,425321775e-03   -6,721559763e-01    0,000000000e+00    0,000000000e+00    0,000000000e+00    0,000000000e+00
      576000000   -3,418390825e-02   -1,246635616e-01   -3,691590130e-01   -5,571429729e-01    0,000000000e+00    0,000000000e+00    0,000000000e+00    0,000000000e+00
      590000000   -9,620959312e-02   -1,227015927e-01   -6,230344772e-01   -2,638821006e-01    0,000000000e+00    0,000000000e+00    0,000000000e+00    0,000000000e+00
      604000000   -1,393377930e-01   -7,175908983e-02   -6,650200486e-01    1,381184608e-01    0,000000000e+00    0,000000000e+00    0,000000000e+00    0,000000000e+00
      618000000   -1,294382215e-01   -8,512861095e-03   -4,646310806e-01    4,954245389e-01    0,000000000e+00    0,000000000e+00    0,000000000e+00    0,000000000e+00
      632000000   -8,394653350e-02    1,618002914e-02   -9,860984236e-02    6,635969281e-01    0,000000000e+00    0,000000000e+00    0,000000000e+00    0,000000000e+00
      646000000   -5,178891867e-02    9,888600325e-04    2,882599533e-01    5,953727961e-01    0,000000000e+00    0,000000000e+00    0,000000000e+00    0,000000000e+00
      660000000   -5,349405482e-02   -2,186220512e-02    5,674684048e-01    3,230793476e-01    0,000000000e+00    0,000000000e+00    0,000000000e+00    0,000000000e+00
      674000000   -6,974460930e-02   -1,707114838e-02    6,434001327e-01   -6,516206264e-02    0,000000000e+00    0,000000000e+00    0,000000000e+00    0,000000000e+00
      688000000   -6,839925796e-02    8,259083144e-03    4,710511863e-01   -4,284385741e-01    0,000000000e+00    0,000000000e+00    0,000000000e+00    0,000000000e+00
      702000000   -3,837911412e-02    2,759005316e-02    1,169535816e-01   -6,162359118e-01    0,000000000e+00    0,000000000e+00    0,000000000e+00    0,000000000e+00
      716000000    1,572507084e-03    1,772687770e-02   -2,649270594e-01   -5,465957522e-01    0,000000000e+00    0,000000000e+00    0,000000000e+00    0,000000000e+00
      730000000    3,630080819e-02   -1,146221161e-02   -5,283241272e-01   -2,688791454e-01    0,000000000e+00    0,000000000e+00    0,000000000e+00    0,000000000e+00
      744000000    6,502967328e-02   -6,187778339e-02   -5,638588071e-01    1,063185036e-01    0,000000000e+00    0,000000000e+00    0,000000000e+00    0,000000000e+00
      758000000    6,708902121e-02   -1,525613070e-01   -3,638610840e-01    4,103075266e-01    0,000000000e+00    0,000000000e+00    0,000000000e+00    0,000000000e+00
      772000000   -1,215622947e-02   -2,626406550e-01   -3,499922529e-02    5,150107741e-01    0,000000000e+00    0,000000000e+00    0,000000000e+00    0,000000000e+00
      786000000   -2,067494243e-01   -3,029469550e-01    2,748406827e-01    3,961298168e-01    0,000000000e+00    0,000000000e+00    0,000000000e+00    0,000000000e+00
      800000000   -4,253943264e-01   -1,311513782e-01    4,167898595e-01    9,950634837e-02    0,000000000e+00    0,000000000e+00    0,000000000e+00    0,000000000e+00
      814000000   -3,901723027e-01    2,215817124e-01    2,821617723e-01   -1,728162169e-01    0,000000000e+00    0,000000000e+00    0,000000000e+00    0,000000000e+00
      828000000   -4,911622778e-02    3,687171936e-01    5,519284308e-02   -1,888039708e-01    0,000000000e+00    0,000000000e+00    0,000000000e+00    0,000000000e+00
      842000000    2,353875339e-01    1,859918535e-01   -1,701562107e-02   -7,064997405e-02    0,000000000e+00    0,000000000e+00    0,000000000e+00    0,000000000e+00
      856000000    2,800475657e-01   -1,244084239e-01    4,494737461e-02   -1,327983011e-02    0,000000000e+00    0,000000000e+00    0,000000000e+00    0,000000000e+00
      870000000    7,400068641e-02   -3,761482835e-01    1,139964834e-01   -9,117170423e-02    0,000000000e+00    0,000000000e+00    0,000000000e+00    0,000000000e+00
      884000000   -2,953895628e-01   -3,624580801e-01    2,820344083e-02   -2,460514158e-01    0,000000000e+00    0,000000000e+00    0,000000000e+00    0,000000000e+00
      898000000   -4,725570381e-01    8,400495164e-03   -2,227568328e-01   -2,280700356e-01    0,000000000e+00    0,000000000e+00    0,000000000e+00    0,000000000e+00
      912000000   -2,259725928e-01    2,931782603e-01   -3,525613844e-01    7,281630486e-02    0,000000000e+00    0,000000000e+00    0,000000000e+00    0,000000000e+00
      926000000    6,870166212e-02    2,651324272e-01   -2,138638645e-01    2,661612332e-01    0,000000000e+00    0,000000000e+00    0,000000000e+00    0,000000000e+00
      940000000    2,153436244e-01    8,214905113e-02   -3,591598198e-02    3,310682476e-01    0,000000000e+00    0,000000000e+00    0,000000000e+00    0,000000000e+00
      954000000    2,251398712e-01   -1,283493489e-01    1,308536828e-01    3,059363663e-01    0,000000000e+00    0,000000000e+00    0,000000000e+00    0,000000000e+00
      968000000    1,161497235e-01   -2,990590632e-01    2,716691792e-01    2,193471789e-01    0,000000000e+00    0,000000000e+00    0,000000000e+00    0,000000000e+00
      982000000   -8,102172613e-02   -3,886592984e-01    3,662296832e-01    6,543882191e-02    0,000000000e+00    0,000000000e+00    0,000000000e+00    0,000000000e+00
      996000000   -3,138333857e-01   -3,283280134e-01    3,684727550e-01   -1,455346495e-01    0,000000000e+00    0,000000000e+00    0,000000000e+00    0,000000000e+00
     1010000000   -4,623833895e-01   -1,076596826e-01    2,240027338e-01   -3,424691856e-01    0,000000000e+00    0,000000000e+00    0,000000000e+00    0,000000000e+00
     1024000000   -4,158163667e-01    1,523155421e-01   -3,421315551e-02   -3,926141858e-01    0,000000000e+00    0,000000000e+00    0,000000000e+00    0,000000000e+00
     1038000000   -2,135793865e-01    2,920548916e-01   -2,479553223e-01   -2,624780536e-01    0,000000000e+00    0,000000000e+00    0,000000000e+00    0,000000000e+00
     1052000000   -6,067106966e-03    2,817146182e-01   -3,179126382e-01   -4,693302512e-02    0,000000000e+00    0,000000000e+00    0,000000000e+00    0,000000000e+00
     1066000000    1,365904361e-01    1,601890475e-01   -2,580881119e-01    1,447045952e-01    0,000000000e+00    0,000000000e+00    0,000000000e+00    0,000000000e+00
     1080000000    1,964608580e-01   -9,261734085e-04   -1,195520014e-01    2,645502090e-01    0,000000000e+00    0,000000000e+00    0,000000000e+00    0,000000000e+00
     1094000000    1,513280421e-01   -1,742257029e-01    6,417044997e-02    3,045965433e-01    0,000000000e+00    0,000000000e+00    0,000000000e+00    0,000000000e+00
     1108000000   -2,250002464e-03   -3,019807637e-01    2,767684460e-01    2,457111031e-01    0,000000000e+00    0,000000000e+00    0,000000000e+00    0,000000000e+00
     1122000000   -2,468632907e-01   -2,648919821e-01    4,724379778e-01    1,255746745e-02    0,000000000e+00    0,000000000e+00    0,000000000e+00    0,000000000e+00
     1136000000   -3,163524568e-01    3,143290430e-02    3,940462172e-01   -3,914017379e-01    0,000000000e+00    0,000000000e+00    0,000000000e+00    0,000000000e+00
     1150000000   -4,011188447e-02    1,550529748e-01    3,528131638e-03   -5,398530960e-01    0,000000000e+00    0,000000000e+00    0,000000000e+00    0,000000000e+00
     1164000000    1,250763088e-01   -6,529919058e-02   -2,745860219e-01   -3,796102703e-01    0,000000000e+00    0,000000000e+00    0,000000000e+00    0,000000000e+00
     1178000000    1,634890959e-02   -3,058223426e-01   -3,693151772e-01   -1,502953321e-01    0,000000000e+00    0,000000000e+00    0,000000000e+00    0,000000000e+00
     1192000000   -2,667437196e-01   -3,683618009e-01   -3,237345815e-01    5,762788281e-02    0,000000000e+00    0,000000000e+00    0,000000000e+00    0,000000000e+00
     1206000000   -5,197744966e-01   -1,560491621e-01   -1,635502428e-01    1,833865196e-01    0,000000000e+00    0,000000000e+00    0,000000000e+00    0,000000000e+00
     1220000000   -5,098178387e-01    1,758083999e-01   -6,637554150e-03    1,584163308e-01    0,000000000e+00    0,000000000e+00    0,000000000e+00    0,000000000e+00
     1234000000   -2,790994942e-01    3,604438603e-01    7,158038765e-02    6,195029616e-02    0,000000000e+00    0,000000000e+00    0,000000000e+00    0,000000000e+00
     1248000000   -4,177454486e-02    3,664835989e-01    5,938890576e-02   -8,940273896e-03    0,000000000e+00    0,000000000e+00    0,000000000e+00    0,000000000e+00
     1262000000    1,249692440e-01    2,524954677e-01    1,644927636e-02   -2,470806800e-02    0,000000000e+00    0,000000000e+00    0,000000000e+00    0,000000000e+00
     1276000000    2,157202810e-01    9,860441089e-02   -1,276033581e-04    3,051474458e-03    0,000000000e+00    0,000000000e+00    0,000000000e+00    0,000000000e+00
     1290000000    2,245025635e-01   -7,381951064e-02    1,909863017e-02    5,532433838e-02    0,000000000e+00    0,000000000e+00    0,000000000e+00    0,000000000e+00
     1304000000    1,559337229e-01   -2,443728298e-01    1,301488876e-01    5,961755291e-02    0,000000000e+00    0,000000000e+00    0,000000000e+00    0,000000000e+00
     1318000000    3,678831458e-02   -3,355482817e-01    1,364797652e-01   -1,636155248e-01    0,000000000e+00    0,000000000e+00    0,000000000e+00    0,000000000e+00
     1332000000   -1,351514012e-01   -4,409360588e-01   -4,946602508e-02   -5,535585806e-02    0,000000000e+00    0,000000000e+00    0,000000000e+00    0,000000000e+00
     1346000000   -3,918761015e-01   -4,136659503e-01    1,863464527e-02    5,895239487e-02    0,000000000e+00    0,000000000e+00    0,000000000e+00    0,000000000e+00
     1360000000   -6,100471020e-01   -1,821818054e-01    1,369724274e-01    8,436202258e-02    0,000000000e+00    0,000000000e+00    0,000000000e+00    0,000000000e+00
     1374000000   -6,290164590e-01    1,294088811e-01    2,085785568e-01    4,840283873e-05    0,000000000e+00    0,000000000e+00    0,000000000e+00    0,000000000e+00
     1388000000   -4,695809782e-01    3,688048422e-01    1,934606284e-01   -6,524094194e-02    0,000000000e+00    0,000000000e+00    0,000000000e+00    0,000000000e+00
     1402000000   -2,285761237e-01    4,560038149e-01    1,959530860e-01   -8,860591799e-02    0,000000000e+00    0,000000000e+00    0,000000000e+00    0,000000000e+00
     1416000000   -2,865650132e-02    4,158397317e-01    1,677803248e-01   -1,013122126e-01    0,000000000e+00    0,000000000e+00    0,000000000e+00    0,000000000e+00
     1430000000    1,222772375e-01    2,968383431e-01    1,689628810e-01   -6,888175011e-02    0,000000000e+00    0,000000000e+00    0,000000000e+00    0,000000000e+00
     1444000000    2,091721892e-01    1,521414220e-01    1,579339355e-01   -8,763957024e-02    0,000000000e+00    0,000000000e+00    0,000000000e+00    0,000000000e+00
     1458000000    2,371614575e-01   -1,932619326e-02    1,472298801e-01   -7,535163313e-02    0,000000000e+00    0,000000000e+00    0,000000000e+00    0,000000000e+00
     1472000000    1,912005097e-01   -2,008460313e-01    1,400024593e-01   -3,453520313e-02    0,000000000e+00    0,000000000e+00    0,000000000e+00    0,000000000e+00
     1486000000    6,703642756e-02   -3,779023886e-01    1,749847084e-01    2,830496989e-02    0,000000000e+00    0,000000000e+00    0,000000000e+00    0,000000000e+00
     1500000000   -1,688098758e-01   -4,929964244e-01    2,533407807e-01    1,021530032e-01    0,000000000e+00    0,000000000e+00    0,000000000e+00    0,000000000e+00
