! NanoVNA-App
! Date: 2025-09-25 15:36:43
! Start: 100MHz Stop: 1,5GHz Points: 101
! S-Parameter data: F S11 S21 S12 S22
# Hz S RI R 50
!     Frequency           S11_Real           S11_Imag           S21_Real           S21_Imag           S12_Real           S12_Imag           S22_Real           S22_Imag
      100000000   -2,881894074e-02   -4,170149099e-03    3,740707338e-01   -7,217732072e-01    0,000000000e+00    0,000000000e+00    0,000000000e+00    0,000000000e+00
      114000000   -1,651940309e-02    1,152485888e-02   -8,904700726e-02   -8,054448366e-01    0,000000000e+00    0,000000000e+00    0,000000000e+00    0,000000000e+00
      128000000    3,552604700e-03    1,055818237e-02   -5,147164464e-01   -6,204997897e-01    0,000000000e+00    0,000000000e+00    0,000000000e+00    0,000000000e+00
      142000000    1,458150428e-02   -2,959837904e-03   -7,671473026e-01   -2,365109175e-01    0,000000000e+00    0,000000000e+00    0,000000000e+00    0,000000000e+00
      156000000    1,570792682e-02   -1,452771574e-02   -7,689746618e-01    2,236184180e-01    0,000000000e+00    0,000000000e+00    0,000000000e+00    0,000000000e+00
      170000000    1,673994772e-02   -2,255265787e-02   -5,181732774e-01    6,045761704e-01    0,000000000e+00    0,000000000e+00    0,000000000e+00    0,000000000e+00
      184000000    2,104783244e-02   -3,710041568e-02   -1,014146507e-01    7,861222625e-01    0,000000000e+00    0,000000000e+00    0,000000000e+00    0,000000000e+00
      198000000    1,303521264e-02   -6,246923655e-02    3,433037400e-01    7,122614980e-01    0,000000000e+00    0,000000000e+00    0,000000000e+00    0,000000000e+00
      212000000   -1,860437728e-02   -8,127239347e-02    6,781013608e-01    4,099203944e-01    0,000000000e+00    0,000000000e+00    0,000000000e+00    0,000000000e+00
      226000000   -6,162090972e-02   -6,918928772e-02    7,957308292e-01   -3,063370101e-02    0,000000000e+00    0,000000000e+00    0,000000000e+00    0,000000000e+00
      240000000   -8,257357031e-02   -2,561561391e-02    6,463965178e-01   -4,669756889e-01    0,000000000e+00    0,000000000e+00    0,000000000e+00    0,000000000e+00
      254000000   -6,351625919e-02    1,724307612e-02    2,759568095e-01   -7,433507442e-01    0,000000000e+00    0,000000000e+00    0,000000000e+00    0,000000000e+00
      268000000   -2,389418706e-02    2,895309962e-02   -1,781193763e-01   -7,643150687e-01    0,000000000e+00    0,000000000e+00    0,000000000e+00    0,000000000e+00
      282000000    4,266309086e-03    1,190706436e-02   -5,618021488e-01   -5,355561376e-01    0,000000000e+00    0,000000000e+00    0,000000000e+00    0,000000000e+00
      296000000    9,653497487e-03   -7,861893624e-03   -7,597806454e-01   -1,395578235e-01    0,000000000e+00    0,000000000e+00    0,000000000e+00    0,000000000e+00
      310000000    1,117190905e-02   -1,621002331e-02   -7,136216164e-01    2,984433770e-01    0,000000000e+00    0,000000000e+00    0,000000000e+00    0,000000000e+00
      324000000    1,957421191e-02   -2,644240670e-02   -4,266867042e-01    6,378154159e-01    0,000000000e+00    0,000000000e+00    0,000000000e+00    0,000000000e+00
      338000000    2,537125722e-02   -5,215385184e-02   -7,312133443e-03    7,595103979e-01    0,000000000e+00    0,000000000e+00    0,000000000e+00    0,000000000e+00
      352000000    7,442194037e-03   -8,445015550e-02    4,069198072e-01    6,398108006e-01    0,000000000e+00    0,000000000e+00    0,000000000e+00    0,000000000e+00
      366000000   -3,468678147e-02   -9,567335993e-02    6,913979053e-01    3,111349940e-01    0,000000000e+00    0,000000000e+00    0,000000000e+00    0,000000000e+00
      380000000   -7,087697089e-02   -7,124710083e-02    7,477488518e-01   -1,263948530e-01    0,000000000e+00    0,000000000e+00    0,000000000e+00    0,000000000e+00
      394000000   -7,261935622e-02   -3,235261887e-02    5,456174612e-01   -5,215001106e-01    0,000000000e+00    0,000000000e+00    0,000000000e+00    0,000000000e+00
      408000000   -4,678827152e-02   -1,620909944e-02    1,599089503e-01   -7,318070531e-01    0,000000000e+00    0,000000000e+00    0,000000000e+00    0,000000000e+00
      422000000   -2,811402828e-02   -3,213529289e-02   -2,669529319e-01   -6,948913336e-01    0,000000000e+00    0,000000000e+00    0,000000000e+00    0,000000000e+00
      436000000   -4,069352895e-02   -5,197140574e-02   -6,043006778e-01   -4,329930544e-01    0,000000000e+00    0,000000000e+00    0,000000000e+00    0,000000000e+00
      450000000   -6,727956980e-02   -4,389617965e-02   -7,406101227e-01   -2,158572339e-02    0,000000000e+00    0,000000000e+00    0,000000000e+00    0,000000000e+00
      464000000   -7,329922169e-02   -1,201582514e-02   -6,184303761e-01    3,972190320e-01    0,000000000e+00    0,000000000e+00    0,000000000e+00    0,000000000e+00
      478000000   -4,798191041e-02    1,172635239e-02   -2,830747962e-01    6,680570245e-01    0,000000000e+00    0,000000000e+00    0,000000000e+00    0,000000000e+00
      492000000   -1,589934714e-02    5,777245387e-03    1,374361515e-01    7,012967467e-01    0,000000000e+00    0,000000000e+00    0,000000000e+00    0,000000000e+00
      506000000   -2,661925741e-03   -1,585678756e-02    4,980974793e-01    5,021043420e-01    0,000000000e+00    0,000000000e+00    0,000000000e+00    0,000000000e+00
      520000000   -5,109057762e-03   -3,140502051e-02    6,857967377e-01    1,428257972e-01    0,000000000e+00    0,000000000e+00    0,000000000e+00    0,000000000e+00
      534000000   -3,995094914e-03   -3,834050149e-02    6,432998180e-01   -2,629737854e-01    0,000000000e+00    0,000000000e+00    0,000000000e+00    0,000000000e+00
      548000000    6,048146170e-03   -5,384273455e-02    3,813754618e-01   -5,675400496e-01    0,000000000e+00    0,000000000e+00    0,000000000e+00    0,000000000e+00
      562000000    3,140080255e-03   -8,909316361e-02    1,783527900e-03   -6,721807122e-01    0,000000000e+00    0,000000000e+00    0,000000000e+00    0,000000000e+00
      576000000   -3,445610777e-02   -1,243078113e-01   -3,699264824e-01   -5,577958822e-01    0,000000000e+00    0,000000000e+00    0,000000000e+00    0,000000000e+00
      590000000   -9,602149576e-02   -1,227716506e-01   -6,228964925e-01   -2,640710175e-01    0,000000000e+00    0,000000000e+00    0,000000000e+00    0,000000000e+00
      604000000   -1,393821388e-01   -7,142995298e-02   -6,653568745e-01    1,381478310e-01    0,000000000e+00    0,000000000e+00    0,000000000e+00    0,000000000e+00
      618000000   -1,292971522e-01   -9,361457080e-03   -4,646732807e-01    4,953480959e-01    0,000000000e+00    0,000000000e+00    0,000000000e+00    0,000000000e+00
      632000000   -8,346767724e-02    1,659418643e-02   -9,924933314e-02    6,631799340e-01    0,000000000e+00    0,000000000e+00    0,000000000e+00    0,000000000e+00
      646000000   -5,057756975e-02    1,013130066e-03    2,876783311e-01    5,951212645e-01    0,000000000e+00    0,000000000e+00    0,000000000e+00    0,000000000e+00
      660000000   -5,279772356e-02   -2,195273899e-02    5,677059293e-01    3,231555820e-01    0,000000000e+00    0,000000000e+00    0,000000000e+00    0,000000000e+00
      674000000   -7,076627761e-02   -1,749286987e-02    6,431319118e-01   -6,558724493e-02    0,000000000e+00    0,000000000e+00    0,000000000e+00    0,000000000e+00
      688000000   -6,757847965e-02    8,888785727e-03    4,713487327e-01   -4,280188084e-01    0,000000000e+00    0,000000000e+00    0,000000000e+00    0,000000000e+00
      702000000   -3,730548173e-02    2,695725486e-02    1,169379130e-01   -6,088792682e-01    0,000000000e+00    0,000000000e+00    0,000000000e+00    0,000000000e+00
      716000000    2,862618305e-03    1,749152504e-02   -2,642740309e-01   -5,479220152e-01    0,000000000e+00    0,000000000e+00    0,000000000e+00    0,000000000e+00
      730000000    3,725899011e-02   -1,109793968e-02   -5,285382271e-01   -2,693957686e-01    0,000000000e+00    0,000000000e+00    0,000000000e+00    0,000000000e+00
      744000000    6,519163400e-02   -6,284351647e-02   -5,643567443e-01    1,062565893e-01    0,000000000e+00    0,000000000e+00    0,000000000e+00    0,000000000e+00
      758000000    6,600313634e-02   -1,523511708e-01   -3,642956614e-01    4,110057652e-01    0,000000000e+00    0,000000000e+00    0,000000000e+00    0,000000000e+00
      772000000   -1,292582322e-02   -2,626279294e-01   -3,515748680e-02    5,156292915e-01    0,000000000e+00    0,000000000e+00    0,000000000e+00    0,000000000e+00
      786000000   -2,066718340e-01   -3,020541668e-01    2,745206654e-01    3,953610361e-01    0,000000000e+00    0,000000000e+00    0,000000000e+00    0,000000000e+00
      800000000   -4,249434471e-01   -1,301924288e-01    4,170739651e-01    9,925325215e-02    0,000000000e+00    0,000000000e+00    0,000000000e+00    0,000000000e+00
      814000000   -3,901215494e-01    2,212707102e-01    2,822526097e-01   -1,731290966e-01    0,000000000e+00    0,000000000e+00    0,000000000e+00    0,000000000e+00
      828000000   -4,948756099e-02    3,673110306e-01    5,522436276e-02   -1,892962605e-01    0,000000000e+00    0,000000000e+00    0,000000000e+00    0,000000000e+00
      842000000    2,353590429e-01    1,858496070e-01   -1,717990637e-02   -7,064490020e-02    0,000000000e+00    0,000000000e+00    0,000000000e+00    0,000000000e+00
      856000000    2,805700004e-01   -1,244055852e-01    4,499386624e-02   -1,346542314e-02    0,000000000e+00    0,000000000e+00    0,000000000e+00    0,000000000e+00
      870000000    7,567951083e-02   -3,764406741e-01    1,133905128e-01   -9,049863368e-02    0,000000000e+00    0,000000000e+00    0,000000000e+00    0,000000000e+00
      884000000   -2,952029407e-01   -3,617991805e-01    2,851904929e-02   -2,456566393e-01    0,000000000e+00    0,000000000e+00    0,000000000e+00    0,000000000e+00
      898000000   -4,713905156e-01    9,447813034e-03   -2,212806344e-01   -2,273897082e-01    0,000000000e+00    0,000000000e+00    0,000000000e+00    0,000000000e+00
      912000000   -2,266141623e-01    2,937475443e-01   -3,352285922e-01    6,713154912e-02    0,000000000e+00    0,000000000e+00    0,000000000e+00    0,000000000e+00
      926000000    6,756559014e-02    2,655064464e-01   -2,158789337e-01    2,674782872e-01    0,000000000e+00    0,000000000e+00    0,000000000e+00    0,000000000e+00
      940000000    2,169209868e-01    7,842607796e-02   -3,571371362e-02    3,279568553e-01    0,000000000e+00    0,000000000e+00    0,000000000e+00    0,000000000e+00
      954000000    2,241437286e-01   -1,277786344e-01    1,317426860e-01    3,072216213e-01    0,000000000e+00    0,000000000e+00    0,000000000e+00    0,000000000e+00
      968000000    1,136672646e-01   -3,014250398e-01    2,699730992e-01    2,174270451e-01    0,000000000e+00    0,000000000e+00    0,000000000e+00    0,000000000e+00
      982000000   -8,263470978e-02   -3,860594928e-01    3,667027652e-01    6,512081623e-02    0,000000000e+00    0,000000000e+00    0,000000000e+00    0,000000000e+00
      996000000   -3,143934011e-01   -3,306880295e-01    3,693956733e-01   -1,465522051e-01    0,000000000e+00    0,000000000e+00    0,000000000e+00    0,000000000e+00
     1010000000   -4,598752260e-01   -1,096634194e-01    2,233254164e-01   -3,407567143e-01    0,000000000e+00    0,000000000e+00    0,000000000e+00    0,000000000e+00
     1024000000   -4,125546515e-01    1,533304006e-01   -3,405388817e-02   -3,935709894e-01    0,000000000e+00    0,000000000e+00    0,000000000e+00    0,000000000e+00
     1038000000   -2,157625854e-01    2,888769507e-01   -2,465630621e-01   -2,614304721e-01    0,000000000e+00    0,000000000e+00    0,000000000e+00    0,000000000e+00
     1052000000   -6,243593059e-03    2,792837918e-01   -3,201082945e-01   -4,767862707e-02    0,000000000e+00    0,000000000e+00    0,000000000e+00    0,000000000e+00
     1066000000    1,365588754e-01    1,604199260e-01   -2,590234876e-01    1,463587433e-01    0,000000000e+00    0,000000000e+00    0,000000000e+00    0,000000000e+00
     1080000000    1,897271574e-01    8,746928506e-05   -1,177233309e-01    2,641868889e-01    0,000000000e+00    0,000000000e+00    0,000000000e+00    0,000000000e+00
     1094000000    1,573508084e-01   -1,735704094e-01    6,407185644e-02    3,062196672e-01    0,000000000e+00    0,000000000e+00    0,000000000e+00    0,000000000e+00
     1108000000   -2,145691775e-03   -3,078967035e-01    2,790826857e-01    2,441057116e-01    0,000000000e+00    0,000000000e+00    0,000000000e+00    0,000000000e+00
     1122000000   -2,518456280e-01   -2,621602416e-01    4,718156755e-01    1,132767368e-02    0,000000000e+00    0,000000000e+00    0,000000000e+00    0,000000000e+00
     1136000000   -3,229338825e-01    3,294967115e-02    4,003577828e-01   -3,892712295e-01    0,000000000e+00    0,000000000e+00    0,000000000e+00    0,000000000e+00
     1150000000   -3,919448331e-02    1,543283165e-01    5,336247385e-03   -5,422200561e-01    0,000000000e+00    0,000000000e+00    0,000000000e+00    0,000000000e+00
     1164000000    1,258451641e-01   -6,433828175e-02   -2,755022943e-01   -3,783368170e-01    0,000000000e+00    0,000000000e+00    0,000000000e+00    0,000000000e+00
     1178000000    1,595526189e-02   -3,055037558e-01   -3,637874722e-01   -1,490414590e-01    0,000000000e+00    0,000000000e+00    0,000000000e+00    0,000000000e+00
     1192000000   -2,670523226e-01   -3,716964722e-01   -3,223025799e-01    5,702618137e-02    0,000000000e+00    0,000000000e+00    0,000000000e+00    0,000000000e+00
     1206000000   -5,185872316e-01   -1,618047059e-01   -1,654094458e-01    1,812464148e-01    0,000000000e+00    0,000000000e+00    0,000000000e+00    0,000000000e+00
     1220000000   -5,069369078e-01    1,734444797e-01    7,020669524e-03    1,590071172e-01    0,000000000e+00    0,000000000e+00    0,000000000e+00    0,000000000e+00
     1234000000   -2,871647179e-01    3,585521579e-01    7,237645239e-02    6,187925488e-02    0,000000000e+00    0,000000000e+00    0,000000000e+00    0,000000000e+00
     1248000000   -4,163306579e-02    3,588460088e-01    5,355700850e-02   -1,310088765e-02    0,000000000e+00    0,000000000e+00    0,000000000e+00    0,000000000e+00
     1262000000    1,187644079e-01    2,575666606e-01    1,428644918e-02   -1,932694390e-02    0,000000000e+00    0,000000000e+00    0,000000000e+00    0,000000000e+00
     1276000000    2,095254809e-01    9,696744382e-02   -4,362650681e-03    3,090003971e-03    0,000000000e+00    0,000000000e+00    0,000000000e+00    0,000000000e+00
     1290000000    2,215772420e-01   -7,364993542e-02    1,437745988e-02    5,461520702e-02    0,000000000e+00    0,000000000e+00    0,000000000e+00    0,000000000e+00
     1304000000    1,541330516e-01   -2,440326214e-01    1,271666735e-01    6,335033476e-02    0,000000000e+00    0,000000000e+00    0,000000000e+00    0,000000000e+00
     1318000000    3,579332680e-02   -3,333195150e-01    1,332614273e-01   -1,615946740e-01    0,000000000e+00    0,000000000e+00    0,000000000e+00    0,000000000e+00
     1332000000   -1,244915128e-01   -4,396759868e-01   -4,079287499e-02   -5,203132331e-02    0,000000000e+00    0,000000000e+00    0,000000000e+00    0,000000000e+00
     1346000000   -3,942576945e-01   -4,039195776e-01    2,726999670e-02    6,635607034e-02    0,000000000e+00    0,000000000e+00    0,000000000e+00    0,000000000e+00
     1360000000   -6,036385894e-01   -1,858007610e-01    1,449929476e-01    7,195855677e-02    0,000000000e+00    0,000000000e+00    0,000000000e+00    0,000000000e+00
     1374000000   -6,331010461e-01    1,321648806e-01    2,013012916e-01    9,192631580e-03    0,000000000e+00    0,000000000e+00    0,000000000e+00    0,000000000e+00
     1388000000   -4,643434286e-01    3,667849004e-01    2,112659216e-01   -6,343197078e-02    0,000000000e+00    0,000000000e+00    0,000000000e+00    0,000000000e+00
     1402000000   -2,338618934e-01    4,502187073e-01    1,853610277e-01   -1,054666936e-01    0,000000000e+00    0,000000000e+00    0,000000000e+00    0,000000000e+00
     1416000000   -2,583770640e-02    4,071997404e-01    1,819020510e-01   -1,064414904e-01    0,000000000e+00    0,000000000e+00    0,000000000e+00    0,000000000e+00
     1430000000    1,227020845e-01    3,021252155e-01    1,603143513e-01   -1,115673929e-01    0,000000000e+00    0,000000000e+00    0,000000000e+00    0,000000000e+00
     1444000000    2,084481269e-01    1,509477496e-01    1,572576314e-01   -1,059347689e-01    0,000000000e+00    0,000000000e+00    0,000000000e+00    0,000000000e+00
     1458000000    2,301116884e-01   -1,931084320e-02    1,337522864e-01   -7,172030956e-02    0,000000000e+00    0,000000000e+00    0,000000000e+00    0,000000000e+00
     1472000000    1,907857955e-01   -2,004602402e-01    1,367950737e-01   -3,822154552e-02    0,000000000e+00    0,000000000e+00    0,000000000e+00    0,000000000e+00
     1486000000    6,298469752e-02   -3,725228310e-01    1,670223325e-01    4,445077479e-02    0,000000000e+00    0,000000000e+00    0,000000000e+00    0,000000000e+00
     1500000000   -1,756007075e-01   -4,992636144e-01    2,434300035e-01    9,137363732e-02    0,000000000e+00    0,000000000e+00    0,000000000e+00    0,000000000e+00
