! NanoVNA-App
! Date: 2025-09-25 15:34:22
! Start: 100MHz Stop: 1,5GHz Points: 101
! S-Parameter data: F S11 S21 S12 S22
# Hz S RI R 50
!     Frequency           S11_Real           S11_Imag           S21_Real           S21_Imag           S12_Real           S12_Imag           S22_Real           S22_Imag
      100000000   -2,885579318e-02   -4,171581008e-03    3,740993738e-01   -7,217372060e-01    0,000000000e+00    0,000000000e+00    0,000000000e+00    0,000000000e+00
      114000000   -1,652367972e-02    1,150746830e-02   -8,910478652e-02   -8,054386377e-01    0,000000000e+00    0,000000000e+00    0,000000000e+00    0,000000000e+00
      128000000    3,445873270e-03    1,049356535e-02   -5,146963000e-01   -6,205133796e-01    0,000000000e+00    0,000000000e+00    0,000000000e+00    0,000000000e+00
      142000000    1,457015425e-02   -2,960067941e-03   -7,670560479e-01   -2,365387678e-01    0,000000000e+00    0,000000000e+00    0,000000000e+00    0,000000000e+00
      156000000    1,515287999e-02   -1,511646435e-02   -7,693411708e-01    2,198232859e-01    0,000000000e+00    0,000000000e+00    0,000000000e+00    0,000000000e+00
      170000000    1,669695042e-02   -2,249581739e-02   -5,183019638e-01    6,049495935e-01    0,000000000e+00    0,000000000e+00    0,000000000e+00    0,000000000e+00
      184000000    2,101576328e-02   -3,711020947e-02   -1,013393402e-01    7,859617472e-01    0,000000000e+00    0,000000000e+00    0,000000000e+00    0,000000000e+00
      198000000    1,302232593e-02   -6,244933978e-02    3,433079720e-01    7,126965523e-01    0,000000000e+00    0,000000000e+00    0,000000000e+00    0,000000000e+00
      212000000   -1,866256259e-02   -8,134425431e-02    6,781192422e-01    4,100598097e-01    0,000000000e+00    0,000000000e+00    0,000000000e+00    0,000000000e+00
      226000000   -6,174409762e-02   -6,917059422e-02    7,958434224e-01   -3,055488318e-02    0,000000000e+00    0,000000000e+00    0,000000000e+00    0,000000000e+00
      240000000   -8,265162259e-02   -2,562681958e-02    6,461908221e-01   -4,669137299e-01    0,000000000e+00    0,000000000e+00    0,000000000e+00    0,000000000e+00
      254000000   -6,349974126e-02    1,727087051e-02    2,762551308e-01   -7,438200116e-01    0,000000000e+00    0,000000000e+00    0,000000000e+00    0,000000000e+00
      268000000   -2,388984524e-02    2,894014865e-02   -1,779851913e-01   -7,640697956e-01    0,000000000e+00    0,000000000e+00    0,000000000e+00    0,000000000e+00
      282000000    4,155999050e-03    1,190921199e-02   -5,619099736e-01   -5,357814431e-01    0,000000000e+00    0,000000000e+00    0,000000000e+00    0,000000000e+00
      296000000    9,702539071e-03   -7,839838043e-03   -7,599523067e-01   -1,395847201e-01    0,000000000e+00    0,000000000e+00    0,000000000e+00    0,000000000e+00
      310000000    1,122109592e-02   -1,622255519e-02   -7,119472027e-01    2,977164984e-01    0,000000000e+00    0,000000000e+00    0,000000000e+00    0,000000000e+00
      324000000    1,954539120e-02   -2,632173337e-02   -4,276201129e-01    6,382995248e-01    0,000000000e+00    0,000000000e+00    0,000000000e+00    0,000000000e+00
      338000000    2,540316246e-02   -5,218034983e-02   -8,024706505e-03    7,627542019e-01    0,000000000e+00    0,000000000e+00    0,000000000e+00    0,000000000e+00
      352000000    7,593683898e-03   -8,488621563e-02    4,066428542e-01    6,393170953e-01    0,000000000e+00    0,000000000e+00    0,000000000e+00    0,000000000e+00
      366000000   -3,471378982e-02   -9,563846141e-02    6,900785565e-01    3,107509911e-01    0,000000000e+00    0,000000000e+00    0,000000000e+00    0,000000000e+00
      380000000   -7,101991028e-02   -7,113296539e-02    7,476553321e-01   -1,262826324e-01    0,000000000e+00    0,000000000e+00    0,000000000e+00    0,000000000e+00
      394000000   -7,260080427e-02   -3,250899911e-02    5,463610888e-01   -5,228666663e-01    0,000000000e+00    0,000000000e+00    0,000000000e+00    0,000000000e+00
      408000000   -4,637173936e-02   -1,622065343e-02    1,624592692e-01   -7,318323255e-01    0,000000000e+00    0,000000000e+00    0,000000000e+00    0,000000000e+00
      422000000   -2,848728932e-02   -3,219003230e-02   -2,680808306e-01   -6,954593658e-01    0,000000000e+00    0,000000000e+00    0,000000000e+00    0,000000000e+00
      436000000   -4,073787481e-02   -5,206131563e-02   -6,046642661e-01   -4,323272407e-01    0,000000000e+00    0,000000000e+00    0,000000000e+00    0,000000000e+00
      450000000   -6,763736159e-02   -4,370111600e-02   -7,409794927e-01   -2,121361531e-02    0,000000000e+00    0,000000000e+00    0,000000000e+00    0,000000000e+00
      464000000   -7,341200858e-02   -1,144780312e-02   -6,185826063e-01    3,974708021e-01    0,000000000e+00    0,000000000e+00    0,000000000e+00    0,000000000e+00
      478000000   -4,753322154e-02    1,200602856e-02   -2,820040286e-01    6,682657003e-01    0,000000000e+00    0,000000000e+00    0,000000000e+00    0,000000000e+00
      492000000   -1,570155844e-02    5,726584233e-03    1,384452879e-01    7,009574771e-01    0,000000000e+00    0,000000000e+00    0,000000000e+00    0,000000000e+00
      506000000   -2,758968854e-03   -1,559317298e-02    4,984057844e-01    5,024324656e-01    0,000000000e+00    0,000000000e+00    0,000000000e+00    0,000000000e+00
      520000000   -4,909619223e-03   -3,126394004e-02    6,875631213e-01    1,403184682e-01    0,000000000e+00    0,000000000e+00    0,000000000e+00    0,000000000e+00
      534000000   -3,948688041e-03   -3,828686103e-02    6,436535716e-01   -2,621632516e-01    0,000000000e+00    0,000000000e+00    0,000000000e+00    0,000000000e+00
      548000000    5,916991737e-03   -5,394278094e-02    3,813593090e-01   -5,668167472e-01    0,000000000e+00    0,000000000e+00    0,000000000e+00    0,000000000e+00
      562000000    2,845513634e-03   -8,955025673e-02    2,312891651e-03   -6,725427508e-01    0,000000000e+00    0,000000000e+00    0,000000000e+00    0,000000000e+00
      576000000   -3,402242810e-02   -1,239428893e-01   -3,694972992e-01   -5,575498343e-01    0,000000000e+00    0,000000000e+00    0,000000000e+00    0,000000000e+00
      590000000   -9,643191844e-02   -1,225675642e-01   -6,203745604e-01   -2,656967044e-01    0,000000000e+00    0,000000000e+00    0,000000000e+00    0,000000000e+00
      604000000   -1,397667825e-01   -7,180354744e-02   -6,654428244e-01    1,380416006e-01    0,000000000e+00    0,000000000e+00    0,000000000e+00    0,000000000e+00
      618000000   -1,300379038e-01   -8,971713483e-03   -4,649377763e-01    4,944393933e-01    0,000000000e+00    0,000000000e+00    0,000000000e+00    0,000000000e+00
      632000000   -8,435422182e-02    1,636473089e-02   -9,894460440e-02    6,638322473e-01    0,000000000e+00    0,000000000e+00    0,000000000e+00    0,000000000e+00
      646000000   -5,130414292e-02   -1,295272887e-05    2,875045836e-01    5,951672792e-01    0,000000000e+00    0,000000000e+00    0,000000000e+00    0,000000000e+00
      660000000   -5,280031636e-02   -2,194979787e-02    5,677464008e-01    3,227490187e-01    0,000000000e+00    0,000000000e+00    0,000000000e+00    0,000000000e+00
      674000000   -6,953529269e-02   -1,777420938e-02    6,430050135e-01   -6,502956152e-02    0,000000000e+00    0,000000000e+00    0,000000000e+00    0,000000000e+00
      688000000   -6,804990023e-02    9,639790282e-03    4,713381827e-01   -4,277175665e-01    0,000000000e+00    0,000000000e+00    0,000000000e+00    0,000000000e+00
      702000000   -3,797291219e-02    2,634338289e-02    1,223628968e-01   -6,164677143e-01    0,000000000e+00    0,000000000e+00    0,000000000e+00    0,000000000e+00
      716000000    2,870888682e-03    1,759773307e-02   -2,649219334e-01   -5,475335717e-01    0,000000000e+00    0,000000000e+00    0,000000000e+00    0,000000000e+00
      730000000    3,619894758e-02   -1,123096701e-02   -5,284355879e-01   -2,691876292e-01    0,000000000e+00    0,000000000e+00    0,000000000e+00    0,000000000e+00
      744000000    6,528472900e-02   -6,153720245e-02   -5,643041134e-01    1,060792953e-01    0,000000000e+00    0,000000000e+00    0,000000000e+00    0,000000000e+00
      758000000    6,704980880e-02   -1,525959224e-01   -3,639365435e-01    4,099870026e-01    0,000000000e+00    0,000000000e+00    0,000000000e+00    0,000000000e+00
      772000000   -1,346511487e-02   -2,628276944e-01   -3,424878046e-02    5,154981017e-01    0,000000000e+00    0,000000000e+00    0,000000000e+00    0,000000000e+00
      786000000   -2,067839801e-01   -3,020991981e-01    2,743994296e-01    3,953937590e-01    0,000000000e+00    0,000000000e+00    0,000000000e+00    0,000000000e+00
      800000000   -4,248655438e-01   -1,308168024e-01    4,167676866e-01    9,950295091e-02    0,000000000e+00    0,000000000e+00    0,000000000e+00    0,000000000e+00
      814000000   -3,897719383e-01    2,222541869e-01    2,822809815e-01   -1,732926220e-01    0,000000000e+00    0,000000000e+00    0,000000000e+00    0,000000000e+00
      828000000   -4,878550768e-02    3,686048388e-01    5,516299233e-02   -1,895775646e-01    0,000000000e+00    0,000000000e+00    0,000000000e+00    0,000000000e+00
      842000000    2,354454398e-01    1,861439198e-01   -1,680335589e-02   -7,067390531e-02    0,000000000e+00    0,000000000e+00    0,000000000e+00    0,000000000e+00
      856000000    2,804014683e-01   -1,245998517e-01    4,460303113e-02   -1,313396171e-02    0,000000000e+00    0,000000000e+00    0,000000000e+00    0,000000000e+00
      870000000    7,564227283e-02   -3,756375909e-01    1,135722548e-01   -9,077740461e-02    0,000000000e+00    0,000000000e+00    0,000000000e+00    0,000000000e+00
      884000000   -2,958463728e-01   -3,611831069e-01    2,825041860e-02   -2,452298254e-01    0,000000000e+00    0,000000000e+00    0,000000000e+00    0,000000000e+00
      898000000   -4,716903269e-01    8,258509450e-03   -2,218093574e-01   -2,276112586e-01    0,000000000e+00    0,000000000e+00    0,000000000e+00    0,000000000e+00
      912000000   -2,273237109e-01    2,939798534e-01   -3,523496091e-01    6,316772848e-02    0,000000000e+00    0,000000000e+00    0,000000000e+00    0,000000000e+00
      926000000    6,735580415e-02    2,630087137e-01   -2,163293660e-01    2,639334202e-01    0,000000000e+00    0,000000000e+00    0,000000000e+00    0,000000000e+00
      940000000    2,176330835e-01    7,966148853e-02   -3,573726863e-02    3,310487866e-01    0,000000000e+00    0,000000000e+00    0,000000000e+00    0,000000000e+00
      954000000    2,254753709e-01   -1,277723312e-01    1,307332665e-01    3,071114123e-01    0,000000000e+00    0,000000000e+00    0,000000000e+00    0,000000000e+00
      968000000    1,162100062e-01   -3,024910390e-01    2,705357671e-01    2,189100832e-01    0,000000000e+00    0,000000000e+00    0,000000000e+00    0,000000000e+00
      982000000   -8,503736556e-02   -3,862431645e-01    3,678790331e-01    6,503512710e-02    0,000000000e+00    0,000000000e+00    0,000000000e+00    0,000000000e+00
      996000000   -3,194318116e-01   -3,306424022e-01    3,690769672e-01   -1,444818079e-01    0,000000000e+00    0,000000000e+00    0,000000000e+00    0,000000000e+00
     1010000000   -4,614167213e-01   -1,072581187e-01    2,242121398e-01   -3,433565497e-01    0,000000000e+00    0,000000000e+00    0,000000000e+00    0,000000000e+00
     1024000000   -4,140068889e-01    1,467483938e-01   -3,377477452e-02   -3,942737877e-01    0,000000000e+00    0,000000000e+00    0,000000000e+00    0,000000000e+00
     1038000000   -2,203013152e-01    2,909902632e-01   -2,461402416e-01   -2,599252760e-01    0,000000000e+00    0,000000000e+00    0,000000000e+00    0,000000000e+00
     1052000000   -9,396626614e-03    2,770851851e-01   -3,182297945e-01   -4,526830092e-02    0,000000000e+00    0,000000000e+00    0,000000000e+00    0,000000000e+00
     1066000000    1,351476461e-01    1,605378985e-01   -2,563287318e-01    1,415160745e-01    0,000000000e+00    0,000000000e+00    0,000000000e+00    0,000000000e+00
     1080000000    1,916301399e-01   -3,734987695e-04   -1,189957485e-01    2,651301622e-01    0,000000000e+00    0,000000000e+00    0,000000000e+00    0,000000000e+00
     1094000000    1,502793431e-01   -1,756823212e-01    6,685971469e-02    3,055582345e-01    0,000000000e+00    0,000000000e+00    0,000000000e+00    0,000000000e+00
     1108000000   -7,916566101e-04   -3,088076711e-01    2,762319446e-01    2,457427830e-01    0,000000000e+00    0,000000000e+00    0,000000000e+00    0,000000000e+00
     1122000000   -2,502576709e-01   -2,618036866e-01    4,703334868e-01    1,071518660e-02    0,000000000e+00    0,000000000e+00    0,000000000e+00    0,000000000e+00
     1136000000   -3,223434687e-01    3,134350851e-02    3,976124525e-01   -3,928888440e-01    0,000000000e+00    0,000000000e+00    0,000000000e+00    0,000000000e+00
     1150000000   -3,915971890e-02    1,542728990e-01    2,807289362e-03   -5,431064367e-01    0,000000000e+00    0,000000000e+00    0,000000000e+00    0,000000000e+00
     1164000000    1,202550307e-01   -6,263194233e-02   -2,793687284e-01   -3,776147068e-01    0,000000000e+00    0,000000000e+00    0,000000000e+00    0,000000000e+00
     1178000000    2,049660124e-02   -3,026845753e-01   -3,660477400e-01   -1,547710747e-01    0,000000000e+00    0,000000000e+00    0,000000000e+00    0,000000000e+00
     1192000000   -2,659205794e-01   -3,678631186e-01   -3,265840411e-01    6,001663208e-02    0,000000000e+00    0,000000000e+00    0,000000000e+00    0,000000000e+00
     1206000000   -5,186992884e-01   -1,606945097e-01   -1,623960137e-01    1,818356365e-01    0,000000000e+00    0,000000000e+00    0,000000000e+00    0,000000000e+00
     1220000000   -5,061472058e-01    1,735432744e-01    2,349485410e-03    1,592261940e-01    0,000000000e+00    0,000000000e+00    0,000000000e+00    0,000000000e+00
     1234000000   -2,818011940e-01    3,638835251e-01    7,377716154e-02    6,095511094e-02    0,000000000e+00    0,000000000e+00    0,000000000e+00    0,000000000e+00
     1248000000   -4,351230711e-02    3,687762916e-01    5,981550366e-02   -6,189405452e-03    0,000000000e+00    0,000000000e+00    0,000000000e+00    0,000000000e+00
     1262000000    1,240474284e-01    2,527295351e-01    1,522090286e-02   -2,395595610e-02    0,000000000e+00    0,000000000e+00    0,000000000e+00    0,000000000e+00
     1276000000    2,119529694e-01    1,010481045e-01    1,192261465e-03    1,560326666e-03    0,000000000e+00    0,000000000e+00    0,000000000e+00    0,000000000e+00
     1290000000    2,267727107e-01   -7,217512280e-02    1,949436590e-02    5,084016547e-02    0,000000000e+00    0,000000000e+00    0,000000000e+00    0,000000000e+00
     1304000000    1,557241529e-01   -2,434013784e-01    1,283983886e-01    6,916169077e-02    0,000000000e+00    0,000000000e+00    0,000000000e+00    0,000000000e+00
     1318000000    3,320468217e-02   -3,393878043e-01    1,284484416e-01   -1,649710834e-01    0,000000000e+00    0,000000000e+00    0,000000000e+00    0,000000000e+00
     1332000000   -1,261709780e-01   -4,409711063e-01   -4,290600121e-02   -5,645865574e-02    0,000000000e+00    0,000000000e+00    0,000000000e+00    0,000000000e+00
     1346000000   -3,980732858e-01   -4,047398865e-01    1,961330883e-02    6,317152828e-02    0,000000000e+00    0,000000000e+00    0,000000000e+00    0,000000000e+00
     1360000000   -6,023191214e-01   -1,868271828e-01    1,435574740e-01    7,356249541e-02    0,000000000e+00    0,000000000e+00    0,000000000e+00    0,000000000e+00
     1374000000   -6,306840777e-01    1,354754567e-01    2,054647952e-01   -8,315105806e-04    0,000000000e+00    0,000000000e+00    0,000000000e+00    0,000000000e+00
     1388000000   -4,679751694e-01    3,631120622e-01    2,103145868e-01   -7,046590745e-02    0,000000000e+00    0,000000000e+00    0,000000000e+00    0,000000000e+00
     1402000000   -2,339586169e-01    4,466789663e-01    1,876636297e-01   -1,069154069e-01    0,000000000e+00    0,000000000e+00    0,000000000e+00    0,000000000e+00
     1416000000   -2,589691617e-02    4,138478339e-01    1,798520833e-01   -1,086529642e-01    0,000000000e+00    0,000000000e+00    0,000000000e+00    0,000000000e+00
     1430000000    1,197804138e-01    2,994739413e-01    1,669087261e-01   -1,103478968e-01    0,000000000e+00    0,000000000e+00    0,000000000e+00    0,000000000e+00
     1444000000    2,051387429e-01    1,502991766e-01    1,506358534e-01   -9,090118855e-02    0,000000000e+00    0,000000000e+00    0,000000000e+00    0,000000000e+00
     1458000000    2,329701930e-01   -2,437823266e-02    1,509862840e-01   -7,500866055e-02    0,000000000e+00    0,000000000e+00    0,000000000e+00    0,000000000e+00
     1472000000    1,942141205e-01   -1,978863776e-01    1,423156261e-01   -2,402407676e-02    0,000000000e+00    0,000000000e+00    0,000000000e+00    0,000000000e+00
     1486000000    6,253327429e-02   -3,760648966e-01    1,796858013e-01    4,369991645e-02    0,000000000e+00    0,000000000e+00    0,000000000e+00    0,000000000e+00
     1500000000   -1,751314700e-01   -4,915766418e-01    2,413272560e-01    9,172417969e-02    0,000000000e+00    0,000000000e+00    0,000000000e+00    0,000000000e+00
