! NanoVNA-App
! Date: 2025-09-25 15:31:58
! Start: 100MHz Stop: 1,5GHz Points: 101
! S-Parameter data: F S11 S21 S12 S22
# Hz S RI R 50
!     Frequency           S11_Real           S11_Imag           S21_Real           S21_Imag           S12_Real           S12_Imag           S22_Real           S22_Imag
      100000000   -2,885948122e-02   -4,176262766e-03    3,741112351e-01   -7,218548656e-01    0,000000000e+00    0,000000000e+00    0,000000000e+00    0,000000000e+00
      114000000   -1,649554446e-02    1,152358018e-02   -8,888824284e-02   -8,055245876e-01    0,000000000e+00    0,000000000e+00    0,000000000e+00    0,000000000e+00
      128000000    3,478674917e-03    1,056941133e-02   -5,145437121e-01   -6,205906868e-01    0,000000000e+00    0,000000000e+00    0,000000000e+00    0,000000000e+00
      142000000    1,454642229e-02   -2,960198093e-03   -7,670907974e-01   -2,366756350e-01    0,000000000e+00    0,000000000e+00    0,000000000e+00    0,000000000e+00
      156000000    1,470164768e-02   -1,476891153e-02   -7,659824491e-01    2,216040641e-01    0,000000000e+00    0,000000000e+00    0,000000000e+00    0,000000000e+00
      170000000    1,669088379e-02   -2,251863293e-02   -5,182929039e-01    6,047926545e-01    0,000000000e+00    0,000000000e+00    0,000000000e+00    0,000000000e+00
      184000000    2,101081982e-02   -3,704233095e-02   -1,013257131e-01    7,859258652e-01    0,000000000e+00    0,000000000e+00    0,000000000e+00    0,000000000e+00
      198000000    1,297437213e-02   -6,245925277e-02    3,433829844e-01    7,124935985e-01    0,000000000e+00    0,000000000e+00    0,000000000e+00    0,000000000e+00
      212000000   -1,866964437e-02   -8,131738007e-02    6,780224442e-01    4,101042747e-01    0,000000000e+00    0,000000000e+00    0,000000000e+00    0,000000000e+00
      226000000   -6,172550470e-02   -6,913378835e-02    7,958109975e-01   -3,057843819e-02    0,000000000e+00    0,000000000e+00    0,000000000e+00    0,000000000e+00
      240000000   -8,256950229e-02   -2,561191842e-02    6,462827325e-01   -4,670930505e-01    0,000000000e+00    0,000000000e+00    0,000000000e+00    0,000000000e+00
      254000000   -6,350994855e-02    1,725900546e-02    2,762601376e-01   -7,437980771e-01    0,000000000e+00    0,000000000e+00    0,000000000e+00    0,000000000e+00
      268000000   -2,393765561e-02    2,890393138e-02   -1,781724691e-01   -7,645390034e-01    0,000000000e+00    0,000000000e+00    0,000000000e+00    0,000000000e+00
      282000000    4,116647411e-03    1,200352050e-02   -5,618220568e-01   -5,358430147e-01    0,000000000e+00    0,000000000e+00    0,000000000e+00    0,000000000e+00
      296000000    9,600413963e-03   -7,819889113e-03   -7,597177625e-01   -1,396098286e-01    0,000000000e+00    0,000000000e+00    0,000000000e+00    0,000000000e+00
      310000000    1,108737569e-02   -1,632332057e-02   -7,126179934e-01    2,994796634e-01    0,000000000e+00    0,000000000e+00    0,000000000e+00    0,000000000e+00
      324000000    1,961675473e-02   -2,648152411e-02   -4,275229275e-01    6,388355494e-01    0,000000000e+00    0,000000000e+00    0,000000000e+00    0,000000000e+00
      338000000    2,583859861e-02   -5,218701065e-02   -8,879191242e-03    7,599785924e-01    0,000000000e+00    0,000000000e+00    0,000000000e+00    0,000000000e+00
      352000000    7,484520786e-03   -8,485619724e-02    4,063696563e-01    6,397717595e-01    0,000000000e+00    0,000000000e+00    0,000000000e+00    0,000000000e+00
      366000000   -3,470508382e-02   -9,564942867e-02    6,905674338e-01    3,112128675e-01    0,000000000e+00    0,000000000e+00    0,000000000e+00    0,000000000e+00
      380000000   -7,075242698e-02   -7,121819258e-02    7,479112148e-01   -1,262021214e-01    0,000000000e+00    0,000000000e+00    0,000000000e+00    0,000000000e+00
      394000000   -7,270614058e-02   -3,240748122e-02    5,470088124e-01   -5,219019651e-01    0,000000000e+00    0,000000000e+00    0,000000000e+00    0,000000000e+00
      408000000   -4,652576149e-02   -1,622569002e-02    1,609082669e-01   -7,317340374e-01    0,000000000e+00    0,000000000e+00    0,000000000e+00    0,000000000e+00
      422000000   -2,837749012e-02   -3,203240037e-02   -2,678907514e-01   -6,945191026e-01    0,000000000e+00    0,000000000e+00    0,000000000e+00    0,000000000e+00
      436000000   -4,055577517e-02   -5,172315612e-02   -6,037089229e-01   -4,314943254e-01    0,000000000e+00    0,000000000e+00    0,000000000e+00    0,000000000e+00
      450000000   -6,753352284e-02   -4,359205067e-02   -7,407112718e-01   -2,119646221e-02    0,000000000e+00    0,000000000e+00    0,000000000e+00    0,000000000e+00
      464000000   -7,344277948e-02   -1,158516575e-02   -6,188451648e-01    3,976907134e-01    0,000000000e+00    0,000000000e+00    0,000000000e+00    0,000000000e+00
      478000000   -4,750737920e-02    1,175135747e-02   -2,824908495e-01    6,675068140e-01    0,000000000e+00    0,000000000e+00    0,000000000e+00    0,000000000e+00
      492000000   -1,592558436e-02    5,841116421e-03    1,369677931e-01    7,015007734e-01    0,000000000e+00    0,000000000e+00    0,000000000e+00    0,000000000e+00
      506000000   -2,293823520e-03   -1,566835865e-02    4,991485178e-01    5,023381710e-01    0,000000000e+00    0,000000000e+00    0,000000000e+00    0,000000000e+00
      520000000   -4,971884191e-03   -3,153781220e-02    6,874617338e-01    1,413872987e-01    0,000000000e+00    0,000000000e+00    0,000000000e+00    0,000000000e+00
      534000000   -3,998608794e-03   -3,838308156e-02    6,430317163e-01   -2,624622583e-01    0,000000000e+00    0,000000000e+00    0,000000000e+00    0,000000000e+00
      548000000    6,140910089e-03   -5,355502665e-02    3,815666437e-01   -5,672917962e-01    0,000000000e+00    0,000000000e+00    0,000000000e+00    0,000000000e+00
      562000000    3,061635653e-03   -8,949869871e-02    1,323038945e-03   -6,723170877e-01    0,000000000e+00    0,000000000e+00    0,000000000e+00    0,000000000e+00
      576000000   -3,444328904e-02   -1,243405342e-01   -3,690174818e-01   -5,572454929e-01    0,000000000e+00    0,000000000e+00    0,000000000e+00    0,000000000e+00
      590000000   -9,618111700e-02   -1,226970702e-01   -6,224097610e-01   -2,631282806e-01    0,000000000e+00    0,000000000e+00    0,000000000e+00    0,000000000e+00
      604000000   -1,396360695e-01   -7,172873616e-02   -6,654199958e-01    1,376693547e-01    0,000000000e+00    0,000000000e+00    0,000000000e+00    0,000000000e+00
      618000000   -1,295549572e-01   -9,253267199e-03   -4,644212127e-01    4,949529171e-01    0,000000000e+00    0,000000000e+00    0,000000000e+00    0,000000000e+00
      632000000   -8,394873142e-02    1,620368846e-02   -9,878157079e-02    6,637075543e-01    0,000000000e+00    0,000000000e+00    0,000000000e+00    0,000000000e+00
      646000000   -5,137256533e-02    9,032014641e-04    2,891696095e-01    5,954090953e-01    0,000000000e+00    0,000000000e+00    0,000000000e+00    0,000000000e+00
      660000000   -5,364757776e-02   -2,160594426e-02    5,666816831e-01    3,222207129e-01    0,000000000e+00    0,000000000e+00    0,000000000e+00    0,000000000e+00
      674000000   -7,065619528e-02   -1,801988296e-02    6,430858374e-01   -6,545024365e-02    0,000000000e+00    0,000000000e+00    0,000000000e+00    0,000000000e+00
      688000000   -6,852415949e-02    8,261381648e-03    4,712849259e-01   -4,278776348e-01    0,000000000e+00    0,000000000e+00    0,000000000e+00    0,000000000e+00
      702000000   -3,704381734e-02    2,608208545e-02    1,139637977e-01   -6,090497375e-01    0,000000000e+00    0,000000000e+00    0,000000000e+00    0,000000000e+00
      716000000    1,670802594e-03    1,822372153e-02   -2,648962140e-01   -5,467150211e-01    0,000000000e+00    0,000000000e+00    0,000000000e+00    0,000000000e+00
      730000000    3,716525435e-02   -1,058993302e-02   -5,281174183e-01   -2,691109180e-01    0,000000000e+00    0,000000000e+00    0,000000000e+00    0,000000000e+00
      744000000    6,485866755e-02   -6,174146011e-02   -5,642041564e-01    1,066571996e-01    0,000000000e+00    0,000000000e+00    0,000000000e+00    0,000000000e+00
      758000000    6,608472019e-02   -1,517661363e-01   -3,631269932e-01    4,100188017e-01    0,000000000e+00    0,000000000e+00    0,000000000e+00    0,000000000e+00
      772000000   -1,202353742e-02   -2,621347904e-01   -3,429236263e-02    5,153315067e-01    0,000000000e+00    0,000000000e+00    0,000000000e+00    0,000000000e+00
      786000000   -2,057999671e-01   -3,025078773e-01    2,743212581e-01    3,958849013e-01    0,000000000e+00    0,000000000e+00    0,000000000e+00    0,000000000e+00
      800000000   -4,259460568e-01   -1,297424883e-01    4,172399938e-01    9,924125671e-02    0,000000000e+00    0,000000000e+00    0,000000000e+00    0,000000000e+00
      814000000   -3,885457814e-01    2,206794173e-01    2,819186747e-01   -1,728986502e-01    0,000000000e+00    0,000000000e+00    0,000000000e+00    0,000000000e+00
      828000000   -4,925913364e-02    3,692826331e-01    5,490930006e-02   -1,886715442e-01    0,000000000e+00    0,000000000e+00    0,000000000e+00    0,000000000e+00
      842000000    2,351465374e-01    1,860754639e-01   -1,683953591e-02   -7,091616094e-02    0,000000000e+00    0,000000000e+00    0,000000000e+00    0,000000000e+00
      856000000    2,804606855e-01   -1,247396767e-01    4,523498937e-02   -1,316631492e-02    0,000000000e+00    0,000000000e+00    0,000000000e+00    0,000000000e+00
      870000000    7,496132702e-02   -3,759192824e-01    1,133616492e-01   -9,162151068e-02    0,000000000e+00    0,000000000e+00    0,000000000e+00    0,000000000e+00
      884000000   -2,954035401e-01   -3,618345559e-01    2,865780517e-02   -2,458878458e-01    0,000000000e+00    0,000000000e+00    0,000000000e+00    0,000000000e+00
      898000000   -4,725530148e-01    8,748931810e-03   -2,224913985e-01   -2,280162424e-01    0,000000000e+00    0,000000000e+00    0,000000000e+00    0,000000000e+00
      912000000   -2,255984843e-01    2,931239009e-01   -3,551897407e-01    7,115639746e-02    0,000000000e+00    0,000000000e+00    0,000000000e+00    0,000000000e+00
      926000000    6,623001397e-02    2,654787898e-01   -2,186988890e-01    2,631009519e-01    0,000000000e+00    0,000000000e+00    0,000000000e+00    0,000000000e+00
      940000000    2,178611308e-01    8,125545084e-02   -3,489669040e-02    3,301744163e-01    0,000000000e+00    0,000000000e+00    0,000000000e+00    0,000000000e+00
      954000000    2,227887511e-01   -1,254307926e-01    1,304896474e-01    3,071327507e-01    0,000000000e+00    0,000000000e+00    0,000000000e+00    0,000000000e+00
      968000000    1,138512045e-01   -2,995499074e-01    2,722812891e-01    2,189156264e-01    0,000000000e+00    0,000000000e+00    0,000000000e+00    0,000000000e+00
      982000000   -8,491428941e-02   -3,879152536e-01    3,659749329e-01    6,582637876e-02    0,000000000e+00    0,000000000e+00    0,000000000e+00    0,000000000e+00
      996000000   -3,191195428e-01   -3,304817677e-01    3,708316684e-01   -1,468233615e-01    0,000000000e+00    0,000000000e+00    0,000000000e+00    0,000000000e+00
     1010000000   -4,632719159e-01   -1,069476306e-01    2,216253132e-01   -3,419499397e-01    0,000000000e+00    0,000000000e+00    0,000000000e+00    0,000000000e+00
     1024000000   -4,104484320e-01    1,480969936e-01   -3,592266142e-02   -3,933779001e-01    0,000000000e+00    0,000000000e+00    0,000000000e+00    0,000000000e+00
     1038000000   -2,165012956e-01    2,934511602e-01   -2,469606102e-01   -2,605907619e-01    0,000000000e+00    0,000000000e+00    0,000000000e+00    0,000000000e+00
     1052000000   -7,448210381e-03    2,803236246e-01   -3,167755604e-01   -4,625650495e-02    0,000000000e+00    0,000000000e+00    0,000000000e+00    0,000000000e+00
     1066000000    1,351963133e-01    1,654817164e-01   -2,594459355e-01    1,428998560e-01    0,000000000e+00    0,000000000e+00    0,000000000e+00    0,000000000e+00
     1080000000    1,913797855e-01    1,512465678e-04   -1,187429428e-01    2,638048232e-01    0,000000000e+00    0,000000000e+00    0,000000000e+00    0,000000000e+00
     1094000000    1,523928642e-01   -1,767667532e-01    6,522971392e-02    3,052531183e-01    0,000000000e+00    0,000000000e+00    0,000000000e+00    0,000000000e+00
     1108000000   -3,482525935e-03   -3,013761044e-01    2,773607075e-01    2,472256422e-01    0,000000000e+00    0,000000000e+00    0,000000000e+00    0,000000000e+00
     1122000000   -2,528856099e-01   -2,630051374e-01    4,720793962e-01    1,142382249e-02    0,000000000e+00    0,000000000e+00    0,000000000e+00    0,000000000e+00
     1136000000   -3,228454590e-01    2,945412323e-02    3,983092010e-01   -3,915929496e-01    0,000000000e+00    0,000000000e+00    0,000000000e+00    0,000000000e+00
     1150000000   -4,037188739e-02    1,557040662e-01    5,375418812e-03   -5,402740240e-01    0,000000000e+00    0,000000000e+00    0,000000000e+00    0,000000000e+00
     1164000000    1,219147891e-01   -5,888240039e-02   -2,779272199e-01   -3,794232905e-01    0,000000000e+00    0,000000000e+00    0,000000000e+00    0,000000000e+00
     1178000000    1,615580358e-02   -3,052496314e-01   -3,717802465e-01   -1,490294188e-01    0,000000000e+00    0,000000000e+00    0,000000000e+00    0,000000000e+00
     1192000000   -2,627942562e-01   -3,687196672e-01   -3,219724298e-01    5,926891789e-02    0,000000000e+00    0,000000000e+00    0,000000000e+00    0,000000000e+00
     1206000000   -5,155711770e-01   -1,604540348e-01   -1,620461941e-01    1,835878342e-01    0,000000000e+00    0,000000000e+00    0,000000000e+00    0,000000000e+00
     1220000000   -5,130267739e-01    1,706437618e-01   -1,834742376e-03    1,565603465e-01    0,000000000e+00    0,000000000e+00    0,000000000e+00    0,000000000e+00
     1234000000   -2,849846780e-01    3,702240884e-01    7,050871104e-02    6,607880443e-02    0,000000000e+00    0,000000000e+00    0,000000000e+00    0,000000000e+00
     1248000000   -4,939698055e-02    3,677263558e-01    5,610011145e-02   -2,777765039e-03    0,000000000e+00    0,000000000e+00    0,000000000e+00    0,000000000e+00
     1262000000    1,192993969e-01    2,562305927e-01    1,461997628e-02   -2,478906326e-02    0,000000000e+00    0,000000000e+00    0,000000000e+00    0,000000000e+00
     1276000000    2,115359902e-01    1,012654305e-01   -2,545219148e-03    7,679978851e-03    0,000000000e+00    0,000000000e+00    0,000000000e+00    0,000000000e+00
     1290000000    2,230244577e-01   -7,348711789e-02    1,837251335e-02    5,605036765e-02    0,000000000e+00    0,000000000e+00    0,000000000e+00    0,000000000e+00
     1304000000    1,575887501e-01   -2,437712997e-01    1,351107210e-01    6,540721655e-02    0,000000000e+00    0,000000000e+00    0,000000000e+00    0,000000000e+00
     1318000000    3,546828777e-02   -3,344261050e-01    1,280415356e-01   -1,638833582e-01    0,000000000e+00    0,000000000e+00    0,000000000e+00    0,000000000e+00
     1332000000   -1,300160587e-01   -4,371289611e-01   -4,563262314e-02   -4,263660312e-02    0,000000000e+00    0,000000000e+00    0,000000000e+00    0,000000000e+00
     1346000000   -3,919041455e-01   -4,100971222e-01    2,391975373e-02    6,516093016e-02    0,000000000e+00    0,000000000e+00    0,000000000e+00    0,000000000e+00
     1360000000   -6,111365557e-01   -1,930175722e-01    1,335601658e-01    6,953222305e-02    0,000000000e+00    0,000000000e+00    0,000000000e+00    0,000000000e+00
     1374000000   -6,311665177e-01    1,171324402e-01    1,997866929e-01    3,334508277e-03    0,000000000e+00    0,000000000e+00    0,000000000e+00    0,000000000e+00
     1388000000   -4,690760076e-01    3,683804870e-01    2,016020268e-01   -6,676255167e-02    0,000000000e+00    0,000000000e+00    0,000000000e+00    0,000000000e+00
     1402000000   -2,373155504e-01    4,517134428e-01    1,843173355e-01   -1,000180915e-01    0,000000000e+00    0,000000000e+00    0,000000000e+00    0,000000000e+00
     1416000000   -2,614830248e-02    4,123765230e-01    1,749480069e-01   -9,482523054e-02    0,000000000e+00    0,000000000e+00    0,000000000e+00    0,000000000e+00
     1430000000    1,200025752e-01    3,003531098e-01    1,579790115e-01   -1,019704714e-01    0,000000000e+00    0,000000000e+00    0,000000000e+00    0,000000000e+00
     1444000000    2,096113861e-01    1,495135278e-01    1,621610373e-01   -1,018773988e-01    0,000000000e+00    0,000000000e+00    0,000000000e+00    0,000000000e+00
     1458000000    2,367182970e-01   -2,030936442e-02    1,500106901e-01   -6,846772879e-02    0,000000000e+00    0,000000000e+00    0,000000000e+00    0,000000000e+00
     1472000000    1,891921908e-01   -2,053476423e-01    1,375610530e-01   -2,864202112e-02    0,000000000e+00    0,000000000e+00    0,000000000e+00    0,000000000e+00
     1486000000    5,746679008e-02   -3,792009056e-01    1,624299586e-01    2,417607047e-02    0,000000000e+00    0,000000000e+00    0,000000000e+00    0,000000000e+00
     1500000000   -1,773253977e-01   -4,949603677e-01    2,548314929e-01    8,766066283e-02    0,000000000e+00    0,000000000e+00    0,000000000e+00    0,000000000e+00
