! NanoVNA-App
! Date: 2025-09-25 15:35:24
! Start: 100MHz Stop: 1,5GHz Points: 101
! S-Parameter data: F S11 S21 S12 S22
# Hz S RI R 50
!     Frequency           S11_Real           S11_Imag           S21_Real           S21_Imag           S12_Real           S12_Imag           S22_Real           S22_Imag
      100000000   -2,883767895e-02   -4,177719820e-03    3,741013706e-01   -7,218046784e-01    0,000000000e+00    0,000000000e+00    0,000000000e+00    0,000000000e+00
      114000000   -1,645556837e-02    1,152257808e-02   -8,891889453e-02   -8,054216504e-01    0,000000000e+00    0,000000000e+00    0,000000000e+00    0,000000000e+00
      128000000    3,518818878e-03    1,054714248e-02   -5,143823624e-01   -6,203669906e-01    0,000000000e+00    0,000000000e+00    0,000000000e+00    0,000000000e+00
      142000000    1,457640808e-02   -2,960260026e-03   -7,669672966e-01   -2,364679873e-01    0,000000000e+00    0,000000000e+00    0,000000000e+00    0,000000000e+00
      156000000    1,449652389e-02   -1,484113280e-02   -7,643048763e-01    2,201513350e-01    0,000000000e+00    0,000000000e+00    0,000000000e+00    0,000000000e+00
      170000000    1,666820049e-02   -2,252797410e-02   -5,181328058e-01    6,046140790e-01    0,000000000e+00    0,000000000e+00    0,000000000e+00    0,000000000e+00
      184000000    2,102817595e-02   -3,704710677e-02   -1,016154289e-01    7,862044573e-01    0,000000000e+00    0,000000000e+00    0,000000000e+00    0,000000000e+00
      198000000    1,305056456e-02   -6,251190603e-02    3,433012962e-01    7,124466300e-01    0,000000000e+00    0,000000000e+00    0,000000000e+00    0,000000000e+00
      212000000   -1,860059984e-02   -8,134532720e-02    6,782150269e-01    4,099179804e-01    0,000000000e+00    0,000000000e+00    0,000000000e+00    0,000000000e+00
      226000000   -6,167036295e-02   -6,924140453e-02    7,958318591e-01   -3,053966165e-02    0,000000000e+00    0,000000000e+00    0,000000000e+00    0,000000000e+00
      240000000   -8,256667107e-02   -2,554661408e-02    6,460559964e-01   -4,670877159e-01    0,000000000e+00    0,000000000e+00    0,000000000e+00    0,000000000e+00
      254000000   -6,348683685e-02    1,723094285e-02    2,760114372e-01   -7,437232733e-01    0,000000000e+00    0,000000000e+00    0,000000000e+00    0,000000000e+00
      268000000   -2,383842692e-02    2,894789353e-02   -1,779400706e-01   -7,643315792e-01    0,000000000e+00    0,000000000e+00    0,000000000e+00    0,000000000e+00
      282000000    4,197333474e-03    1,195327472e-02   -5,616908669e-01   -5,354225636e-01    0,000000000e+00    0,000000000e+00    0,000000000e+00    0,000000000e+00
      296000000    9,763585404e-03   -7,868935354e-03   -7,599295974e-01   -1,397196651e-01    0,000000000e+00    0,000000000e+00    0,000000000e+00    0,000000000e+00
      310000000    1,115308050e-02   -1,628705114e-02   -7,119739652e-01    2,977510989e-01    0,000000000e+00    0,000000000e+00    0,000000000e+00    0,000000000e+00
      324000000    1,981228217e-02   -2,671094984e-02   -4,263652265e-01    6,376835704e-01    0,000000000e+00    0,000000000e+00    0,000000000e+00    0,000000000e+00
      338000000    2,552453987e-02   -5,213298649e-02   -8,553088643e-03    7,631561160e-01    0,000000000e+00    0,000000000e+00    0,000000000e+00    0,000000000e+00
      352000000    7,180253975e-03   -8,491892368e-02    4,067102671e-01    6,390725970e-01    0,000000000e+00    0,000000000e+00    0,000000000e+00    0,000000000e+00
      366000000   -3,449386731e-02   -9,547547996e-02    6,910026073e-01    3,114008605e-01    0,000000000e+00    0,000000000e+00    0,000000000e+00    0,000000000e+00
      380000000   -7,078910619e-02   -7,127614319e-02    7,474730611e-01   -1,262933314e-01    0,000000000e+00    0,000000000e+00    0,000000000e+00    0,000000000e+00
      394000000   -7,249778509e-02   -3,229043633e-02    5,473113656e-01   -5,224148631e-01    0,000000000e+00    0,000000000e+00    0,000000000e+00    0,000000000e+00
      408000000   -4,649776220e-02   -1,597516611e-02    1,606289297e-01   -7,322548032e-01    0,000000000e+00    0,000000000e+00    0,000000000e+00    0,000000000e+00
      422000000   -2,835023031e-02   -3,195042163e-02   -2,675656378e-01   -6,949223280e-01    0,000000000e+00    0,000000000e+00    0,000000000e+00    0,000000000e+00
      436000000   -4,070088640e-02   -5,181398243e-02   -6,042267084e-01   -4,321053624e-01    0,000000000e+00    0,000000000e+00    0,000000000e+00    0,000000000e+00
      450000000   -6,739209592e-02   -4,399789870e-02   -7,407972813e-01   -2,145874500e-02    0,000000000e+00    0,000000000e+00    0,000000000e+00    0,000000000e+00
      464000000   -7,309765369e-02   -1,174615417e-02   -6,177761555e-01    3,975141048e-01    0,000000000e+00    0,000000000e+00    0,000000000e+00    0,000000000e+00
      478000000   -4,787379503e-02    1,167886145e-02   -2,830315232e-01    6,682074666e-01    0,000000000e+00    0,000000000e+00    0,000000000e+00    0,000000000e+00
      492000000   -1,573820040e-02    5,860141478e-03    1,381100714e-01    7,015964389e-01    0,000000000e+00    0,000000000e+00    0,000000000e+00    0,000000000e+00
      506000000   -2,403571038e-03   -1,577903330e-02    4,983948767e-01    5,026920438e-01    0,000000000e+00    0,000000000e+00    0,000000000e+00    0,000000000e+00
      520000000   -5,142188631e-03   -3,156763315e-02    6,887081265e-01    1,411907077e-01    0,000000000e+00    0,000000000e+00    0,000000000e+00    0,000000000e+00
      534000000   -3,985133022e-03   -3,818046302e-02    6,437573433e-01   -2,627791166e-01    0,000000000e+00    0,000000000e+00    0,000000000e+00    0,000000000e+00
      548000000    6,189918146e-03   -5,405526608e-02    3,815463483e-01   -5,665286779e-01    0,000000000e+00    0,000000000e+00    0,000000000e+00    0,000000000e+00
      562000000    2,845277777e-03   -8,983101696e-02    3,340335330e-03   -6,727612019e-01    0,000000000e+00    0,000000000e+00    0,000000000e+00    0,000000000e+00
      576000000   -3,399770707e-02   -1,247794926e-01   -3,696363568e-01   -5,580491424e-01    0,000000000e+00    0,000000000e+00    0,000000000e+00    0,000000000e+00
      590000000   -9,628274292e-02   -1,226909980e-01   -6,194445491e-01   -2,648046017e-01    0,000000000e+00    0,000000000e+00    0,000000000e+00    0,000000000e+00
      604000000   -1,397597492e-01   -7,168236375e-02   -6,654747128e-01    1,377772391e-01    0,000000000e+00    0,000000000e+00    0,000000000e+00    0,000000000e+00
      618000000   -1,290795356e-01   -8,862587623e-03   -4,648141265e-01    4,947642684e-01    0,000000000e+00    0,000000000e+00    0,000000000e+00    0,000000000e+00
      632000000   -8,380806446e-02    1,618063264e-02   -9,880715609e-02    6,632028222e-01    0,000000000e+00    0,000000000e+00    0,000000000e+00    0,000000000e+00
      646000000   -5,036475137e-02    8,445465937e-04    2,877765894e-01    5,953507423e-01    0,000000000e+00    0,000000000e+00    0,000000000e+00    0,000000000e+00
      660000000   -5,310342461e-02   -2,103237808e-02    5,674395561e-01    3,231687248e-01    0,000000000e+00    0,000000000e+00    0,000000000e+00    0,000000000e+00
      674000000   -6,985279918e-02   -1,827698015e-02    6,433337927e-01   -6,563560665e-02    0,000000000e+00    0,000000000e+00    0,000000000e+00    0,000000000e+00
      688000000   -6,790401042e-02    8,692150004e-03    4,710213244e-01   -4,275623560e-01    0,000000000e+00    0,000000000e+00    0,000000000e+00    0,000000000e+00
      702000000   -3,686988354e-02    2,722093090e-02    1,164761409e-01   -6,103470922e-01    0,000000000e+00    0,000000000e+00    0,000000000e+00    0,000000000e+00
      716000000    2,339128172e-03    1,844530180e-02   -2,655999660e-01   -5,476421118e-01    0,000000000e+00    0,000000000e+00    0,000000000e+00    0,000000000e+00
      730000000    3,588100523e-02   -1,103061903e-02   -5,284821391e-01   -2,686787546e-01    0,000000000e+00    0,000000000e+00    0,000000000e+00    0,000000000e+00
      744000000    6,436122954e-02   -6,268181652e-02   -5,641824007e-01    1,063597947e-01    0,000000000e+00    0,000000000e+00    0,000000000e+00    0,000000000e+00
      758000000    6,640397757e-02   -1,517277807e-01   -3,634091914e-01    4,093527496e-01    0,000000000e+00    0,000000000e+00    0,000000000e+00    0,000000000e+00
      772000000   -1,311309636e-02   -2,618367672e-01   -3,449390829e-02    5,155946016e-01    0,000000000e+00    0,000000000e+00    0,000000000e+00    0,000000000e+00
      786000000   -2,060185671e-01   -3,026158214e-01    2,742435336e-01    3,957325816e-01    0,000000000e+00    0,000000000e+00    0,000000000e+00    0,000000000e+00
      800000000   -4,248983860e-01   -1,296965629e-01    4,173057973e-01    9,911077470e-02    0,000000000e+00    0,000000000e+00    0,000000000e+00    0,000000000e+00
      814000000   -3,895842433e-01    2,203847617e-01    2,824508846e-01   -1,732122898e-01    0,000000000e+00    0,000000000e+00    0,000000000e+00    0,000000000e+00
      828000000   -5,032314360e-02    3,678881228e-01    5,577246100e-02   -1,890417486e-01    0,000000000e+00    0,000000000e+00    0,000000000e+00    0,000000000e+00
      842000000    2,345209569e-01    1,859894246e-01   -1,746328548e-02   -7,094873488e-02    0,000000000e+00    0,000000000e+00    0,000000000e+00    0,000000000e+00
      856000000    2,808459997e-01   -1,239950657e-01    4,543068260e-02   -1,312312856e-02    0,000000000e+00    0,000000000e+00    0,000000000e+00    0,000000000e+00
      870000000    7,512379438e-02   -3,766140938e-01    1,136932075e-01   -9,107324481e-02    0,000000000e+00    0,000000000e+00    0,000000000e+00    0,000000000e+00
      884000000   -2,941148579e-01   -3,614315987e-01    2,906165272e-02   -2,455240935e-01    0,000000000e+00    0,000000000e+00    0,000000000e+00    0,000000000e+00
      898000000   -4,725290537e-01    9,028899483e-03   -2,210522741e-01   -2,273345292e-01    0,000000000e+00    0,000000000e+00    0,000000000e+00    0,000000000e+00
      912000000   -2,252703309e-01    2,942358255e-01   -3,486802280e-01    7,681840658e-02    0,000000000e+00    0,000000000e+00    0,000000000e+00    0,000000000e+00
      926000000    6,782790273e-02    2,635028362e-01   -2,146869749e-01    2,637405097e-01    0,000000000e+00    0,000000000e+00    0,000000000e+00    0,000000000e+00
      940000000    2,174876034e-01    8,038314432e-02   -3,540338948e-02    3,318727612e-01    0,000000000e+00    0,000000000e+00    0,000000000e+00    0,000000000e+00
      954000000    2,218338698e-01   -1,252676398e-01    1,313427985e-01    3,061316907e-01    0,000000000e+00    0,000000000e+00    0,000000000e+00    0,000000000e+00
      968000000    1,174338907e-01   -3,017237782e-01    2,711388469e-01    2,183942795e-01    0,000000000e+00    0,000000000e+00    0,000000000e+00    0,000000000e+00
      982000000   -8,400241286e-02   -3,887285292e-01    3,654591739e-01    6,666642427e-02    0,000000000e+00    0,000000000e+00    0,000000000e+00    0,000000000e+00
      996000000   -3,149067461e-01   -3,256367445e-01    3,711392581e-01   -1,452703774e-01    0,000000000e+00    0,000000000e+00    0,000000000e+00    0,000000000e+00
     1010000000   -4,665931165e-01   -1,096033826e-01    2,224800736e-01   -3,429824412e-01    0,000000000e+00    0,000000000e+00    0,000000000e+00    0,000000000e+00
     1024000000   -4,099817574e-01    1,505682319e-01   -3,194687888e-02   -3,937265277e-01    0,000000000e+00    0,000000000e+00    0,000000000e+00    0,000000000e+00
     1038000000   -2,175572217e-01    2,953459024e-01   -2,471892089e-01   -2,634396851e-01    0,000000000e+00    0,000000000e+00    0,000000000e+00    0,000000000e+00
     1052000000   -1,105867233e-02    2,790023983e-01   -3,177538216e-01   -4,775204509e-02    0,000000000e+00    0,000000000e+00    0,000000000e+00    0,000000000e+00
     1066000000    1,341661364e-01    1,624392718e-01   -2,552698255e-01    1,429301351e-01    0,000000000e+00    0,000000000e+00    0,000000000e+00    0,000000000e+00
     1080000000    1,927440763e-01    1,559012104e-03   -1,196670458e-01    2,624282837e-01    0,000000000e+00    0,000000000e+00    0,000000000e+00    0,000000000e+00
     1094000000    1,574265808e-01   -1,762432754e-01    6,080742553e-02    3,050337732e-01    0,000000000e+00    0,000000000e+00    0,000000000e+00    0,000000000e+00
     1108000000    8,378905477e-04   -3,043554425e-01    2,765860558e-01    2,429161519e-01    0,000000000e+00    0,000000000e+00    0,000000000e+00    0,000000000e+00
     1122000000   -2,466492951e-01   -2,610193789e-01    4,701313674e-01    1,074087247e-02    0,000000000e+00    0,000000000e+00    0,000000000e+00    0,000000000e+00
     1136000000   -3,203558028e-01    3,685215488e-02    3,991891444e-01   -3,912274539e-01    0,000000000e+00    0,000000000e+00    0,000000000e+00    0,000000000e+00
     1150000000   -3,707132861e-02    1,485278755e-01    6,996934302e-03   -5,424176455e-01    0,000000000e+00    0,000000000e+00    0,000000000e+00    0,000000000e+00
     1164000000    1,211859956e-01   -6,303185970e-02   -2,780814171e-01   -3,764986098e-01    0,000000000e+00    0,000000000e+00    0,000000000e+00    0,000000000e+00
     1178000000    1,685392298e-02   -3,069272935e-01   -3,685943484e-01   -1,546261013e-01    0,000000000e+00    0,000000000e+00    0,000000000e+00    0,000000000e+00
     1192000000   -2,638808787e-01   -3,724013567e-01   -3,216316998e-01    5,642864481e-02    0,000000000e+00    0,000000000e+00    0,000000000e+00    0,000000000e+00
     1206000000   -5,168116093e-01   -1,603292972e-01   -1,662422121e-01    1,806722730e-01    0,000000000e+00    0,000000000e+00    0,000000000e+00    0,000000000e+00
     1220000000   -5,092402697e-01    1,691121161e-01    2,372915391e-03    1,614989638e-01    0,000000000e+00    0,000000000e+00    0,000000000e+00    0,000000000e+00
     1234000000   -2,868950367e-01    3,657563925e-01    6,910781562e-02    6,662654132e-02    0,000000000e+00    0,000000000e+00    0,000000000e+00    0,000000000e+00
     1248000000   -4,010766000e-02    3,647840917e-01    6,250102073e-02   -6,908160169e-03    0,000000000e+00    0,000000000e+00    0,000000000e+00    0,000000000e+00
     1262000000    1,253374815e-01    2,601715624e-01    1,862923987e-02   -1,923232898e-02    0,000000000e+00    0,000000000e+00    0,000000000e+00    0,000000000e+00
     1276000000    2,102448344e-01    9,758763760e-02   -2,447770676e-04    1,445993432e-03    0,000000000e+00    0,000000000e+00    0,000000000e+00    0,000000000e+00
     1290000000    2,270503640e-01   -7,427611947e-02    1,990598626e-02    5,223141983e-02    0,000000000e+00    0,000000000e+00    0,000000000e+00    0,000000000e+00
     1304000000    1,560135782e-01   -2,438945174e-01    1,293692440e-01    6,220287830e-02    0,000000000e+00    0,000000000e+00    0,000000000e+00    0,000000000e+00
     1318000000    3,619050607e-02   -3,375676274e-01    1,317805946e-01   -1,622419506e-01    0,000000000e+00    0,000000000e+00    0,000000000e+00    0,000000000e+00
     1332000000   -1,278049499e-01   -4,390553534e-01   -4,285914078e-02   -4,765167460e-02    0,000000000e+00    0,000000000e+00    0,000000000e+00    0,000000000e+00
     1346000000   -3,964833021e-01   -4,055399597e-01    2,664029785e-02    8,015979826e-02    0,000000000e+00    0,000000000e+00    0,000000000e+00    0,000000000e+00
     1360000000   -6,061998010e-01   -1,890123039e-01    1,420217752e-01    6,863753498e-02    0,000000000e+00    0,000000000e+00    0,000000000e+00    0,000000000e+00
     1374000000   -6,390916705e-01    1,342002451e-01    2,112739384e-01    1,301691681e-02    0,000000000e+00    0,000000000e+00    0,000000000e+00    0,000000000e+00
     1388000000   -4,692161977e-01    3,648881614e-01    2,025139332e-01   -6,470912695e-02    0,000000000e+00    0,000000000e+00    0,000000000e+00    0,000000000e+00
     1402000000   -2,221183181e-01    4,559842050e-01    1,993349940e-01   -9,518306702e-02    0,000000000e+00    0,000000000e+00    0,000000000e+00    0,000000000e+00
     1416000000   -2,990484796e-02    4,166565239e-01    1,621439755e-01   -9,455049783e-02    0,000000000e+00    0,000000000e+00    0,000000000e+00    0,000000000e+00
     1430000000    1,235897020e-01    3,100669384e-01    1,724546254e-01   -9,678347409e-02    0,000000000e+00    0,000000000e+00    0,000000000e+00    0,000000000e+00
     1444000000    2,068962008e-01    1,488825977e-01    1,526211202e-01   -9,393563122e-02    0,000000000e+00    0,000000000e+00    0,000000000e+00    0,000000000e+00
     1458000000    2,369943708e-01   -2,099324390e-02    1,452475339e-01   -8,257840574e-02    0,000000000e+00    0,000000000e+00    0,000000000e+00    0,000000000e+00
     1472000000    1,901139915e-01   -2,064653784e-01    1,426837891e-01   -3,717810661e-02    0,000000000e+00    0,000000000e+00    0,000000000e+00    0,000000000e+00
     1486000000    6,068346649e-02   -3,664747477e-01    1,734644324e-01    4,979514331e-02    0,000000000e+00    0,000000000e+00    0,000000000e+00    0,000000000e+00
     1500000000   -1,684210002e-01   -4,877488613e-01    2,505606115e-01    8,912163973e-02    0,000000000e+00    0,000000000e+00    0,000000000e+00    0,000000000e+00
