! NanoVNA-App
! Date: 2025-09-25 15:35:12
! Start: 100MHz Stop: 1,5GHz Points: 101
! S-Parameter data: F S11 S21 S12 S22
# Hz S RI R 50
!     Frequency           S11_Real           S11_Imag           S21_Real           S21_Imag           S12_Real           S12_Imag           S22_Real           S22_Imag
      100000000   -2,883993834e-02   -4,170182627e-03    3,740982711e-01   -7,217624784e-01    0,000000000e+00    0,000000000e+00    0,000000000e+00    0,000000000e+00
      114000000   -1,646528207e-02    1,151115913e-02   -8,911506087e-02   -8,056169748e-01    0,000000000e+00    0,000000000e+00    0,000000000e+00    0,000000000e+00
      128000000    3,481186461e-03    1,051836181e-02   -5,146566033e-01   -6,204050183e-01    0,000000000e+00    0,000000000e+00    0,000000000e+00    0,000000000e+00
      142000000    1,456858031e-02   -2,973610535e-03   -7,671315670e-01   -2,365828007e-01    0,000000000e+00    0,000000000e+00    0,000000000e+00    0,000000000e+00
      156000000    1,509216148e-02   -1,502397936e-02   -7,691583037e-01    2,197930068e-01    0,000000000e+00    0,000000000e+00    0,000000000e+00    0,000000000e+00
      170000000    1,672104746e-02   -2,256333642e-02   -5,182500482e-01    6,045647264e-01    0,000000000e+00    0,000000000e+00    0,000000000e+00    0,000000000e+00
      184000000    2,104787156e-02   -3,706255555e-02   -1,014795601e-01    7,860756516e-01    0,000000000e+00    0,000000000e+00    0,000000000e+00    0,000000000e+00
      198000000    1,305502560e-02   -6,247659400e-02    3,431343138e-01    7,120583653e-01    0,000000000e+00    0,000000000e+00    0,000000000e+00    0,000000000e+00
      212000000   -1,864578389e-02   -8,132549375e-02    6,781782508e-01    4,099899530e-01    0,000000000e+00    0,000000000e+00    0,000000000e+00    0,000000000e+00
      226000000   -6,169778854e-02   -6,924180686e-02    7,958537340e-01   -3,049670532e-02    0,000000000e+00    0,000000000e+00    0,000000000e+00    0,000000000e+00
      240000000   -8,263085037e-02   -2,557358705e-02    6,461736560e-01   -4,674018323e-01    0,000000000e+00    0,000000000e+00    0,000000000e+00    0,000000000e+00
      254000000   -6,350105256e-02    1,726050861e-02    2,759398520e-01   -7,436456084e-01    0,000000000e+00    0,000000000e+00    0,000000000e+00    0,000000000e+00
      268000000   -2,385697328e-02    2,891482040e-02   -1,780568212e-01   -7,639858723e-01    0,000000000e+00    0,000000000e+00    0,000000000e+00    0,000000000e+00
      282000000    4,128190223e-03    1,197211538e-02   -5,617502928e-01   -5,354934931e-01    0,000000000e+00    0,000000000e+00    0,000000000e+00    0,000000000e+00
      296000000    9,650983848e-03   -7,850539871e-03   -7,595872283e-01   -1,395610124e-01    0,000000000e+00    0,000000000e+00    0,000000000e+00    0,000000000e+00
      310000000    1,106559858e-02   -1,620622724e-02   -7,124713063e-01    2,989575565e-01    0,000000000e+00    0,000000000e+00    0,000000000e+00    0,000000000e+00
      324000000    1,954511739e-02   -2,645250410e-02   -4,284045398e-01    6,387218833e-01    0,000000000e+00    0,000000000e+00    0,000000000e+00    0,000000000e+00
      338000000    2,568624169e-02   -5,194121972e-02   -9,515636601e-03    7,602521181e-01    0,000000000e+00    0,000000000e+00    0,000000000e+00    0,000000000e+00
      352000000    7,352843415e-03   -8,472057432e-02    4,059428573e-01    6,392573118e-01    0,000000000e+00    0,000000000e+00    0,000000000e+00    0,000000000e+00
      366000000   -3,460499272e-02   -9,524588287e-02    6,906080842e-01    3,115928471e-01    0,000000000e+00    0,000000000e+00    0,000000000e+00    0,000000000e+00
      380000000   -7,079743594e-02   -7,113605738e-02    7,473038435e-01   -1,257911623e-01    0,000000000e+00    0,000000000e+00    0,000000000e+00    0,000000000e+00
      394000000   -7,232823968e-02   -3,224613890e-02    5,470949411e-01   -5,224881768e-01    0,000000000e+00    0,000000000e+00    0,000000000e+00    0,000000000e+00
      408000000   -4,661771283e-02   -1,624764688e-02    1,595238894e-01   -7,330457568e-01    0,000000000e+00    0,000000000e+00    0,000000000e+00    0,000000000e+00
      422000000   -2,843804657e-02   -3,192409500e-02   -2,682250440e-01   -6,959946156e-01    0,000000000e+00    0,000000000e+00    0,000000000e+00    0,000000000e+00
      436000000   -4,057407379e-02   -5,207534134e-02   -6,042160988e-01   -4,323749244e-01    0,000000000e+00    0,000000000e+00    0,000000000e+00    0,000000000e+00
      450000000   -6,741685420e-02   -4,397333786e-02   -7,401568294e-01   -2,142307535e-02    0,000000000e+00    0,000000000e+00    0,000000000e+00    0,000000000e+00
      464000000   -7,321337610e-02   -1,176417340e-02   -6,180933118e-01    3,971940279e-01    0,000000000e+00    0,000000000e+00    0,000000000e+00    0,000000000e+00
      478000000   -4,785579816e-02    1,186536159e-02   -2,828308046e-01    6,678228974e-01    0,000000000e+00    0,000000000e+00    0,000000000e+00    0,000000000e+00
      492000000   -1,584889926e-02    6,011210848e-03    1,377677172e-01    7,011495829e-01    0,000000000e+00    0,000000000e+00    0,000000000e+00    0,000000000e+00
      506000000   -2,513306215e-03   -1,578815281e-02    4,980730712e-01    5,029758215e-01    0,000000000e+00    0,000000000e+00    0,000000000e+00    0,000000000e+00
      520000000   -4,916529637e-03   -3,161732107e-02    6,872923374e-01    1,412749887e-01    0,000000000e+00    0,000000000e+00    0,000000000e+00    0,000000000e+00
      534000000   -4,238037858e-03   -3,831376880e-02    6,432624459e-01   -2,624925673e-01    0,000000000e+00    0,000000000e+00    0,000000000e+00    0,000000000e+00
      548000000    5,979615264e-03   -5,413914099e-02    3,813725710e-01   -5,676023960e-01    0,000000000e+00    0,000000000e+00    0,000000000e+00    0,000000000e+00
      562000000    3,457344836e-03   -8,945952356e-02    2,550236415e-03   -6,727024317e-01    0,000000000e+00    0,000000000e+00    0,000000000e+00    0,000000000e+00
      576000000   -3,446677327e-02   -1,244756728e-01   -3,692648113e-01   -5,575867891e-01    0,000000000e+00    0,000000000e+00    0,000000000e+00    0,000000000e+00
      590000000   -9,648250788e-02   -1,225788519e-01   -6,211338043e-01   -2,651861608e-01    0,000000000e+00    0,000000000e+00    0,000000000e+00    0,000000000e+00
      604000000   -1,395892203e-01   -7,151935995e-02   -6,653100252e-01    1,382278055e-01    0,000000000e+00    0,000000000e+00    0,000000000e+00    0,000000000e+00
      618000000   -1,290191263e-01   -9,420807473e-03   -4,637756050e-01    4,951381683e-01    0,000000000e+00    0,000000000e+00    0,000000000e+00    0,000000000e+00
      632000000   -8,463954180e-02    1,666494645e-02   -9,961531311e-02    6,643255949e-01    0,000000000e+00    0,000000000e+00    0,000000000e+00    0,000000000e+00
      646000000   -5,137937143e-02    3,429480057e-05    2,875967026e-01    5,942582488e-01    0,000000000e+00    0,000000000e+00    0,000000000e+00    0,000000000e+00
      660000000   -5,331827700e-02   -2,119100280e-02    5,678144097e-01    3,227706552e-01    0,000000000e+00    0,000000000e+00    0,000000000e+00    0,000000000e+00
      674000000   -7,091064006e-02   -1,742637157e-02    6,429680586e-01   -6,566000730e-02    0,000000000e+00    0,000000000e+00    0,000000000e+00    0,000000000e+00
      688000000   -6,788741052e-02    9,086619131e-03    4,721585810e-01   -4,279625118e-01    0,000000000e+00    0,000000000e+00    0,000000000e+00    0,000000000e+00
      702000000   -3,731842712e-02    2,660486847e-02    1,140830666e-01   -6,137701869e-01    0,000000000e+00    0,000000000e+00    0,000000000e+00    0,000000000e+00
      716000000    2,008412033e-03    1,834971271e-02   -2,645898461e-01   -5,469350815e-01    0,000000000e+00    0,000000000e+00    0,000000000e+00    0,000000000e+00
      730000000    3,622476012e-02   -1,074245945e-02   -5,287489891e-01   -2,686980069e-01    0,000000000e+00    0,000000000e+00    0,000000000e+00    0,000000000e+00
      744000000    6,472064555e-02   -6,240455061e-02   -5,645332336e-01    1,065414622e-01    0,000000000e+00    0,000000000e+00    0,000000000e+00    0,000000000e+00
      758000000    6,622843444e-02   -1,529730856e-01   -3,634789884e-01    4,102659822e-01    0,000000000e+00    0,000000000e+00    0,000000000e+00    0,000000000e+00
      772000000   -1,225886308e-02   -2,619799972e-01   -3,548057377e-02    5,146241188e-01    0,000000000e+00    0,000000000e+00    0,000000000e+00    0,000000000e+00
      786000000   -2,068567723e-01   -3,031271994e-01    2,740813494e-01    3,960394859e-01    0,000000000e+00    0,000000000e+00    0,000000000e+00    0,000000000e+00
      800000000   -4,255556464e-01   -1,295459867e-01    4,171251059e-01    9,905449301e-02    0,000000000e+00    0,000000000e+00    0,000000000e+00    0,000000000e+00
      814000000   -3,887041509e-01    2,208795547e-01    2,823948264e-01   -1,733505279e-01    0,000000000e+00    0,000000000e+00    0,000000000e+00    0,000000000e+00
      828000000   -4,995463043e-02    3,680999279e-01    5,469074100e-02   -1,891960949e-01    0,000000000e+00    0,000000000e+00    0,000000000e+00    0,000000000e+00
      842000000    2,352823466e-01    1,855131090e-01   -1,713492163e-02   -7,127714902e-02    0,000000000e+00    0,000000000e+00    0,000000000e+00    0,000000000e+00
      856000000    2,807920873e-01   -1,242243350e-01    4,497723281e-02   -1,298270561e-02    0,000000000e+00    0,000000000e+00    0,000000000e+00    0,000000000e+00
      870000000    7,534265518e-02   -3,765226901e-01    1,130771860e-01   -9,150790423e-02    0,000000000e+00    0,000000000e+00    0,000000000e+00    0,000000000e+00
      884000000   -2,955011427e-01   -3,620594740e-01    2,936441265e-02   -2,461587489e-01    0,000000000e+00    0,000000000e+00    0,000000000e+00    0,000000000e+00
      898000000   -4,729833305e-01    8,913219906e-03   -2,223304212e-01   -2,279498428e-01    0,000000000e+00    0,000000000e+00    0,000000000e+00    0,000000000e+00
      912000000   -2,265252024e-01    2,939661741e-01   -3,370585740e-01    6,810501218e-02    0,000000000e+00    0,000000000e+00    0,000000000e+00    0,000000000e+00
      926000000    6,550709903e-02    2,619346380e-01   -2,183146775e-01    2,638738751e-01    0,000000000e+00    0,000000000e+00    0,000000000e+00    0,000000000e+00
      940000000    2,164248675e-01    8,163528144e-02   -3,544714674e-02    3,295111656e-01    0,000000000e+00    0,000000000e+00    0,000000000e+00    0,000000000e+00
      954000000    2,240319699e-01   -1,295505911e-01    1,307976097e-01    3,071316481e-01    0,000000000e+00    0,000000000e+00    0,000000000e+00    0,000000000e+00
      968000000    1,125762314e-01   -2,992326617e-01    2,690758109e-01    2,182707042e-01    0,000000000e+00    0,000000000e+00    0,000000000e+00    0,000000000e+00
      982000000   -8,215434849e-02   -3,911201656e-01    3,649508059e-01    6,535994262e-02    0,000000000e+00    0,000000000e+00    0,000000000e+00    0,000000000e+00
      996000000   -3,141190112e-01   -3,295560181e-01    3,695833087e-01   -1,466758102e-01    0,000000000e+00    0,000000000e+00    0,000000000e+00    0,000000000e+00
     1010000000   -4,610482156e-01   -1,086463332e-01    2,244422287e-01   -3,406774402e-01    0,000000000e+00    0,000000000e+00    0,000000000e+00    0,000000000e+00
     1024000000   -4,151054621e-01    1,529315561e-01   -3,355018422e-02   -3,930736780e-01    0,000000000e+00    0,000000000e+00    0,000000000e+00    0,000000000e+00
     1038000000   -2,206172198e-01    2,941814959e-01   -2,472525835e-01   -2,617164850e-01    0,000000000e+00    0,000000000e+00    0,000000000e+00    0,000000000e+00
     1052000000   -5,844305269e-03    2,775219977e-01   -3,189519942e-01   -4,645300284e-02    0,000000000e+00    0,000000000e+00    0,000000000e+00    0,000000000e+00
     1066000000    1,403525770e-01    1,640615761e-01   -2,613098919e-01    1,426544487e-01    0,000000000e+00    0,000000000e+00    0,000000000e+00    0,000000000e+00
     1080000000    1,949532479e-01   -3,080662806e-03   -1,197577491e-01    2,636024058e-01    0,000000000e+00    0,000000000e+00    0,000000000e+00    0,000000000e+00
     1094000000    1,560326964e-01   -1,757241488e-01    6,482194364e-02    3,049482703e-01    0,000000000e+00    0,000000000e+00    0,000000000e+00    0,000000000e+00
     1108000000   -3,989984747e-03   -3,068137169e-01    2,761426866e-01    2,472069710e-01    0,000000000e+00    0,000000000e+00    0,000000000e+00    0,000000000e+00
     1122000000   -2,518943846e-01   -2,599004209e-01    4,721488655e-01    1,293133944e-02    0,000000000e+00    0,000000000e+00    0,000000000e+00    0,000000000e+00
     1136000000   -3,217854202e-01    3,323805332e-02    4,015159607e-01   -3,921926022e-01    0,000000000e+00    0,000000000e+00    0,000000000e+00    0,000000000e+00
     1150000000   -3,939131275e-02    1,544099897e-01    3,696389496e-03   -5,403571725e-01    0,000000000e+00    0,000000000e+00    0,000000000e+00    0,000000000e+00
     1164000000    1,268809289e-01   -6,465391070e-02   -2,756471634e-01   -3,779380322e-01    0,000000000e+00    0,000000000e+00    0,000000000e+00    0,000000000e+00
     1178000000    1,660533808e-02   -3,093321025e-01   -3,698562086e-01   -1,537986845e-01    0,000000000e+00    0,000000000e+00    0,000000000e+00    0,000000000e+00
     1192000000   -2,696074247e-01   -3,688309491e-01   -3,221877813e-01    5,818437040e-02    0,000000000e+00    0,000000000e+00    0,000000000e+00    0,000000000e+00
     1206000000   -5,185041428e-01   -1,613798141e-01   -1,636687070e-01    1,786701381e-01    0,000000000e+00    0,000000000e+00    0,000000000e+00    0,000000000e+00
     1220000000   -5,096569657e-01    1,671685576e-01   -2,737477480e-04    1,563121527e-01    0,000000000e+00    0,000000000e+00    0,000000000e+00    0,000000000e+00
     1234000000   -2,825665474e-01    3,602249622e-01    7,041949034e-02    6,727042049e-02    0,000000000e+00    0,000000000e+00    0,000000000e+00    0,000000000e+00
     1248000000   -4,055842385e-02    3,662880957e-01    5,916470662e-02   -6,693326868e-03    0,000000000e+00    0,000000000e+00    0,000000000e+00    0,000000000e+00
     1262000000    1,235231236e-01    2,597509325e-01    1,804349385e-02   -2,116610110e-02    0,000000000e+00    0,000000000e+00    0,000000000e+00    0,000000000e+00
     1276000000    2,087174654e-01    9,831384569e-02   -5,482780747e-03    5,737173837e-03    0,000000000e+00    0,000000000e+00    0,000000000e+00    0,000000000e+00
     1290000000    2,250977308e-01   -7,392229885e-02    2,205312625e-02    5,183047801e-02    0,000000000e+00    0,000000000e+00    0,000000000e+00    0,000000000e+00
     1304000000    1,557771862e-01   -2,426711172e-01    1,295319796e-01    6,653517485e-02    0,000000000e+00    0,000000000e+00    0,000000000e+00    0,000000000e+00
     1318000000    3,346537054e-02   -3,350190222e-01    1,249735728e-01   -1,593432575e-01    0,000000000e+00    0,000000000e+00    0,000000000e+00    0,000000000e+00
     1332000000   -1,289636493e-01   -4,365329742e-01   -4,672086984e-02   -4,549153522e-02    0,000000000e+00    0,000000000e+00    0,000000000e+00    0,000000000e+00
     1346000000   -3,924991488e-01   -4,102139175e-01    3,057511337e-02    6,171427295e-02    0,000000000e+00    0,000000000e+00    0,000000000e+00    0,000000000e+00
     1360000000   -6,102491617e-01   -1,916554868e-01    1,271369010e-01    6,826739758e-02    0,000000000e+00    0,000000000e+00    0,000000000e+00    0,000000000e+00
     1374000000   -6,338258982e-01    1,294265091e-01    2,016486973e-01   -8,147567860e-05    0,000000000e+00    0,000000000e+00    0,000000000e+00    0,000000000e+00
     1388000000   -4,670453966e-01    3,778165281e-01    2,152871341e-01   -4,913664609e-02    0,000000000e+00    0,000000000e+00    0,000000000e+00    0,000000000e+00
     1402000000   -2,347866148e-01    4,602399170e-01    1,826555878e-01   -9,149625897e-02    0,000000000e+00    0,000000000e+00    0,000000000e+00    0,000000000e+00
     1416000000   -2,713840082e-02    4,132949114e-01    1,682243645e-01   -1,038169414e-01    0,000000000e+00    0,000000000e+00    0,000000000e+00    0,000000000e+00
     1430000000    1,168999821e-01    2,945271432e-01    1,518257856e-01   -9,474919736e-02    0,000000000e+00    0,000000000e+00    0,000000000e+00    0,000000000e+00
     1444000000    2,074428350e-01    1,505251825e-01    1,534262896e-01   -9,422544390e-02    0,000000000e+00    0,000000000e+00    0,000000000e+00    0,000000000e+00
     1458000000    2,361939400e-01   -1,598905958e-02    1,393849701e-01   -6,247135997e-02    0,000000000e+00    0,000000000e+00    0,000000000e+00    0,000000000e+00
     1472000000    1,900304854e-01   -1,987053305e-01    1,387228966e-01   -3,106127679e-02    0,000000000e+00    0,000000000e+00    0,000000000e+00    0,000000000e+00
     1486000000    5,537969992e-02   -3,810885251e-01    1,669058502e-01    2,192876302e-02    0,000000000e+00    0,000000000e+00    0,000000000e+00    0,000000000e+00
     1500000000   -1,710535884e-01   -4,863859415e-01    2,382133007e-01    1,111644506e-01    0,000000000e+00    0,000000000e+00    0,000000000e+00    0,000000000e+00
