! NanoVNA-App
! Date: 2025-09-25 15:33:00
! Start: 100MHz Stop: 1,5GHz Points: 101
! S-Parameter data: F S11 S21 S12 S22
# Hz S RI R 50
!     Frequency           S11_Real           S11_Imag           S21_Real           S21_Imag           S12_Real           S12_Imag           S22_Real           S22_Imag
      100000000   -2,886874601e-02   -4,151766188e-03    3,741418123e-01   -7,217907310e-01    0,000000000e+00    0,000000000e+00    0,000000000e+00    0,000000000e+00
      114000000   -1,649775170e-02    1,150889695e-02   -8,916806430e-02   -8,055251837e-01    0,000000000e+00    0,000000000e+00    0,000000000e+00    0,000000000e+00
      128000000    3,490008181e-03    1,058378536e-02   -5,146018863e-01   -6,204839349e-01    0,000000000e+00    0,000000000e+00    0,000000000e+00    0,000000000e+00
      142000000    1,455163211e-02   -2,953486284e-03   -7,671663761e-01   -2,367275357e-01    0,000000000e+00    0,000000000e+00    0,000000000e+00    0,000000000e+00
      156000000    1,568649150e-02   -1,447192766e-02   -7,690689564e-01    2,237058282e-01    0,000000000e+00    0,000000000e+00    0,000000000e+00    0,000000000e+00
      170000000    1,668389887e-02   -2,249530517e-02   -5,183311701e-01    6,047070026e-01    0,000000000e+00    0,000000000e+00    0,000000000e+00    0,000000000e+00
      184000000    2,099973708e-02   -3,701581806e-02   -1,013553292e-01    7,861449718e-01    0,000000000e+00    0,000000000e+00    0,000000000e+00    0,000000000e+00
      198000000    1,307942718e-02   -6,248211861e-02    3,433640301e-01    7,123031020e-01    0,000000000e+00    0,000000000e+00    0,000000000e+00    0,000000000e+00
      212000000   -1,865798421e-02   -8,134911954e-02    6,781643629e-01    4,098904729e-01    0,000000000e+00    0,000000000e+00    0,000000000e+00    0,000000000e+00
      226000000   -6,173489615e-02   -6,919959933e-02    7,958297133e-01   -3,057789244e-02    0,000000000e+00    0,000000000e+00    0,000000000e+00    0,000000000e+00
      240000000   -8,264555782e-02   -2,562635951e-02    6,461223364e-01   -4,667831361e-01    0,000000000e+00    0,000000000e+00    0,000000000e+00    0,000000000e+00
      254000000   -6,352571398e-02    1,732008345e-02    2,761138678e-01   -7,434549332e-01    0,000000000e+00    0,000000000e+00    0,000000000e+00    0,000000000e+00
      268000000   -2,383443713e-02    2,896329574e-02   -1,783300489e-01   -7,641966939e-01    0,000000000e+00    0,000000000e+00    0,000000000e+00    0,000000000e+00
      282000000    4,102137871e-03    1,187117212e-02   -5,619593263e-01   -5,356847644e-01    0,000000000e+00    0,000000000e+00    0,000000000e+00    0,000000000e+00
      296000000    9,692407213e-03   -7,901325822e-03   -7,600206733e-01   -1,398169249e-01    0,000000000e+00    0,000000000e+00    0,000000000e+00    0,000000000e+00
      310000000    1,121916994e-02   -1,621769555e-02   -7,125384808e-01    2,996240854e-01    0,000000000e+00    0,000000000e+00    0,000000000e+00    0,000000000e+00
      324000000    1,959710754e-02   -2,653810382e-02   -4,276018441e-01    6,373093724e-01    0,000000000e+00    0,000000000e+00    0,000000000e+00    0,000000000e+00
      338000000    2,556466497e-02   -5,190951750e-02   -7,296333555e-03    7,646805644e-01    0,000000000e+00    0,000000000e+00    0,000000000e+00    0,000000000e+00
      352000000    7,540938910e-03   -8,463874459e-02    4,065894186e-01    6,397294998e-01    0,000000000e+00    0,000000000e+00    0,000000000e+00    0,000000000e+00
      366000000   -3,472773358e-02   -9,566024691e-02    6,903391480e-01    3,109682798e-01    0,000000000e+00    0,000000000e+00    0,000000000e+00    0,000000000e+00
      380000000   -7,063307613e-02   -7,111214101e-02    7,475551367e-01   -1,254541725e-01    0,000000000e+00    0,000000000e+00    0,000000000e+00    0,000000000e+00
      394000000   -7,278756052e-02   -3,244603798e-02    5,467894077e-01   -5,229926705e-01    0,000000000e+00    0,000000000e+00    0,000000000e+00    0,000000000e+00
      408000000   -4,641293734e-02   -1,621524245e-02    1,609937996e-01   -7,338955402e-01    0,000000000e+00    0,000000000e+00    0,000000000e+00    0,000000000e+00
      422000000   -2,839030698e-02   -3,197461367e-02   -2,674354017e-01   -6,957234144e-01    0,000000000e+00    0,000000000e+00    0,000000000e+00    0,000000000e+00
      436000000   -4,059668630e-02   -5,199407786e-02   -6,039705276e-01   -4,320155978e-01    0,000000000e+00    0,000000000e+00    0,000000000e+00    0,000000000e+00
      450000000   -6,730768830e-02   -4,359272495e-02   -7,403498292e-01   -2,134724520e-02    0,000000000e+00    0,000000000e+00    0,000000000e+00    0,000000000e+00
      464000000   -7,350797951e-02   -1,149808895e-02   -6,186290979e-01    3,980830312e-01    0,000000000e+00    0,000000000e+00    0,000000000e+00    0,000000000e+00
      478000000   -4,783289880e-02    1,187749207e-02   -2,824681103e-01    6,683196425e-01    0,000000000e+00    0,000000000e+00    0,000000000e+00    0,000000000e+00
      492000000   -1,590935700e-02    5,745250732e-03    1,383223832e-01    7,012053728e-01    0,000000000e+00    0,000000000e+00    0,000000000e+00    0,000000000e+00
      506000000   -2,454738831e-03   -1,571885869e-02    4,980863631e-01    5,020585656e-01    0,000000000e+00    0,000000000e+00    0,000000000e+00    0,000000000e+00
      520000000   -5,095011555e-03   -3,118557483e-02    6,860272884e-01    1,428570151e-01    0,000000000e+00    0,000000000e+00    0,000000000e+00    0,000000000e+00
      534000000   -4,180938471e-03   -3,830545768e-02    6,434164047e-01   -2,630549669e-01    0,000000000e+00    0,000000000e+00    0,000000000e+00    0,000000000e+00
      548000000    5,856439471e-03   -5,431446806e-02    3,816066682e-01   -5,679109693e-01    0,000000000e+00    0,000000000e+00    0,000000000e+00    0,000000000e+00
      562000000    3,474584315e-03   -8,942972124e-02    1,704621012e-03   -6,719546914e-01    0,000000000e+00    0,000000000e+00    0,000000000e+00    0,000000000e+00
      576000000   -3,449007124e-02   -1,247192472e-01   -3,694606721e-01   -5,574877262e-01    0,000000000e+00    0,000000000e+00    0,000000000e+00    0,000000000e+00
      590000000   -9,603293985e-02   -1,228795126e-01   -6,212478876e-01   -2,652339339e-01    0,000000000e+00    0,000000000e+00    0,000000000e+00    0,000000000e+00
      604000000   -1,397205740e-01   -7,164018601e-02   -6,651394367e-01    1,380393356e-01    0,000000000e+00    0,000000000e+00    0,000000000e+00    0,000000000e+00
      618000000   -1,297731847e-01   -8,735948242e-03   -4,640925527e-01    4,948517978e-01    0,000000000e+00    0,000000000e+00    0,000000000e+00    0,000000000e+00
      632000000   -8,458863944e-02    1,647362299e-02   -9,923502803e-02    6,637932062e-01    0,000000000e+00    0,000000000e+00    0,000000000e+00    0,000000000e+00
      646000000   -5,080742761e-02    1,140693086e-03    2,883402407e-01    5,957485437e-01    0,000000000e+00    0,000000000e+00    0,000000000e+00    0,000000000e+00
      660000000   -5,292633176e-02   -2,203665115e-02    5,679352880e-01    3,224054277e-01    0,000000000e+00    0,000000000e+00    0,000000000e+00    0,000000000e+00
      674000000   -6,981814653e-02   -1,806487329e-02    6,433521509e-01   -6,553093344e-02    0,000000000e+00    0,000000000e+00    0,000000000e+00    0,000000000e+00
      688000000   -6,911110133e-02    8,637084626e-03    4,706893861e-01   -4,279765487e-01    0,000000000e+00    0,000000000e+00    0,000000000e+00    0,000000000e+00
      702000000   -3,704032674e-02    2,689001337e-02    1,185418069e-01   -6,065140963e-01    0,000000000e+00    0,000000000e+00    0,000000000e+00    0,000000000e+00
      716000000    2,271822188e-03    1,874630712e-02   -2,645857930e-01   -5,463819504e-01    0,000000000e+00    0,000000000e+00    0,000000000e+00    0,000000000e+00
      730000000    3,623031825e-02   -1,069288142e-02   -5,289947987e-01   -2,685706317e-01    0,000000000e+00    0,000000000e+00    0,000000000e+00    0,000000000e+00
      744000000    6,562194228e-02   -6,199953333e-02   -5,644917488e-01    1,062598452e-01    0,000000000e+00    0,000000000e+00    0,000000000e+00    0,000000000e+00
      758000000    6,651636213e-02   -1,523158401e-01   -3,630524576e-01    4,100138545e-01    0,000000000e+00    0,000000000e+00    0,000000000e+00    0,000000000e+00
      772000000   -1,306000166e-02   -2,617540061e-01   -3,429416567e-02    5,157632232e-01    0,000000000e+00    0,000000000e+00    0,000000000e+00    0,000000000e+00
      786000000   -2,056783438e-01   -3,023181260e-01    2,739809155e-01    3,951211274e-01    0,000000000e+00    0,000000000e+00    0,000000000e+00    0,000000000e+00
      800000000   -4,257610142e-01   -1,293927580e-01    4,171840250e-01    9,887544811e-02    0,000000000e+00    0,000000000e+00    0,000000000e+00    0,000000000e+00
      814000000   -3,887319267e-01    2,215766609e-01    2,825322747e-01   -1,729942709e-01    0,000000000e+00    0,000000000e+00    0,000000000e+00    0,000000000e+00
      828000000   -5,032814294e-02    3,676933944e-01    5,532605201e-02   -1,894229501e-01    0,000000000e+00    0,000000000e+00    0,000000000e+00    0,000000000e+00
      842000000    2,348360121e-01    1,861398965e-01   -1,723306067e-02   -7,035105675e-02    0,000000000e+00    0,000000000e+00    0,000000000e+00    0,000000000e+00
      856000000    2,808873355e-01   -1,241325736e-01    4,491378367e-02   -1,279957872e-02    0,000000000e+00    0,000000000e+00    0,000000000e+00    0,000000000e+00
      870000000    7,457967103e-02   -3,770124316e-01    1,140648350e-01   -9,071247280e-02    0,000000000e+00    0,000000000e+00    0,000000000e+00    0,000000000e+00
      884000000   -2,961662710e-01   -3,609483242e-01    2,755906992e-02   -2,456132770e-01    0,000000000e+00    0,000000000e+00    0,000000000e+00    0,000000000e+00
      898000000   -4,721620679e-01    8,308268152e-03   -2,224185765e-01   -2,290150672e-01    0,000000000e+00    0,000000000e+00    0,000000000e+00    0,000000000e+00
      912000000   -2,260127962e-01    2,942796946e-01   -3,527878821e-01    6,760743260e-02    0,000000000e+00    0,000000000e+00    0,000000000e+00    0,000000000e+00
      926000000    6,828063726e-02    2,652190924e-01   -2,154837996e-01    2,648586929e-01    0,000000000e+00    0,000000000e+00    0,000000000e+00    0,000000000e+00
      940000000    2,170158625e-01    8,140958101e-02   -3,565129638e-02    3,287988007e-01    0,000000000e+00    0,000000000e+00    0,000000000e+00    0,000000000e+00
      954000000    2,248506546e-01   -1,281662583e-01    1,310157478e-01    3,079463542e-01    0,000000000e+00    0,000000000e+00    0,000000000e+00    0,000000000e+00
      968000000    1,166122854e-01   -2,974678278e-01    2,724367082e-01    2,179676294e-01    0,000000000e+00    0,000000000e+00    0,000000000e+00    0,000000000e+00
      982000000   -8,310285956e-02   -3,848778605e-01    3,654356003e-01    6,594783813e-02    0,000000000e+00    0,000000000e+00    0,000000000e+00    0,000000000e+00
      996000000   -3,144806027e-01   -3,300471306e-01    3,694052100e-01   -1,434283704e-01    0,000000000e+00    0,000000000e+00    0,000000000e+00    0,000000000e+00
     1010000000   -4,614512920e-01   -1,081846729e-01    2,227131873e-01   -3,399776518e-01    0,000000000e+00    0,000000000e+00    0,000000000e+00    0,000000000e+00
     1024000000   -4,137727916e-01    1,451114267e-01   -3,218635917e-02   -3,911520839e-01    0,000000000e+00    0,000000000e+00    0,000000000e+00    0,000000000e+00
     1038000000   -2,152434587e-01    2,913430929e-01   -2,481076419e-01   -2,609269917e-01    0,000000000e+00    0,000000000e+00    0,000000000e+00    0,000000000e+00
     1052000000   -7,028724998e-03    2,806774080e-01   -3,179616928e-01   -4,661237448e-02    0,000000000e+00    0,000000000e+00    0,000000000e+00    0,000000000e+00
     1066000000    1,385847330e-01    1,601148546e-01   -2,572841048e-01    1,459206790e-01    0,000000000e+00    0,000000000e+00    0,000000000e+00    0,000000000e+00
     1080000000    1,906784177e-01   -1,075067557e-03   -1,166490763e-01    2,643944919e-01    0,000000000e+00    0,000000000e+00    0,000000000e+00    0,000000000e+00
     1094000000    1,550575048e-01   -1,723627001e-01    6,308824569e-02    3,041540384e-01    0,000000000e+00    0,000000000e+00    0,000000000e+00    0,000000000e+00
     1108000000   -4,444303457e-03   -3,035160601e-01    2,777633369e-01    2,455420792e-01    0,000000000e+00    0,000000000e+00    0,000000000e+00    0,000000000e+00
     1122000000   -2,455018759e-01   -2,637355626e-01    4,690583646e-01    1,431120187e-02    0,000000000e+00    0,000000000e+00    0,000000000e+00    0,000000000e+00
     1136000000   -3,156473637e-01    3,650266305e-02    3,994351327e-01   -3,913676441e-01    0,000000000e+00    0,000000000e+00    0,000000000e+00    0,000000000e+00
     1150000000   -4,116496444e-02    1,479441673e-01    4,609009251e-03   -5,430173278e-01    0,000000000e+00    0,000000000e+00    0,000000000e+00    0,000000000e+00
     1164000000    1,217728928e-01   -6,046608090e-02   -2,774880528e-01   -3,799009323e-01    0,000000000e+00    0,000000000e+00    0,000000000e+00    0,000000000e+00
     1178000000    2,012558468e-02   -3,042208254e-01   -3,674993515e-01   -1,510879695e-01    0,000000000e+00    0,000000000e+00    0,000000000e+00    0,000000000e+00
     1192000000   -2,643159032e-01   -3,684327304e-01   -3,221173882e-01    5,949931964e-02    0,000000000e+00    0,000000000e+00    0,000000000e+00    0,000000000e+00
     1206000000   -5,217158794e-01   -1,576106846e-01   -1,684323251e-01    1,830982566e-01    0,000000000e+00    0,000000000e+00    0,000000000e+00    0,000000000e+00
     1220000000   -5,162861943e-01    1,758404523e-01    2,203520387e-03    1,578008085e-01    0,000000000e+00    0,000000000e+00    0,000000000e+00    0,000000000e+00
     1234000000   -2,859013975e-01    3,586623371e-01    6,938365102e-02    5,817345157e-02    0,000000000e+00    0,000000000e+00    0,000000000e+00    0,000000000e+00
     1248000000   -4,708763957e-02    3,683018088e-01    5,443029851e-02    6,177416653e-04    0,000000000e+00    0,000000000e+00    0,000000000e+00    0,000000000e+00
     1262000000    1,272723526e-01    2,586253881e-01    2,250487730e-02   -1,990972459e-02    0,000000000e+00    0,000000000e+00    0,000000000e+00    0,000000000e+00
     1276000000    2,090113908e-01    9,860048443e-02   -5,955094472e-03    3,806491382e-03    0,000000000e+00    0,000000000e+00    0,000000000e+00    0,000000000e+00
     1290000000    2,217849791e-01   -7,149212062e-02    1,846734993e-02    5,604686216e-02    0,000000000e+00    0,000000000e+00    0,000000000e+00    0,000000000e+00
     1304000000    1,531854570e-01   -2,427225560e-01    1,263532490e-01    6,504824013e-02    0,000000000e+00    0,000000000e+00    0,000000000e+00    0,000000000e+00
     1318000000    3,148650378e-02   -3,330528736e-01    1,310906261e-01   -1,556034237e-01    0,000000000e+00    0,000000000e+00    0,000000000e+00    0,000000000e+00
     1332000000   -1,271354407e-01   -4,384638071e-01   -4,297919199e-02   -5,108593404e-02    0,000000000e+00    0,000000000e+00    0,000000000e+00    0,000000000e+00
     1346000000   -3,880624771e-01   -4,077628553e-01    2,771757543e-02    7,114282250e-02    0,000000000e+00    0,000000000e+00    0,000000000e+00    0,000000000e+00
     1360000000   -6,078307033e-01   -1,813746840e-01    1,437595636e-01    7,999867946e-02    0,000000000e+00    0,000000000e+00    0,000000000e+00    0,000000000e+00
     1374000000   -6,310388446e-01    1,246719286e-01    2,101829350e-01   -4,199621733e-03    0,000000000e+00    0,000000000e+00    0,000000000e+00    0,000000000e+00
     1388000000   -4,730862677e-01    3,676199615e-01    2,001188099e-01   -5,796171725e-02    0,000000000e+00    0,000000000e+00    0,000000000e+00    0,000000000e+00
     1402000000   -2,317328453e-01    4,545855224e-01    1,897471547e-01   -9,739902616e-02    0,000000000e+00    0,000000000e+00    0,000000000e+00    0,000000000e+00
     1416000000   -2,524210513e-02    4,101409316e-01    1,718901694e-01   -9,748665243e-02    0,000000000e+00    0,000000000e+00    0,000000000e+00    0,000000000e+00
     1430000000    1,244883612e-01    2,973006666e-01    1,680458337e-01   -1,130411103e-01    0,000000000e+00    0,000000000e+00    0,000000000e+00    0,000000000e+00
     1444000000    2,059312314e-01    1,485873312e-01    1,459035724e-01   -9,628029168e-02    0,000000000e+00    0,000000000e+00    0,000000000e+00    0,000000000e+00
     1458000000    2,356540263e-01   -2,300508879e-02    1,313716769e-01   -7,193645090e-02    0,000000000e+00    0,000000000e+00    0,000000000e+00    0,000000000e+00
     1472000000    1,926071495e-01   -1,993600428e-01    1,348791718e-01   -3,093982302e-02    0,000000000e+00    0,000000000e+00    0,000000000e+00    0,000000000e+00
     1486000000    6,990434974e-02   -3,700176775e-01    1,727740169e-01    2,427173033e-02    0,000000000e+00    0,000000000e+00    0,000000000e+00    0,000000000e+00
     1500000000   -1,734590828e-01   -4,975163937e-01    2,340315878e-01    9,921079129e-02    0,000000000e+00    0,000000000e+00    0,000000000e+00    0,000000000e+00
