! NanoVNA-App
! Date: 2025-09-25 15:34:58
! Start: 100MHz Stop: 1,5GHz Points: 101
! S-Parameter data: F S11 S21 S12 S22
# Hz S RI R 50
!     Frequency           S11_Real           S11_Imag           S21_Real           S21_Imag           S12_Real           S12_Imag           S22_Real           S22_Imag
      100000000   -2,884389088e-02   -4,177621566e-03    3,741131425e-01   -7,217854261e-01    0,000000000e+00    0,000000000e+00    0,000000000e+00    0,000000000e+00
      114000000   -1,647154056e-02    1,150977612e-02   -8,891882747e-02   -8,055495024e-01    0,000000000e+00    0,000000000e+00    0,000000000e+00    0,000000000e+00
      128000000    3,483771114e-03    1,054475270e-02   -5,146420598e-01   -6,205186248e-01    0,000000000e+00    0,000000000e+00    0,000000000e+00    0,000000000e+00
      142000000    1,456592418e-02   -2,953633666e-03   -7,672546506e-01   -2,366205007e-01    0,000000000e+00    0,000000000e+00    0,000000000e+00    0,000000000e+00
      156000000    1,475672610e-02   -1,477335114e-02   -7,658051848e-01    2,215490490e-01    0,000000000e+00    0,000000000e+00    0,000000000e+00    0,000000000e+00
      170000000    1,674106345e-02   -2,258825488e-02   -5,181974769e-01    6,047689319e-01    0,000000000e+00    0,000000000e+00    0,000000000e+00    0,000000000e+00
      184000000    2,106846683e-02   -3,706539422e-02   -1,013704836e-01    7,861579657e-01    0,000000000e+00    0,000000000e+00    0,000000000e+00    0,000000000e+00
      198000000    1,303521078e-02   -6,247428805e-02    3,433936238e-01    7,125213742e-01    0,000000000e+00    0,000000000e+00    0,000000000e+00    0,000000000e+00
      212000000   -1,860694028e-02   -8,131714910e-02    6,780059338e-01    4,099427164e-01    0,000000000e+00    0,000000000e+00    0,000000000e+00    0,000000000e+00
      226000000   -6,170191243e-02   -6,917117536e-02    7,959102988e-01   -3,056962043e-02    0,000000000e+00    0,000000000e+00    0,000000000e+00    0,000000000e+00
      240000000   -8,253207058e-02   -2,557432279e-02    6,461908221e-01   -4,673161805e-01    0,000000000e+00    0,000000000e+00    0,000000000e+00    0,000000000e+00
      254000000   -6,351215392e-02    1,725622453e-02    2,759434581e-01   -7,435939908e-01    0,000000000e+00    0,000000000e+00    0,000000000e+00    0,000000000e+00
      268000000   -2,385039814e-02    2,888151072e-02   -1,779885441e-01   -7,647591233e-01    0,000000000e+00    0,000000000e+00    0,000000000e+00    0,000000000e+00
      282000000    4,187789280e-03    1,196499448e-02   -5,618233085e-01   -5,354840159e-01    0,000000000e+00    0,000000000e+00    0,000000000e+00    0,000000000e+00
      296000000    9,685047902e-03   -7,823635824e-03   -7,597998381e-01   -1,397407055e-01    0,000000000e+00    0,000000000e+00    0,000000000e+00    0,000000000e+00
      310000000    1,104841195e-02   -1,627337001e-02   -7,132590413e-01    2,980149984e-01    0,000000000e+00    0,000000000e+00    0,000000000e+00    0,000000000e+00
      324000000    1,957593672e-02   -2,649019845e-02   -4,269840717e-01    6,374983788e-01    0,000000000e+00    0,000000000e+00    0,000000000e+00    0,000000000e+00
      338000000    2,561218105e-02   -5,207334086e-02   -8,032640442e-03    7,645819783e-01    0,000000000e+00    0,000000000e+00    0,000000000e+00    0,000000000e+00
      352000000    7,669679355e-03   -8,475861698e-02    4,068350494e-01    6,384339929e-01    0,000000000e+00    0,000000000e+00    0,000000000e+00    0,000000000e+00
      366000000   -3,445810452e-02   -9,536328167e-02    6,902457476e-01    3,112111688e-01    0,000000000e+00    0,000000000e+00    0,000000000e+00    0,000000000e+00
      380000000   -7,068859041e-02   -7,125264406e-02    7,477098107e-01   -1,262904853e-01    0,000000000e+00    0,000000000e+00    0,000000000e+00    0,000000000e+00
      394000000   -7,252292335e-02   -3,238220513e-02    5,468788743e-01   -5,221301913e-01    0,000000000e+00    0,000000000e+00    0,000000000e+00    0,000000000e+00
      408000000   -4,644326121e-02   -1,617734693e-02    1,614226848e-01   -7,334741950e-01    0,000000000e+00    0,000000000e+00    0,000000000e+00    0,000000000e+00
      422000000   -2,826645225e-02   -3,188702464e-02   -2,674313486e-01   -6,947060823e-01    0,000000000e+00    0,000000000e+00    0,000000000e+00    0,000000000e+00
      436000000   -4,076574370e-02   -5,164987221e-02   -6,041432619e-01   -4,318306744e-01    0,000000000e+00    0,000000000e+00    0,000000000e+00    0,000000000e+00
      450000000   -6,754285097e-02   -4,407051951e-02   -7,407364845e-01   -2,139435709e-02    0,000000000e+00    0,000000000e+00    0,000000000e+00    0,000000000e+00
      464000000   -7,313885540e-02   -1,141151413e-02   -6,181383133e-01    3,972731233e-01    0,000000000e+00    0,000000000e+00    0,000000000e+00    0,000000000e+00
      478000000   -4,754399136e-02    1,193925459e-02   -2,824009061e-01    6,681524515e-01    0,000000000e+00    0,000000000e+00    0,000000000e+00    0,000000000e+00
      492000000   -1,595845446e-02    6,032520439e-03    1,377343386e-01    7,007443309e-01    0,000000000e+00    0,000000000e+00    0,000000000e+00    0,000000000e+00
      506000000   -2,614239929e-03   -1,577153057e-02    4,984142482e-01    5,024699569e-01    0,000000000e+00    0,000000000e+00    0,000000000e+00    0,000000000e+00
      520000000   -5,010439549e-03   -3,166100010e-02    6,882615685e-01    1,402406245e-01    0,000000000e+00    0,000000000e+00    0,000000000e+00    0,000000000e+00
      534000000   -3,781205742e-03   -3,838216513e-02    6,434478164e-01   -2,630036175e-01    0,000000000e+00    0,000000000e+00    0,000000000e+00    0,000000000e+00
      548000000    5,763969384e-03   -5,389151722e-02    3,808909953e-01   -5,675265193e-01    0,000000000e+00    0,000000000e+00    0,000000000e+00    0,000000000e+00
      562000000    2,808640013e-03   -8,963666856e-02    2,817878034e-03   -6,730263829e-01    0,000000000e+00    0,000000000e+00    0,000000000e+00    0,000000000e+00
      576000000   -3,454227746e-02   -1,245619878e-01   -3,691752851e-01   -5,581352115e-01    0,000000000e+00    0,000000000e+00    0,000000000e+00    0,000000000e+00
      590000000   -9,621582180e-02   -1,225943714e-01   -6,213645339e-01   -2,657930255e-01    0,000000000e+00    0,000000000e+00    0,000000000e+00    0,000000000e+00
      604000000   -1,397682577e-01   -7,166747749e-02   -6,654363871e-01    1,383414119e-01    0,000000000e+00    0,000000000e+00    0,000000000e+00    0,000000000e+00
      618000000   -1,290538460e-01   -9,038518183e-03   -4,645799100e-01    4,947934747e-01    0,000000000e+00    0,000000000e+00    0,000000000e+00    0,000000000e+00
      632000000   -8,370190114e-02    1,716432907e-02   -9,936471283e-02    6,635020375e-01    0,000000000e+00    0,000000000e+00    0,000000000e+00    0,000000000e+00
      646000000   -5,085465312e-02    8,192615496e-05    2,870368361e-01    5,951321125e-01    0,000000000e+00    0,000000000e+00    0,000000000e+00    0,000000000e+00
      660000000   -5,351505429e-02   -2,140945755e-02    5,669947863e-01    3,227904439e-01    0,000000000e+00    0,000000000e+00    0,000000000e+00    0,000000000e+00
      674000000   -7,071495056e-02   -1,753515005e-02    6,427437067e-01   -6,486357003e-02    0,000000000e+00    0,000000000e+00    0,000000000e+00    0,000000000e+00
      688000000   -6,869149208e-02    8,159172721e-03    4,706496298e-01   -4,281022549e-01    0,000000000e+00    0,000000000e+00    0,000000000e+00    0,000000000e+00
      702000000   -3,761827946e-02    2,617256902e-02    1,247436479e-01   -6,118707657e-01    0,000000000e+00    0,000000000e+00    0,000000000e+00    0,000000000e+00
      716000000    1,810153481e-03    1,759650744e-02   -2,641941309e-01   -5,462014079e-01    0,000000000e+00    0,000000000e+00    0,000000000e+00    0,000000000e+00
      730000000    3,654217348e-02   -1,166138146e-02   -5,290380716e-01   -2,693417370e-01    0,000000000e+00    0,000000000e+00    0,000000000e+00    0,000000000e+00
      744000000    6,501372159e-02   -6,162855774e-02   -5,637668967e-01    1,061173379e-01    0,000000000e+00    0,000000000e+00    0,000000000e+00    0,000000000e+00
      758000000    6,609423459e-02   -1,521440297e-01   -3,632682264e-01    4,102132916e-01    0,000000000e+00    0,000000000e+00    0,000000000e+00    0,000000000e+00
      772000000   -1,310325228e-02   -2,625717223e-01   -3,497180343e-02    5,155628324e-01    0,000000000e+00    0,000000000e+00    0,000000000e+00    0,000000000e+00
      786000000   -2,063797414e-01   -3,033169210e-01    2,754184902e-01    3,955509365e-01    0,000000000e+00    0,000000000e+00    0,000000000e+00    0,000000000e+00
      800000000   -4,261018932e-01   -1,299227029e-01    4,172043800e-01    9,891346097e-02    0,000000000e+00    0,000000000e+00    0,000000000e+00    0,000000000e+00
      814000000   -3,907019198e-01    2,215412706e-01    2,820416391e-01   -1,734238118e-01    0,000000000e+00    0,000000000e+00    0,000000000e+00    0,000000000e+00
      828000000   -4,979549721e-02    3,678471148e-01    5,597595870e-02   -1,896388531e-01    0,000000000e+00    0,000000000e+00    0,000000000e+00    0,000000000e+00
      842000000    2,350532115e-01    1,859783232e-01   -1,720714383e-02   -7,103978097e-02    0,000000000e+00    0,000000000e+00    0,000000000e+00    0,000000000e+00
      856000000    2,805963457e-01   -1,240642369e-01    4,533343390e-02   -1,293669920e-02    0,000000000e+00    0,000000000e+00    0,000000000e+00    0,000000000e+00
      870000000    7,554619759e-02   -3,757918477e-01    1,130679399e-01   -9,116360545e-02    0,000000000e+00    0,000000000e+00    0,000000000e+00    0,000000000e+00
      884000000   -2,956083417e-01   -3,612208068e-01    2,849244513e-02   -2,458347380e-01    0,000000000e+00    0,000000000e+00    0,000000000e+00    0,000000000e+00
      898000000   -4,715761542e-01    9,314657189e-03   -2,214105874e-01   -2,273929864e-01    0,000000000e+00    0,000000000e+00    0,000000000e+00    0,000000000e+00
      912000000   -2,266867757e-01    2,947920561e-01   -3,366429210e-01    7,009407133e-02    0,000000000e+00    0,000000000e+00    0,000000000e+00    0,000000000e+00
      926000000    6,644210219e-02    2,615734935e-01   -2,158871889e-01    2,639692724e-01    0,000000000e+00    0,000000000e+00    0,000000000e+00    0,000000000e+00
      940000000    2,153383940e-01    8,263703436e-02   -3,624535352e-02    3,291479647e-01    0,000000000e+00    0,000000000e+00    0,000000000e+00    0,000000000e+00
      954000000    2,253012657e-01   -1,276285648e-01    1,317021400e-01    3,062413633e-01    0,000000000e+00    0,000000000e+00    0,000000000e+00    0,000000000e+00
      968000000    1,154833585e-01   -3,011870384e-01    2,708720565e-01    2,190489471e-01    0,000000000e+00    0,000000000e+00    0,000000000e+00    0,000000000e+00
      982000000   -8,521199226e-02   -3,860036433e-01    3,652070463e-01    6,446468085e-02    0,000000000e+00    0,000000000e+00    0,000000000e+00    0,000000000e+00
      996000000   -3,195800483e-01   -3,309620917e-01    3,701519668e-01   -1,443791986e-01    0,000000000e+00    0,000000000e+00    0,000000000e+00    0,000000000e+00
     1010000000   -4,624193907e-01   -1,144354492e-01    2,226097882e-01   -3,413353562e-01    0,000000000e+00    0,000000000e+00    0,000000000e+00    0,000000000e+00
     1024000000   -4,154998958e-01    1,531981528e-01   -3,373647854e-02   -3,925186694e-01    0,000000000e+00    0,000000000e+00    0,000000000e+00    0,000000000e+00
     1038000000   -2,150079310e-01    2,918074131e-01   -2,488098592e-01   -2,610435486e-01    0,000000000e+00    0,000000000e+00    0,000000000e+00    0,000000000e+00
     1052000000   -5,286709871e-03    2,774907649e-01   -3,170596957e-01   -4,626296088e-02    0,000000000e+00    0,000000000e+00    0,000000000e+00    0,000000000e+00
     1066000000    1,346377879e-01    1,615913808e-01   -2,542846799e-01    1,436341703e-01    0,000000000e+00    0,000000000e+00    0,000000000e+00    0,000000000e+00
     1080000000    1,939731985e-01   -3,374543972e-03   -1,195525378e-01    2,664242387e-01    0,000000000e+00    0,000000000e+00    0,000000000e+00    0,000000000e+00
     1094000000    1,573128551e-01   -1,755251139e-01    6,342551112e-02    3,036279082e-01    0,000000000e+00    0,000000000e+00    0,000000000e+00    0,000000000e+00
     1108000000   -2,357589081e-03   -3,006191552e-01    2,751440108e-01    2,469287962e-01    0,000000000e+00    0,000000000e+00    0,000000000e+00    0,000000000e+00
     1122000000   -2,451182455e-01   -2,595890164e-01    4,719007015e-01    1,286167186e-02    0,000000000e+00    0,000000000e+00    0,000000000e+00    0,000000000e+00
     1136000000   -3,173567355e-01    3,555286676e-02    4,000004232e-01   -3,935204148e-01    0,000000000e+00    0,000000000e+00    0,000000000e+00    0,000000000e+00
     1150000000   -3,745151311e-02    1,473621279e-01    4,340444691e-03   -5,420408249e-01    0,000000000e+00    0,000000000e+00    0,000000000e+00    0,000000000e+00
     1164000000    1,209123805e-01   -6,325106323e-02   -2,751679122e-01   -3,785542846e-01    0,000000000e+00    0,000000000e+00    0,000000000e+00    0,000000000e+00
     1178000000    1,775710098e-02   -3,067345917e-01   -3,677234054e-01   -1,521086991e-01    0,000000000e+00    0,000000000e+00    0,000000000e+00    0,000000000e+00
     1192000000   -2,683431506e-01   -3,700421154e-01   -3,221741021e-01    5,661009252e-02    0,000000000e+00    0,000000000e+00    0,000000000e+00    0,000000000e+00
     1206000000   -5,174601674e-01   -1,601319611e-01   -1,665189415e-01    1,819906235e-01    0,000000000e+00    0,000000000e+00    0,000000000e+00    0,000000000e+00
     1220000000   -5,115702748e-01    1,703677624e-01    1,775262761e-03    1,539359242e-01    0,000000000e+00    0,000000000e+00    0,000000000e+00    0,000000000e+00
     1234000000   -2,866901159e-01    3,582226634e-01    7,007417083e-02    5,860688910e-02    0,000000000e+00    0,000000000e+00    0,000000000e+00    0,000000000e+00
     1248000000   -4,263748229e-02    3,623721004e-01    5,414618552e-02   -1,103359857e-03    0,000000000e+00    0,000000000e+00    0,000000000e+00    0,000000000e+00
     1262000000    1,232355759e-01    2,535173595e-01    1,523059700e-02   -2,714585885e-02    0,000000000e+00    0,000000000e+00    0,000000000e+00    0,000000000e+00
     1276000000    2,077001035e-01    1,028225720e-01   -4,393180367e-03    4,223700147e-03    0,000000000e+00    0,000000000e+00    0,000000000e+00    0,000000000e+00
     1290000000    2,255682945e-01   -7,140162587e-02    2,002243884e-02    5,516635254e-02    0,000000000e+00    0,000000000e+00    0,000000000e+00    0,000000000e+00
     1304000000    1,530603766e-01   -2,364837527e-01    1,267962158e-01    7,199023664e-02    0,000000000e+00    0,000000000e+00    0,000000000e+00    0,000000000e+00
     1318000000    3,570491076e-02   -3,357466757e-01    1,256154627e-01   -1,665748507e-01    0,000000000e+00    0,000000000e+00    0,000000000e+00    0,000000000e+00
     1332000000   -1,321425289e-01   -4,422971010e-01   -5,049807578e-02   -4,740284011e-02    0,000000000e+00    0,000000000e+00    0,000000000e+00    0,000000000e+00
     1346000000   -3,930541277e-01   -4,074485898e-01    2,464927919e-02    7,183062285e-02    0,000000000e+00    0,000000000e+00    0,000000000e+00    0,000000000e+00
     1360000000   -6,033150554e-01   -1,964969486e-01    1,435364783e-01    6,615064293e-02    0,000000000e+00    0,000000000e+00    0,000000000e+00    0,000000000e+00
     1374000000   -6,334987283e-01    1,265447885e-01    2,047799826e-01    6,405611057e-03    0,000000000e+00    0,000000000e+00    0,000000000e+00    0,000000000e+00
     1388000000   -4,685991108e-01    3,597771227e-01    2,139591724e-01   -7,196801156e-02    0,000000000e+00    0,000000000e+00    0,000000000e+00    0,000000000e+00
     1402000000   -2,364569157e-01    4,523423612e-01    1,801842004e-01   -1,033650115e-01    0,000000000e+00    0,000000000e+00    0,000000000e+00    0,000000000e+00
     1416000000   -2,830294520e-02    4,110311866e-01    1,667578220e-01   -1,115364134e-01    0,000000000e+00    0,000000000e+00    0,000000000e+00    0,000000000e+00
     1430000000    1,207357049e-01    3,028779328e-01    1,736215949e-01   -9,582930058e-02    0,000000000e+00    0,000000000e+00    0,000000000e+00    0,000000000e+00
     1444000000    2,064049244e-01    1,527706981e-01    1,501308382e-01   -1,009014174e-01    0,000000000e+00    0,000000000e+00    0,000000000e+00    0,000000000e+00
     1458000000    2,328449935e-01   -2,119673602e-02    1,403482556e-01   -7,959815860e-02    0,000000000e+00    0,000000000e+00    0,000000000e+00    0,000000000e+00
     1472000000    1,957910657e-01   -2,026309520e-01    1,500800997e-01   -4,126160964e-02    0,000000000e+00    0,000000000e+00    0,000000000e+00    0,000000000e+00
     1486000000    6,265962124e-02   -3,780386448e-01    1,643853337e-01    2,746626735e-02    0,000000000e+00    0,000000000e+00    0,000000000e+00    0,000000000e+00
     1500000000   -1,761600077e-01   -4,977191389e-01    2,338531315e-01    9,414764494e-02    0,000000000e+00    0,000000000e+00    0,000000000e+00    0,000000000e+00
