! NanoVNA-App
! Date: 2025-09-25 15:30:19
! Start: 100MHz Stop: 1,5GHz Points: 101
! S-Parameter data: F S11 S21 S12 S22
# Hz S RI R 50
!     Frequency           S11_Real           S11_Imag           S21_Real           S21_Imag           S12_Real           S12_Imag           S22_Real           S22_Imag
      100000000   -2,887269855e-02   -4,178734962e-03    3,741134405e-01   -7,217664123e-01    0,000000000e+00    0,000000000e+00    0,000000000e+00    0,000000000e+00
      114000000   -1,652791537e-02    1,152066793e-02   -8,920471370e-02   -8,053260446e-01    0,000000000e+00    0,000000000e+00    0,000000000e+00    0,000000000e+00
      128000000    3,475634847e-03    1,053217053e-02   -5,146046877e-01   -6,207085848e-01    0,000000000e+00    0,000000000e+00    0,000000000e+00    0,000000000e+00
      142000000    1,453203615e-02   -2,928971080e-03   -7,671876550e-01   -2,365490347e-01    0,000000000e+00    0,000000000e+00    0,000000000e+00    0,000000000e+00
      156000000    1,608521491e-02   -1,442785002e-02   -7,722303867e-01    2,245039046e-01    0,000000000e+00    0,000000000e+00    0,000000000e+00    0,000000000e+00
      170000000    1,664611325e-02   -2,258347906e-02   -5,182517171e-01    6,047571898e-01    0,000000000e+00    0,000000000e+00    0,000000000e+00    0,000000000e+00
      184000000    2,098559402e-02   -3,708199784e-02   -1,016133875e-01    7,860537171e-01    0,000000000e+00    0,000000000e+00    0,000000000e+00    0,000000000e+00
      198000000    1,298807655e-02   -6,246675923e-02    3,431927264e-01    7,124336362e-01    0,000000000e+00    0,000000000e+00    0,000000000e+00    0,000000000e+00
      212000000   -1,867952198e-02   -8,128073066e-02    6,781321764e-01    4,099512398e-01    0,000000000e+00    0,000000000e+00    0,000000000e+00    0,000000000e+00
      226000000   -6,167217717e-02   -6,922853738e-02    7,957892418e-01   -3,054582886e-02    0,000000000e+00    0,000000000e+00    0,000000000e+00    0,000000000e+00
      240000000   -8,261276782e-02   -2,557336167e-02    6,459735632e-01   -4,670394957e-01    0,000000000e+00    0,000000000e+00    0,000000000e+00    0,000000000e+00
      254000000   -6,354677677e-02    1,719536260e-02    2,761202157e-01   -7,429500222e-01    0,000000000e+00    0,000000000e+00    0,000000000e+00    0,000000000e+00
      268000000   -2,378059924e-02    2,890017815e-02   -1,780035049e-01   -7,642185688e-01    0,000000000e+00    0,000000000e+00    0,000000000e+00    0,000000000e+00
      282000000    4,096889403e-03    1,195117645e-02   -5,617584586e-01   -5,355432630e-01    0,000000000e+00    0,000000000e+00    0,000000000e+00    0,000000000e+00
      296000000    9,705038741e-03   -7,884873077e-03   -7,598362565e-01   -1,394757777e-01    0,000000000e+00    0,000000000e+00    0,000000000e+00    0,000000000e+00
      310000000    1,111250091e-02   -1,647778787e-02   -7,131199837e-01    2,976424992e-01    0,000000000e+00    0,000000000e+00    0,000000000e+00    0,000000000e+00
      324000000    1,962832548e-02   -2,666073106e-02   -4,268465340e-01    6,366882324e-01    0,000000000e+00    0,000000000e+00    0,000000000e+00    0,000000000e+00
      338000000    2,551491000e-02   -5,225793645e-02   -6,659883540e-03    7,623357177e-01    0,000000000e+00    0,000000000e+00    0,000000000e+00    0,000000000e+00
      352000000    7,377121598e-03   -8,476226032e-02    4,068895280e-01    6,398248076e-01    0,000000000e+00    0,000000000e+00    0,000000000e+00    0,000000000e+00
      366000000   -3,465851396e-02   -9,564520419e-02    6,904469132e-01    3,107231557e-01    0,000000000e+00    0,000000000e+00    0,000000000e+00    0,000000000e+00
      380000000   -7,070419192e-02   -7,090228051e-02    7,479704022e-01   -1,259891838e-01    0,000000000e+00    0,000000000e+00    0,000000000e+00    0,000000000e+00
      394000000   -7,260396332e-02   -3,221588954e-02    5,467182994e-01   -5,212970972e-01    0,000000000e+00    0,000000000e+00    0,000000000e+00    0,000000000e+00
      408000000   -4,624127969e-02   -1,622224785e-02    1,617266983e-01   -7,323004007e-01    0,000000000e+00    0,000000000e+00    0,000000000e+00    0,000000000e+00
      422000000   -2,841368876e-02   -3,210878745e-02   -2,671633661e-01   -6,959139109e-01    0,000000000e+00    0,000000000e+00    0,000000000e+00    0,000000000e+00
      436000000   -4,070021957e-02   -5,168294907e-02   -6,040414572e-01   -4,320329726e-01    0,000000000e+00    0,000000000e+00    0,000000000e+00    0,000000000e+00
      450000000   -6,767840683e-02   -4,361034930e-02   -7,407352328e-01   -2,109616995e-02    0,000000000e+00    0,000000000e+00    0,000000000e+00    0,000000000e+00
      464000000   -7,314512879e-02   -1,154677477e-02   -6,181048751e-01    3,973735869e-01    0,000000000e+00    0,000000000e+00    0,000000000e+00    0,000000000e+00
      478000000   -4,760706052e-02    1,195218787e-02   -2,817898691e-01    6,685848236e-01    0,000000000e+00    0,000000000e+00    0,000000000e+00    0,000000000e+00
      492000000   -1,616959088e-02    6,047151517e-03    1,378090084e-01    7,017706633e-01    0,000000000e+00    0,000000000e+00    0,000000000e+00    0,000000000e+00
      506000000   -2,620499814e-03   -1,557040773e-02    4,982107282e-01    5,024909973e-01    0,000000000e+00    0,000000000e+00    0,000000000e+00    0,000000000e+00
      520000000   -5,298173521e-03   -3,151911497e-02    6,881831884e-01    1,404876262e-01    0,000000000e+00    0,000000000e+00    0,000000000e+00    0,000000000e+00
      534000000   -3,908401355e-03   -3,809675202e-02    6,432512999e-01   -2,628324330e-01    0,000000000e+00    0,000000000e+00    0,000000000e+00    0,000000000e+00
      548000000    6,014794577e-03   -5,405589566e-02    3,817264736e-01   -5,669059157e-01    0,000000000e+00    0,000000000e+00    0,000000000e+00    0,000000000e+00
      562000000    3,223535605e-03   -8,955976367e-02    3,191793803e-03   -6,724668145e-01    0,000000000e+00    0,000000000e+00    0,000000000e+00    0,000000000e+00
      576000000   -3,433559835e-02   -1,247398406e-01   -3,696513176e-01   -5,571822524e-01    0,000000000e+00    0,000000000e+00    0,000000000e+00    0,000000000e+00
      590000000   -9,644552320e-02   -1,226875111e-01   -6,221300364e-01   -2,621933818e-01    0,000000000e+00    0,000000000e+00    0,000000000e+00    0,000000000e+00
      604000000   -1,398488730e-01   -7,183760405e-02   -6,652042270e-01    1,378717870e-01    0,000000000e+00    0,000000000e+00    0,000000000e+00    0,000000000e+00
      618000000   -1,288411319e-01   -8,759517223e-03   -4,643913507e-01    4,950557053e-01    0,000000000e+00    0,000000000e+00    0,000000000e+00    0,000000000e+00
      632000000   -8,392533660e-02    1,623919234e-02   -9,768238664e-02    6,636368632e-01    0,000000000e+00    0,000000000e+00    0,000000000e+00    0,000000000e+00
      646000000   -5,171727762e-02    5,481903790e-04    2,868054211e-01    5,960415602e-01    0,000000000e+00    0,000000000e+00    0,000000000e+00    0,000000000e+00
      660000000   -5,352745578e-02   -2,167160250e-02    5,678678751e-01    3,236444592e-01    0,000000000e+00    0,000000000e+00    0,000000000e+00    0,000000000e+00
      674000000   -7,006838918e-02   -1,822748035e-02    6,431473494e-01   -6,558826566e-02    0,000000000e+00    0,000000000e+00    0,000000000e+00    0,000000000e+00
      688000000   -6,796912849e-02    8,294359781e-03    4,711471498e-01   -4,282197058e-01    0,000000000e+00    0,000000000e+00    0,000000000e+00    0,000000000e+00
      702000000   -3,675037622e-02    2,751125395e-02    1,178852320e-01   -6,114245057e-01    0,000000000e+00    0,000000000e+00    0,000000000e+00    0,000000000e+00
      716000000    2,408242552e-03    1,723902300e-02   -2,649018168e-01   -5,461500287e-01    0,000000000e+00    0,000000000e+00    0,000000000e+00    0,000000000e+00
      730000000    3,748713434e-02   -1,091347542e-02   -5,286719203e-01   -2,689205706e-01    0,000000000e+00    0,000000000e+00    0,000000000e+00    0,000000000e+00
      744000000    6,468338519e-02   -6,273764372e-02   -5,644135475e-01    1,065936238e-01    0,000000000e+00    0,000000000e+00    0,000000000e+00    0,000000000e+00
      758000000    6,647219509e-02   -1,525539607e-01   -3,639313877e-01    4,109826982e-01    0,000000000e+00    0,000000000e+00    0,000000000e+00    0,000000000e+00
      772000000   -1,338129304e-02   -2,623882592e-01   -3,422575071e-02    5,151526332e-01    0,000000000e+00    0,000000000e+00    0,000000000e+00    0,000000000e+00
      786000000   -2,075570375e-01   -3,030464649e-01    2,738159001e-01    3,956936598e-01    0,000000000e+00    0,000000000e+00    0,000000000e+00    0,000000000e+00
      800000000   -4,256837368e-01   -1,311960220e-01    4,169141948e-01    9,874174744e-02    0,000000000e+00    0,000000000e+00    0,000000000e+00    0,000000000e+00
      814000000   -3,893063068e-01    2,210143507e-01    2,817966640e-01   -1,731941551e-01    0,000000000e+00    0,000000000e+00    0,000000000e+00    0,000000000e+00
      828000000   -4,904980585e-02    3,685415983e-01    5,555011705e-02   -1,887066960e-01    0,000000000e+00    0,000000000e+00    0,000000000e+00    0,000000000e+00
      842000000    2,353637815e-01    1,860108972e-01   -1,718786731e-02   -7,027763873e-02    0,000000000e+00    0,000000000e+00    0,000000000e+00    0,000000000e+00
      856000000    2,804760337e-01   -1,246841550e-01    4,537127912e-02   -1,318870578e-02    0,000000000e+00    0,000000000e+00    0,000000000e+00    0,000000000e+00
      870000000    7,535019517e-02   -3,757734895e-01    1,139816940e-01   -9,091876447e-02    0,000000000e+00    0,000000000e+00    0,000000000e+00    0,000000000e+00
      884000000   -2,958064675e-01   -3,608686626e-01    2,797710337e-02   -2,457707226e-01    0,000000000e+00    0,000000000e+00    0,000000000e+00    0,000000000e+00
      898000000   -4,713894725e-01    8,899538778e-03   -2,223508358e-01   -2,277996242e-01    0,000000000e+00    0,000000000e+00    0,000000000e+00    0,000000000e+00
      912000000   -2,253590375e-01    2,954038084e-01   -3,362231255e-01    6,855416298e-02    0,000000000e+00    0,000000000e+00    0,000000000e+00    0,000000000e+00
      926000000    6,675101072e-02    2,630251944e-01   -2,183074206e-01    2,629398704e-01    0,000000000e+00    0,000000000e+00    0,000000000e+00    0,000000000e+00
      940000000    2,157245874e-01    8,256881684e-02   -3,710475937e-02    3,305763602e-01    0,000000000e+00    0,000000000e+00    0,000000000e+00    0,000000000e+00
      954000000    2,247633934e-01   -1,284388751e-01    1,307019740e-01    3,078086972e-01    0,000000000e+00    0,000000000e+00    0,000000000e+00    0,000000000e+00
      968000000    1,172088161e-01   -2,978811562e-01    2,711091936e-01    2,195612341e-01    0,000000000e+00    0,000000000e+00    0,000000000e+00    0,000000000e+00
      982000000   -8,081683517e-02   -3,897147775e-01    3,653824925e-01    6,620004773e-02    0,000000000e+00    0,000000000e+00    0,000000000e+00    0,000000000e+00
      996000000   -3,165380657e-01   -3,281617463e-01    3,687963784e-01   -1,444125473e-01    0,000000000e+00    0,000000000e+00    0,000000000e+00    0,000000000e+00
     1010000000   -4,626594782e-01   -1,141323075e-01    2,228114754e-01   -3,399249017e-01    0,000000000e+00    0,000000000e+00    0,000000000e+00    0,000000000e+00
     1024000000   -4,101567864e-01    1,477837712e-01   -3,109195083e-02   -3,928228915e-01    0,000000000e+00    0,000000000e+00    0,000000000e+00    0,000000000e+00
     1038000000   -2,206585556e-01    2,907408476e-01   -2,458672822e-01   -2,614533901e-01    0,000000000e+00    0,000000000e+00    0,000000000e+00    0,000000000e+00
     1052000000   -9,159399197e-03    2,757801712e-01   -3,170809448e-01   -4,535042867e-02    0,000000000e+00    0,000000000e+00    0,000000000e+00    0,000000000e+00
     1066000000    1,330918670e-01    1,652428806e-01   -2,531788647e-01    1,403505504e-01    0,000000000e+00    0,000000000e+00    0,000000000e+00    0,000000000e+00
     1080000000    1,965034902e-01    3,092497354e-04   -1,174472645e-01    2,629415989e-01    0,000000000e+00    0,000000000e+00    0,000000000e+00    0,000000000e+00
     1094000000    1,520228982e-01   -1,710658222e-01    6,536761671e-02    3,028881848e-01    0,000000000e+00    0,000000000e+00    0,000000000e+00    0,000000000e+00
     1108000000   -5,452227779e-03   -3,046688139e-01    2,773589194e-01    2,454730272e-01    0,000000000e+00    0,000000000e+00    0,000000000e+00    0,000000000e+00
     1122000000   -2,457597256e-01   -2,597260177e-01    4,713831246e-01    1,186319534e-02    0,000000000e+00    0,000000000e+00    0,000000000e+00    0,000000000e+00
     1136000000   -3,177542388e-01    2,622952498e-02    3,967169225e-01   -3,927277029e-01    0,000000000e+00    0,000000000e+00    0,000000000e+00    0,000000000e+00
     1150000000   -4,327382892e-02    1,551472545e-01    3,774393117e-03   -5,406997204e-01    0,000000000e+00    0,000000000e+00    0,000000000e+00    0,000000000e+00
     1164000000    1,199268401e-01   -6,276951730e-02   -2,776376903e-01   -3,785991073e-01    0,000000000e+00    0,000000000e+00    0,000000000e+00    0,000000000e+00
     1178000000    1,702598482e-02   -3,025211990e-01   -3,695674539e-01   -1,489345282e-01    0,000000000e+00    0,000000000e+00    0,000000000e+00    0,000000000e+00
     1192000000   -2,648076117e-01   -3,676768243e-01   -3,179856241e-01    5,593813583e-02    0,000000000e+00    0,000000000e+00    0,000000000e+00    0,000000000e+00
     1206000000   -5,212950110e-01   -1,636865288e-01   -1,660957634e-01    1,809703410e-01    0,000000000e+00    0,000000000e+00    0,000000000e+00    0,000000000e+00
     1220000000   -5,114958882e-01    1,787898988e-01    2,734639682e-03    1,601892859e-01    0,000000000e+00    0,000000000e+00    0,000000000e+00    0,000000000e+00
     1234000000   -2,805143893e-01    3,614157736e-01    7,346563786e-02    5,705449730e-02    0,000000000e+00    0,000000000e+00    0,000000000e+00    0,000000000e+00
     1248000000   -3,954068571e-02    3,677492142e-01    5,419582501e-02   -1,254723757e-03    0,000000000e+00    0,000000000e+00    0,000000000e+00    0,000000000e+00
     1262000000    1,191716045e-01    2,597548962e-01    1,592845842e-02   -2,156952024e-02    0,000000000e+00    0,000000000e+00    0,000000000e+00    0,000000000e+00
     1276000000    2,080214769e-01    9,996680915e-02   -3,196979407e-03    4,443942569e-03    0,000000000e+00    0,000000000e+00    0,000000000e+00    0,000000000e+00
     1290000000    2,253804505e-01   -7,183184475e-02    1,845522039e-02    5,325887725e-02    0,000000000e+00    0,000000000e+00    0,000000000e+00    0,000000000e+00
     1304000000    1,539904326e-01   -2,427343726e-01    1,316063702e-01    6,321731955e-02    0,000000000e+00    0,000000000e+00    0,000000000e+00    0,000000000e+00
     1318000000    3,281340003e-02   -3,356581330e-01    1,239054129e-01   -1,593167335e-01    0,000000000e+00    0,000000000e+00    0,000000000e+00    0,000000000e+00
     1332000000   -1,273356676e-01   -4,341854751e-01   -4,079992697e-02   -4,155645519e-02    0,000000000e+00    0,000000000e+00    0,000000000e+00    0,000000000e+00
     1346000000   -3,966006339e-01   -4,111099243e-01    1,934124716e-02    6,527504325e-02    0,000000000e+00    0,000000000e+00    0,000000000e+00    0,000000000e+00
     1360000000   -6,010472178e-01   -1,886031181e-01    1,429458410e-01    7,650154829e-02    0,000000000e+00    0,000000000e+00    0,000000000e+00    0,000000000e+00
     1374000000   -6,389659047e-01    1,252447665e-01    1,866697520e-01    4,929485265e-03    0,000000000e+00    0,000000000e+00    0,000000000e+00    0,000000000e+00
     1388000000   -4,629356265e-01    3,766769171e-01    2,103993893e-01   -5,541420355e-02    0,000000000e+00    0,000000000e+00    0,000000000e+00    0,000000000e+00
     1402000000   -2,391179949e-01    4,528638124e-01    1,776452065e-01   -9,932599217e-02    0,000000000e+00    0,000000000e+00    0,000000000e+00    0,000000000e+00
     1416000000   -2,531548031e-02    4,127650559e-01    1,781790107e-01   -1,039700285e-01    0,000000000e+00    0,000000000e+00    0,000000000e+00    0,000000000e+00
     1430000000    1,249458641e-01    3,055421114e-01    1,917412132e-01   -1,118100733e-01    0,000000000e+00    0,000000000e+00    0,000000000e+00    0,000000000e+00
     1444000000    2,109626979e-01    1,527095884e-01    1,641156673e-01   -9,978576750e-02    0,000000000e+00    0,000000000e+00    0,000000000e+00    0,000000000e+00
     1458000000    2,366292477e-01   -1,942230575e-02    1,429952234e-01   -7,056090981e-02    0,000000000e+00    0,000000000e+00    0,000000000e+00    0,000000000e+00
     1472000000    1,915371418e-01   -2,031421214e-01    1,348443478e-01   -2,793364413e-02    0,000000000e+00    0,000000000e+00    0,000000000e+00    0,000000000e+00
     1486000000    5,835440010e-02   -3,828086257e-01    1,602375507e-01    2,710381150e-02    0,000000000e+00    0,000000000e+00    0,000000000e+00    0,000000000e+00
     1500000000   -1,699219495e-01   -4,889658988e-01    2,383983135e-01    1,024811715e-01    0,000000000e+00    0,000000000e+00    0,000000000e+00    0,000000000e+00
