! NanoVNA-App
! Date: 2025-09-25 15:34:08
! Start: 100MHz Stop: 1,5GHz Points: 101
! S-Parameter data: F S11 S21 S12 S22
# Hz S RI R 50
!     Frequency           S11_Real           S11_Imag           S21_Real           S21_Imag           S12_Real           S12_Imag           S22_Real           S22_Imag
      100000000   -2,887398936e-02   -4,166553263e-03    3,741277754e-01   -7,217395306e-01    0,000000000e+00    0,000000000e+00    0,000000000e+00    0,000000000e+00
      114000000   -1,648944616e-02    1,149171684e-02   -8,913840353e-02   -8,056426644e-01    0,000000000e+00    0,000000000e+00    0,000000000e+00    0,000000000e+00
      128000000    3,426964860e-03    1,054500788e-02   -5,144484639e-01   -6,203937531e-01    0,000000000e+00    0,000000000e+00    0,000000000e+00    0,000000000e+00
      142000000    1,454684790e-02   -2,961816732e-03   -7,670013905e-01   -2,365868986e-01    0,000000000e+00    0,000000000e+00    0,000000000e+00    0,000000000e+00
      156000000    1,583804749e-02   -1,462742500e-02   -7,723578215e-01    2,235430926e-01    0,000000000e+00    0,000000000e+00    0,000000000e+00    0,000000000e+00
      170000000    1,661529392e-02   -2,260603383e-02   -5,180594921e-01    6,046556830e-01    0,000000000e+00    0,000000000e+00    0,000000000e+00    0,000000000e+00
      184000000    2,099160291e-02   -3,709705919e-02   -1,014722362e-01    7,860181332e-01    0,000000000e+00    0,000000000e+00    0,000000000e+00    0,000000000e+00
      198000000    1,300376933e-02   -6,248869747e-02    3,433111012e-01    7,124810219e-01    0,000000000e+00    0,000000000e+00    0,000000000e+00    0,000000000e+00
      212000000   -1,866790839e-02   -8,130501211e-02    6,781255603e-01    4,100555778e-01    0,000000000e+00    0,000000000e+00    0,000000000e+00    0,000000000e+00
      226000000   -6,165738776e-02   -6,921408325e-02    7,957565188e-01   -3,059893474e-02    0,000000000e+00    0,000000000e+00    0,000000000e+00    0,000000000e+00
      240000000   -8,263532072e-02   -2,562588081e-02    6,463273168e-01   -4,669113159e-01    0,000000000e+00    0,000000000e+00    0,000000000e+00    0,000000000e+00
      254000000   -6,353797019e-02    1,724642143e-02    2,759302557e-01   -7,430040836e-01    0,000000000e+00    0,000000000e+00    0,000000000e+00    0,000000000e+00
      268000000   -2,390435152e-02    2,889260836e-02   -1,779895574e-01   -7,641987801e-01    0,000000000e+00    0,000000000e+00    0,000000000e+00    0,000000000e+00
      282000000    4,141560290e-03    1,201636065e-02   -5,622167587e-01   -5,355972648e-01    0,000000000e+00    0,000000000e+00    0,000000000e+00    0,000000000e+00
      296000000    9,783991612e-03   -7,825504057e-03   -7,598700523e-01   -1,396649629e-01    0,000000000e+00    0,000000000e+00    0,000000000e+00    0,000000000e+00
      310000000    1,130879670e-02   -1,628437638e-02   -7,116251588e-01    2,983701527e-01    0,000000000e+00    0,000000000e+00    0,000000000e+00    0,000000000e+00
      324000000    1,965613663e-02   -2,632167749e-02   -4,279395938e-01    6,377606988e-01    0,000000000e+00    0,000000000e+00    0,000000000e+00    0,000000000e+00
      338000000    2,539242990e-02   -5,201102421e-02   -8,771470748e-03    7,599005699e-01    0,000000000e+00    0,000000000e+00    0,000000000e+00    0,000000000e+00
      352000000    7,361518219e-03   -8,478758484e-02    4,058552384e-01    6,389799714e-01    0,000000000e+00    0,000000000e+00    0,000000000e+00    0,000000000e+00
      366000000   -3,435667977e-02   -9,542489052e-02    6,908880472e-01    3,115860522e-01    0,000000000e+00    0,000000000e+00    0,000000000e+00    0,000000000e+00
      380000000   -7,057586312e-02   -7,105504721e-02    7,478325367e-01   -1,256346703e-01    0,000000000e+00    0,000000000e+00    0,000000000e+00    0,000000000e+00
      394000000   -7,246148586e-02   -3,210338205e-02    5,464053154e-01   -5,217785239e-01    0,000000000e+00    0,000000000e+00    0,000000000e+00    0,000000000e+00
      408000000   -4,630577937e-02   -1,617990620e-02    1,599518359e-01   -7,330305576e-01    0,000000000e+00    0,000000000e+00    0,000000000e+00    0,000000000e+00
      422000000   -2,842166647e-02   -3,181749582e-02   -2,678170800e-01   -6,950660348e-01    0,000000000e+00    0,000000000e+00    0,000000000e+00    0,000000000e+00
      436000000   -4,078000784e-02   -5,216293037e-02   -6,037181616e-01   -4,327448010e-01    0,000000000e+00    0,000000000e+00    0,000000000e+00    0,000000000e+00
      450000000   -6,776463240e-02   -4,373930395e-02   -7,409047484e-01   -2,126215585e-02    0,000000000e+00    0,000000000e+00    0,000000000e+00    0,000000000e+00
      464000000   -7,341588289e-02   -1,185663510e-02   -6,188514233e-01    3,976432085e-01    0,000000000e+00    0,000000000e+00    0,000000000e+00    0,000000000e+00
      478000000   -4,762076586e-02    1,206229441e-02   -2,814674079e-01    6,679061651e-01    0,000000000e+00    0,000000000e+00    0,000000000e+00    0,000000000e+00
      492000000   -1,577354223e-02    6,232571322e-03    1,379669756e-01    7,015597224e-01    0,000000000e+00    0,000000000e+00    0,000000000e+00    0,000000000e+00
      506000000   -2,311872551e-03   -1,597663574e-02    4,983342290e-01    5,024918318e-01    0,000000000e+00    0,000000000e+00    0,000000000e+00    0,000000000e+00
      520000000   -4,939603154e-03   -3,179855272e-02    6,902661920e-01    1,418791860e-01    0,000000000e+00    0,000000000e+00    0,000000000e+00    0,000000000e+00
      534000000   -3,704011440e-03   -3,818336502e-02    6,437976956e-01   -2,623190284e-01    0,000000000e+00    0,000000000e+00    0,000000000e+00    0,000000000e+00
      548000000    6,105810404e-03   -5,368851498e-02    3,815439939e-01   -5,674934983e-01    0,000000000e+00    0,000000000e+00    0,000000000e+00    0,000000000e+00
      562000000    3,348354949e-03   -8,950123191e-02    2,977421973e-03   -6,726592779e-01    0,000000000e+00    0,000000000e+00    0,000000000e+00    0,000000000e+00
      576000000   -3,403551877e-02   -1,241618544e-01   -3,689464033e-01   -5,574685335e-01    0,000000000e+00    0,000000000e+00    0,000000000e+00    0,000000000e+00
      590000000   -9,654910117e-02   -1,225790828e-01   -6,220824718e-01   -2,625339925e-01    0,000000000e+00    0,000000000e+00    0,000000000e+00    0,000000000e+00
      604000000   -1,398321688e-01   -7,174781710e-02   -6,651304960e-01    1,375413835e-01    0,000000000e+00    0,000000000e+00    0,000000000e+00    0,000000000e+00
      618000000   -1,295638084e-01   -9,672563523e-03   -4,644753039e-01    4,940414131e-01    0,000000000e+00    0,000000000e+00    0,000000000e+00    0,000000000e+00
      632000000   -8,442150801e-02    1,716822200e-02   -9,949108213e-02    6,630641222e-01    0,000000000e+00    0,000000000e+00    0,000000000e+00    0,000000000e+00
      646000000   -5,050653219e-02    8,872273611e-04    2,880630493e-01    5,952671170e-01    0,000000000e+00    0,000000000e+00    0,000000000e+00    0,000000000e+00
      660000000   -5,320595950e-02   -2,220366150e-02    5,683386922e-01    3,233335912e-01    0,000000000e+00    0,000000000e+00    0,000000000e+00    0,000000000e+00
      674000000   -6,944909692e-02   -1,756543294e-02    6,431713104e-01   -6,588666141e-02    0,000000000e+00    0,000000000e+00    0,000000000e+00    0,000000000e+00
      688000000   -6,799396127e-02    9,721254930e-03    4,712572992e-01   -4,284907579e-01    0,000000000e+00    0,000000000e+00    0,000000000e+00    0,000000000e+00
      702000000   -3,752015159e-02    2,741226368e-02    1,167215928e-01   -6,110954881e-01    0,000000000e+00    0,000000000e+00    0,000000000e+00    0,000000000e+00
      716000000    1,529578585e-03    1,815100014e-02   -2,650224566e-01   -5,455412269e-01    0,000000000e+00    0,000000000e+00    0,000000000e+00    0,000000000e+00
      730000000    3,756094351e-02   -1,074850373e-02   -5,281385183e-01   -2,693976462e-01    0,000000000e+00    0,000000000e+00    0,000000000e+00    0,000000000e+00
      744000000    6,518773735e-02   -6,195222586e-02   -5,645027757e-01    1,062131450e-01    0,000000000e+00    0,000000000e+00    0,000000000e+00    0,000000000e+00
      758000000    6,723775715e-02   -1,523691118e-01   -3,634727895e-01    4,107438326e-01    0,000000000e+00    0,000000000e+00    0,000000000e+00    0,000000000e+00
      772000000   -1,275887527e-02   -2,630945742e-01   -3,459574655e-02    5,147389174e-01    0,000000000e+00    0,000000000e+00    0,000000000e+00    0,000000000e+00
      786000000   -2,067999691e-01   -3,025068343e-01    2,748916149e-01    3,960006833e-01    0,000000000e+00    0,000000000e+00    0,000000000e+00    0,000000000e+00
      800000000   -4,262445271e-01   -1,305805296e-01    4,176915586e-01    9,917499125e-02    0,000000000e+00    0,000000000e+00    0,000000000e+00    0,000000000e+00
      814000000   -3,894049823e-01    2,203264236e-01    2,821926475e-01   -1,732797474e-01    0,000000000e+00    0,000000000e+00    0,000000000e+00    0,000000000e+00
      828000000   -4,816826433e-02    3,675371110e-01    5,570173264e-02   -1,890606880e-01    0,000000000e+00    0,000000000e+00    0,000000000e+00    0,000000000e+00
      842000000    2,353435755e-01    1,860668212e-01   -1,728763059e-02   -7,123135030e-02    0,000000000e+00    0,000000000e+00    0,000000000e+00    0,000000000e+00
      856000000    2,807491422e-01   -1,243558899e-01    4,521593079e-02   -1,290350314e-02    0,000000000e+00    0,000000000e+00    0,000000000e+00    0,000000000e+00
      870000000    7,565274090e-02   -3,766660690e-01    1,142965555e-01   -9,142962098e-02    0,000000000e+00    0,000000000e+00    0,000000000e+00    0,000000000e+00
      884000000   -2,961346209e-01   -3,616507053e-01    2,792966925e-02   -2,464029640e-01    0,000000000e+00    0,000000000e+00    0,000000000e+00    0,000000000e+00
      898000000   -4,711717665e-01    8,707799949e-03   -2,212069631e-01   -2,273498923e-01    0,000000000e+00    0,000000000e+00    0,000000000e+00    0,000000000e+00
      912000000   -2,264276743e-01    2,954287529e-01   -3,475704193e-01    7,584709674e-02    0,000000000e+00    0,000000000e+00    0,000000000e+00    0,000000000e+00
      926000000    6,769240648e-02    2,643108368e-01   -2,153967917e-01    2,665866017e-01    0,000000000e+00    0,000000000e+00    0,000000000e+00    0,000000000e+00
      940000000    2,165548503e-01    8,040515333e-02   -3,579187393e-02    3,298485875e-01    0,000000000e+00    0,000000000e+00    0,000000000e+00    0,000000000e+00
      954000000    2,207059264e-01   -1,281653643e-01    1,303277463e-01    3,076602519e-01    0,000000000e+00    0,000000000e+00    0,000000000e+00    0,000000000e+00
      968000000    1,169997528e-01   -2,990897000e-01    2,708069682e-01    2,181800902e-01    0,000000000e+00    0,000000000e+00    0,000000000e+00    0,000000000e+00
      982000000   -8,381453902e-02   -3,853305876e-01    3,660706878e-01    6,682667136e-02    0,000000000e+00    0,000000000e+00    0,000000000e+00    0,000000000e+00
      996000000   -3,153627217e-01   -3,322158456e-01    3,698829114e-01   -1,451780796e-01    0,000000000e+00    0,000000000e+00    0,000000000e+00    0,000000000e+00
     1010000000   -4,611171782e-01   -1,085040569e-01    2,226238549e-01   -3,432305455e-01    0,000000000e+00    0,000000000e+00    0,000000000e+00    0,000000000e+00
     1024000000   -4,118938744e-01    1,525719762e-01   -3,497139364e-02   -3,922570050e-01    0,000000000e+00    0,000000000e+00    0,000000000e+00    0,000000000e+00
     1038000000   -2,156628668e-01    2,894293368e-01   -2,457349747e-01   -2,601290643e-01    0,000000000e+00    0,000000000e+00    0,000000000e+00    0,000000000e+00
     1052000000   -8,504284546e-03    2,817482352e-01   -3,163616955e-01   -4,687508941e-02    0,000000000e+00    0,000000000e+00    0,000000000e+00    0,000000000e+00
     1066000000    1,374716312e-01    1,629469693e-01   -2,573392987e-01    1,414397806e-01    0,000000000e+00    0,000000000e+00    0,000000000e+00    0,000000000e+00
     1080000000    1,957333684e-01    1,121910405e-03   -1,208473518e-01    2,641159594e-01    0,000000000e+00    0,000000000e+00    0,000000000e+00    0,000000000e+00
     1094000000    1,540497839e-01   -1,780736893e-01    6,415525824e-02    3,036231697e-01    0,000000000e+00    0,000000000e+00    0,000000000e+00    0,000000000e+00
     1108000000    6,593010039e-04   -3,070406616e-01    2,764009535e-01    2,449574172e-01    0,000000000e+00    0,000000000e+00    0,000000000e+00    0,000000000e+00
     1122000000   -2,516589761e-01   -2,666338384e-01    4,740666747e-01    1,422138140e-02    0,000000000e+00    0,000000000e+00    0,000000000e+00    0,000000000e+00
     1136000000   -3,149971068e-01    3,024175204e-02    3,998621404e-01   -3,902256191e-01    0,000000000e+00    0,000000000e+00    0,000000000e+00    0,000000000e+00
     1150000000   -3,896366805e-02    1,553900391e-01    5,704186857e-03   -5,430343151e-01    0,000000000e+00    0,000000000e+00    0,000000000e+00    0,000000000e+00
     1164000000    1,273273677e-01   -6,097793579e-02   -2,799307406e-01   -3,772792220e-01    0,000000000e+00    0,000000000e+00    0,000000000e+00    0,000000000e+00
     1178000000    1,601771452e-02   -3,061870039e-01   -3,690714538e-01   -1,540239900e-01    0,000000000e+00    0,000000000e+00    0,000000000e+00    0,000000000e+00
     1192000000   -2,676860392e-01   -3,749892116e-01   -3,220170140e-01    5,673103780e-02    0,000000000e+00    0,000000000e+00    0,000000000e+00    0,000000000e+00
     1206000000   -5,246340632e-01   -1,618463397e-01   -1,682673991e-01    1,782163531e-01    0,000000000e+00    0,000000000e+00    0,000000000e+00    0,000000000e+00
     1220000000   -5,087732077e-01    1,799020767e-01    5,250365357e-04    1,636110842e-01    0,000000000e+00    0,000000000e+00    0,000000000e+00    0,000000000e+00
     1234000000   -2,822048664e-01    3,617238402e-01    7,109770179e-02    6,082344428e-02    0,000000000e+00    0,000000000e+00    0,000000000e+00    0,000000000e+00
     1248000000   -4,104909301e-02    3,678285480e-01    5,582178384e-02   -5,451350939e-03    0,000000000e+00    0,000000000e+00    0,000000000e+00    0,000000000e+00
     1262000000    1,239613071e-01    2,523824573e-01    1,536971144e-02   -2,475126460e-02    0,000000000e+00    0,000000000e+00    0,000000000e+00    0,000000000e+00
     1276000000    2,051771730e-01    1,019145772e-01   -4,841654561e-03    9,516187944e-03    0,000000000e+00    0,000000000e+00    0,000000000e+00    0,000000000e+00
     1290000000    2,237637043e-01   -7,223317772e-02    1,694571227e-02    5,285865441e-02    0,000000000e+00    0,000000000e+00    0,000000000e+00    0,000000000e+00
     1304000000    1,549012512e-01   -2,431827784e-01    1,326913238e-01    6,667497009e-02    0,000000000e+00    0,000000000e+00    0,000000000e+00    0,000000000e+00
     1318000000    3,200006112e-02   -3,338575363e-01    1,301090270e-01   -1,669064015e-01    0,000000000e+00    0,000000000e+00    0,000000000e+00    0,000000000e+00
     1332000000   -1,307571232e-01   -4,391078949e-01   -4,703608528e-02   -4,899107665e-02    0,000000000e+00    0,000000000e+00    0,000000000e+00    0,000000000e+00
     1346000000   -3,991253376e-01   -4,052621424e-01    1,950470172e-02    7,299803197e-02    0,000000000e+00    0,000000000e+00    0,000000000e+00    0,000000000e+00
     1360000000   -6,053691506e-01   -1,821362525e-01    1,361318827e-01    8,372672647e-02    0,000000000e+00    0,000000000e+00    0,000000000e+00    0,000000000e+00
     1374000000   -6,254217029e-01    1,167530790e-01    2,084758133e-01    3,401939059e-03    0,000000000e+00    0,000000000e+00    0,000000000e+00    0,000000000e+00
     1388000000   -4,704953134e-01    3,666364253e-01    1,980004609e-01   -6,649688631e-02    0,000000000e+00    0,000000000e+00    0,000000000e+00    0,000000000e+00
     1402000000   -2,337567508e-01    4,535031617e-01    1,896588951e-01   -8,362654597e-02    0,000000000e+00    0,000000000e+00    0,000000000e+00    0,000000000e+00
     1416000000   -2,834727988e-02    4,141186476e-01    1,790653616e-01   -1,074755862e-01    0,000000000e+00    0,000000000e+00    0,000000000e+00    0,000000000e+00
     1430000000    1,208378971e-01    3,009737432e-01    1,759939194e-01   -1,191125810e-01    0,000000000e+00    0,000000000e+00    0,000000000e+00    0,000000000e+00
     1444000000    2,058599144e-01    1,487752348e-01    1,582346708e-01   -1,015856490e-01    0,000000000e+00    0,000000000e+00    0,000000000e+00    0,000000000e+00
     1458000000    2,358456850e-01   -2,128650248e-02    1,332363784e-01   -7,354658097e-02    0,000000000e+00    0,000000000e+00    0,000000000e+00    0,000000000e+00
     1472000000    1,913144737e-01   -2,011537999e-01    1,342737377e-01   -2,246570028e-02    0,000000000e+00    0,000000000e+00    0,000000000e+00    0,000000000e+00
     1486000000    6,172146276e-02   -3,746765256e-01    1,757896990e-01    4,091830179e-02    0,000000000e+00    0,000000000e+00    0,000000000e+00    0,000000000e+00
     1500000000   -1,714726985e-01   -4,882646501e-01    2,428689450e-01    1,198106781e-01    0,000000000e+00    0,000000000e+00    0,000000000e+00    0,000000000e+00
