! NanoVNA-App
! Date: 2025-09-25 15:37:19
! Start: 100MHz Stop: 1,5GHz Points: 101
! S-Parameter data: F S11 S21 S12 S22
# Hz S RI R 50
!     Frequency           S11_Real           S11_Imag           S21_Real           S21_Imag           S12_Real           S12_Imag           S22_Real           S22_Imag
      100000000   -2,882373147e-02   -4,172331188e-03    3,740919530e-01   -7,217508554e-01    0,000000000e+00    0,000000000e+00    0,000000000e+00    0,000000000e+00
      114000000   -1,646955498e-02    1,150650159e-02   -8,921302855e-02   -8,054289818e-01    0,000000000e+00    0,000000000e+00    0,000000000e+00    0,000000000e+00
      128000000    3,483466338e-03    1,055729762e-02   -5,143781900e-01   -6,204299927e-01    0,000000000e+00    0,000000000e+00    0,000000000e+00    0,000000000e+00
      142000000    1,459023356e-02   -2,965788124e-03   -7,671499252e-01   -2,365998924e-01    0,000000000e+00    0,000000000e+00    0,000000000e+00    0,000000000e+00
      156000000    1,601841860e-02   -1,439909637e-02   -7,701475620e-01    2,243316323e-01    0,000000000e+00    0,000000000e+00    0,000000000e+00    0,000000000e+00
      170000000    1,670535281e-02   -2,256857418e-02   -5,181071162e-01    6,046572328e-01    0,000000000e+00    0,000000000e+00    0,000000000e+00    0,000000000e+00
      184000000    2,102567814e-02   -3,707202151e-02   -1,015125439e-01    7,864584923e-01    0,000000000e+00    0,000000000e+00    0,000000000e+00    0,000000000e+00
      198000000    1,306468435e-02   -6,251346320e-02    3,431780934e-01    7,122930884e-01    0,000000000e+00    0,000000000e+00    0,000000000e+00    0,000000000e+00
      212000000   -1,858980954e-02   -8,131603897e-02    6,782594323e-01    4,100788236e-01    0,000000000e+00    0,000000000e+00    0,000000000e+00    0,000000000e+00
      226000000   -6,169449911e-02   -6,921003759e-02    7,957940698e-01   -3,051097691e-02    0,000000000e+00    0,000000000e+00    0,000000000e+00    0,000000000e+00
      240000000   -8,258297294e-02   -2,557142638e-02    6,460192204e-01   -4,671859741e-01    0,000000000e+00    0,000000000e+00    0,000000000e+00    0,000000000e+00
      254000000   -6,347598881e-02    1,720078476e-02    2,761881948e-01   -7,431937456e-01    0,000000000e+00    0,000000000e+00    0,000000000e+00    0,000000000e+00
      268000000   -2,383132093e-02    2,889457531e-02   -1,783013493e-01   -7,645002604e-01    0,000000000e+00    0,000000000e+00    0,000000000e+00    0,000000000e+00
      282000000    4,171605222e-03    1,191105600e-02   -5,618739128e-01   -5,354998112e-01    0,000000000e+00    0,000000000e+00    0,000000000e+00    0,000000000e+00
      296000000    9,717477486e-03   -7,779108826e-03   -7,597619891e-01   -1,398365796e-01    0,000000000e+00    0,000000000e+00    0,000000000e+00    0,000000000e+00
      310000000    1,129590813e-02   -1,624261402e-02   -7,128264904e-01    2,987636626e-01    0,000000000e+00    0,000000000e+00    0,000000000e+00    0,000000000e+00
      324000000    1,971922815e-02   -2,654620446e-02   -4,268398881e-01    6,370630860e-01    0,000000000e+00    0,000000000e+00    0,000000000e+00    0,000000000e+00
      338000000    2,569898590e-02   -5,230969191e-02   -9,129037149e-03    7,623443007e-01    0,000000000e+00    0,000000000e+00    0,000000000e+00    0,000000000e+00
      352000000    7,269971073e-03   -8,494807780e-02    4,066674113e-01    6,399572492e-01    0,000000000e+00    0,000000000e+00    0,000000000e+00    0,000000000e+00
      366000000   -3,454976529e-02   -9,532930702e-02    6,905736923e-01    3,114677370e-01    0,000000000e+00    0,000000000e+00    0,000000000e+00    0,000000000e+00
      380000000   -7,076714188e-02   -7,120693475e-02    7,470785975e-01   -1,257747114e-01    0,000000000e+00    0,000000000e+00    0,000000000e+00    0,000000000e+00
      394000000   -7,254150510e-02   -3,231939673e-02    5,469869971e-01   -5,223428607e-01    0,000000000e+00    0,000000000e+00    0,000000000e+00    0,000000000e+00
      408000000   -4,640516639e-02   -1,602260582e-02    1,622867584e-01   -7,313599586e-01    0,000000000e+00    0,000000000e+00    0,000000000e+00    0,000000000e+00
      422000000   -2,829908393e-02   -3,224235028e-02   -2,681166828e-01   -6,951062083e-01    0,000000000e+00    0,000000000e+00    0,000000000e+00    0,000000000e+00
      436000000   -4,073126614e-02   -5,180340260e-02   -6,040280461e-01   -4,319014549e-01    0,000000000e+00    0,000000000e+00    0,000000000e+00    0,000000000e+00
      450000000   -6,718309224e-02   -4,365117848e-02   -7,402045131e-01   -2,109155804e-02    0,000000000e+00    0,000000000e+00    0,000000000e+00    0,000000000e+00
      464000000   -7,359496504e-02   -1,189735346e-02   -6,186301708e-01    3,973945379e-01    0,000000000e+00    0,000000000e+00    0,000000000e+00    0,000000000e+00
      478000000   -4,756790027e-02    1,178900525e-02   -2,817599475e-01    6,677723527e-01    0,000000000e+00    0,000000000e+00    0,000000000e+00    0,000000000e+00
      492000000   -1,594177634e-02    5,930369254e-03    1,383700222e-01    7,014418840e-01    0,000000000e+00    0,000000000e+00    0,000000000e+00    0,000000000e+00
      506000000   -2,387595596e-03   -1,578936167e-02    4,985465407e-01    5,023906827e-01    0,000000000e+00    0,000000000e+00    0,000000000e+00    0,000000000e+00
      520000000   -5,149752367e-03   -3,196689859e-02    6,889111400e-01    1,406039894e-01    0,000000000e+00    0,000000000e+00    0,000000000e+00    0,000000000e+00
      534000000   -3,992762882e-03   -3,831722215e-02    6,428805590e-01   -2,621216774e-01    0,000000000e+00    0,000000000e+00    0,000000000e+00    0,000000000e+00
      548000000    5,684953649e-03   -5,397819355e-02    3,813780844e-01   -5,673235655e-01    0,000000000e+00    0,000000000e+00    0,000000000e+00    0,000000000e+00
      562000000    3,345023841e-03   -8,927014470e-02    2,604729729e-03   -6,716153026e-01    0,000000000e+00    0,000000000e+00    0,000000000e+00    0,000000000e+00
      576000000   -3,436161205e-02   -1,240049601e-01   -3,691242039e-01   -5,574810505e-01    0,000000000e+00    0,000000000e+00    0,000000000e+00    0,000000000e+00
      590000000   -9,616398811e-02   -1,225757152e-01   -6,198983192e-01   -2,632754743e-01    0,000000000e+00    0,000000000e+00    0,000000000e+00    0,000000000e+00
      604000000   -1,395450234e-01   -7,223610580e-02   -6,649718285e-01    1,378425807e-01    0,000000000e+00    0,000000000e+00    0,000000000e+00    0,000000000e+00
      618000000   -1,299696416e-01   -8,948933333e-03   -4,644243121e-01    4,946219027e-01    0,000000000e+00    0,000000000e+00    0,000000000e+00    0,000000000e+00
      632000000   -8,440796286e-02    1,693470590e-02   -1,003784686e-01    6,640837193e-01    0,000000000e+00    0,000000000e+00    0,000000000e+00    0,000000000e+00
      646000000   -5,154034868e-02    1,855207520e-04    2,881693542e-01    5,953478813e-01    0,000000000e+00    0,000000000e+00    0,000000000e+00    0,000000000e+00
      660000000   -5,346489698e-02   -2,182914503e-02    5,686641932e-01    3,237378597e-01    0,000000000e+00    0,000000000e+00    0,000000000e+00    0,000000000e+00
      674000000   -7,010173798e-02   -1,808420755e-02    6,433910131e-01   -6,566537917e-02    0,000000000e+00    0,000000000e+00    0,000000000e+00    0,000000000e+00
      688000000   -6,775899231e-02    8,795218542e-03    4,711315930e-01   -4,281382859e-01    0,000000000e+00    0,000000000e+00    0,000000000e+00    0,000000000e+00
      702000000   -3,798991442e-02    2,639363706e-02    1,153103113e-01   -6,131393909e-01    0,000000000e+00    0,000000000e+00    0,000000000e+00    0,000000000e+00
      716000000    2,102466300e-03    1,705309190e-02   -2,645612061e-01   -5,468967557e-01    0,000000000e+00    0,000000000e+00    0,000000000e+00    0,000000000e+00
      730000000    3,731586412e-02   -1,140437089e-02   -5,286508799e-01   -2,688575387e-01    0,000000000e+00    0,000000000e+00    0,000000000e+00    0,000000000e+00
      744000000    6,463488936e-02   -6,275580078e-02   -5,643369555e-01    1,063802764e-01    0,000000000e+00    0,000000000e+00    0,000000000e+00    0,000000000e+00
      758000000    6,636933237e-02   -1,517500877e-01   -3,628349602e-01    4,099614322e-01    0,000000000e+00    0,000000000e+00    0,000000000e+00    0,000000000e+00
      772000000   -1,177289896e-02   -2,629540563e-01   -3,499336913e-02    5,154284239e-01    0,000000000e+00    0,000000000e+00    0,000000000e+00    0,000000000e+00
      786000000   -2,070775032e-01   -3,030027151e-01    2,742990851e-01    3,956584036e-01    0,000000000e+00    0,000000000e+00    0,000000000e+00    0,000000000e+00
      800000000   -4,264191687e-01   -1,307479292e-01    4,175208211e-01    9,918707609e-02    0,000000000e+00    0,000000000e+00    0,000000000e+00    0,000000000e+00
      814000000   -3,899858892e-01    2,204331756e-01    2,821022272e-01   -1,731790155e-01    0,000000000e+00    0,000000000e+00    0,000000000e+00    0,000000000e+00
      828000000   -5,008080974e-02    3,689905107e-01    5,491993204e-02   -1,895182580e-01    0,000000000e+00    0,000000000e+00    0,000000000e+00    0,000000000e+00
      842000000    2,351438850e-01    1,861645132e-01   -1,717797853e-02   -7,109241188e-02    0,000000000e+00    0,000000000e+00    0,000000000e+00    0,000000000e+00
      856000000    2,807890475e-01   -1,243026853e-01    4,535842687e-02   -1,299530361e-02    0,000000000e+00    0,000000000e+00    0,000000000e+00    0,000000000e+00
      870000000    7,559922338e-02   -3,758062720e-01    1,136588752e-01   -9,129918367e-02    0,000000000e+00    0,000000000e+00    0,000000000e+00    0,000000000e+00
      884000000   -2,956109643e-01   -3,621318638e-01    2,867458761e-02   -2,454997003e-01    0,000000000e+00    0,000000000e+00    0,000000000e+00    0,000000000e+00
      898000000   -4,718693793e-01    8,634806611e-03   -2,212883085e-01   -2,271010131e-01    0,000000000e+00    0,000000000e+00    0,000000000e+00    0,000000000e+00
      912000000   -2,261535972e-01    2,954358757e-01   -3,448502421e-01    5,900903419e-02    0,000000000e+00    0,000000000e+00    0,000000000e+00    0,000000000e+00
      926000000    6,672013551e-02    2,626594007e-01   -2,164461315e-01    2,634311914e-01    0,000000000e+00    0,000000000e+00    0,000000000e+00    0,000000000e+00
      940000000    2,140099406e-01    8,058416843e-02   -3,554825857e-02    3,297609091e-01    0,000000000e+00    0,000000000e+00    0,000000000e+00    0,000000000e+00
      954000000    2,215825617e-01   -1,277474761e-01    1,299192905e-01    3,085982800e-01    0,000000000e+00    0,000000000e+00    0,000000000e+00    0,000000000e+00
      968000000    1,159574986e-01   -3,021317124e-01    2,702295482e-01    2,185092419e-01    0,000000000e+00    0,000000000e+00    0,000000000e+00    0,000000000e+00
      982000000   -8,393681049e-02   -3,858258128e-01    3,654398024e-01    6,536033005e-02    0,000000000e+00    0,000000000e+00    0,000000000e+00    0,000000000e+00
      996000000   -3,138969839e-01   -3,282967210e-01    3,685303330e-01   -1,456130445e-01    0,000000000e+00    0,000000000e+00    0,000000000e+00    0,000000000e+00
     1010000000   -4,633008242e-01   -1,127896979e-01    2,223250717e-01   -3,430827558e-01    0,000000000e+00    0,000000000e+00    0,000000000e+00    0,000000000e+00
     1024000000   -4,099939764e-01    1,475228965e-01   -3,545966744e-02   -3,920210898e-01    0,000000000e+00    0,000000000e+00    0,000000000e+00    0,000000000e+00
     1038000000   -2,152006775e-01    2,924977839e-01   -2,477088124e-01   -2,595730722e-01    0,000000000e+00    0,000000000e+00    0,000000000e+00    0,000000000e+00
     1052000000   -9,587105364e-03    2,778772414e-01   -3,175831735e-01   -4,625940695e-02    0,000000000e+00    0,000000000e+00    0,000000000e+00    0,000000000e+00
     1066000000    1,371216625e-01    1,608208716e-01   -2,611875534e-01    1,443537027e-01    0,000000000e+00    0,000000000e+00    0,000000000e+00    0,000000000e+00
     1080000000    1,934770942e-01    1,562389079e-03   -1,189653799e-01    2,635320127e-01    0,000000000e+00    0,000000000e+00    0,000000000e+00    0,000000000e+00
     1094000000    1,558696628e-01   -1,735574752e-01    6,407777220e-02    3,030108809e-01    0,000000000e+00    0,000000000e+00    0,000000000e+00    0,000000000e+00
     1108000000   -1,659101225e-03   -3,071286976e-01    2,786039114e-01    2,485455871e-01    0,000000000e+00    0,000000000e+00    0,000000000e+00    0,000000000e+00
     1122000000   -2,502998114e-01   -2,599772811e-01    4,713345766e-01    1,049929112e-02    0,000000000e+00    0,000000000e+00    0,000000000e+00    0,000000000e+00
     1136000000   -3,149133623e-01    2,911194041e-02    3,983448148e-01   -3,944036067e-01    0,000000000e+00    0,000000000e+00    0,000000000e+00    0,000000000e+00
     1150000000   -3,591200709e-02    1,505398750e-01    6,062530447e-03   -5,405496955e-01    0,000000000e+00    0,000000000e+00    0,000000000e+00    0,000000000e+00
     1164000000    1,205104068e-01   -6,459747255e-02   -2,774097025e-01   -3,745779693e-01    0,000000000e+00    0,000000000e+00    0,000000000e+00    0,000000000e+00
     1178000000    1,617095247e-02   -3,048994839e-01   -3,680222631e-01   -1,516909748e-01    0,000000000e+00    0,000000000e+00    0,000000000e+00    0,000000000e+00
     1192000000   -2,648828328e-01   -3,723444045e-01   -3,217652440e-01    5,873673782e-02    0,000000000e+00    0,000000000e+00    0,000000000e+00    0,000000000e+00
     1206000000   -5,231710672e-01   -1,632986367e-01   -1,666799784e-01    1,813912392e-01    0,000000000e+00    0,000000000e+00    0,000000000e+00    0,000000000e+00
     1220000000   -5,115838647e-01    1,772842556e-01   -1,744961482e-03    1,551480740e-01    0,000000000e+00    0,000000000e+00    0,000000000e+00    0,000000000e+00
     1234000000   -2,871324718e-01    3,613006175e-01    6,559547037e-02    5,983220041e-02    0,000000000e+00    0,000000000e+00    0,000000000e+00    0,000000000e+00
     1248000000   -4,458515719e-02    3,721823990e-01    5,566922203e-02   -5,407552700e-03    0,000000000e+00    0,000000000e+00    0,000000000e+00    0,000000000e+00
     1262000000    1,254320741e-01    2,571727633e-01    1,836529933e-02   -2,073364891e-02    0,000000000e+00    0,000000000e+00    0,000000000e+00    0,000000000e+00
     1276000000    2,115428895e-01    1,015078574e-01   -4,803663585e-03    3,431494581e-03    0,000000000e+00    0,000000000e+00    0,000000000e+00    0,000000000e+00
     1290000000    2,253958285e-01   -7,457922399e-02    1,982219145e-02    5,305895209e-02    0,000000000e+00    0,000000000e+00    0,000000000e+00    0,000000000e+00
     1304000000    1,561429203e-01   -2,404716760e-01    1,336809397e-01    7,168777287e-02    0,000000000e+00    0,000000000e+00    0,000000000e+00    0,000000000e+00
     1318000000    3,533700481e-02   -3,374171853e-01    1,282808483e-01   -1,632882059e-01    0,000000000e+00    0,000000000e+00    0,000000000e+00    0,000000000e+00
     1332000000   -1,298379302e-01   -4,382721186e-01   -5,185957626e-02   -4,087661952e-02    0,000000000e+00    0,000000000e+00    0,000000000e+00    0,000000000e+00
     1346000000   -3,947242200e-01   -4,033285677e-01    2,397201955e-02    7,543727010e-02    0,000000000e+00    0,000000000e+00    0,000000000e+00    0,000000000e+00
     1360000000   -6,137474179e-01   -1,932106018e-01    1,368317753e-01    6,376978010e-02    0,000000000e+00    0,000000000e+00    0,000000000e+00    0,000000000e+00
     1374000000   -6,339789629e-01    1,326496005e-01    2,016850710e-01    1,434379909e-02    0,000000000e+00    0,000000000e+00    0,000000000e+00    0,000000000e+00
     1388000000   -4,579841197e-01    3,676201999e-01    2,181160599e-01   -6,088975817e-02    0,000000000e+00    0,000000000e+00    0,000000000e+00    0,000000000e+00
     1402000000   -2,301098406e-01    4,534089267e-01    1,913905740e-01   -8,868017048e-02    0,000000000e+00    0,000000000e+00    0,000000000e+00    0,000000000e+00
     1416000000   -2,694156207e-02    4,117886126e-01    1,784159243e-01   -1,152355298e-01    0,000000000e+00    0,000000000e+00    0,000000000e+00    0,000000000e+00
     1430000000    1,223748922e-01    3,066385686e-01    1,635315716e-01   -8,320228755e-02    0,000000000e+00    0,000000000e+00    0,000000000e+00    0,000000000e+00
     1444000000    2,064960897e-01    1,518896222e-01    1,499453783e-01   -9,266836941e-02    0,000000000e+00    0,000000000e+00    0,000000000e+00    0,000000000e+00
     1458000000    2,392080426e-01   -1,687521115e-02    1,537589431e-01   -7,245501131e-02    0,000000000e+00    0,000000000e+00    0,000000000e+00    0,000000000e+00
     1472000000    1,948252320e-01   -1,993179768e-01    1,359465271e-01   -2,164011449e-02    0,000000000e+00    0,000000000e+00    0,000000000e+00    0,000000000e+00
     1486000000    5,369823799e-02   -3,750130832e-01    1,574022025e-01    2,580644563e-02    0,000000000e+00    0,000000000e+00    0,000000000e+00    0,000000000e+00
     1500000000   -1,770763099e-01   -4,998361170e-01    2,368642390e-01    8,794604242e-02    0,000000000e+00    0,000000000e+00    0,000000000e+00    0,000000000e+00
