! NanoVNA-App
! Date: 2025-09-25 15:36:52
! Start: 100MHz Stop: 1,5GHz Points: 101
! S-Parameter data: F S11 S21 S12 S22
# Hz S RI R 50
!     Frequency           S11_Real           S11_Imag           S21_Real           S21_Imag           S12_Real           S12_Imag           S22_Real           S22_Imag
      100000000   -2,881997637e-02   -4,170725588e-03    3,741076589e-01   -7,217847109e-01    0,000000000e+00    0,000000000e+00    0,000000000e+00    0,000000000e+00
      114000000   -1,646321081e-02    1,150211412e-02   -8,917655796e-02   -8,054768443e-01    0,000000000e+00    0,000000000e+00    0,000000000e+00    0,000000000e+00
      128000000    3,496034769e-03    1,051968243e-02   -5,144633651e-01   -6,202386022e-01    0,000000000e+00    0,000000000e+00    0,000000000e+00    0,000000000e+00
      142000000    1,459412742e-02   -2,962735482e-03   -7,671653628e-01   -2,366162539e-01    0,000000000e+00    0,000000000e+00    0,000000000e+00    0,000000000e+00
      156000000    1,573341712e-02   -1,451837737e-02   -7,690050602e-01    2,236769050e-01    0,000000000e+00    0,000000000e+00    0,000000000e+00    0,000000000e+00
      170000000    1,665413752e-02   -2,250440791e-02   -5,181590915e-01    6,045818329e-01    0,000000000e+00    0,000000000e+00    0,000000000e+00    0,000000000e+00
      184000000    2,104285732e-02   -3,705895320e-02   -1,014954522e-01    7,861918211e-01    0,000000000e+00    0,000000000e+00    0,000000000e+00    0,000000000e+00
      198000000    1,304561086e-02   -6,246061251e-02    3,432550728e-01    7,121784091e-01    0,000000000e+00    0,000000000e+00    0,000000000e+00    0,000000000e+00
      212000000   -1,867429353e-02   -8,123031259e-02    6,781834960e-01    4,097811580e-01    0,000000000e+00    0,000000000e+00    0,000000000e+00    0,000000000e+00
      226000000   -6,162256747e-02   -6,919930875e-02    7,957406640e-01   -3,052962013e-02    0,000000000e+00    0,000000000e+00    0,000000000e+00    0,000000000e+00
      240000000   -8,258130401e-02   -2,565576136e-02    6,462538242e-01   -4,670684934e-01    0,000000000e+00    0,000000000e+00    0,000000000e+00    0,000000000e+00
      254000000   -6,342738867e-02    1,724493690e-02    2,760519683e-01   -7,434985042e-01    0,000000000e+00    0,000000000e+00    0,000000000e+00    0,000000000e+00
      268000000   -2,386982553e-02    2,888432704e-02   -1,783085912e-01   -7,641023993e-01    0,000000000e+00    0,000000000e+00    0,000000000e+00    0,000000000e+00
      282000000    4,127502907e-03    1,192861516e-02   -5,616786480e-01   -5,353855491e-01    0,000000000e+00    0,000000000e+00    0,000000000e+00    0,000000000e+00
      296000000    9,791900404e-03   -7,906293496e-03   -7,598178983e-01   -1,395398080e-01    0,000000000e+00    0,000000000e+00    0,000000000e+00    0,000000000e+00
      310000000    1,126603410e-02   -1,614263467e-02   -7,138540149e-01    2,989438474e-01    0,000000000e+00    0,000000000e+00    0,000000000e+00    0,000000000e+00
      324000000    1,988350600e-02   -2,645024844e-02   -4,269609451e-01    6,388349533e-01    0,000000000e+00    0,000000000e+00    0,000000000e+00    0,000000000e+00
      338000000    2,536353469e-02   -5,231516808e-02   -7,522291970e-03    7,593513727e-01    0,000000000e+00    0,000000000e+00    0,000000000e+00    0,000000000e+00
      352000000    7,364255842e-03   -8,487322927e-02    4,068525434e-01    6,399739981e-01    0,000000000e+00    0,000000000e+00    0,000000000e+00    0,000000000e+00
      366000000   -3,467147797e-02   -9,556549788e-02    6,905781031e-01    3,114665151e-01    0,000000000e+00    0,000000000e+00    0,000000000e+00    0,000000000e+00
      380000000   -7,075092196e-02   -7,113984972e-02    7,480282784e-01   -1,259172261e-01    0,000000000e+00    0,000000000e+00    0,000000000e+00    0,000000000e+00
      394000000   -7,247806340e-02   -3,222521022e-02    5,476698279e-01   -5,226570964e-01    0,000000000e+00    0,000000000e+00    0,000000000e+00    0,000000000e+00
      408000000   -4,631216452e-02   -1,616611704e-02    1,612578779e-01   -7,324650288e-01    0,000000000e+00    0,000000000e+00    0,000000000e+00    0,000000000e+00
      422000000   -2,832474746e-02   -3,222578764e-02   -2,677219212e-01   -6,946547627e-01    0,000000000e+00    0,000000000e+00    0,000000000e+00    0,000000000e+00
      436000000   -4,071639851e-02   -5,160672963e-02   -6,045705080e-01   -4,319140911e-01    0,000000000e+00    0,000000000e+00    0,000000000e+00    0,000000000e+00
      450000000   -6,716344506e-02   -4,413213953e-02   -7,403109074e-01   -2,146798000e-02    0,000000000e+00    0,000000000e+00    0,000000000e+00    0,000000000e+00
      464000000   -7,352036238e-02   -1,168714184e-02   -6,185668707e-01    3,975649476e-01    0,000000000e+00    0,000000000e+00    0,000000000e+00    0,000000000e+00
      478000000   -4,782284051e-02    1,151504088e-02   -2,825468779e-01    6,678299904e-01    0,000000000e+00    0,000000000e+00    0,000000000e+00    0,000000000e+00
      492000000   -1,574681327e-02    6,175014190e-03    1,380104870e-01    7,011612654e-01    0,000000000e+00    0,000000000e+00    0,000000000e+00    0,000000000e+00
      506000000   -2,699184231e-03   -1,590170525e-02    4,986784458e-01    5,022663474e-01    0,000000000e+00    0,000000000e+00    0,000000000e+00    0,000000000e+00
      520000000   -5,214223173e-03   -3,183044121e-02    6,880586147e-01    1,395006180e-01    0,000000000e+00    0,000000000e+00    0,000000000e+00    0,000000000e+00
      534000000   -3,894039430e-03   -3,799416125e-02    6,435500979e-01   -2,622365057e-01    0,000000000e+00    0,000000000e+00    0,000000000e+00    0,000000000e+00
      548000000    6,308010779e-03   -5,392837897e-02    3,814100325e-01   -5,676680803e-01    0,000000000e+00    0,000000000e+00    0,000000000e+00    0,000000000e+00
      562000000    2,795330249e-03   -8,951971680e-02    2,386968816e-03   -6,716559529e-01    0,000000000e+00    0,000000000e+00    0,000000000e+00    0,000000000e+00
      576000000   -3,442644328e-02   -1,247197911e-01   -3,695041835e-01   -5,577142239e-01    0,000000000e+00    0,000000000e+00    0,000000000e+00    0,000000000e+00
      590000000   -9,636422247e-02   -1,223730519e-01   -6,220561266e-01   -2,625280917e-01    0,000000000e+00    0,000000000e+00    0,000000000e+00    0,000000000e+00
      604000000   -1,393595487e-01   -7,165373862e-02   -6,649326682e-01    1,382233202e-01    0,000000000e+00    0,000000000e+00    0,000000000e+00    0,000000000e+00
      618000000   -1,294957399e-01   -8,471272886e-03   -4,642750919e-01    4,945127666e-01    0,000000000e+00    0,000000000e+00    0,000000000e+00    0,000000000e+00
      632000000   -8,430541307e-02    1,705251820e-02   -9,838115424e-02    6,629304886e-01    0,000000000e+00    0,000000000e+00    0,000000000e+00    0,000000000e+00
      646000000   -5,147477239e-02    1,846446976e-04    2,866561115e-01    5,943868160e-01    0,000000000e+00    0,000000000e+00    0,000000000e+00    0,000000000e+00
      660000000   -5,331455544e-02   -2,192435041e-02    5,676616430e-01    3,236920536e-01    0,000000000e+00    0,000000000e+00    0,000000000e+00    0,000000000e+00
      674000000   -6,976682693e-02   -1,797235198e-02    6,430343986e-01   -6,530665606e-02    0,000000000e+00    0,000000000e+00    0,000000000e+00    0,000000000e+00
      688000000   -6,902248412e-02    8,702915162e-03    4,709711373e-01   -4,282771945e-01    0,000000000e+00    0,000000000e+00    0,000000000e+00    0,000000000e+00
      702000000   -3,792660311e-02    2,679847367e-02    1,174353510e-01   -6,124975681e-01    0,000000000e+00    0,000000000e+00    0,000000000e+00    0,000000000e+00
      716000000    2,413645620e-03    1,841421798e-02   -2,645973861e-01   -5,469379425e-01    0,000000000e+00    0,000000000e+00    0,000000000e+00    0,000000000e+00
      730000000    3,613459691e-02   -1,061299257e-02   -5,276246667e-01   -2,689315975e-01    0,000000000e+00    0,000000000e+00    0,000000000e+00    0,000000000e+00
      744000000    6,572103500e-02   -6,266867369e-02   -5,646753311e-01    1,063186303e-01    0,000000000e+00    0,000000000e+00    0,000000000e+00    0,000000000e+00
      758000000    6,620061398e-02   -1,516952962e-01   -3,636449873e-01    4,099774361e-01    0,000000000e+00    0,000000000e+00    0,000000000e+00    0,000000000e+00
      772000000   -1,266945899e-02   -2,620194256e-01   -3,460242972e-02    5,159405470e-01    0,000000000e+00    0,000000000e+00    0,000000000e+00    0,000000000e+00
      786000000   -2,070485950e-01   -3,021123111e-01    2,742757797e-01    3,956010342e-01    0,000000000e+00    0,000000000e+00    0,000000000e+00    0,000000000e+00
      800000000   -4,247539341e-01   -1,298682094e-01    4,171195030e-01    9,902245551e-02    0,000000000e+00    0,000000000e+00    0,000000000e+00    0,000000000e+00
      814000000   -3,897838593e-01    2,219474763e-01    2,822387218e-01   -1,735437661e-01    0,000000000e+00    0,000000000e+00    0,000000000e+00    0,000000000e+00
      828000000   -4,957445338e-02    3,683969080e-01    5,517785251e-02   -1,891856641e-01    0,000000000e+00    0,000000000e+00    0,000000000e+00    0,000000000e+00
      842000000    2,350262702e-01    1,862675548e-01   -1,733029261e-02   -7,067162544e-02    0,000000000e+00    0,000000000e+00    0,000000000e+00    0,000000000e+00
      856000000    2,805824876e-01   -1,245693713e-01    4,552173615e-02   -1,322100591e-02    0,000000000e+00    0,000000000e+00    0,000000000e+00    0,000000000e+00
      870000000    7,395241410e-02   -3,761771917e-01    1,135452241e-01   -9,084337950e-02    0,000000000e+00    0,000000000e+00    0,000000000e+00    0,000000000e+00
      884000000   -2,951480150e-01   -3,624713421e-01    2,864519507e-02   -2,460394800e-01    0,000000000e+00    0,000000000e+00    0,000000000e+00    0,000000000e+00
      898000000   -4,726508558e-01    9,079038166e-03   -2,222416550e-01   -2,269251794e-01    0,000000000e+00    0,000000000e+00    0,000000000e+00    0,000000000e+00
      912000000   -2,261154354e-01    2,930916250e-01   -3,436477482e-01    7,629501075e-02    0,000000000e+00    0,000000000e+00    0,000000000e+00    0,000000000e+00
      926000000    6,701619178e-02    2,651086450e-01   -2,186132371e-01    2,665407956e-01    0,000000000e+00    0,000000000e+00    0,000000000e+00    0,000000000e+00
      940000000    2,182110399e-01    8,071839809e-02   -3,518456593e-02    3,289280832e-01    0,000000000e+00    0,000000000e+00    0,000000000e+00    0,000000000e+00
      954000000    2,227319479e-01   -1,298775524e-01    1,308975965e-01    3,047591746e-01    0,000000000e+00    0,000000000e+00    0,000000000e+00    0,000000000e+00
      968000000    1,174376681e-01   -3,029265106e-01    2,704278231e-01    2,190522403e-01    0,000000000e+00    0,000000000e+00    0,000000000e+00    0,000000000e+00
      982000000   -8,009795845e-02   -3,887422085e-01    3,667654991e-01    6,598533690e-02    0,000000000e+00    0,000000000e+00    0,000000000e+00    0,000000000e+00
      996000000   -3,132951558e-01   -3,292896748e-01    3,693018854e-01   -1,431181133e-01    0,000000000e+00    0,000000000e+00    0,000000000e+00    0,000000000e+00
     1010000000   -4,597511292e-01   -1,095230579e-01    2,244255990e-01   -3,423009515e-01    0,000000000e+00    0,000000000e+00    0,000000000e+00    0,000000000e+00
     1024000000   -4,159227610e-01    1,453889906e-01   -3,279246390e-02   -3,936194777e-01    0,000000000e+00    0,000000000e+00    0,000000000e+00    0,000000000e+00
     1038000000   -2,179986537e-01    2,893719971e-01   -2,470760345e-01   -2,603357136e-01    0,000000000e+00    0,000000000e+00    0,000000000e+00    0,000000000e+00
     1052000000   -5,421958864e-03    2,779581249e-01   -3,188287318e-01   -4,612907395e-02    0,000000000e+00    0,000000000e+00    0,000000000e+00    0,000000000e+00
     1066000000    1,398800015e-01    1,648132950e-01   -2,587326169e-01    1,425236464e-01    0,000000000e+00    0,000000000e+00    0,000000000e+00    0,000000000e+00
     1080000000    1,932972968e-01   -2,674216405e-03   -1,177450716e-01    2,666185498e-01    0,000000000e+00    0,000000000e+00    0,000000000e+00    0,000000000e+00
     1094000000    1,540602595e-01   -1,736599952e-01    6,414761394e-02    3,037839830e-01    0,000000000e+00    0,000000000e+00    0,000000000e+00    0,000000000e+00
     1108000000    1,790267299e-03   -3,022888601e-01    2,771351337e-01    2,452186942e-01    0,000000000e+00    0,000000000e+00    0,000000000e+00    0,000000000e+00
     1122000000   -2,461787611e-01   -2,610292435e-01    4,699664712e-01    1,069456805e-02    0,000000000e+00    0,000000000e+00    0,000000000e+00    0,000000000e+00
     1136000000   -3,183380365e-01    3,680420294e-02    3,987019956e-01   -3,938560188e-01    0,000000000e+00    0,000000000e+00    0,000000000e+00    0,000000000e+00
     1150000000   -4,387091100e-02    1,534574479e-01    5,219773855e-03   -5,396789312e-01    0,000000000e+00    0,000000000e+00    0,000000000e+00    0,000000000e+00
     1164000000    1,218197197e-01   -6,555321813e-02   -2,746582031e-01   -3,793839514e-01    0,000000000e+00    0,000000000e+00    0,000000000e+00    0,000000000e+00
     1178000000    1,707548089e-02   -3,056657910e-01   -3,680803478e-01   -1,489371806e-01    0,000000000e+00    0,000000000e+00    0,000000000e+00    0,000000000e+00
     1192000000   -2,663380802e-01   -3,734728098e-01   -3,245149851e-01    5,769886449e-02    0,000000000e+00    0,000000000e+00    0,000000000e+00    0,000000000e+00
     1206000000   -5,152574778e-01   -1,618771553e-01   -1,672607213e-01    1,813117415e-01    0,000000000e+00    0,000000000e+00    0,000000000e+00    0,000000000e+00
     1220000000   -5,066435337e-01    1,726031303e-01    3,530215472e-03    1,578894258e-01    0,000000000e+00    0,000000000e+00    0,000000000e+00    0,000000000e+00
     1234000000   -2,830445766e-01    3,678586781e-01    6,630295515e-02    6,163776666e-02    0,000000000e+00    0,000000000e+00    0,000000000e+00    0,000000000e+00
     1248000000   -4,154425859e-02    3,597507477e-01    5,406197906e-02   -7,670277264e-03    0,000000000e+00    0,000000000e+00    0,000000000e+00    0,000000000e+00
     1262000000    1,200147048e-01    2,563931048e-01    1,869332604e-02   -2,012136579e-02    0,000000000e+00    0,000000000e+00    0,000000000e+00    0,000000000e+00
     1276000000    2,129977047e-01    1,020462662e-01   -2,942256164e-03    8,005706593e-03    0,000000000e+00    0,000000000e+00    0,000000000e+00    0,000000000e+00
     1290000000    2,239679694e-01   -7,510723174e-02    2,103413455e-02    5,022375286e-02    0,000000000e+00    0,000000000e+00    0,000000000e+00    0,000000000e+00
     1304000000    1,579346955e-01   -2,396316230e-01    1,305806339e-01    7,204907387e-02    0,000000000e+00    0,000000000e+00    0,000000000e+00    0,000000000e+00
     1318000000    3,424355388e-02   -3,340372741e-01    1,290339381e-01   -1,622961313e-01    0,000000000e+00    0,000000000e+00    0,000000000e+00    0,000000000e+00
     1332000000   -1,237384379e-01   -4,398924708e-01   -4,412887245e-02   -5,200481042e-02    0,000000000e+00    0,000000000e+00    0,000000000e+00    0,000000000e+00
     1346000000   -3,885420561e-01   -4,030995071e-01    2,935110964e-02    7,575359941e-02    0,000000000e+00    0,000000000e+00    0,000000000e+00    0,000000000e+00
     1360000000   -6,077083945e-01   -1,853802204e-01    1,488608718e-01    7,786887884e-02    0,000000000e+00    0,000000000e+00    0,000000000e+00    0,000000000e+00
     1374000000   -6,305635571e-01    1,304841638e-01    2,119829953e-01    1,270547509e-02    0,000000000e+00    0,000000000e+00    0,000000000e+00    0,000000000e+00
     1388000000   -4,655286670e-01    3,756482899e-01    2,069005966e-01   -5,574069172e-02    0,000000000e+00    0,000000000e+00    0,000000000e+00    0,000000000e+00
     1402000000   -2,315992117e-01    4,514889121e-01    1,937593222e-01   -9,889715165e-02    0,000000000e+00    0,000000000e+00    0,000000000e+00    0,000000000e+00
     1416000000   -3,318025917e-02    4,058197737e-01    1,597207338e-01   -1,098285541e-01    0,000000000e+00    0,000000000e+00    0,000000000e+00    0,000000000e+00
     1430000000    1,251859963e-01    3,119104207e-01    1,679401696e-01   -8,781878650e-02    0,000000000e+00    0,000000000e+00    0,000000000e+00    0,000000000e+00
     1444000000    2,057151496e-01    1,474491805e-01    1,484661698e-01   -9,353987873e-02    0,000000000e+00    0,000000000e+00    0,000000000e+00    0,000000000e+00
     1458000000    2,379795909e-01   -2,314206026e-02    1,555346996e-01   -8,050735295e-02    0,000000000e+00    0,000000000e+00    0,000000000e+00    0,000000000e+00
     1472000000    1,930035353e-01   -2,040599734e-01    1,378297359e-01   -3,857356310e-02    0,000000000e+00    0,000000000e+00    0,000000000e+00    0,000000000e+00
     1486000000    6,223658472e-02   -3,755178750e-01    1,769781411e-01    3,365466744e-02    0,000000000e+00    0,000000000e+00    0,000000000e+00    0,000000000e+00
     1500000000   -1,706351340e-01   -4,888388515e-01    2,466640025e-01    9,206011891e-02    0,000000000e+00    0,000000000e+00    0,000000000e+00    0,000000000e+00
