! NanoVNA-App
! Date: 2025-09-25 15:32:18
! Start: 100MHz Stop: 1,5GHz Points: 101
! S-Parameter data: F S11 S21 S12 S22
# Hz S RI R 50
!     Frequency           S11_Real           S11_Imag           S21_Real           S21_Imag           S12_Real           S12_Imag           S22_Real           S22_Imag
      100000000   -2,887132019e-02   -4,167128820e-03    3,741031289e-01   -7,217652798e-01    0,000000000e+00    0,000000000e+00    0,000000000e+00    0,000000000e+00
      114000000   -1,649534330e-02    1,150678005e-02   -8,908580244e-02   -8,056463599e-01    0,000000000e+00    0,000000000e+00    0,000000000e+00    0,000000000e+00
      128000000    3,462106455e-03    1,052236278e-02   -5,146033764e-01   -6,203197837e-01    0,000000000e+00    0,000000000e+00    0,000000000e+00    0,000000000e+00
      142000000    1,455647964e-02   -2,965183696e-03   -7,672455907e-01   -2,367700487e-01    0,000000000e+00    0,000000000e+00    0,000000000e+00    0,000000000e+00
      156000000    1,612527110e-02   -1,438493468e-02   -7,722231746e-01    2,246124595e-01    0,000000000e+00    0,000000000e+00    0,000000000e+00    0,000000000e+00
      170000000    1,670284942e-02   -2,257367969e-02   -5,179721713e-01    6,045541167e-01    0,000000000e+00    0,000000000e+00    0,000000000e+00    0,000000000e+00
      184000000    2,102848329e-02   -3,704193980e-02   -1,013811082e-01    7,861718535e-01    0,000000000e+00    0,000000000e+00    0,000000000e+00    0,000000000e+00
      198000000    1,306076348e-02   -6,248218939e-02    3,434273601e-01    7,123103738e-01    0,000000000e+00    0,000000000e+00    0,000000000e+00    0,000000000e+00
      212000000   -1,862935908e-02   -8,132849634e-02    6,780477166e-01    4,100744426e-01    0,000000000e+00    0,000000000e+00    0,000000000e+00    0,000000000e+00
      226000000   -6,164844334e-02   -6,923352927e-02    7,957411408e-01   -3,054148518e-02    0,000000000e+00    0,000000000e+00    0,000000000e+00    0,000000000e+00
      240000000   -8,259263635e-02   -2,564250119e-02    6,459748745e-01   -4,670497775e-01    0,000000000e+00    0,000000000e+00    0,000000000e+00    0,000000000e+00
      254000000   -6,353595853e-02    1,721410267e-02    2,759895623e-01   -7,429029346e-01    0,000000000e+00    0,000000000e+00    0,000000000e+00    0,000000000e+00
      268000000   -2,389639802e-02    2,899282239e-02   -1,779840738e-01   -7,641628981e-01    0,000000000e+00    0,000000000e+00    0,000000000e+00    0,000000000e+00
      282000000    4,231152590e-03    1,192176994e-02   -5,617941022e-01   -5,355877876e-01    0,000000000e+00    0,000000000e+00    0,000000000e+00    0,000000000e+00
      296000000    9,678159840e-03   -7,776331156e-03   -7,596676946e-01   -1,395633370e-01    0,000000000e+00    0,000000000e+00    0,000000000e+00    0,000000000e+00
      310000000    1,108352188e-02   -1,612148061e-02   -7,127923965e-01    2,992857993e-01    0,000000000e+00    0,000000000e+00    0,000000000e+00    0,000000000e+00
      324000000    1,979831234e-02   -2,652923390e-02   -4,271450937e-01    6,374281645e-01    0,000000000e+00    0,000000000e+00    0,000000000e+00    0,000000000e+00
      338000000    2,580118552e-02   -5,186989158e-02   -1,007997524e-02    7,599042058e-01    0,000000000e+00    0,000000000e+00    0,000000000e+00    0,000000000e+00
      352000000    7,274610456e-03   -8,442475647e-02    4,073723257e-01    6,400261521e-01    0,000000000e+00    0,000000000e+00    0,000000000e+00    0,000000000e+00
      366000000   -3,461131454e-02   -9,563054889e-02    6,905667186e-01    3,117389977e-01    0,000000000e+00    0,000000000e+00    0,000000000e+00    0,000000000e+00
      380000000   -7,078533620e-02   -7,127544284e-02    7,474116683e-01   -1,257847697e-01    0,000000000e+00    0,000000000e+00    0,000000000e+00    0,000000000e+00
      394000000   -7,253761590e-02   -3,249311447e-02    5,480980873e-01   -5,218528509e-01    0,000000000e+00    0,000000000e+00    0,000000000e+00    0,000000000e+00
      408000000   -4,651900008e-02   -1,630100608e-02    1,629985124e-01   -7,325032353e-01    0,000000000e+00    0,000000000e+00    0,000000000e+00    0,000000000e+00
      422000000   -2,836872078e-02   -3,231027722e-02   -2,677032351e-01   -6,944389939e-01    0,000000000e+00    0,000000000e+00    0,000000000e+00    0,000000000e+00
      436000000   -4,054700583e-02   -5,199303105e-02   -6,038382649e-01   -4,324252307e-01    0,000000000e+00    0,000000000e+00    0,000000000e+00    0,000000000e+00
      450000000   -6,720476598e-02   -4,395545647e-02   -7,403877974e-01   -2,110169455e-02    0,000000000e+00    0,000000000e+00    0,000000000e+00    0,000000000e+00
      464000000   -7,351211458e-02   -1,175769698e-02   -6,185919046e-01    3,972603679e-01    0,000000000e+00    0,000000000e+00    0,000000000e+00    0,000000000e+00
      478000000   -4,763710126e-02    1,203422621e-02   -2,819073498e-01    6,681037545e-01    0,000000000e+00    0,000000000e+00    0,000000000e+00    0,000000000e+00
      492000000   -1,555048022e-02    5,980880000e-03    1,377298236e-01    7,013030052e-01    0,000000000e+00    0,000000000e+00    0,000000000e+00    0,000000000e+00
      506000000   -2,651226707e-03   -1,583375223e-02    4,985602200e-01    5,016544461e-01    0,000000000e+00    0,000000000e+00    0,000000000e+00    0,000000000e+00
      520000000   -5,083189812e-03   -3,154895082e-02    6,865810752e-01    1,418099701e-01    0,000000000e+00    0,000000000e+00    0,000000000e+00    0,000000000e+00
      534000000   -3,883995814e-03   -3,805052489e-02    6,435812712e-01   -2,627927661e-01    0,000000000e+00    0,000000000e+00    0,000000000e+00    0,000000000e+00
      548000000    5,847227760e-03   -5,365904048e-02    3,803259134e-01   -5,674652457e-01    0,000000000e+00    0,000000000e+00    0,000000000e+00    0,000000000e+00
      562000000    3,594016656e-03   -8,919198066e-02    1,482222928e-03   -6,721632481e-01    0,000000000e+00    0,000000000e+00    0,000000000e+00    0,000000000e+00
      576000000   -3,397846967e-02   -1,241760626e-01   -3,684951961e-01   -5,570836663e-01    0,000000000e+00    0,000000000e+00    0,000000000e+00    0,000000000e+00
      590000000   -9,641122073e-02   -1,225178540e-01   -6,218665838e-01   -2,627307475e-01    0,000000000e+00    0,000000000e+00    0,000000000e+00    0,000000000e+00
      604000000   -1,391182244e-01   -7,179293782e-02   -6,645748019e-01    1,376712471e-01    0,000000000e+00    0,000000000e+00    0,000000000e+00    0,000000000e+00
      618000000   -1,297911108e-01   -9,511715733e-03   -4,648494124e-01    4,942054451e-01    0,000000000e+00    0,000000000e+00    0,000000000e+00    0,000000000e+00
      632000000   -8,413115144e-02    1,740654185e-02   -9,891721606e-02    6,643304229e-01    0,000000000e+00    0,000000000e+00    0,000000000e+00    0,000000000e+00
      646000000   -5,091012269e-02    5,131376747e-05    2,882395983e-01    5,949335098e-01    0,000000000e+00    0,000000000e+00    0,000000000e+00    0,000000000e+00
      660000000   -5,374156684e-02   -2,130102366e-02    5,677091479e-01    3,227096200e-01    0,000000000e+00    0,000000000e+00    0,000000000e+00    0,000000000e+00
      674000000   -7,058312744e-02   -1,732845418e-02    6,430072784e-01   -6,535949558e-02    0,000000000e+00    0,000000000e+00    0,000000000e+00    0,000000000e+00
      688000000   -6,848393381e-02    8,377257735e-03    4,710906744e-01   -4,285973608e-01    0,000000000e+00    0,000000000e+00    0,000000000e+00    0,000000000e+00
      702000000   -3,771361709e-02    2,689129673e-02    1,187133193e-01   -6,074516773e-01    0,000000000e+00    0,000000000e+00    0,000000000e+00    0,000000000e+00
      716000000    2,540529007e-03    1,725524664e-02   -2,658864260e-01   -5,466173887e-01    0,000000000e+00    0,000000000e+00    0,000000000e+00    0,000000000e+00
      730000000    3,752022237e-02   -1,101993211e-02   -5,288231373e-01   -2,689729035e-01    0,000000000e+00    0,000000000e+00    0,000000000e+00    0,000000000e+00
      744000000    6,570743024e-02   -6,213407591e-02   -5,644417405e-01    1,059601456e-01    0,000000000e+00    0,000000000e+00    0,000000000e+00    0,000000000e+00
      758000000    6,619240344e-02   -1,529166996e-01   -3,627122641e-01    4,107272625e-01    0,000000000e+00    0,000000000e+00    0,000000000e+00    0,000000000e+00
      772000000   -1,238950808e-02   -2,625551224e-01   -3,486609831e-02    5,152115226e-01    0,000000000e+00    0,000000000e+00    0,000000000e+00    0,000000000e+00
      786000000   -2,072316110e-01   -3,027875423e-01    2,743004858e-01    3,969431520e-01    0,000000000e+00    0,000000000e+00    0,000000000e+00    0,000000000e+00
      800000000   -4,254271388e-01   -1,293113977e-01    4,173905849e-01    9,875736386e-02    0,000000000e+00    0,000000000e+00    0,000000000e+00    0,000000000e+00
      814000000   -3,898539245e-01    2,224287838e-01    2,823378742e-01   -1,730502695e-01    0,000000000e+00    0,000000000e+00    0,000000000e+00    0,000000000e+00
      828000000   -4,873625189e-02    3,672642708e-01    5,529163033e-02   -1,886640191e-01    0,000000000e+00    0,000000000e+00    0,000000000e+00    0,000000000e+00
      842000000    2,351808548e-01    1,855767071e-01   -1,676802523e-02   -7,094386220e-02    0,000000000e+00    0,000000000e+00    0,000000000e+00    0,000000000e+00
      856000000    2,808202207e-01   -1,242591590e-01    4,572158307e-02   -1,322731003e-02    0,000000000e+00    0,000000000e+00    0,000000000e+00    0,000000000e+00
      870000000    7,512111217e-02   -3,766251206e-01    1,132578999e-01   -9,122177213e-02    0,000000000e+00    0,000000000e+00    0,000000000e+00    0,000000000e+00
      884000000   -2,954583764e-01   -3,621273935e-01    2,777425945e-02   -2,456064969e-01    0,000000000e+00    0,000000000e+00    0,000000000e+00    0,000000000e+00
      898000000   -4,718166292e-01    9,831462055e-03   -2,222791612e-01   -2,280365080e-01    0,000000000e+00    0,000000000e+00    0,000000000e+00    0,000000000e+00
      912000000   -2,259192616e-01    2,941683829e-01   -3,521296978e-01    7,505702227e-02    0,000000000e+00    0,000000000e+00    0,000000000e+00    0,000000000e+00
      926000000    6,664631516e-02    2,632271945e-01   -2,172157019e-01    2,631212473e-01    0,000000000e+00    0,000000000e+00    0,000000000e+00    0,000000000e+00
      940000000    2,162973732e-01    8,240123093e-02   -3,645960987e-02    3,305895925e-01    0,000000000e+00    0,000000000e+00    0,000000000e+00    0,000000000e+00
      954000000    2,242726237e-01   -1,292897165e-01    1,315598190e-01    3,068380654e-01    0,000000000e+00    0,000000000e+00    0,000000000e+00    0,000000000e+00
      968000000    1,174091846e-01   -2,998546660e-01    2,702147663e-01    2,192437202e-01    0,000000000e+00    0,000000000e+00    0,000000000e+00    0,000000000e+00
      982000000   -8,173041791e-02   -3,889786303e-01    3,664236367e-01    6,624105573e-02    0,000000000e+00    0,000000000e+00    0,000000000e+00    0,000000000e+00
      996000000   -3,161387444e-01   -3,318956792e-01    3,692019582e-01   -1,445722431e-01    0,000000000e+00    0,000000000e+00    0,000000000e+00    0,000000000e+00
     1010000000   -4,604917169e-01   -1,116244495e-01    2,234331965e-01   -3,438045382e-01    0,000000000e+00    0,000000000e+00    0,000000000e+00    0,000000000e+00
     1024000000   -4,177661240e-01    1,504043341e-01   -3,366906568e-02   -3,926207721e-01    0,000000000e+00    0,000000000e+00    0,000000000e+00    0,000000000e+00
     1038000000   -2,153701335e-01    2,923709452e-01   -2,479631901e-01   -2,627154887e-01    0,000000000e+00    0,000000000e+00    0,000000000e+00    0,000000000e+00
     1052000000   -5,808681250e-03    2,805317342e-01   -3,184967637e-01   -4,597243294e-02    0,000000000e+00    0,000000000e+00    0,000000000e+00    0,000000000e+00
     1066000000    1,360741258e-01    1,619833559e-01   -2,565001249e-01    1,423463374e-01    0,000000000e+00    0,000000000e+00    0,000000000e+00    0,000000000e+00
     1080000000    1,959704608e-01   -2,749976004e-03   -1,196966693e-01    2,636374831e-01    0,000000000e+00    0,000000000e+00    0,000000000e+00    0,000000000e+00
     1094000000    1,545283049e-01   -1,780632585e-01    6,268923730e-02    3,048169613e-01    0,000000000e+00    0,000000000e+00    0,000000000e+00    0,000000000e+00
     1108000000   -3,801880870e-03   -3,045676649e-01    2,780841291e-01    2,473752797e-01    0,000000000e+00    0,000000000e+00    0,000000000e+00    0,000000000e+00
     1122000000   -2,519906759e-01   -2,678444088e-01    4,762428701e-01    1,167062763e-02    0,000000000e+00    0,000000000e+00    0,000000000e+00    0,000000000e+00
     1136000000   -3,208034337e-01    3,616755456e-02    4,003036022e-01   -3,930060267e-01    0,000000000e+00    0,000000000e+00    0,000000000e+00    0,000000000e+00
     1150000000   -4,276824370e-02    1,490336508e-01    6,845260505e-03   -5,430599451e-01    0,000000000e+00    0,000000000e+00    0,000000000e+00    0,000000000e+00
     1164000000    1,222845688e-01   -6,037368253e-02   -2,790394723e-01   -3,770923018e-01    0,000000000e+00    0,000000000e+00    0,000000000e+00    0,000000000e+00
     1178000000    1,451408211e-02   -3,044537902e-01   -3,682411611e-01   -1,518657804e-01    0,000000000e+00    0,000000000e+00    0,000000000e+00    0,000000000e+00
     1192000000   -2,640869915e-01   -3,680723310e-01   -3,228214681e-01    5,628109723e-02    0,000000000e+00    0,000000000e+00    0,000000000e+00    0,000000000e+00
     1206000000   -5,231850743e-01   -1,630971283e-01   -1,639057100e-01    1,795884073e-01    0,000000000e+00    0,000000000e+00    0,000000000e+00    0,000000000e+00
     1220000000   -5,114994645e-01    1,706383079e-01    1,476052683e-03    1,581018567e-01    0,000000000e+00    0,000000000e+00    0,000000000e+00    0,000000000e+00
     1234000000   -2,879924178e-01    3,638810813e-01    6,791508198e-02    6,215827540e-02    0,000000000e+00    0,000000000e+00    0,000000000e+00    0,000000000e+00
     1248000000   -4,359907657e-02    3,685496747e-01    5,718750879e-02   -7,480295841e-03    0,000000000e+00    0,000000000e+00    0,000000000e+00    0,000000000e+00
     1262000000    1,198530123e-01    2,573344707e-01    1,199426409e-02   -1,737511531e-02    0,000000000e+00    0,000000000e+00    0,000000000e+00    0,000000000e+00
     1276000000    2,098369151e-01    9,709644318e-02   -5,435104482e-03    2,841788111e-03    0,000000000e+00    0,000000000e+00    0,000000000e+00    0,000000000e+00
     1290000000    2,248034775e-01   -7,880575210e-02    2,018988878e-02    4,910620674e-02    0,000000000e+00    0,000000000e+00    0,000000000e+00    0,000000000e+00
     1304000000    1,559974253e-01   -2,425437123e-01    1,266990900e-01    6,609293073e-02    0,000000000e+00    0,000000000e+00    0,000000000e+00    0,000000000e+00
     1318000000    3,243235499e-02   -3,367127776e-01    1,217973754e-01   -1,688620895e-01    0,000000000e+00    0,000000000e+00    0,000000000e+00    0,000000000e+00
     1332000000   -1,272955984e-01   -4,332865179e-01   -4,385462776e-02   -4,494238272e-02    0,000000000e+00    0,000000000e+00    0,000000000e+00    0,000000000e+00
     1346000000   -3,935794532e-01   -4,089922309e-01    3,200778365e-02    6,880591810e-02    0,000000000e+00    0,000000000e+00    0,000000000e+00    0,000000000e+00
     1360000000   -6,043431759e-01   -1,845462024e-01    1,363280416e-01    7,411570847e-02    0,000000000e+00    0,000000000e+00    0,000000000e+00    0,000000000e+00
     1374000000   -6,297454238e-01    1,304248422e-01    2,102144659e-01    1,512358338e-02    0,000000000e+00    0,000000000e+00    0,000000000e+00    0,000000000e+00
     1388000000   -4,691978395e-01    3,675008118e-01    2,100102007e-01   -6,627378613e-02    0,000000000e+00    0,000000000e+00    0,000000000e+00    0,000000000e+00
     1402000000   -2,315009236e-01    4,556651711e-01    1,852141917e-01   -9,896663576e-02    0,000000000e+00    0,000000000e+00    0,000000000e+00    0,000000000e+00
     1416000000   -2,970333584e-02    4,166113734e-01    1,696340442e-01   -1,094992608e-01    0,000000000e+00    0,000000000e+00    0,000000000e+00    0,000000000e+00
     1430000000    1,218144596e-01    2,925751805e-01    1,638895869e-01   -8,702033013e-02    0,000000000e+00    0,000000000e+00    0,000000000e+00    0,000000000e+00
     1444000000    2,083160728e-01    1,493346244e-01    1,608885378e-01   -1,083114594e-01    0,000000000e+00    0,000000000e+00    0,000000000e+00    0,000000000e+00
     1458000000    2,348736227e-01   -2,167008631e-02    1,351645887e-01   -8,122625202e-02    0,000000000e+00    0,000000000e+00    0,000000000e+00    0,000000000e+00
     1472000000    1,898416281e-01   -2,008404285e-01    1,472038329e-01   -2,525640279e-02    0,000000000e+00    0,000000000e+00    0,000000000e+00    0,000000000e+00
     1486000000    6,311420351e-02   -3,718250692e-01    1,696635783e-01    4,791681096e-02    0,000000000e+00    0,000000000e+00    0,000000000e+00    0,000000000e+00
     1500000000   -1,763232797e-01   -4,932982028e-01    2,339369357e-01    8,729279041e-02    0,000000000e+00    0,000000000e+00    0,000000000e+00    0,000000000e+00
