! NanoVNA-App
! Date: 2025-09-25 15:34:45
! Start: 100MHz Stop: 1,5GHz Points: 101
! S-Parameter data: F S11 S21 S12 S22
# Hz S RI R 50
!     Frequency           S11_Real           S11_Imag           S21_Real           S21_Imag           S12_Real           S12_Imag           S22_Real           S22_Imag
      100000000   -2,884025127e-02   -4,182781558e-03    3,741067350e-01   -7,218233347e-01    0,000000000e+00    0,000000000e+00    0,000000000e+00    0,000000000e+00
      114000000   -1,648642682e-02    1,151798386e-02   -8,918236196e-02   -8,054912090e-01    0,000000000e+00    0,000000000e+00    0,000000000e+00    0,000000000e+00
      128000000    3,522437764e-03    1,053620689e-02   -5,145504475e-01   -6,206293702e-01    0,000000000e+00    0,000000000e+00    0,000000000e+00    0,000000000e+00
      142000000    1,456636563e-02   -2,977193566e-03   -7,668624520e-01   -2,366782725e-01    0,000000000e+00    0,000000000e+00    0,000000000e+00    0,000000000e+00
      156000000    1,580294967e-02   -1,463163365e-02   -7,722579241e-01    2,235591561e-01    0,000000000e+00    0,000000000e+00    0,000000000e+00    0,000000000e+00
      170000000    1,671531424e-02   -2,256761491e-02   -5,182633996e-01    6,047920585e-01    0,000000000e+00    0,000000000e+00    0,000000000e+00    0,000000000e+00
      184000000    2,098697796e-02   -3,701561689e-02   -1,016323268e-01    7,860372663e-01    0,000000000e+00    0,000000000e+00    0,000000000e+00    0,000000000e+00
      198000000    1,297294628e-02   -6,249190867e-02    3,431093693e-01    7,124527693e-01    0,000000000e+00    0,000000000e+00    0,000000000e+00    0,000000000e+00
      212000000   -1,863706857e-02   -8,134204149e-02    6,783205271e-01    4,100045860e-01    0,000000000e+00    0,000000000e+00    0,000000000e+00    0,000000000e+00
      226000000   -6,167428195e-02   -6,913337111e-02    7,957986593e-01   -3,061952442e-02    0,000000000e+00    0,000000000e+00    0,000000000e+00    0,000000000e+00
      240000000   -8,262135088e-02   -2,562534437e-02    6,461902857e-01   -4,672545791e-01    0,000000000e+00    0,000000000e+00    0,000000000e+00    0,000000000e+00
      254000000   -6,352344155e-02    1,722611487e-02    2,763039768e-01   -7,435125113e-01    0,000000000e+00    0,000000000e+00    0,000000000e+00    0,000000000e+00
      268000000   -2,382931672e-02    2,895151451e-02   -1,783215702e-01   -7,643140554e-01    0,000000000e+00    0,000000000e+00    0,000000000e+00    0,000000000e+00
      282000000    4,186214879e-03    1,199395582e-02   -5,620283484e-01   -5,356976390e-01    0,000000000e+00    0,000000000e+00    0,000000000e+00    0,000000000e+00
      296000000    9,724338539e-03   -7,838013582e-03   -7,598149776e-01   -1,395144761e-01    0,000000000e+00    0,000000000e+00    0,000000000e+00    0,000000000e+00
      310000000    1,103750709e-02   -1,626852900e-02   -7,124894857e-01    2,991262078e-01    0,000000000e+00    0,000000000e+00    0,000000000e+00    0,000000000e+00
      324000000    1,948233135e-02   -2,641972713e-02   -4,281744063e-01    6,382977366e-01    0,000000000e+00    0,000000000e+00    0,000000000e+00    0,000000000e+00
      338000000    2,581260540e-02   -5,193016306e-02   -6,828649435e-03    7,647382617e-01    0,000000000e+00    0,000000000e+00    0,000000000e+00    0,000000000e+00
      352000000    7,201334462e-03   -8,473722637e-02    4,060357213e-01    6,389099956e-01    0,000000000e+00    0,000000000e+00    0,000000000e+00    0,000000000e+00
      366000000   -3,471880034e-02   -9,582235664e-02    6,906967163e-01    3,106392920e-01    0,000000000e+00    0,000000000e+00    0,000000000e+00    0,000000000e+00
      380000000   -7,094392180e-02   -7,108666003e-02    7,474430799e-01   -1,256024241e-01    0,000000000e+00    0,000000000e+00    0,000000000e+00    0,000000000e+00
      394000000   -7,270181179e-02   -3,256594390e-02    5,460075736e-01   -5,227612853e-01    0,000000000e+00    0,000000000e+00    0,000000000e+00    0,000000000e+00
      408000000   -4,667938501e-02   -1,632601954e-02    1,612215787e-01   -7,328753471e-01    0,000000000e+00    0,000000000e+00    0,000000000e+00    0,000000000e+00
      422000000   -2,834956720e-02   -3,173675388e-02   -2,671440840e-01   -6,948662996e-01    0,000000000e+00    0,000000000e+00    0,000000000e+00    0,000000000e+00
      436000000   -4,071540013e-02   -5,205804110e-02   -6,033664942e-01   -4,318398833e-01    0,000000000e+00    0,000000000e+00    0,000000000e+00    0,000000000e+00
      450000000   -6,716388464e-02   -4,368801787e-02   -7,405428290e-01   -2,099695057e-02    0,000000000e+00    0,000000000e+00    0,000000000e+00    0,000000000e+00
      464000000   -7,348832488e-02   -1,184263173e-02   -6,183782220e-01    3,977722526e-01    0,000000000e+00    0,000000000e+00    0,000000000e+00    0,000000000e+00
      478000000   -4,787186533e-02    1,159443893e-02   -2,825258076e-01    6,674293280e-01    0,000000000e+00    0,000000000e+00    0,000000000e+00    0,000000000e+00
      492000000   -1,583017968e-02    6,113440730e-03    1,373103112e-01    7,017591596e-01    0,000000000e+00    0,000000000e+00    0,000000000e+00    0,000000000e+00
      506000000   -2,081887797e-03   -1,580132544e-02    4,985335171e-01    5,023296475e-01    0,000000000e+00    0,000000000e+00    0,000000000e+00    0,000000000e+00
      520000000   -4,539501388e-03   -3,144532442e-02    6,892884970e-01    1,421630979e-01    0,000000000e+00    0,000000000e+00    0,000000000e+00    0,000000000e+00
      534000000   -3,865374019e-03   -3,807087988e-02    6,438627243e-01   -2,620179653e-01    0,000000000e+00    0,000000000e+00    0,000000000e+00    0,000000000e+00
      548000000    6,200283766e-03   -5,383177474e-02    3,817764223e-01   -5,670809150e-01    0,000000000e+00    0,000000000e+00    0,000000000e+00    0,000000000e+00
      562000000    3,037329763e-03   -8,927492052e-02    1,850067289e-03   -6,724605560e-01    0,000000000e+00    0,000000000e+00    0,000000000e+00    0,000000000e+00
      576000000   -3,400307894e-02   -1,247845069e-01   -3,696060777e-01   -5,583516955e-01    0,000000000e+00    0,000000000e+00    0,000000000e+00    0,000000000e+00
      590000000   -9,644652903e-02   -1,226724237e-01   -6,222878695e-01   -2,620810568e-01    0,000000000e+00    0,000000000e+00    0,000000000e+00    0,000000000e+00
      604000000   -1,396994293e-01   -7,155617326e-02   -6,655243635e-01    1,377805322e-01    0,000000000e+00    0,000000000e+00    0,000000000e+00    0,000000000e+00
      618000000   -1,297225952e-01   -9,444418363e-03   -4,642540812e-01    4,944508076e-01    0,000000000e+00    0,000000000e+00    0,000000000e+00    0,000000000e+00
      632000000   -8,442921937e-02    1,736781746e-02   -9,934215248e-02    6,638386250e-01    0,000000000e+00    0,000000000e+00    0,000000000e+00    0,000000000e+00
      646000000   -5,166032538e-02    2,683493367e-04    2,877795398e-01    5,956130624e-01    0,000000000e+00    0,000000000e+00    0,000000000e+00    0,000000000e+00
      660000000   -5,319523811e-02   -2,223022096e-02    5,680807829e-01    3,223420084e-01    0,000000000e+00    0,000000000e+00    0,000000000e+00    0,000000000e+00
      674000000   -7,062059641e-02   -1,730819792e-02    6,433139443e-01   -6,535458565e-02    0,000000000e+00    0,000000000e+00    0,000000000e+00    0,000000000e+00
      688000000   -6,902042776e-02    8,674172685e-03    4,709792733e-01   -4,285571873e-01    0,000000000e+00    0,000000000e+00    0,000000000e+00    0,000000000e+00
      702000000   -3,730170429e-02    2,581592649e-02    1,198996902e-01   -6,077485681e-01    0,000000000e+00    0,000000000e+00    0,000000000e+00    0,000000000e+00
      716000000    1,957398839e-03    1,792280376e-02   -2,657864392e-01   -5,462958813e-01    0,000000000e+00    0,000000000e+00    0,000000000e+00    0,000000000e+00
      730000000    3,644909337e-02   -1,159703452e-02   -5,285902023e-01   -2,688351870e-01    0,000000000e+00    0,000000000e+00    0,000000000e+00    0,000000000e+00
      744000000    6,496315449e-02   -6,170813367e-02   -5,643689036e-01    1,062272191e-01    0,000000000e+00    0,000000000e+00    0,000000000e+00    0,000000000e+00
      758000000    6,624785811e-02   -1,525941342e-01   -3,629252315e-01    4,103138447e-01    0,000000000e+00    0,000000000e+00    0,000000000e+00    0,000000000e+00
      772000000   -1,278027240e-02   -2,627930939e-01   -3,465132788e-02    5,166333914e-01    0,000000000e+00    0,000000000e+00    0,000000000e+00    0,000000000e+00
      786000000   -2,072491944e-01   -3,021043241e-01    2,748173177e-01    3,953909874e-01    0,000000000e+00    0,000000000e+00    0,000000000e+00    0,000000000e+00
      800000000   -4,262106717e-01   -1,304236948e-01    4,176283479e-01    9,897071868e-02    0,000000000e+00    0,000000000e+00    0,000000000e+00    0,000000000e+00
      814000000   -3,904683292e-01    2,201856226e-01    2,828017473e-01   -1,722073853e-01    0,000000000e+00    0,000000000e+00    0,000000000e+00    0,000000000e+00
      828000000   -5,054311454e-02    3,692709208e-01    5,520021170e-02   -1,894016117e-01    0,000000000e+00    0,000000000e+00    0,000000000e+00    0,000000000e+00
      842000000    2,346543372e-01    1,858943850e-01   -1,707233489e-02   -7,072399557e-02    0,000000000e+00    0,000000000e+00    0,000000000e+00    0,000000000e+00
      856000000    2,807385921e-01   -1,243563741e-01    4,497693479e-02   -1,295027230e-02    0,000000000e+00    0,000000000e+00    0,000000000e+00    0,000000000e+00
      870000000    7,473650575e-02   -3,765769303e-01    1,136796772e-01   -9,150970727e-02    0,000000000e+00    0,000000000e+00    0,000000000e+00    0,000000000e+00
      884000000   -2,948777080e-01   -3,618333936e-01    2,791396156e-02   -2,454447746e-01    0,000000000e+00    0,000000000e+00    0,000000000e+00    0,000000000e+00
      898000000   -4,724875689e-01    8,559814654e-03   -2,217698097e-01   -2,284288853e-01    0,000000000e+00    0,000000000e+00    0,000000000e+00    0,000000000e+00
      912000000   -2,255045772e-01    2,938635349e-01   -3,469957411e-01    5,953095853e-02    0,000000000e+00    0,000000000e+00    0,000000000e+00    0,000000000e+00
      926000000    6,618829817e-02    2,655515373e-01   -2,174453437e-01    2,662661970e-01    0,000000000e+00    0,000000000e+00    0,000000000e+00    0,000000000e+00
      940000000    2,141790092e-01    8,000103384e-02   -3,622315452e-02    3,288742304e-01    0,000000000e+00    0,000000000e+00    0,000000000e+00    0,000000000e+00
      954000000    2,236056924e-01   -1,256787926e-01    1,315807104e-01    3,064790964e-01    0,000000000e+00    0,000000000e+00    0,000000000e+00    0,000000000e+00
      968000000    1,146935895e-01   -2,973019779e-01    2,706800997e-01    2,178887129e-01    0,000000000e+00    0,000000000e+00    0,000000000e+00    0,000000000e+00
      982000000   -8,099038899e-02   -3,890086114e-01    3,651456237e-01    6,536086649e-02    0,000000000e+00    0,000000000e+00    0,000000000e+00    0,000000000e+00
      996000000   -3,138259351e-01   -3,294414878e-01    3,683618903e-01   -1,460143626e-01    0,000000000e+00    0,000000000e+00    0,000000000e+00    0,000000000e+00
     1010000000   -4,622724950e-01   -1,082956567e-01    2,220946550e-01   -3,415773511e-01    0,000000000e+00    0,000000000e+00    0,000000000e+00    0,000000000e+00
     1024000000   -4,130448997e-01    1,463619024e-01   -3,527686000e-02   -3,926304281e-01    0,000000000e+00    0,000000000e+00    0,000000000e+00    0,000000000e+00
     1038000000   -2,149834931e-01    2,886382639e-01   -2,473338544e-01   -2,603608966e-01    0,000000000e+00    0,000000000e+00    0,000000000e+00    0,000000000e+00
     1052000000   -1,236572582e-02    2,790348530e-01   -3,188345730e-01   -4,700968787e-02    0,000000000e+00    0,000000000e+00    0,000000000e+00    0,000000000e+00
     1066000000    1,382587403e-01    1,648854315e-01   -2,582966089e-01    1,419282705e-01    0,000000000e+00    0,000000000e+00    0,000000000e+00    0,000000000e+00
     1080000000    1,917914301e-01    5,980909918e-04   -1,183008626e-01    2,615354955e-01    0,000000000e+00    0,000000000e+00    0,000000000e+00    0,000000000e+00
     1094000000    1,514504999e-01   -1,759709567e-01    6,531682611e-02    3,046180308e-01    0,000000000e+00    0,000000000e+00    0,000000000e+00    0,000000000e+00
     1108000000    1,496251207e-03   -3,035973310e-01    2,759516239e-01    2,457586378e-01    0,000000000e+00    0,000000000e+00    0,000000000e+00    0,000000000e+00
     1122000000   -2,497033775e-01   -2,589857280e-01    4,713673890e-01    1,080670208e-02    0,000000000e+00    0,000000000e+00    0,000000000e+00    0,000000000e+00
     1136000000   -3,145851493e-01    3,198740631e-02    4,001106620e-01   -3,921167850e-01    0,000000000e+00    0,000000000e+00    0,000000000e+00    0,000000000e+00
     1150000000   -4,379411042e-02    1,500531584e-01    5,917011760e-03   -5,415551662e-01    0,000000000e+00    0,000000000e+00    0,000000000e+00    0,000000000e+00
     1164000000    1,240736693e-01   -5,877180398e-02   -2,751184404e-01   -3,763875663e-01    0,000000000e+00    0,000000000e+00    0,000000000e+00    0,000000000e+00
     1178000000    1,910265349e-02   -3,074871600e-01   -3,666199446e-01   -1,528304964e-01    0,000000000e+00    0,000000000e+00    0,000000000e+00    0,000000000e+00
     1192000000   -2,638451755e-01   -3,707477152e-01   -3,244428039e-01    5,665392429e-02    0,000000000e+00    0,000000000e+00    0,000000000e+00    0,000000000e+00
     1206000000   -5,233358145e-01   -1,623396575e-01   -1,679561138e-01    1,803973615e-01    0,000000000e+00    0,000000000e+00    0,000000000e+00    0,000000000e+00
     1220000000   -5,074102283e-01    1,735064834e-01    5,523409229e-03    1,586681008e-01    0,000000000e+00    0,000000000e+00    0,000000000e+00    0,000000000e+00
     1234000000   -2,896346450e-01    3,618147671e-01    6,645155698e-02    6,084021926e-02    0,000000000e+00    0,000000000e+00    0,000000000e+00    0,000000000e+00
     1248000000   -4,595907778e-02    3,654460311e-01    5,692604557e-02   -6,139153149e-03    0,000000000e+00    0,000000000e+00    0,000000000e+00    0,000000000e+00
     1262000000    1,235183552e-01    2,599218190e-01    1,686831191e-02   -1,547689643e-02    0,000000000e+00    0,000000000e+00    0,000000000e+00    0,000000000e+00
     1276000000    2,090456188e-01    9,796956182e-02   -5,280456040e-03    1,807112363e-03    0,000000000e+00    0,000000000e+00    0,000000000e+00    0,000000000e+00
     1290000000    2,264135331e-01   -7,721503079e-02    2,123878710e-02    4,903652519e-02    0,000000000e+00    0,000000000e+00    0,000000000e+00    0,000000000e+00
     1304000000    1,521080583e-01   -2,431786954e-01    1,277903914e-01    6,881821901e-02    0,000000000e+00    0,000000000e+00    0,000000000e+00    0,000000000e+00
     1318000000    3,534878790e-02   -3,371379673e-01    1,358141750e-01   -1,634428203e-01    0,000000000e+00    0,000000000e+00    0,000000000e+00    0,000000000e+00
     1332000000   -1,309842020e-01   -4,344520569e-01   -4,548135400e-02   -4,170126840e-02    0,000000000e+00    0,000000000e+00    0,000000000e+00    0,000000000e+00
     1346000000   -3,967342973e-01   -4,089685977e-01    2,381052449e-02    7,029297203e-02    0,000000000e+00    0,000000000e+00    0,000000000e+00    0,000000000e+00
     1360000000   -6,110597253e-01   -1,837318987e-01    1,440690905e-01    7,600002736e-02    0,000000000e+00    0,000000000e+00    0,000000000e+00    0,000000000e+00
     1374000000   -6,276971102e-01    1,196646467e-01    2,083552331e-01   -7,145081647e-03    0,000000000e+00    0,000000000e+00    0,000000000e+00    0,000000000e+00
     1388000000   -4,660742581e-01    3,688203394e-01    1,985649765e-01   -5,457477272e-02    0,000000000e+00    0,000000000e+00    0,000000000e+00    0,000000000e+00
     1402000000   -2,365767658e-01    4,534067512e-01    1,846289486e-01   -9,533104300e-02    0,000000000e+00    0,000000000e+00    0,000000000e+00    0,000000000e+00
     1416000000   -2,321387082e-02    4,156717062e-01    1,731040627e-01   -9,631070495e-02    0,000000000e+00    0,000000000e+00    0,000000000e+00    0,000000000e+00
     1430000000    1,196756512e-01    2,942112982e-01    1,526378691e-01   -8,155650645e-02    0,000000000e+00    0,000000000e+00    0,000000000e+00    0,000000000e+00
     1444000000    2,082772404e-01    1,546716094e-01    1,513230652e-01   -9,211738408e-02    0,000000000e+00    0,000000000e+00    0,000000000e+00    0,000000000e+00
     1458000000    2,376330793e-01   -2,124055102e-02    1,369982958e-01   -7,061023265e-02    0,000000000e+00    0,000000000e+00    0,000000000e+00    0,000000000e+00
     1472000000    1,920769364e-01   -2,009630948e-01    1,454872787e-01   -2,123041824e-02    0,000000000e+00    0,000000000e+00    0,000000000e+00    0,000000000e+00
     1486000000    6,977243721e-02   -3,722138405e-01    1,742539257e-01    2,964849770e-02    0,000000000e+00    0,000000000e+00    0,000000000e+00    0,000000000e+00
     1500000000   -1,710408330e-01   -4,882295430e-01    2,450331748e-01    1,046039909e-01    0,000000000e+00    0,000000000e+00    0,000000000e+00    0,000000000e+00
