! NanoVNA-App
! Date: 2025-09-25 15:36:22
! Start: 100MHz Stop: 1,5GHz Points: 101
! S-Parameter data: F S11 S21 S12 S22
# Hz S RI R 50
!     Frequency           S11_Real           S11_Imag           S21_Real           S21_Imag           S12_Real           S12_Imag           S22_Real           S22_Imag
      100000000   -2,883221954e-02   -4,182236269e-03    3,741028607e-01   -7,217625380e-01    0,000000000e+00    0,000000000e+00    0,000000000e+00    0,000000000e+00
      114000000   -1,644378714e-02    1,151107438e-02   -8,899347484e-02   -8,055791855e-01    0,000000000e+00    0,000000000e+00    0,000000000e+00    0,000000000e+00
      128000000    3,494346514e-03    1,050986536e-02   -5,147263408e-01   -6,204548478e-01    0,000000000e+00    0,000000000e+00    0,000000000e+00    0,000000000e+00
      142000000    1,456327550e-02   -2,947235713e-03   -7,672477961e-01   -2,366139144e-01    0,000000000e+00    0,000000000e+00    0,000000000e+00    0,000000000e+00
      156000000    1,519913971e-02   -1,507693063e-02   -7,692223191e-01    2,198025137e-01    0,000000000e+00    0,000000000e+00    0,000000000e+00    0,000000000e+00
      170000000    1,673499495e-02   -2,259186842e-02   -5,180835724e-01    6,047143936e-01    0,000000000e+00    0,000000000e+00    0,000000000e+00    0,000000000e+00
      184000000    2,104801126e-02   -3,707247972e-02   -1,014794558e-01    7,860615253e-01    0,000000000e+00    0,000000000e+00    0,000000000e+00    0,000000000e+00
      198000000    1,303965040e-02   -6,246413663e-02    3,433804810e-01    7,125619054e-01    0,000000000e+00    0,000000000e+00    0,000000000e+00    0,000000000e+00
      212000000   -1,864574663e-02   -8,128941804e-02    6,782338023e-01    4,100663960e-01    0,000000000e+00    0,000000000e+00    0,000000000e+00    0,000000000e+00
      226000000   -6,169572473e-02   -6,919562817e-02    7,958104014e-01   -3,059169650e-02    0,000000000e+00    0,000000000e+00    0,000000000e+00    0,000000000e+00
      240000000   -8,258412033e-02   -2,561886050e-02    6,461755633e-01   -4,669689536e-01    0,000000000e+00    0,000000000e+00    0,000000000e+00    0,000000000e+00
      254000000   -6,346900016e-02    1,724755950e-02    2,761755288e-01   -7,436161041e-01    0,000000000e+00    0,000000000e+00    0,000000000e+00    0,000000000e+00
      268000000   -2,383284271e-02    2,891572751e-02   -1,782176793e-01   -7,638921142e-01    0,000000000e+00    0,000000000e+00    0,000000000e+00    0,000000000e+00
      282000000    4,199907649e-03    1,197598409e-02   -5,617336631e-01   -5,354459882e-01    0,000000000e+00    0,000000000e+00    0,000000000e+00    0,000000000e+00
      296000000    9,673076682e-03   -7,798233535e-03   -7,598187327e-01   -1,396908015e-01    0,000000000e+00    0,000000000e+00    0,000000000e+00    0,000000000e+00
      310000000    1,114711352e-02   -1,605767384e-02   -7,131261826e-01    2,990749776e-01    0,000000000e+00    0,000000000e+00    0,000000000e+00    0,000000000e+00
      324000000    1,958835684e-02   -2,652313188e-02   -4,277174175e-01    6,386746168e-01    0,000000000e+00    0,000000000e+00    0,000000000e+00    0,000000000e+00
      338000000    2,582339756e-02   -5,211202428e-02   -1,001034398e-02    7,603688836e-01    0,000000000e+00    0,000000000e+00    0,000000000e+00    0,000000000e+00
      352000000    7,429710589e-03   -8,486357331e-02    4,066234529e-01    6,389924288e-01    0,000000000e+00    0,000000000e+00    0,000000000e+00    0,000000000e+00
      366000000   -3,458911180e-02   -9,570133686e-02    6,900224686e-01    3,116270304e-01    0,000000000e+00    0,000000000e+00    0,000000000e+00    0,000000000e+00
      380000000   -7,067474723e-02   -7,128023356e-02    7,481670976e-01   -1,261952817e-01    0,000000000e+00    0,000000000e+00    0,000000000e+00    0,000000000e+00
      394000000   -7,241649926e-02   -3,229320049e-02    5,464153290e-01   -5,216144919e-01    0,000000000e+00    0,000000000e+00    0,000000000e+00    0,000000000e+00
      408000000   -4,646496847e-02   -1,606536098e-02    1,596655101e-01   -7,317317724e-01    0,000000000e+00    0,000000000e+00    0,000000000e+00    0,000000000e+00
      422000000   -2,829828486e-02   -3,228679299e-02   -2,678092420e-01   -6,954630017e-01    0,000000000e+00    0,000000000e+00    0,000000000e+00    0,000000000e+00
      436000000   -4,055123404e-02   -5,177392066e-02   -6,035998464e-01   -4,319698513e-01    0,000000000e+00    0,000000000e+00    0,000000000e+00    0,000000000e+00
      450000000   -6,764846295e-02   -4,405727610e-02   -7,410094738e-01   -2,168343402e-02    0,000000000e+00    0,000000000e+00    0,000000000e+00    0,000000000e+00
      464000000   -7,353974879e-02   -1,156605221e-02   -6,185170412e-01    3,978071213e-01    0,000000000e+00    0,000000000e+00    0,000000000e+00    0,000000000e+00
      478000000   -4,741984606e-02    1,156080607e-02   -2,828625143e-01    6,680283546e-01    0,000000000e+00    0,000000000e+00    0,000000000e+00    0,000000000e+00
      492000000   -1,541548874e-02    5,920648109e-03    1,383826584e-01    7,014899850e-01    0,000000000e+00    0,000000000e+00    0,000000000e+00    0,000000000e+00
      506000000   -2,496503061e-03   -1,556655858e-02    4,994135797e-01    5,023639202e-01    0,000000000e+00    0,000000000e+00    0,000000000e+00    0,000000000e+00
      520000000   -4,733774811e-03   -3,136155754e-02    6,883268356e-01    1,421477050e-01    0,000000000e+00    0,000000000e+00    0,000000000e+00    0,000000000e+00
      534000000   -3,978837281e-03   -3,806468844e-02    6,433044076e-01   -2,621993124e-01    0,000000000e+00    0,000000000e+00    0,000000000e+00    0,000000000e+00
      548000000    6,271329708e-03   -5,397609994e-02    3,814601898e-01   -5,672964454e-01    0,000000000e+00    0,000000000e+00    0,000000000e+00    0,000000000e+00
      562000000    3,119924571e-03   -8,975989372e-02    2,826258307e-03   -6,726315022e-01    0,000000000e+00    0,000000000e+00    0,000000000e+00    0,000000000e+00
      576000000   -3,417005390e-02   -1,239172593e-01   -3,692716062e-01   -5,580075979e-01    0,000000000e+00    0,000000000e+00    0,000000000e+00    0,000000000e+00
      590000000   -9,640757740e-02   -1,229693443e-01   -6,199532151e-01   -2,624396980e-01    0,000000000e+00    0,000000000e+00    0,000000000e+00    0,000000000e+00
      604000000   -1,395994574e-01   -7,133127749e-02   -6,652389169e-01    1,381219327e-01    0,000000000e+00    0,000000000e+00    0,000000000e+00    0,000000000e+00
      618000000   -1,291052699e-01   -9,340574965e-03   -4,646387696e-01    4,943944812e-01    0,000000000e+00    0,000000000e+00    0,000000000e+00    0,000000000e+00
      632000000   -8,349731565e-02    1,671454683e-02   -9,829471260e-02    6,645240784e-01    0,000000000e+00    0,000000000e+00    0,000000000e+00    0,000000000e+00
      646000000   -5,110884085e-02    1,272093388e-03    2,875691950e-01    5,955917835e-01    0,000000000e+00    0,000000000e+00    0,000000000e+00    0,000000000e+00
      660000000   -5,357782543e-02   -2,126018144e-02    5,676702857e-01    3,232944310e-01    0,000000000e+00    0,000000000e+00    0,000000000e+00    0,000000000e+00
      674000000   -7,080307603e-02   -1,743075252e-02    6,432155371e-01   -6,549277902e-02    0,000000000e+00    0,000000000e+00    0,000000000e+00    0,000000000e+00
      688000000   -6,877397746e-02    8,267405443e-03    4,712206125e-01   -4,281738698e-01    0,000000000e+00    0,000000000e+00    0,000000000e+00    0,000000000e+00
      702000000   -3,824272752e-02    2,660666406e-02    1,197289005e-01   -6,074390411e-01    0,000000000e+00    0,000000000e+00    0,000000000e+00    0,000000000e+00
      716000000    1,794329612e-03    1,761803590e-02   -2,651484013e-01   -5,470100641e-01    0,000000000e+00    0,000000000e+00    0,000000000e+00    0,000000000e+00
      730000000    3,647326678e-02   -1,164667308e-02   -5,282056332e-01   -2,689964473e-01    0,000000000e+00    0,000000000e+00    0,000000000e+00    0,000000000e+00
      744000000    6,547111273e-02   -6,197648495e-02   -5,643019676e-01    1,060555652e-01    0,000000000e+00    0,000000000e+00    0,000000000e+00    0,000000000e+00
      758000000    6,604204327e-02   -1,519856155e-01   -3,628618419e-01    4,113338590e-01    0,000000000e+00    0,000000000e+00    0,000000000e+00    0,000000000e+00
      772000000   -1,244251709e-02   -2,621345818e-01   -3,510720655e-02    5,153665543e-01    0,000000000e+00    0,000000000e+00    0,000000000e+00    0,000000000e+00
      786000000   -2,070468366e-01   -3,018617928e-01    2,743225396e-01    3,959435225e-01    0,000000000e+00    0,000000000e+00    0,000000000e+00    0,000000000e+00
      800000000   -4,251745641e-01   -1,312363595e-01    4,175281823e-01    9,972225875e-02    0,000000000e+00    0,000000000e+00    0,000000000e+00    0,000000000e+00
      814000000   -3,904045522e-01    2,209064960e-01    2,825540602e-01   -1,732414216e-01    0,000000000e+00    0,000000000e+00    0,000000000e+00    0,000000000e+00
      828000000   -4,832896590e-02    3,684501052e-01    5,515797064e-02   -1,886998415e-01    0,000000000e+00    0,000000000e+00    0,000000000e+00    0,000000000e+00
      842000000    2,351074368e-01    1,863382310e-01   -1,720919460e-02   -7,063369453e-02    0,000000000e+00    0,000000000e+00    0,000000000e+00    0,000000000e+00
      856000000    2,804695964e-01   -1,245263666e-01    4,500912875e-02   -1,289668679e-02    0,000000000e+00    0,000000000e+00    0,000000000e+00    0,000000000e+00
      870000000    7,522846758e-02   -3,754171431e-01    1,134797558e-01   -9,090962261e-02    0,000000000e+00    0,000000000e+00    0,000000000e+00    0,000000000e+00
      884000000   -2,963064015e-01   -3,616448045e-01    2,944081835e-02   -2,459849715e-01    0,000000000e+00    0,000000000e+00    0,000000000e+00    0,000000000e+00
      898000000   -4,720542729e-01    9,346658364e-03   -2,225350440e-01   -2,272967100e-01    0,000000000e+00    0,000000000e+00    0,000000000e+00    0,000000000e+00
      912000000   -2,261680663e-01    2,931117415e-01   -3,531615734e-01    7,221680135e-02    0,000000000e+00    0,000000000e+00    0,000000000e+00    0,000000000e+00
      926000000    6,632397324e-02    2,628133297e-01   -2,179388851e-01    2,618134022e-01    0,000000000e+00    0,000000000e+00    0,000000000e+00    0,000000000e+00
      940000000    2,171779126e-01    7,873999327e-02   -3,604953736e-02    3,288697004e-01    0,000000000e+00    0,000000000e+00    0,000000000e+00    0,000000000e+00
      954000000    2,239842862e-01   -1,287902594e-01    1,324802488e-01    3,064486384e-01    0,000000000e+00    0,000000000e+00    0,000000000e+00    0,000000000e+00
      968000000    1,161037609e-01   -3,015997708e-01    2,705913186e-01    2,178860456e-01    0,000000000e+00    0,000000000e+00    0,000000000e+00    0,000000000e+00
      982000000   -8,123460412e-02   -3,898577392e-01    3,682139516e-01    6,569366902e-02    0,000000000e+00    0,000000000e+00    0,000000000e+00    0,000000000e+00
      996000000   -3,150960505e-01   -3,307844698e-01    3,694715202e-01   -1,438903064e-01    0,000000000e+00    0,000000000e+00    0,000000000e+00    0,000000000e+00
     1010000000   -4,663927257e-01   -1,122339517e-01    2,234209627e-01   -3,428739905e-01    0,000000000e+00    0,000000000e+00    0,000000000e+00    0,000000000e+00
     1024000000   -4,142999351e-01    1,453584880e-01   -3,153888509e-02   -3,926374912e-01    0,000000000e+00    0,000000000e+00    0,000000000e+00    0,000000000e+00
     1038000000   -2,162818909e-01    2,901592851e-01   -2,487971932e-01   -2,604367733e-01    0,000000000e+00    0,000000000e+00    0,000000000e+00    0,000000000e+00
     1052000000   -5,938373972e-03    2,790378630e-01   -3,182378113e-01   -4,596608877e-02    0,000000000e+00    0,000000000e+00    0,000000000e+00    0,000000000e+00
     1066000000    1,378315389e-01    1,672462076e-01   -2,576843798e-01    1,405614763e-01    0,000000000e+00    0,000000000e+00    0,000000000e+00    0,000000000e+00
     1080000000    1,956289113e-01   -2,155334223e-03   -1,184961572e-01    2,631174326e-01    0,000000000e+00    0,000000000e+00    0,000000000e+00    0,000000000e+00
     1094000000    1,564347744e-01   -1,729619801e-01    6,348942220e-02    3,035598397e-01    0,000000000e+00    0,000000000e+00    0,000000000e+00    0,000000000e+00
     1108000000   -3,848253749e-03   -3,021645546e-01    2,743317783e-01    2,472483218e-01    0,000000000e+00    0,000000000e+00    0,000000000e+00    0,000000000e+00
     1122000000   -2,526152134e-01   -2,633721828e-01    4,727382064e-01    1,179504208e-02    0,000000000e+00    0,000000000e+00    0,000000000e+00    0,000000000e+00
     1136000000   -3,127153218e-01    3,344767168e-02    3,960998356e-01   -3,934200704e-01    0,000000000e+00    0,000000000e+00    0,000000000e+00    0,000000000e+00
     1150000000   -4,072866216e-02    1,547210664e-01    5,616473034e-03   -5,423550010e-01    0,000000000e+00    0,000000000e+00    0,000000000e+00    0,000000000e+00
     1164000000    1,248020679e-01   -6,611035019e-02   -2,747806907e-01   -3,804422319e-01    0,000000000e+00    0,000000000e+00    0,000000000e+00    0,000000000e+00
     1178000000    1,716535538e-02   -3,037851453e-01   -3,661670983e-01   -1,502874345e-01    0,000000000e+00    0,000000000e+00    0,000000000e+00    0,000000000e+00
     1192000000   -2,671266794e-01   -3,680260777e-01   -3,219062686e-01    5,817840248e-02    0,000000000e+00    0,000000000e+00    0,000000000e+00    0,000000000e+00
     1206000000   -5,176430941e-01   -1,611526012e-01   -1,636180580e-01    1,802023947e-01    0,000000000e+00    0,000000000e+00    0,000000000e+00    0,000000000e+00
     1220000000   -5,072488189e-01    1,742576361e-01    9,842489380e-04    1,589545906e-01    0,000000000e+00    0,000000000e+00    0,000000000e+00    0,000000000e+00
     1234000000   -2,861321270e-01    3,617099226e-01    6,583294272e-02    5,856338516e-02    0,000000000e+00    0,000000000e+00    0,000000000e+00    0,000000000e+00
     1248000000   -4,025662690e-02    3,626109362e-01    5,691232905e-02   -5,842089187e-03    0,000000000e+00    0,000000000e+00    0,000000000e+00    0,000000000e+00
     1262000000    1,245649680e-01    2,586486042e-01    1,667664759e-02   -1,818974689e-02    0,000000000e+00    0,000000000e+00    0,000000000e+00    0,000000000e+00
     1276000000    2,095627934e-01    1,018812433e-01   -6,827325094e-03    4,774340428e-03    0,000000000e+00    0,000000000e+00    0,000000000e+00    0,000000000e+00
     1290000000    2,211994529e-01   -7,804822922e-02    1,778002828e-02    5,220313743e-02    0,000000000e+00    0,000000000e+00    0,000000000e+00    0,000000000e+00
     1304000000    1,547416300e-01   -2,413792610e-01    1,324689239e-01    7,008992136e-02    0,000000000e+00    0,000000000e+00    0,000000000e+00    0,000000000e+00
     1318000000    3,980397806e-02   -3,369078934e-01    1,340425611e-01   -1,608688235e-01    0,000000000e+00    0,000000000e+00    0,000000000e+00    0,000000000e+00
     1332000000   -1,288185120e-01   -4,350993037e-01   -4,671242088e-02   -4,593496025e-02    0,000000000e+00    0,000000000e+00    0,000000000e+00    0,000000000e+00
     1346000000   -3,928707540e-01   -4,098938406e-01    2,649614215e-02    6,085222214e-02    0,000000000e+00    0,000000000e+00    0,000000000e+00    0,000000000e+00
     1360000000   -6,037229300e-01   -1,897433847e-01    1,425863504e-01    6,785409898e-02    0,000000000e+00    0,000000000e+00    0,000000000e+00    0,000000000e+00
     1374000000   -6,297110915e-01    1,277392358e-01    2,065238208e-01    1,117805857e-02    0,000000000e+00    0,000000000e+00    0,000000000e+00    0,000000000e+00
     1388000000   -4,672490656e-01    3,738333285e-01    2,039473504e-01   -5,344751477e-02    0,000000000e+00    0,000000000e+00    0,000000000e+00    0,000000000e+00
     1402000000   -2,343383133e-01    4,521754682e-01    1,809049696e-01   -8,637570590e-02    0,000000000e+00    0,000000000e+00    0,000000000e+00    0,000000000e+00
     1416000000   -2,859536745e-02    4,122034311e-01    1,616236717e-01   -1,050122008e-01    0,000000000e+00    0,000000000e+00    0,000000000e+00    0,000000000e+00
     1430000000    1,180535257e-01    3,020566404e-01    1,618981957e-01   -8,655910194e-02    0,000000000e+00    0,000000000e+00    0,000000000e+00    0,000000000e+00
     1444000000    2,043385357e-01    1,529563516e-01    1,477701068e-01   -1,042904928e-01    0,000000000e+00    0,000000000e+00    0,000000000e+00    0,000000000e+00
     1458000000    2,322062254e-01   -1,882644184e-02    1,454359293e-01   -6,833692640e-02    0,000000000e+00    0,000000000e+00    0,000000000e+00    0,000000000e+00
     1472000000    1,946347803e-01   -2,036588043e-01    1,488657892e-01   -3,964689001e-02    0,000000000e+00    0,000000000e+00    0,000000000e+00    0,000000000e+00
     1486000000    5,551285297e-02   -3,743702173e-01    1,652373523e-01    3,574765474e-02    0,000000000e+00    0,000000000e+00    0,000000000e+00    0,000000000e+00
     1500000000   -1,695461422e-01   -5,015903711e-01    2,426069528e-01    7,685273886e-02    0,000000000e+00    0,000000000e+00    0,000000000e+00    0,000000000e+00
