! NanoVNA-App
! Date: 2025-09-25 15:37:01
! Start: 100MHz Stop: 1,5GHz Points: 101
! S-Parameter data: F S11 S21 S12 S22
# Hz S RI R 50
!     Frequency           S11_Real           S11_Imag           S21_Real           S21_Imag           S12_Real           S12_Imag           S22_Real           S22_Imag
      100000000   -2,882297151e-02   -4,169738851e-03    3,741177022e-01   -7,217729688e-01    0,000000000e+00    0,000000000e+00    0,000000000e+00    0,000000000e+00
      114000000   -1,645281911e-02    1,152742561e-02   -8,916009963e-02   -8,055809140e-01    0,000000000e+00    0,000000000e+00    0,000000000e+00    0,000000000e+00
      128000000    3,523733234e-03    1,055553928e-02   -5,145681500e-01   -6,204553246e-01    0,000000000e+00    0,000000000e+00    0,000000000e+00    0,000000000e+00
      142000000    1,460956130e-02   -2,970759524e-03   -7,671996951e-01   -2,365889251e-01    0,000000000e+00    0,000000000e+00    0,000000000e+00    0,000000000e+00
      156000000    1,442897972e-02   -1,486146450e-02   -7,647770047e-01    2,181061655e-01    0,000000000e+00    0,000000000e+00    0,000000000e+00    0,000000000e+00
      170000000    1,665799133e-02   -2,252077311e-02   -5,179185867e-01    6,046873331e-01    0,000000000e+00    0,000000000e+00    0,000000000e+00    0,000000000e+00
      184000000    2,100241184e-02   -3,703588620e-02   -1,012186036e-01    7,859521508e-01    0,000000000e+00    0,000000000e+00    0,000000000e+00    0,000000000e+00
      198000000    1,309212204e-02   -6,243512779e-02    3,433188498e-01    7,125954628e-01    0,000000000e+00    0,000000000e+00    0,000000000e+00    0,000000000e+00
      212000000   -1,859122887e-02   -8,132565767e-02    6,781423092e-01    4,098486602e-01    0,000000000e+00    0,000000000e+00    0,000000000e+00    0,000000000e+00
      226000000   -6,168729067e-02   -6,919372082e-02    7,958179116e-01   -3,047182597e-02    0,000000000e+00    0,000000000e+00    0,000000000e+00    0,000000000e+00
      240000000   -8,258710802e-02   -2,558467351e-02    6,462712288e-01   -4,673469365e-01    0,000000000e+00    0,000000000e+00    0,000000000e+00    0,000000000e+00
      254000000   -6,346611679e-02    1,726054400e-02    2,758543193e-01   -7,434397936e-01    0,000000000e+00    0,000000000e+00    0,000000000e+00    0,000000000e+00
      268000000   -2,384243719e-02    2,894225530e-02   -1,780738682e-01   -7,642183304e-01    0,000000000e+00    0,000000000e+00    0,000000000e+00    0,000000000e+00
      282000000    4,154758528e-03    1,197307464e-02   -5,619248748e-01   -5,357205868e-01    0,000000000e+00    0,000000000e+00    0,000000000e+00    0,000000000e+00
      296000000    9,587092325e-03   -7,922940888e-03   -7,596679926e-01   -1,396617889e-01    0,000000000e+00    0,000000000e+00    0,000000000e+00    0,000000000e+00
      310000000    1,121833827e-02   -1,603146456e-02   -7,115082145e-01    2,985074520e-01    0,000000000e+00    0,000000000e+00    0,000000000e+00    0,000000000e+00
      324000000    1,954624243e-02   -2,649463527e-02   -4,273956120e-01    6,383338571e-01    0,000000000e+00    0,000000000e+00    0,000000000e+00    0,000000000e+00
      338000000    2,553185262e-02   -5,253318697e-02   -6,992261391e-03    7,622321248e-01    0,000000000e+00    0,000000000e+00    0,000000000e+00    0,000000000e+00
      352000000    7,202037610e-03   -8,453935385e-02    4,056912661e-01    6,394231319e-01    0,000000000e+00    0,000000000e+00    0,000000000e+00    0,000000000e+00
      366000000   -3,478464484e-02   -9,555166960e-02    6,907140613e-01    3,110553920e-01    0,000000000e+00    0,000000000e+00    0,000000000e+00    0,000000000e+00
      380000000   -7,081492245e-02   -7,130014896e-02    7,473330498e-01   -1,260538548e-01    0,000000000e+00    0,000000000e+00    0,000000000e+00    0,000000000e+00
      394000000   -7,281433046e-02   -3,231416643e-02    5,465785861e-01   -5,205492377e-01    0,000000000e+00    0,000000000e+00    0,000000000e+00    0,000000000e+00
      408000000   -4,640485719e-02   -1,611626893e-02    1,607456654e-01   -7,331181169e-01    0,000000000e+00    0,000000000e+00    0,000000000e+00    0,000000000e+00
      422000000   -2,852740698e-02   -3,209519386e-02   -2,666214108e-01   -6,949607730e-01    0,000000000e+00    0,000000000e+00    0,000000000e+00    0,000000000e+00
      436000000   -4,060024396e-02   -5,213349685e-02   -6,044731736e-01   -4,323824942e-01    0,000000000e+00    0,000000000e+00    0,000000000e+00    0,000000000e+00
      450000000   -6,734193116e-02   -4,374282062e-02   -7,407192588e-01   -2,105776221e-02    0,000000000e+00    0,000000000e+00    0,000000000e+00    0,000000000e+00
      464000000   -7,326704264e-02   -1,196263358e-02   -6,184915900e-01    3,973068893e-01    0,000000000e+00    0,000000000e+00    0,000000000e+00    0,000000000e+00
      478000000   -4,766535386e-02    1,149226446e-02   -2,823826075e-01    6,675028205e-01    0,000000000e+00    0,000000000e+00    0,000000000e+00    0,000000000e+00
      492000000   -1,546355709e-02    5,888796877e-03    1,372473240e-01    7,018463612e-01    0,000000000e+00    0,000000000e+00    0,000000000e+00    0,000000000e+00
      506000000   -2,465863246e-03   -1,565369591e-02    4,989395142e-01    5,025593638e-01    0,000000000e+00    0,000000000e+00    0,000000000e+00    0,000000000e+00
      520000000   -4,933455028e-03   -3,152799234e-02    6,873204708e-01    1,404336691e-01    0,000000000e+00    0,000000000e+00    0,000000000e+00    0,000000000e+00
      534000000   -4,004498944e-03   -3,812540323e-02    6,432976723e-01   -2,620056868e-01    0,000000000e+00    0,000000000e+00    0,000000000e+00    0,000000000e+00
      548000000    6,183112506e-03   -5,416050553e-02    3,820072711e-01   -5,673477650e-01    0,000000000e+00    0,000000000e+00    0,000000000e+00    0,000000000e+00
      562000000    2,967519918e-03   -8,964668959e-02    2,257285407e-03   -6,725317836e-01    0,000000000e+00    0,000000000e+00    0,000000000e+00    0,000000000e+00
      576000000   -3,446033597e-02   -1,243137792e-01   -3,694576025e-01   -5,573223233e-01    0,000000000e+00    0,000000000e+00    0,000000000e+00    0,000000000e+00
      590000000   -9,623043984e-02   -1,227073520e-01   -6,213223338e-01   -2,653611898e-01    0,000000000e+00    0,000000000e+00    0,000000000e+00    0,000000000e+00
      604000000   -1,394745857e-01   -7,196056098e-02   -6,649953723e-01    1,373750716e-01    0,000000000e+00    0,000000000e+00    0,000000000e+00    0,000000000e+00
      618000000   -1,295095533e-01   -9,409777820e-03   -4,642574489e-01    4,944168329e-01    0,000000000e+00    0,000000000e+00    0,000000000e+00    0,000000000e+00
      632000000   -8,362625539e-02    1,680965722e-02   -9,862994403e-02    6,631833911e-01    0,000000000e+00    0,000000000e+00    0,000000000e+00    0,000000000e+00
      646000000   -5,038473010e-02    7,082883385e-04    2,876315713e-01    5,949703455e-01    0,000000000e+00    0,000000000e+00    0,000000000e+00    0,000000000e+00
      660000000   -5,325007066e-02   -2,109913155e-02    5,674154758e-01    3,229638040e-01    0,000000000e+00    0,000000000e+00    0,000000000e+00    0,000000000e+00
      674000000   -7,057989389e-02   -1,733783819e-02    6,429737210e-01   -6,519635767e-02    0,000000000e+00    0,000000000e+00    0,000000000e+00    0,000000000e+00
      688000000   -6,908383220e-02    8,574353531e-03    4,712289274e-01   -4,289268553e-01    0,000000000e+00    0,000000000e+00    0,000000000e+00    0,000000000e+00
      702000000   -3,740864620e-02    2,732504904e-02    1,177737936e-01   -6,138804555e-01    0,000000000e+00    0,000000000e+00    0,000000000e+00    0,000000000e+00
      716000000    3,167352173e-03    1,779134944e-02   -2,641344070e-01   -5,462268591e-01    0,000000000e+00    0,000000000e+00    0,000000000e+00    0,000000000e+00
      730000000    3,731409833e-02   -1,089093462e-02   -5,288271904e-01   -2,692318261e-01    0,000000000e+00    0,000000000e+00    0,000000000e+00    0,000000000e+00
      744000000    6,449452043e-02   -6,275349110e-02   -5,643427372e-01    1,061698571e-01    0,000000000e+00    0,000000000e+00    0,000000000e+00    0,000000000e+00
      758000000    6,688300520e-02   -1,519560218e-01   -3,636234403e-01    4,102658927e-01    0,000000000e+00    0,000000000e+00    0,000000000e+00    0,000000000e+00
      772000000   -1,346996706e-02   -2,623860240e-01   -3,451114520e-02    5,150676966e-01    0,000000000e+00    0,000000000e+00    0,000000000e+00    0,000000000e+00
      786000000   -2,063398957e-01   -3,025401533e-01    2,738432884e-01    3,954251707e-01    0,000000000e+00    0,000000000e+00    0,000000000e+00    0,000000000e+00
      800000000   -4,250659347e-01   -1,310091168e-01    4,171739519e-01    9,952886403e-02    0,000000000e+00    0,000000000e+00    0,000000000e+00    0,000000000e+00
      814000000   -3,903329670e-01    2,216715366e-01    2,825192809e-01   -1,730545461e-01    0,000000000e+00    0,000000000e+00    0,000000000e+00    0,000000000e+00
      828000000   -4,903290048e-02    3,676936328e-01    5,542369932e-02   -1,893512011e-01    0,000000000e+00    0,000000000e+00    0,000000000e+00    0,000000000e+00
      842000000    2,350253016e-01    1,860941648e-01   -1,707504503e-02   -7,079091668e-02    0,000000000e+00    0,000000000e+00    0,000000000e+00    0,000000000e+00
      856000000    2,810907960e-01   -1,239005700e-01    4,529097676e-02   -1,284247823e-02    0,000000000e+00    0,000000000e+00    0,000000000e+00    0,000000000e+00
      870000000    7,447098941e-02   -3,760332465e-01    1,130449772e-01   -9,147970378e-02    0,000000000e+00    0,000000000e+00    0,000000000e+00    0,000000000e+00
      884000000   -2,952616811e-01   -3,614458442e-01    2,812956646e-02   -2,451080382e-01    0,000000000e+00    0,000000000e+00    0,000000000e+00    0,000000000e+00
      898000000   -4,715000689e-01    8,901220746e-03   -2,209816873e-01   -2,275287658e-01    0,000000000e+00    0,000000000e+00    0,000000000e+00    0,000000000e+00
      912000000   -2,252556384e-01    2,933115959e-01   -3,537331522e-01    7,126981765e-02    0,000000000e+00    0,000000000e+00    0,000000000e+00    0,000000000e+00
      926000000    6,778898835e-02    2,650142610e-01   -2,149415463e-01    2,636980414e-01    0,000000000e+00    0,000000000e+00    0,000000000e+00    0,000000000e+00
      940000000    2,163143754e-01    8,214661479e-02   -3,511650860e-02    3,302942812e-01    0,000000000e+00    0,000000000e+00    0,000000000e+00    0,000000000e+00
      954000000    2,207608819e-01   -1,277530044e-01    1,297920793e-01    3,061787188e-01    0,000000000e+00    0,000000000e+00    0,000000000e+00    0,000000000e+00
      968000000    1,149196699e-01   -3,014994562e-01    2,706833184e-01    2,184999287e-01    0,000000000e+00    0,000000000e+00    0,000000000e+00    0,000000000e+00
      982000000   -8,189769089e-02   -3,860815763e-01    3,657708764e-01    6,594803184e-02    0,000000000e+00    0,000000000e+00    0,000000000e+00    0,000000000e+00
      996000000   -3,194953501e-01   -3,270851076e-01    3,697808087e-01   -1,452029645e-01    0,000000000e+00    0,000000000e+00    0,000000000e+00    0,000000000e+00
     1010000000   -4,660053551e-01   -1,119924784e-01    2,211565077e-01   -3,407847881e-01    0,000000000e+00    0,000000000e+00    0,000000000e+00    0,000000000e+00
     1024000000   -4,127965868e-01    1,533984989e-01   -3,379806504e-02   -3,913596570e-01    0,000000000e+00    0,000000000e+00    0,000000000e+00    0,000000000e+00
     1038000000   -2,144227028e-01    2,885355651e-01   -2,466719747e-01   -2,618483603e-01    0,000000000e+00    0,000000000e+00    0,000000000e+00    0,000000000e+00
     1052000000   -4,574143328e-03    2,779864967e-01   -3,189452887e-01   -4,741165787e-02    0,000000000e+00    0,000000000e+00    0,000000000e+00    0,000000000e+00
     1066000000    1,355189085e-01    1,658493876e-01   -2,579915524e-01    1,427019387e-01    0,000000000e+00    0,000000000e+00    0,000000000e+00    0,000000000e+00
     1080000000    1,968736053e-01   -2,298617968e-03   -1,203859374e-01    2,638347447e-01    0,000000000e+00    0,000000000e+00    0,000000000e+00    0,000000000e+00
     1094000000    1,571208239e-01   -1,733736843e-01    6,546578556e-02    3,040850461e-01    0,000000000e+00    0,000000000e+00    0,000000000e+00    0,000000000e+00
     1108000000   -2,860671841e-03   -3,008391261e-01    2,772843540e-01    2,450388670e-01    0,000000000e+00    0,000000000e+00    0,000000000e+00    0,000000000e+00
     1122000000   -2,447323501e-01   -2,641260326e-01    4,725434482e-01    1,424073335e-02    0,000000000e+00    0,000000000e+00    0,000000000e+00    0,000000000e+00
     1136000000   -3,217107058e-01    2,943704836e-02    3,990600109e-01   -3,892515004e-01    0,000000000e+00    0,000000000e+00    0,000000000e+00    0,000000000e+00
     1150000000   -3,715451062e-02    1,472677588e-01    6,116196513e-03   -5,420691967e-01    0,000000000e+00    0,000000000e+00    0,000000000e+00    0,000000000e+00
     1164000000    1,264970601e-01   -6,283128262e-02   -2,745181918e-01   -3,790830672e-01    0,000000000e+00    0,000000000e+00    0,000000000e+00    0,000000000e+00
     1178000000    1,590942964e-02   -3,078697026e-01   -3,691588044e-01   -1,561189145e-01    0,000000000e+00    0,000000000e+00    0,000000000e+00    0,000000000e+00
     1192000000   -2,641588151e-01   -3,714586198e-01   -3,227387965e-01    5,723632500e-02    0,000000000e+00    0,000000000e+00    0,000000000e+00    0,000000000e+00
     1206000000   -5,232019424e-01   -1,648547649e-01   -1,668770015e-01    1,800996214e-01    0,000000000e+00    0,000000000e+00    0,000000000e+00    0,000000000e+00
     1220000000   -5,106344223e-01    1,823801100e-01    1,061756862e-03    1,624727249e-01    0,000000000e+00    0,000000000e+00    0,000000000e+00    0,000000000e+00
     1234000000   -2,906174958e-01    3,701949418e-01    6,943303347e-02    6,182049960e-02    0,000000000e+00    0,000000000e+00    0,000000000e+00    0,000000000e+00
     1248000000   -4,641110450e-02    3,625872731e-01    4,901588708e-02   -7,318132557e-03    0,000000000e+00    0,000000000e+00    0,000000000e+00    0,000000000e+00
     1262000000    1,261487156e-01    2,514615953e-01    1,915645041e-02   -2,515227534e-02    0,000000000e+00    0,000000000e+00    0,000000000e+00    0,000000000e+00
     1276000000    2,078602761e-01    9,841359407e-02   -4,344246816e-03    2,533105435e-03    0,000000000e+00    0,000000000e+00    0,000000000e+00    0,000000000e+00
     1290000000    2,242749780e-01   -7,749529183e-02    2,156808414e-02    4,707111791e-02    0,000000000e+00    0,000000000e+00    0,000000000e+00    0,000000000e+00
     1304000000    1,582608521e-01   -2,432927936e-01    1,360241920e-01    6,851673126e-02    0,000000000e+00    0,000000000e+00    0,000000000e+00    0,000000000e+00
     1318000000    3,677371889e-02   -3,373543620e-01    1,312788874e-01   -1,682635248e-01    0,000000000e+00    0,000000000e+00    0,000000000e+00    0,000000000e+00
     1332000000   -1,337153763e-01   -4,359357357e-01   -5,201840773e-02   -4,335249215e-02    0,000000000e+00    0,000000000e+00    0,000000000e+00    0,000000000e+00
     1346000000   -4,013174772e-01   -4,085570872e-01    2,136706002e-02    6,522903591e-02    0,000000000e+00    0,000000000e+00    0,000000000e+00    0,000000000e+00
     1360000000   -6,040869951e-01   -1,856547892e-01    1,403858513e-01    8,246345818e-02    0,000000000e+00    0,000000000e+00    0,000000000e+00    0,000000000e+00
     1374000000   -6,359236836e-01    1,320307404e-01    2,097757459e-01    2,273884602e-02    0,000000000e+00    0,000000000e+00    0,000000000e+00    0,000000000e+00
     1388000000   -4,588209689e-01    3,666817546e-01    2,225380838e-01   -6,470001489e-02    0,000000000e+00    0,000000000e+00    0,000000000e+00    0,000000000e+00
     1402000000   -2,269819230e-01    4,492259026e-01    1,946837306e-01   -8,423259109e-02    0,000000000e+00    0,000000000e+00    0,000000000e+00    0,000000000e+00
     1416000000   -2,961681411e-02    4,190296233e-01    1,719994843e-01   -9,133308381e-02    0,000000000e+00    0,000000000e+00    0,000000000e+00    0,000000000e+00
     1430000000    1,222131997e-01    3,052139282e-01    1,671811491e-01   -8,817296475e-02    0,000000000e+00    0,000000000e+00    0,000000000e+00    0,000000000e+00
     1444000000    2,072907537e-01    1,518022716e-01    1,567259729e-01   -9,940261394e-02    0,000000000e+00    0,000000000e+00    0,000000000e+00    0,000000000e+00
     1458000000    2,334079891e-01   -1,956831291e-02    1,431153566e-01   -6,947302073e-02    0,000000000e+00    0,000000000e+00    0,000000000e+00    0,000000000e+00
     1472000000    1,915890574e-01   -2,071149796e-01    1,490115523e-01   -2,676377259e-02    0,000000000e+00    0,000000000e+00    0,000000000e+00    0,000000000e+00
     1486000000    6,275034696e-02   -3,671788871e-01    1,724054813e-01    4,395761341e-02    0,000000000e+00    0,000000000e+00    0,000000000e+00    0,000000000e+00
     1500000000   -1,680893451e-01   -4,983167946e-01    2,534414232e-01    9,246601909e-02    0,000000000e+00    0,000000000e+00    0,000000000e+00    0,000000000e+00
