! NanoVNA-App
! Date: 2025-09-25 15:35:00
! Start: 100MHz Stop: 1,5GHz Points: 101
! S-Parameter data: F S11 S21 S12 S22
# Hz S RI R 50
!     Frequency           S11_Real           S11_Imag           S21_Real           S21_Imag           S12_Real           S12_Imag           S22_Real           S22_Imag
      100000000   -2,885366045e-02   -4,160663113e-03    3,741357028e-01   -7,217222452e-01    0,000000000e+00    0,000000000e+00    0,000000000e+00    0,000000000e+00
      114000000   -1,650201529e-02    1,152829826e-02   -8,911800385e-02   -8,054528236e-01    0,000000000e+00    0,000000000e+00    0,000000000e+00    0,000000000e+00
      128000000    3,484575078e-03    1,048902329e-02   -5,145367384e-01   -6,203724146e-01    0,000000000e+00    0,000000000e+00    0,000000000e+00    0,000000000e+00
      142000000    1,457447745e-02   -2,974667819e-03   -7,671341300e-01   -2,366543263e-01    0,000000000e+00    0,000000000e+00    0,000000000e+00    0,000000000e+00
      156000000    1,480767410e-02   -1,496051531e-02   -7,668823600e-01    2,183682919e-01    0,000000000e+00    0,000000000e+00    0,000000000e+00    0,000000000e+00
      170000000    1,673090830e-02   -2,249144390e-02   -5,183188319e-01    6,047252417e-01    0,000000000e+00    0,000000000e+00    0,000000000e+00    0,000000000e+00
      184000000    2,097843587e-02   -3,705209121e-02   -1,014007330e-01    7,860053778e-01    0,000000000e+00    0,000000000e+00    0,000000000e+00    0,000000000e+00
      198000000    1,304005831e-02   -6,246044114e-02    3,431351781e-01    7,124047279e-01    0,000000000e+00    0,000000000e+00    0,000000000e+00    0,000000000e+00
      212000000   -1,864216849e-02   -8,130447567e-02    6,780285239e-01    4,099986851e-01    0,000000000e+00    0,000000000e+00    0,000000000e+00    0,000000000e+00
      226000000   -6,160398573e-02   -6,920083612e-02    7,958148122e-01   -3,062092699e-02    0,000000000e+00    0,000000000e+00    0,000000000e+00    0,000000000e+00
      240000000   -8,260139823e-02   -2,558466047e-02    6,459401250e-01   -4,668930769e-01    0,000000000e+00    0,000000000e+00    0,000000000e+00    0,000000000e+00
      254000000   -6,350484490e-02    1,727204025e-02    2,761200964e-01   -7,435914874e-01    0,000000000e+00    0,000000000e+00    0,000000000e+00    0,000000000e+00
      268000000   -2,389799245e-02    2,894402854e-02   -1,781015992e-01   -7,643538117e-01    0,000000000e+00    0,000000000e+00    0,000000000e+00    0,000000000e+00
      282000000    4,116894212e-03    1,198938768e-02   -5,618672371e-01   -5,355424285e-01    0,000000000e+00    0,000000000e+00    0,000000000e+00    0,000000000e+00
      296000000    9,678108618e-03   -7,941202261e-03   -7,597096562e-01   -1,395689845e-01    0,000000000e+00    0,000000000e+00    0,000000000e+00    0,000000000e+00
      310000000    1,120907068e-02   -1,626497507e-02   -7,130047679e-01    2,974855304e-01    0,000000000e+00    0,000000000e+00    0,000000000e+00    0,000000000e+00
      324000000    1,961473562e-02   -2,649061568e-02   -4,272027016e-01    6,383071542e-01    0,000000000e+00    0,000000000e+00    0,000000000e+00    0,000000000e+00
      338000000    2,569012716e-02   -5,232672393e-02   -9,275072254e-03    7,630534768e-01    0,000000000e+00    0,000000000e+00    0,000000000e+00    0,000000000e+00
      352000000    7,265251130e-03   -8,486554772e-02    4,060689509e-01    6,398875713e-01    0,000000000e+00    0,000000000e+00    0,000000000e+00    0,000000000e+00
      366000000   -3,467796743e-02   -9,536925703e-02    6,909794807e-01    3,117009401e-01    0,000000000e+00    0,000000000e+00    0,000000000e+00    0,000000000e+00
      380000000   -7,087319344e-02   -7,104808092e-02    7,478839159e-01   -1,261832416e-01    0,000000000e+00    0,000000000e+00    0,000000000e+00    0,000000000e+00
      394000000   -7,257566601e-02   -3,229164332e-02    5,468178391e-01   -5,212341547e-01    0,000000000e+00    0,000000000e+00    0,000000000e+00    0,000000000e+00
      408000000   -4,644407704e-02   -1,650270075e-02    1,598025709e-01   -7,330983281e-01    0,000000000e+00    0,000000000e+00    0,000000000e+00    0,000000000e+00
      422000000   -2,829349972e-02   -3,158871830e-02   -2,676621079e-01   -6,946358681e-01    0,000000000e+00    0,000000000e+00    0,000000000e+00    0,000000000e+00
      436000000   -4,042217135e-02   -5,205772445e-02   -6,036598682e-01   -4,320845902e-01    0,000000000e+00    0,000000000e+00    0,000000000e+00    0,000000000e+00
      450000000   -6,766921282e-02   -4,421598837e-02   -7,407725453e-01   -2,124925703e-02    0,000000000e+00    0,000000000e+00    0,000000000e+00    0,000000000e+00
      464000000   -7,324332744e-02   -1,208380610e-02   -6,185781360e-01    3,968844116e-01    0,000000000e+00    0,000000000e+00    0,000000000e+00    0,000000000e+00
      478000000   -4,773756489e-02    1,140653156e-02   -2,825903296e-01    6,677901149e-01    0,000000000e+00    0,000000000e+00    0,000000000e+00    0,000000000e+00
      492000000   -1,599784940e-02    5,979763810e-03    1,379836053e-01    7,016778588e-01    0,000000000e+00    0,000000000e+00    0,000000000e+00    0,000000000e+00
      506000000   -2,527046949e-03   -1,601266302e-02    4,984929562e-01    5,022281408e-01    0,000000000e+00    0,000000000e+00    0,000000000e+00    0,000000000e+00
      520000000   -5,356747657e-03   -3,150162473e-02    6,871725321e-01    1,426597387e-01    0,000000000e+00    0,000000000e+00    0,000000000e+00    0,000000000e+00
      534000000   -3,510291455e-03   -3,819486871e-02    6,437965035e-01   -2,627040446e-01    0,000000000e+00    0,000000000e+00    0,000000000e+00    0,000000000e+00
      548000000    6,199562922e-03   -5,407470465e-02    3,817790449e-01   -5,674248338e-01    0,000000000e+00    0,000000000e+00    0,000000000e+00    0,000000000e+00
      562000000    2,908720635e-03   -8,968362957e-02    1,981102629e-03   -6,718390584e-01    0,000000000e+00    0,000000000e+00    0,000000000e+00    0,000000000e+00
      576000000   -3,422947228e-02   -1,240427345e-01   -3,692483902e-01   -5,572038889e-01    0,000000000e+00    0,000000000e+00    0,000000000e+00    0,000000000e+00
      590000000   -9,652823955e-02   -1,226745769e-01   -6,228428483e-01   -2,632277310e-01    0,000000000e+00    0,000000000e+00    0,000000000e+00    0,000000000e+00
      604000000   -1,393684745e-01   -7,154140621e-02   -6,646353006e-01    1,385140866e-01    0,000000000e+00    0,000000000e+00    0,000000000e+00    0,000000000e+00
      618000000   -1,293137670e-01   -8,752217516e-03   -4,647825360e-01    4,942520261e-01    0,000000000e+00    0,000000000e+00    0,000000000e+00    0,000000000e+00
      632000000   -8,444488794e-02    1,702675968e-02   -9,931813180e-02    6,623026729e-01    0,000000000e+00    0,000000000e+00    0,000000000e+00    0,000000000e+00
      646000000   -5,042842403e-02    7,521802909e-04    2,878689468e-01    5,950346589e-01    0,000000000e+00    0,000000000e+00    0,000000000e+00    0,000000000e+00
      660000000   -5,315909535e-02   -2,122171409e-02    5,673090219e-01    3,230397701e-01    0,000000000e+00    0,000000000e+00    0,000000000e+00    0,000000000e+00
      674000000   -7,090694457e-02   -1,764541864e-02    6,431573033e-01   -6,542631984e-02    0,000000000e+00    0,000000000e+00    0,000000000e+00    0,000000000e+00
      688000000   -6,854712218e-02    8,156600408e-03    4,706304073e-01   -4,283108711e-01    0,000000000e+00    0,000000000e+00    0,000000000e+00    0,000000000e+00
      702000000   -3,696272522e-02    2,556009404e-02    1,177229881e-01   -6,113691330e-01    0,000000000e+00    0,000000000e+00    0,000000000e+00    0,000000000e+00
      716000000    2,718520118e-03    1,770831831e-02   -2,654474080e-01   -5,462357402e-01    0,000000000e+00    0,000000000e+00    0,000000000e+00    0,000000000e+00
      730000000    3,745047748e-02   -1,077224687e-02   -5,286735892e-01   -2,686007321e-01    0,000000000e+00    0,000000000e+00    0,000000000e+00    0,000000000e+00
      744000000    6,554555893e-02   -6,177533418e-02   -5,642633438e-01    1,062947512e-01    0,000000000e+00    0,000000000e+00    0,000000000e+00    0,000000000e+00
      758000000    6,682461500e-02   -1,523502916e-01   -3,631243706e-01    4,106877148e-01    0,000000000e+00    0,000000000e+00    0,000000000e+00    0,000000000e+00
      772000000   -1,318782754e-02   -2,629512846e-01   -3,432210535e-02    5,150293708e-01    0,000000000e+00    0,000000000e+00    0,000000000e+00    0,000000000e+00
      786000000   -2,061697245e-01   -3,019168377e-01    2,744699717e-01    3,958773315e-01    0,000000000e+00    0,000000000e+00    0,000000000e+00    0,000000000e+00
      800000000   -4,250974953e-01   -1,307703704e-01    4,164159000e-01    9,908864647e-02    0,000000000e+00    0,000000000e+00    0,000000000e+00    0,000000000e+00
      814000000   -3,887712657e-01    2,221798003e-01    2,821908891e-01   -1,733996719e-01    0,000000000e+00    0,000000000e+00    0,000000000e+00    0,000000000e+00
      828000000   -4,968464002e-02    3,679603040e-01    5,519976094e-02   -1,901381165e-01    0,000000000e+00    0,000000000e+00    0,000000000e+00    0,000000000e+00
      842000000    2,348358780e-01    1,861773729e-01   -1,763292588e-02   -7,087010145e-02    0,000000000e+00    0,000000000e+00    0,000000000e+00    0,000000000e+00
      856000000    2,806608081e-01   -1,241288036e-01    4,526755959e-02   -1,319203060e-02    0,000000000e+00    0,000000000e+00    0,000000000e+00    0,000000000e+00
      870000000    7,455408573e-02   -3,754936457e-01    1,134365872e-01   -9,037762135e-02    0,000000000e+00    0,000000000e+00    0,000000000e+00    0,000000000e+00
      884000000   -2,956348658e-01   -3,615598381e-01    2,930844948e-02   -2,455239296e-01    0,000000000e+00    0,000000000e+00    0,000000000e+00    0,000000000e+00
      898000000   -4,724954963e-01    7,932885550e-03   -2,224674374e-01   -2,293137014e-01    0,000000000e+00    0,000000000e+00    0,000000000e+00    0,000000000e+00
      912000000   -2,261226624e-01    2,940334380e-01   -3,358514309e-01    6,791719794e-02    0,000000000e+00    0,000000000e+00    0,000000000e+00    0,000000000e+00
      926000000    6,749187410e-02    2,642830610e-01   -2,145963013e-01    2,654525042e-01    0,000000000e+00    0,000000000e+00    0,000000000e+00    0,000000000e+00
      940000000    2,178228647e-01    7,904613018e-02   -3,639831766e-02    3,285599947e-01    0,000000000e+00    0,000000000e+00    0,000000000e+00    0,000000000e+00
      954000000    2,254796028e-01   -1,276873201e-01    1,317522228e-01    3,077191114e-01    0,000000000e+00    0,000000000e+00    0,000000000e+00    0,000000000e+00
      968000000    1,150544360e-01   -3,017576337e-01    2,699675858e-01    2,187860757e-01    0,000000000e+00    0,000000000e+00    0,000000000e+00    0,000000000e+00
      982000000   -8,311778307e-02   -3,861250579e-01    3,663870692e-01    6,552424282e-02    0,000000000e+00    0,000000000e+00    0,000000000e+00    0,000000000e+00
      996000000   -3,191714585e-01   -3,288732767e-01    3,689036369e-01   -1,474646926e-01    0,000000000e+00    0,000000000e+00    0,000000000e+00    0,000000000e+00
     1010000000   -4,642439783e-01   -1,141198352e-01    2,212853730e-01   -3,417958915e-01    0,000000000e+00    0,000000000e+00    0,000000000e+00    0,000000000e+00
     1024000000   -4,113254249e-01    1,468106359e-01   -3,499689326e-02   -3,914301097e-01    0,000000000e+00    0,000000000e+00    0,000000000e+00    0,000000000e+00
     1038000000   -2,192814797e-01    2,895058393e-01   -2,440992445e-01   -2,616454661e-01    0,000000000e+00    0,000000000e+00    0,000000000e+00    0,000000000e+00
     1052000000   -6,809331942e-03    2,767175436e-01   -3,161495030e-01   -4,443983734e-02    0,000000000e+00    0,000000000e+00    0,000000000e+00    0,000000000e+00
     1066000000    1,322166026e-01    1,633870006e-01   -2,560013831e-01    1,411532164e-01    0,000000000e+00    0,000000000e+00    0,000000000e+00    0,000000000e+00
     1080000000    1,909675449e-01   -1,586509170e-03   -1,189903915e-01    2,622472048e-01    0,000000000e+00    0,000000000e+00    0,000000000e+00    0,000000000e+00
     1094000000    1,553447694e-01   -1,725517064e-01    6,375280768e-02    3,045088649e-01    0,000000000e+00    0,000000000e+00    0,000000000e+00    0,000000000e+00
     1108000000   -4,778365139e-03   -3,045164645e-01    2,793658674e-01    2,464150339e-01    0,000000000e+00    0,000000000e+00    0,000000000e+00    0,000000000e+00
     1122000000   -2,517960370e-01   -2,695927620e-01    4,709599912e-01    1,364869811e-02    0,000000000e+00    0,000000000e+00    0,000000000e+00    0,000000000e+00
     1136000000   -3,152790964e-01    3,029067256e-02    4,002601802e-01   -3,924577534e-01    0,000000000e+00    0,000000000e+00    0,000000000e+00    0,000000000e+00
     1150000000   -4,471945763e-02    1,501336396e-01    4,549301229e-03   -5,426997542e-01    0,000000000e+00    0,000000000e+00    0,000000000e+00    0,000000000e+00
     1164000000    1,214996129e-01   -5,978086218e-02   -2,762136161e-01   -3,781817257e-01    0,000000000e+00    0,000000000e+00    0,000000000e+00    0,000000000e+00
     1178000000    1,388043910e-02   -3,079369366e-01   -3,697050512e-01   -1,535766572e-01    0,000000000e+00    0,000000000e+00    0,000000000e+00    0,000000000e+00
     1192000000   -2,660488486e-01   -3,675784767e-01   -3,218213022e-01    6,216830388e-02    0,000000000e+00    0,000000000e+00    0,000000000e+00    0,000000000e+00
     1206000000   -5,180767775e-01   -1,614425927e-01   -1,642395407e-01    1,813132763e-01    0,000000000e+00    0,000000000e+00    0,000000000e+00    0,000000000e+00
     1220000000   -5,125050545e-01    1,735619158e-01   -2,374452306e-03    1,601689309e-01    0,000000000e+00    0,000000000e+00    0,000000000e+00    0,000000000e+00
     1234000000   -2,878242731e-01    3,598609567e-01    6,803189963e-02    6,050819904e-02    0,000000000e+00    0,000000000e+00    0,000000000e+00    0,000000000e+00
     1248000000   -4,755319655e-02    3,680564463e-01    5,365390703e-02   -5,422282498e-03    0,000000000e+00    0,000000000e+00    0,000000000e+00    0,000000000e+00
     1262000000    1,201973632e-01    2,547957301e-01    1,510525122e-02   -1,882885396e-02    0,000000000e+00    0,000000000e+00    0,000000000e+00    0,000000000e+00
     1276000000    2,111007869e-01    9,540345520e-02   -4,334571771e-03    3,234414151e-03    0,000000000e+00    0,000000000e+00    0,000000000e+00    0,000000000e+00
     1290000000    2,219843417e-01   -7,323075831e-02    2,061421052e-02    5,058491603e-02    0,000000000e+00    0,000000000e+00    0,000000000e+00    0,000000000e+00
     1304000000    1,581879854e-01   -2,376194447e-01    1,369960308e-01    7,170671225e-02    0,000000000e+00    0,000000000e+00    0,000000000e+00    0,000000000e+00
     1318000000    3,490918130e-02   -3,386010528e-01    1,292906255e-01   -1,663719267e-01    0,000000000e+00    0,000000000e+00    0,000000000e+00    0,000000000e+00
     1332000000   -1,305722445e-01   -4,405328631e-01   -3,889764100e-02   -4,336583614e-02    0,000000000e+00    0,000000000e+00    0,000000000e+00    0,000000000e+00
     1346000000   -3,986043930e-01   -4,069079161e-01    1,728746109e-02    6,421931088e-02    0,000000000e+00    0,000000000e+00    0,000000000e+00    0,000000000e+00
     1360000000   -6,092209220e-01   -1,963589787e-01    1,287083626e-01    6,505088508e-02    0,000000000e+00    0,000000000e+00    0,000000000e+00    0,000000000e+00
     1374000000   -6,281387210e-01    1,278487742e-01    2,199991345e-01   -5,598232616e-03    0,000000000e+00    0,000000000e+00    0,000000000e+00    0,000000000e+00
     1388000000   -4,715819657e-01    3,666944504e-01    2,076107413e-01   -6,969656050e-02    0,000000000e+00    0,000000000e+00    0,000000000e+00    0,000000000e+00
     1402000000   -2,341086268e-01    4,512243867e-01    1,855235249e-01   -1,093733832e-01    0,000000000e+00    0,000000000e+00    0,000000000e+00    0,000000000e+00
     1416000000   -2,168418095e-02    4,104354978e-01    1,842898875e-01   -1,075174883e-01    0,000000000e+00    0,000000000e+00    0,000000000e+00    0,000000000e+00
     1430000000    1,146202907e-01    3,001800478e-01    1,731242388e-01   -1,111508980e-01    0,000000000e+00    0,000000000e+00    0,000000000e+00    0,000000000e+00
     1444000000    2,102476209e-01    1,485003233e-01    1,501101106e-01   -1,024478152e-01    0,000000000e+00    0,000000000e+00    0,000000000e+00    0,000000000e+00
     1458000000    2,341765463e-01   -1,908602938e-02    1,405226290e-01   -7,289730757e-02    0,000000000e+00    0,000000000e+00    0,000000000e+00    0,000000000e+00
     1472000000    1,932698041e-01   -2,048423588e-01    1,452915817e-01   -3,190449253e-02    0,000000000e+00    0,000000000e+00    0,000000000e+00    0,000000000e+00
     1486000000    6,652276218e-02   -3,793538809e-01    1,852936447e-01    3,341101483e-02    0,000000000e+00    0,000000000e+00    0,000000000e+00    0,000000000e+00
     1500000000   -1,791775525e-01   -4,994607568e-01    2,385761440e-01    8,504150063e-02    0,000000000e+00    0,000000000e+00    0,000000000e+00    0,000000000e+00
