! NanoVNA-App
! Date: 2025-09-25 15:35:48
! Start: 100MHz Stop: 1,5GHz Points: 101
! S-Parameter data: F S11 S21 S12 S22
# Hz S RI R 50
!     Frequency           S11_Real           S11_Imag           S21_Real           S21_Imag           S12_Real           S12_Imag           S22_Real           S22_Imag
      100000000   -2,883626334e-02   -4,162888508e-03    3,740972877e-01   -7,217954397e-01    0,000000000e+00    0,000000000e+00    0,000000000e+00    0,000000000e+00
      114000000   -1,646167040e-02    1,152625028e-02   -8,891355246e-02   -8,054676652e-01    0,000000000e+00    0,000000000e+00    0,000000000e+00    0,000000000e+00
      128000000    3,477966180e-03    1,053317450e-02   -5,145059824e-01   -6,203320622e-01    0,000000000e+00    0,000000000e+00    0,000000000e+00    0,000000000e+00
      142000000    1,457787305e-02   -2,961079124e-03   -7,670308948e-01   -2,365343869e-01    0,000000000e+00    0,000000000e+00    0,000000000e+00    0,000000000e+00
      156000000    1,599592157e-02   -1,433050167e-02   -7,701284885e-01    2,243221104e-01    0,000000000e+00    0,000000000e+00    0,000000000e+00    0,000000000e+00
      170000000    1,671699993e-02   -2,253532223e-02   -5,184497237e-01    6,049921513e-01    0,000000000e+00    0,000000000e+00    0,000000000e+00    0,000000000e+00
      184000000    2,107851580e-02   -3,707330301e-02   -1,014188305e-01    7,865289450e-01    0,000000000e+00    0,000000000e+00    0,000000000e+00    0,000000000e+00
      198000000    1,308129542e-02   -6,249269843e-02    3,432970047e-01    7,123430371e-01    0,000000000e+00    0,000000000e+00    0,000000000e+00    0,000000000e+00
      212000000   -1,864832453e-02   -8,132282645e-02    6,783176661e-01    4,100988209e-01    0,000000000e+00    0,000000000e+00    0,000000000e+00    0,000000000e+00
      226000000   -6,168267503e-02   -6,926699728e-02    7,957866192e-01   -3,054075129e-02    0,000000000e+00    0,000000000e+00    0,000000000e+00    0,000000000e+00
      240000000   -8,259638399e-02   -2,559910715e-02    6,459901333e-01   -4,670063257e-01    0,000000000e+00    0,000000000e+00    0,000000000e+00    0,000000000e+00
      254000000   -6,348157674e-02    1,723134518e-02    2,758611143e-01   -7,437360883e-01    0,000000000e+00    0,000000000e+00    0,000000000e+00    0,000000000e+00
      268000000   -2,377751470e-02    2,889260091e-02   -1,781628430e-01   -7,641416192e-01    0,000000000e+00    0,000000000e+00    0,000000000e+00    0,000000000e+00
      282000000    4,156133160e-03    1,194201875e-02   -5,617583990e-01   -5,355892777e-01    0,000000000e+00    0,000000000e+00    0,000000000e+00    0,000000000e+00
      296000000    9,754658677e-03   -7,815798745e-03   -7,597836852e-01   -1,396318078e-01    0,000000000e+00    0,000000000e+00    0,000000000e+00    0,000000000e+00
      310000000    1,093635056e-02   -1,616549119e-02   -7,121998668e-01    2,975168526e-01    0,000000000e+00    0,000000000e+00    0,000000000e+00    0,000000000e+00
      324000000    1,954124123e-02   -2,650687657e-02   -4,278763533e-01    6,384691596e-01    0,000000000e+00    0,000000000e+00    0,000000000e+00    0,000000000e+00
      338000000    2,562971599e-02   -5,224012583e-02   -6,487997714e-03    7,634389997e-01    0,000000000e+00    0,000000000e+00    0,000000000e+00    0,000000000e+00
      352000000    7,637468167e-03   -8,462208509e-02    4,066017866e-01    6,384897232e-01    0,000000000e+00    0,000000000e+00    0,000000000e+00    0,000000000e+00
      366000000   -3,499878943e-02   -9,575115144e-02    6,910350919e-01    3,109472990e-01    0,000000000e+00    0,000000000e+00    0,000000000e+00    0,000000000e+00
      380000000   -7,071812451e-02   -7,147339731e-02    7,474071383e-01   -1,259340346e-01    0,000000000e+00    0,000000000e+00    0,000000000e+00    0,000000000e+00
      394000000   -7,232578099e-02   -3,235713392e-02    5,471107364e-01   -5,213713646e-01    0,000000000e+00    0,000000000e+00    0,000000000e+00    0,000000000e+00
      408000000   -4,637599364e-02   -1,599336788e-02    1,615112126e-01   -7,321645021e-01    0,000000000e+00    0,000000000e+00    0,000000000e+00    0,000000000e+00
      422000000   -2,845162712e-02   -3,213008121e-02   -2,679629028e-01   -6,945276856e-01    0,000000000e+00    0,000000000e+00    0,000000000e+00    0,000000000e+00
      436000000   -4,063585028e-02   -5,199742317e-02   -6,040814519e-01   -4,318091869e-01    0,000000000e+00    0,000000000e+00    0,000000000e+00    0,000000000e+00
      450000000   -6,744949520e-02   -4,352832958e-02   -7,401828170e-01   -2,139933780e-02    0,000000000e+00    0,000000000e+00    0,000000000e+00    0,000000000e+00
      464000000   -7,307713479e-02   -1,179834735e-02   -6,182531714e-01    3,974832296e-01    0,000000000e+00    0,000000000e+00    0,000000000e+00    0,000000000e+00
      478000000   -4,788079485e-02    1,197304297e-02   -2,823619246e-01    6,681652069e-01    0,000000000e+00    0,000000000e+00    0,000000000e+00    0,000000000e+00
      492000000   -1,599417999e-02    5,762294400e-03    1,376264691e-01    7,018555403e-01    0,000000000e+00    0,000000000e+00    0,000000000e+00    0,000000000e+00
      506000000   -2,776218578e-03   -1,619811542e-02    4,986101985e-01    5,021282434e-01    0,000000000e+00    0,000000000e+00    0,000000000e+00    0,000000000e+00
      520000000   -5,188440904e-03   -3,145531565e-02    6,879159212e-01    1,428833157e-01    0,000000000e+00    0,000000000e+00    0,000000000e+00    0,000000000e+00
      534000000   -4,188051447e-03   -3,807615861e-02    6,435119510e-01   -2,623883188e-01    0,000000000e+00    0,000000000e+00    0,000000000e+00    0,000000000e+00
      548000000    5,928731523e-03   -5,417654291e-02    3,811585903e-01   -5,672104359e-01    0,000000000e+00    0,000000000e+00    0,000000000e+00    0,000000000e+00
      562000000    3,056746675e-03   -8,990459144e-02    2,442589961e-03   -6,723307967e-01    0,000000000e+00    0,000000000e+00    0,000000000e+00    0,000000000e+00
      576000000   -3,405739740e-02   -1,245848611e-01   -3,685205281e-01   -5,567194819e-01    0,000000000e+00    0,000000000e+00    0,000000000e+00    0,000000000e+00
      590000000   -9,656114876e-02   -1,226337180e-01   -6,208587885e-01   -2,624475062e-01    0,000000000e+00    0,000000000e+00    0,000000000e+00    0,000000000e+00
      604000000   -1,393096596e-01   -7,208145410e-02   -6,652806997e-01    1,377519518e-01    0,000000000e+00    0,000000000e+00    0,000000000e+00    0,000000000e+00
      618000000   -1,300424188e-01   -9,613448754e-03   -4,644967020e-01    4,950477779e-01    0,000000000e+00    0,000000000e+00    0,000000000e+00    0,000000000e+00
      632000000   -8,367336541e-02    1,711441204e-02   -9,905920178e-02    6,647288203e-01    0,000000000e+00    0,000000000e+00    0,000000000e+00    0,000000000e+00
      646000000   -5,090122297e-02   -2,412942267e-04    2,881082594e-01    5,952284336e-01    0,000000000e+00    0,000000000e+00    0,000000000e+00    0,000000000e+00
      660000000   -5,287513882e-02   -2,220863849e-02    5,679520369e-01    3,226462901e-01    0,000000000e+00    0,000000000e+00    0,000000000e+00    0,000000000e+00
      674000000   -6,971970201e-02   -1,808972657e-02    6,432927251e-01   -6,540315598e-02    0,000000000e+00    0,000000000e+00    0,000000000e+00    0,000000000e+00
      688000000   -6,767380238e-02    8,879616857e-03    4,714777768e-01   -4,288829267e-01    0,000000000e+00    0,000000000e+00    0,000000000e+00    0,000000000e+00
      702000000   -3,740204871e-02    2,707888186e-02    1,171293035e-01   -6,154013276e-01    0,000000000e+00    0,000000000e+00    0,000000000e+00    0,000000000e+00
      716000000    1,983652590e-03    1,720126346e-02   -2,641834319e-01   -5,470209122e-01    0,000000000e+00    0,000000000e+00    0,000000000e+00    0,000000000e+00
      730000000    3,729153425e-02   -1,142442599e-02   -5,286791325e-01   -2,683905959e-01    0,000000000e+00    0,000000000e+00    0,000000000e+00    0,000000000e+00
      744000000    6,551604718e-02   -6,190279126e-02   -5,643550158e-01    1,062802002e-01    0,000000000e+00    0,000000000e+00    0,000000000e+00    0,000000000e+00
      758000000    6,665879488e-02   -1,528289765e-01   -3,641603589e-01    4,101717174e-01    0,000000000e+00    0,000000000e+00    0,000000000e+00    0,000000000e+00
      772000000   -1,302810200e-02   -2,622236609e-01   -3,389563039e-02    5,158653259e-01    0,000000000e+00    0,000000000e+00    0,000000000e+00    0,000000000e+00
      786000000   -2,057462931e-01   -3,022601604e-01    2,734865546e-01    3,950041831e-01    0,000000000e+00    0,000000000e+00    0,000000000e+00    0,000000000e+00
      800000000   -4,257356524e-01   -1,314366311e-01    4,178118706e-01    9,926913679e-02    0,000000000e+00    0,000000000e+00    0,000000000e+00    0,000000000e+00
      814000000   -3,905446231e-01    2,213885337e-01    2,827281356e-01   -1,734140515e-01    0,000000000e+00    0,000000000e+00    0,000000000e+00    0,000000000e+00
      828000000   -4,861019179e-02    3,693103790e-01    5,487645417e-02   -1,885161102e-01    0,000000000e+00    0,000000000e+00    0,000000000e+00    0,000000000e+00
      842000000    2,353200465e-01    1,857214719e-01   -1,683658734e-02   -7,076731324e-02    0,000000000e+00    0,000000000e+00    0,000000000e+00    0,000000000e+00
      856000000    2,804032266e-01   -1,241112277e-01    4,453427717e-02   -1,325082872e-02    0,000000000e+00    0,000000000e+00    0,000000000e+00    0,000000000e+00
      870000000    7,478205860e-02   -3,766153753e-01    1,134150922e-01   -9,131584316e-02    0,000000000e+00    0,000000000e+00    0,000000000e+00    0,000000000e+00
      884000000   -2,965213656e-01   -3,609856963e-01    2,851006202e-02   -2,452978045e-01    0,000000000e+00    0,000000000e+00    0,000000000e+00    0,000000000e+00
      898000000   -4,716684222e-01    8,865176700e-03   -2,216309458e-01   -2,275921106e-01    0,000000000e+00    0,000000000e+00    0,000000000e+00    0,000000000e+00
      912000000   -2,255894244e-01    2,936205566e-01   -3,360508978e-01    6,814176589e-02    0,000000000e+00    0,000000000e+00    0,000000000e+00    0,000000000e+00
      926000000    6,595873088e-02    2,641245425e-01   -2,146359086e-01    2,615213990e-01    0,000000000e+00    0,000000000e+00    0,000000000e+00    0,000000000e+00
      940000000    2,139015794e-01    8,143881708e-02   -3,608762100e-02    3,303439319e-01    0,000000000e+00    0,000000000e+00    0,000000000e+00    0,000000000e+00
      954000000    2,211963832e-01   -1,298079044e-01    1,300605983e-01    3,065939248e-01    0,000000000e+00    0,000000000e+00    0,000000000e+00    0,000000000e+00
      968000000    1,167947277e-01   -3,028365672e-01    2,713611126e-01    2,182270139e-01    0,000000000e+00    0,000000000e+00    0,000000000e+00    0,000000000e+00
      982000000   -7,895413786e-02   -3,878022134e-01    3,664460182e-01    6,517904997e-02    0,000000000e+00    0,000000000e+00    0,000000000e+00    0,000000000e+00
      996000000   -3,146053553e-01   -3,266449869e-01    3,676979244e-01   -1,455721110e-01    0,000000000e+00    0,000000000e+00    0,000000000e+00    0,000000000e+00
     1010000000   -4,642392695e-01   -1,146369204e-01    2,251156420e-01   -3,419293165e-01    0,000000000e+00    0,000000000e+00    0,000000000e+00    0,000000000e+00
     1024000000   -4,110536575e-01    1,486929655e-01   -3,300048783e-02   -3,936077058e-01    0,000000000e+00    0,000000000e+00    0,000000000e+00    0,000000000e+00
     1038000000   -2,147375494e-01    2,939438224e-01   -2,456737608e-01   -2,610773742e-01    0,000000000e+00    0,000000000e+00    0,000000000e+00    0,000000000e+00
     1052000000   -9,225468151e-03    2,811724842e-01   -3,160664141e-01   -4,681955650e-02    0,000000000e+00    0,000000000e+00    0,000000000e+00    0,000000000e+00
     1066000000    1,380594969e-01    1,612063646e-01   -2,558319271e-01    1,453390568e-01    0,000000000e+00    0,000000000e+00    0,000000000e+00    0,000000000e+00
     1080000000    1,962871999e-01    1,107340140e-04   -1,192499101e-01    2,626741827e-01    0,000000000e+00    0,000000000e+00    0,000000000e+00    0,000000000e+00
     1094000000    1,556782126e-01   -1,724930406e-01    6,461804360e-02    3,055621088e-01    0,000000000e+00    0,000000000e+00    0,000000000e+00    0,000000000e+00
     1108000000   -3,806845052e-03   -3,028873801e-01    2,762622833e-01    2,444522977e-01    0,000000000e+00    0,000000000e+00    0,000000000e+00    0,000000000e+00
     1122000000   -2,458823323e-01   -2,631410658e-01    4,727480114e-01    1,192813832e-02    0,000000000e+00    0,000000000e+00    0,000000000e+00    0,000000000e+00
     1136000000   -3,207034171e-01    3,020669706e-02    3,993426561e-01   -3,925189674e-01    0,000000000e+00    0,000000000e+00    0,000000000e+00    0,000000000e+00
     1150000000   -3,776833788e-02    1,556817591e-01    4,484910984e-03   -5,412024856e-01    0,000000000e+00    0,000000000e+00    0,000000000e+00    0,000000000e+00
     1164000000    1,221631542e-01   -5,975798517e-02   -2,781686783e-01   -3,796142042e-01    0,000000000e+00    0,000000000e+00    0,000000000e+00    0,000000000e+00
     1178000000    1,574486680e-02   -3,069775701e-01   -3,723362386e-01   -1,529099196e-01    0,000000000e+00    0,000000000e+00    0,000000000e+00    0,000000000e+00
     1192000000   -2,665418684e-01   -3,742403388e-01   -3,205098808e-01    5,745895207e-02    0,000000000e+00    0,000000000e+00    0,000000000e+00    0,000000000e+00
     1206000000   -5,242784619e-01   -1,577923447e-01   -1,662042290e-01    1,818374544e-01    0,000000000e+00    0,000000000e+00    0,000000000e+00    0,000000000e+00
     1220000000   -5,056870580e-01    1,768491417e-01    3,430259414e-03    1,602096707e-01    0,000000000e+00    0,000000000e+00    0,000000000e+00    0,000000000e+00
     1234000000   -2,825194597e-01    3,660271466e-01    6,773532182e-02    6,323444098e-02    0,000000000e+00    0,000000000e+00    0,000000000e+00    0,000000000e+00
     1248000000   -4,977386445e-02    3,672584295e-01    5,170654133e-02   -9,335541166e-03    0,000000000e+00    0,000000000e+00    0,000000000e+00    0,000000000e+00
     1262000000    1,266386956e-01    2,597439289e-01    1,594929397e-02   -2,225473523e-02    0,000000000e+00    0,000000000e+00    0,000000000e+00    0,000000000e+00
     1276000000    2,107605338e-01    1,026076972e-01   -2,855767962e-03    6,816306617e-03    0,000000000e+00    0,000000000e+00    0,000000000e+00    0,000000000e+00
     1290000000    2,269990146e-01   -7,347279787e-02    2,056698315e-02    5,155097321e-02    0,000000000e+00    0,000000000e+00    0,000000000e+00    0,000000000e+00
     1304000000    1,559379101e-01   -2,410603315e-01    1,347525716e-01    6,246482208e-02    0,000000000e+00    0,000000000e+00    0,000000000e+00    0,000000000e+00
     1318000000    3,912588209e-02   -3,355333209e-01    1,324867010e-01   -1,667954177e-01    0,000000000e+00    0,000000000e+00    0,000000000e+00    0,000000000e+00
     1332000000   -1,317194402e-01   -4,396927655e-01   -5,017512664e-02   -4,944261536e-02    0,000000000e+00    0,000000000e+00    0,000000000e+00    0,000000000e+00
     1346000000   -3,974338472e-01   -4,052031636e-01    2,745069563e-02    7,404305786e-02    0,000000000e+00    0,000000000e+00    0,000000000e+00    0,000000000e+00
     1360000000   -6,151758432e-01   -1,889126897e-01    1,307797581e-01    6,953074783e-02    0,000000000e+00    0,000000000e+00    0,000000000e+00    0,000000000e+00
     1374000000   -6,355130076e-01    1,247087866e-01    1,978376508e-01   -1,270208159e-03    0,000000000e+00    0,000000000e+00    0,000000000e+00    0,000000000e+00
     1388000000   -4,663625360e-01    3,606589139e-01    2,090677321e-01   -8,247853816e-02    0,000000000e+00    0,000000000e+00    0,000000000e+00    0,000000000e+00
     1402000000   -2,362404913e-01    4,527904689e-01    1,835755408e-01   -9,412410855e-02    0,000000000e+00    0,000000000e+00    0,000000000e+00    0,000000000e+00
     1416000000   -2,852923982e-02    4,092414677e-01    1,697299331e-01   -1,066818610e-01    0,000000000e+00    0,000000000e+00    0,000000000e+00    0,000000000e+00
     1430000000    1,279321462e-01    3,018412888e-01    1,517142504e-01   -1,123685837e-01    0,000000000e+00    0,000000000e+00    0,000000000e+00    0,000000000e+00
     1444000000    2,104036659e-01    1,511292756e-01    1,641229093e-01   -9,329348058e-02    0,000000000e+00    0,000000000e+00    0,000000000e+00    0,000000000e+00
     1458000000    2,368366271e-01   -2,449083515e-02    1,449432969e-01   -8,521521091e-02    0,000000000e+00    0,000000000e+00    0,000000000e+00    0,000000000e+00
     1472000000    1,920428574e-01   -2,000988722e-01    1,413532048e-01   -2,764345892e-02    0,000000000e+00    0,000000000e+00    0,000000000e+00    0,000000000e+00
     1486000000    6,833633780e-02   -3,728811145e-01    1,718007326e-01    4,536382854e-02    0,000000000e+00    0,000000000e+00    0,000000000e+00    0,000000000e+00
     1500000000   -1,722122431e-01   -4,928058684e-01    2,338924110e-01    1,015271470e-01    0,000000000e+00    0,000000000e+00    0,000000000e+00    0,000000000e+00
