! NanoVNA-App
! Date: 2025-09-25 15:36:14
! Start: 100MHz Stop: 1,5GHz Points: 101
! S-Parameter data: F S11 S21 S12 S22
# Hz S RI R 50
!     Frequency           S11_Real           S11_Imag           S21_Real           S21_Imag           S12_Real           S12_Imag           S22_Real           S22_Imag
      100000000   -2,883336693e-02   -4,180118442e-03    3,740859926e-01   -7,217715383e-01    0,000000000e+00    0,000000000e+00    0,000000000e+00    0,000000000e+00
      114000000   -1,645554975e-02    1,150197536e-02   -8,903992176e-02   -8,056131601e-01    0,000000000e+00    0,000000000e+00    0,000000000e+00    0,000000000e+00
      128000000    3,519128077e-03    1,052674837e-02   -5,147741437e-01   -6,205832958e-01    0,000000000e+00    0,000000000e+00    0,000000000e+00    0,000000000e+00
      142000000    1,456743665e-02   -2,968018642e-03   -7,673952579e-01   -2,365352809e-01    0,000000000e+00    0,000000000e+00    0,000000000e+00    0,000000000e+00
      156000000    1,442932617e-02   -1,483240351e-02   -7,647005320e-01    2,180552930e-01    0,000000000e+00    0,000000000e+00    0,000000000e+00    0,000000000e+00
      170000000    1,673761941e-02   -2,254920825e-02   -5,180047750e-01    6,048005819e-01    0,000000000e+00    0,000000000e+00    0,000000000e+00    0,000000000e+00
      184000000    2,103027329e-02   -3,709449247e-02   -1,012899950e-01    7,861415148e-01    0,000000000e+00    0,000000000e+00    0,000000000e+00    0,000000000e+00
      198000000    1,302183233e-02   -6,249184534e-02    3,433832228e-01    7,120341659e-01    0,000000000e+00    0,000000000e+00    0,000000000e+00    0,000000000e+00
      212000000   -1,861456595e-02   -8,133398741e-02    6,778765917e-01    4,098644853e-01    0,000000000e+00    0,000000000e+00    0,000000000e+00    0,000000000e+00
      226000000   -6,168278307e-02   -6,922596693e-02    7,958042622e-01   -3,064754233e-02    0,000000000e+00    0,000000000e+00    0,000000000e+00    0,000000000e+00
      240000000   -8,255282044e-02   -2,557444572e-02    6,462941170e-01   -4,670430422e-01    0,000000000e+00    0,000000000e+00    0,000000000e+00    0,000000000e+00
      254000000   -6,349258125e-02    1,724280789e-02    2,759537399e-01   -7,432081699e-01    0,000000000e+00    0,000000000e+00    0,000000000e+00    0,000000000e+00
      268000000   -2,384742536e-02    2,887062542e-02   -1,779335141e-01   -7,642836571e-01    0,000000000e+00    0,000000000e+00    0,000000000e+00    0,000000000e+00
      282000000    4,195600748e-03    1,195556391e-02   -5,620006323e-01   -5,357511640e-01    0,000000000e+00    0,000000000e+00    0,000000000e+00    0,000000000e+00
      296000000    9,818147868e-03   -7,917638868e-03   -7,598379850e-01   -1,397386342e-01    0,000000000e+00    0,000000000e+00    0,000000000e+00    0,000000000e+00
      310000000    1,122803427e-02   -1,626502350e-02   -7,117629647e-01    2,996082604e-01    0,000000000e+00    0,000000000e+00    0,000000000e+00    0,000000000e+00
      324000000    1,949585788e-02   -2,633610740e-02   -4,272893369e-01    6,387380958e-01    0,000000000e+00    0,000000000e+00    0,000000000e+00    0,000000000e+00
      338000000    2,533516288e-02   -5,243900046e-02   -8,101706393e-03    7,631690502e-01    0,000000000e+00    0,000000000e+00    0,000000000e+00    0,000000000e+00
      352000000    7,048361935e-03   -8,487902582e-02    4,068716764e-01    6,391655803e-01    0,000000000e+00    0,000000000e+00    0,000000000e+00    0,000000000e+00
      366000000   -3,461198136e-02   -9,560176730e-02    6,907309294e-01    3,107374907e-01    0,000000000e+00    0,000000000e+00    0,000000000e+00    0,000000000e+00
      380000000   -7,070040703e-02   -7,123880088e-02    7,481502295e-01   -1,260330379e-01    0,000000000e+00    0,000000000e+00    0,000000000e+00    0,000000000e+00
      394000000   -7,243441045e-02   -3,235274553e-02    5,469503999e-01   -5,223913193e-01    0,000000000e+00    0,000000000e+00    0,000000000e+00    0,000000000e+00
      408000000   -4,631257057e-02   -1,618303545e-02    1,613333672e-01   -7,314126492e-01    0,000000000e+00    0,000000000e+00    0,000000000e+00    0,000000000e+00
      422000000   -2,803314291e-02   -3,211799636e-02   -2,681540847e-01   -6,947629452e-01    0,000000000e+00    0,000000000e+00    0,000000000e+00    0,000000000e+00
      436000000   -4,049199447e-02   -5,178698897e-02   -6,042206287e-01   -4,322146177e-01    0,000000000e+00    0,000000000e+00    0,000000000e+00    0,000000000e+00
      450000000   -6,767813861e-02   -4,382432997e-02   -7,410553694e-01   -2,118049748e-02    0,000000000e+00    0,000000000e+00    0,000000000e+00    0,000000000e+00
      464000000   -7,351115346e-02   -1,180146914e-02   -6,182965636e-01    3,973493576e-01    0,000000000e+00    0,000000000e+00    0,000000000e+00    0,000000000e+00
      478000000   -4,780874029e-02    1,155213825e-02   -2,827164531e-01    6,684595346e-01    0,000000000e+00    0,000000000e+00    0,000000000e+00    0,000000000e+00
      492000000   -1,552656945e-02    5,727685522e-03    1,383017302e-01    7,013188601e-01    0,000000000e+00    0,000000000e+00    0,000000000e+00    0,000000000e+00
      506000000   -2,594941063e-03   -1,580134034e-02    4,979063869e-01    5,019153953e-01    0,000000000e+00    0,000000000e+00    0,000000000e+00    0,000000000e+00
      520000000   -4,991230089e-03   -3,154276311e-02    6,868907213e-01    1,417591274e-01    0,000000000e+00    0,000000000e+00    0,000000000e+00    0,000000000e+00
      534000000   -3,887860337e-03   -3,792409599e-02    6,437117457e-01   -2,620965540e-01    0,000000000e+00    0,000000000e+00    0,000000000e+00    0,000000000e+00
      548000000    6,135334726e-03   -5,382971838e-02    3,813756108e-01   -5,670515895e-01    0,000000000e+00    0,000000000e+00    0,000000000e+00    0,000000000e+00
      562000000    2,749584382e-03   -8,912678808e-02    2,097641584e-03   -6,717579961e-01    0,000000000e+00    0,000000000e+00    0,000000000e+00    0,000000000e+00
      576000000   -3,441113606e-02   -1,246128529e-01   -3,689599931e-01   -5,571860671e-01    0,000000000e+00    0,000000000e+00    0,000000000e+00    0,000000000e+00
      590000000   -9,642013907e-02   -1,225901991e-01   -6,220108271e-01   -2,623556256e-01    0,000000000e+00    0,000000000e+00    0,000000000e+00    0,000000000e+00
      604000000   -1,399236172e-01   -7,172477245e-02   -6,653065085e-01    1,381118447e-01    0,000000000e+00    0,000000000e+00    0,000000000e+00    0,000000000e+00
      618000000   -1,298450977e-01   -9,126257151e-03   -4,649562538e-01    4,943249822e-01    0,000000000e+00    0,000000000e+00    0,000000000e+00    0,000000000e+00
      632000000   -8,335670829e-02    1,689587161e-02   -9,898446500e-02    6,640610099e-01    0,000000000e+00    0,000000000e+00    0,000000000e+00    0,000000000e+00
      646000000   -5,095522106e-02    1,069481252e-03    2,881120145e-01    5,960763693e-01    0,000000000e+00    0,000000000e+00    0,000000000e+00    0,000000000e+00
      660000000   -5,341083184e-02   -2,109387331e-02    5,684415102e-01    3,231871128e-01    0,000000000e+00    0,000000000e+00    0,000000000e+00    0,000000000e+00
      674000000   -7,071653754e-02   -1,732455380e-02    6,432693601e-01   -6,542483717e-02    0,000000000e+00    0,000000000e+00    0,000000000e+00    0,000000000e+00
      688000000   -6,923197955e-02    9,058635682e-03    4,715542495e-01   -4,282652736e-01    0,000000000e+00    0,000000000e+00    0,000000000e+00    0,000000000e+00
      702000000   -3,833819553e-02    2,648688480e-02    1,184539497e-01   -6,138012409e-01    0,000000000e+00    0,000000000e+00    0,000000000e+00    0,000000000e+00
      716000000    2,398651093e-03    1,848362200e-02   -2,648245692e-01   -5,469232798e-01    0,000000000e+00    0,000000000e+00    0,000000000e+00    0,000000000e+00
      730000000    3,726379573e-02   -1,135158353e-02   -5,286822915e-01   -2,691020072e-01    0,000000000e+00    0,000000000e+00    0,000000000e+00    0,000000000e+00
      744000000    6,464948505e-02   -6,257688254e-02   -5,635935664e-01    1,063715592e-01    0,000000000e+00    0,000000000e+00    0,000000000e+00    0,000000000e+00
      758000000    6,623975188e-02   -1,528900862e-01   -3,633428216e-01    4,101123512e-01    0,000000000e+00    0,000000000e+00    0,000000000e+00    0,000000000e+00
      772000000   -1,308710594e-02   -2,619194388e-01   -3,495076299e-02    5,156287551e-01    0,000000000e+00    0,000000000e+00    0,000000000e+00    0,000000000e+00
      786000000   -2,067599446e-01   -3,034822047e-01    2,744476199e-01    3,953460753e-01    0,000000000e+00    0,000000000e+00    0,000000000e+00    0,000000000e+00
      800000000   -4,264519215e-01   -1,299479157e-01    4,172345996e-01    9,895804524e-02    0,000000000e+00    0,000000000e+00    0,000000000e+00    0,000000000e+00
      814000000   -3,892933130e-01    2,215267271e-01    2,826563716e-01   -1,730119437e-01    0,000000000e+00    0,000000000e+00    0,000000000e+00    0,000000000e+00
      828000000   -4,937411845e-02    3,692922294e-01    5,467161536e-02   -1,892688423e-01    0,000000000e+00    0,000000000e+00    0,000000000e+00    0,000000000e+00
      842000000    2,353473455e-01    1,855630577e-01   -1,713275351e-02   -7,120661438e-02    0,000000000e+00    0,000000000e+00    0,000000000e+00    0,000000000e+00
      856000000    2,804084420e-01   -1,242216453e-01    4,550504312e-02   -1,311105862e-02    0,000000000e+00    0,000000000e+00    0,000000000e+00    0,000000000e+00
      870000000    7,458113134e-02   -3,764282167e-01    1,129543632e-01   -9,120812267e-02    0,000000000e+00    0,000000000e+00    0,000000000e+00    0,000000000e+00
      884000000   -2,953415513e-01   -3,611792922e-01    2,866953425e-02   -2,446912378e-01    0,000000000e+00    0,000000000e+00    0,000000000e+00    0,000000000e+00
      898000000   -4,714722335e-01    8,541019633e-03   -2,218309492e-01   -2,267826796e-01    0,000000000e+00    0,000000000e+00    0,000000000e+00    0,000000000e+00
      912000000   -2,268010080e-01    2,956334352e-01   -3,395268619e-01    7,461507618e-02    0,000000000e+00    0,000000000e+00    0,000000000e+00    0,000000000e+00
      926000000    6,770813465e-02    2,630637586e-01   -2,156374753e-01    2,631309330e-01    0,000000000e+00    0,000000000e+00    0,000000000e+00    0,000000000e+00
      940000000    2,180228233e-01    8,022120595e-02   -3,558174521e-02    3,292172849e-01    0,000000000e+00    0,000000000e+00    0,000000000e+00    0,000000000e+00
      954000000    2,206434011e-01   -1,290489435e-01    1,300069988e-01    3,059608340e-01    0,000000000e+00    0,000000000e+00    0,000000000e+00    0,000000000e+00
      968000000    1,152636409e-01   -2,973634303e-01    2,697161138e-01    2,191110998e-01    0,000000000e+00    0,000000000e+00    0,000000000e+00    0,000000000e+00
      982000000   -8,464331925e-02   -3,854601979e-01    3,654752374e-01    6,396953017e-02    0,000000000e+00    0,000000000e+00    0,000000000e+00    0,000000000e+00
      996000000   -3,141201735e-01   -3,292125165e-01    3,683894277e-01   -1,444871724e-01    0,000000000e+00    0,000000000e+00    0,000000000e+00    0,000000000e+00
     1010000000   -4,645259082e-01   -1,140229329e-01    2,233022451e-01   -3,421910405e-01    0,000000000e+00    0,000000000e+00    0,000000000e+00    0,000000000e+00
     1024000000   -4,154902101e-01    1,532394439e-01   -3,523351252e-02   -3,922874928e-01    0,000000000e+00    0,000000000e+00    0,000000000e+00    0,000000000e+00
     1038000000   -2,201243490e-01    2,935394347e-01   -2,482615858e-01   -2,603912950e-01    0,000000000e+00    0,000000000e+00    0,000000000e+00    0,000000000e+00
     1052000000   -1,062189136e-02    2,783486247e-01   -3,165892959e-01   -4,679200053e-02    0,000000000e+00    0,000000000e+00    0,000000000e+00    0,000000000e+00
     1066000000    1,355013549e-01    1,605495960e-01   -2,579888999e-01    1,402050108e-01    0,000000000e+00    0,000000000e+00    0,000000000e+00    0,000000000e+00
     1080000000    1,926702112e-01    1,937020221e-03   -1,213197038e-01    2,617768645e-01    0,000000000e+00    0,000000000e+00    0,000000000e+00    0,000000000e+00
     1094000000    1,566742361e-01   -1,759839952e-01    6,245810539e-02    3,055354655e-01    0,000000000e+00    0,000000000e+00    0,000000000e+00    0,000000000e+00
     1108000000   -3,402365604e-03   -3,065035343e-01    2,762460411e-01    2,466497123e-01    0,000000000e+00    0,000000000e+00    0,000000000e+00    0,000000000e+00
     1122000000   -2,468377054e-01   -2,671796083e-01    4,701151550e-01    1,128294878e-02    0,000000000e+00    0,000000000e+00    0,000000000e+00    0,000000000e+00
     1136000000   -3,157622814e-01    3,447166830e-02    3,988757730e-01   -3,937365115e-01    0,000000000e+00    0,000000000e+00    0,000000000e+00    0,000000000e+00
     1150000000   -3,962830827e-02    1,565706879e-01    7,075373083e-03   -5,402998924e-01    0,000000000e+00    0,000000000e+00    0,000000000e+00    0,000000000e+00
     1164000000    1,261674464e-01   -6,243787333e-02   -2,777594924e-01   -3,784944713e-01    0,000000000e+00    0,000000000e+00    0,000000000e+00    0,000000000e+00
     1178000000    1,747054607e-02   -3,066802621e-01   -3,632003963e-01   -1,512413770e-01    0,000000000e+00    0,000000000e+00    0,000000000e+00    0,000000000e+00
     1192000000   -2,630544007e-01   -3,696555495e-01   -3,218467832e-01    6,011856347e-02    0,000000000e+00    0,000000000e+00    0,000000000e+00    0,000000000e+00
     1206000000   -5,187456608e-01   -1,578730643e-01   -1,653656363e-01    1,802392006e-01    0,000000000e+00    0,000000000e+00    0,000000000e+00    0,000000000e+00
     1220000000   -5,071211457e-01    1,704339534e-01    5,019803531e-03    1,592906415e-01    0,000000000e+00    0,000000000e+00    0,000000000e+00    0,000000000e+00
     1234000000   -2,890145183e-01    3,589845300e-01    7,284047455e-02    5,819384381e-02    0,000000000e+00    0,000000000e+00    0,000000000e+00    0,000000000e+00
     1248000000   -4,454664513e-02    3,606694937e-01    5,595456809e-02   -9,419910610e-03    0,000000000e+00    0,000000000e+00    0,000000000e+00    0,000000000e+00
     1262000000    1,254875958e-01    2,534353733e-01    1,959560812e-02   -2,172354050e-02    0,000000000e+00    0,000000000e+00    0,000000000e+00    0,000000000e+00
     1276000000    2,118781209e-01    9,855459630e-02    2,449589781e-03    2,327831462e-03    0,000000000e+00    0,000000000e+00    0,000000000e+00    0,000000000e+00
     1290000000    2,218603343e-01   -7,216455787e-02    2,142806724e-02    5,178641900e-02    0,000000000e+00    0,000000000e+00    0,000000000e+00    0,000000000e+00
     1304000000    1,546433717e-01   -2,430586815e-01    1,297791600e-01    7,357783616e-02    0,000000000e+00    0,000000000e+00    0,000000000e+00    0,000000000e+00
     1318000000    3,395941854e-02   -3,362036943e-01    1,277647167e-01   -1,663410962e-01    0,000000000e+00    0,000000000e+00    0,000000000e+00    0,000000000e+00
     1332000000   -1,277655214e-01   -4,417202473e-01   -4,074135423e-02   -5,359223858e-02    0,000000000e+00    0,000000000e+00    0,000000000e+00    0,000000000e+00
     1346000000   -3,928532004e-01   -4,039524198e-01    3,358218819e-02    7,068847120e-02    0,000000000e+00    0,000000000e+00    0,000000000e+00    0,000000000e+00
     1360000000   -6,052750945e-01   -1,814805716e-01    1,411288530e-01    7,897116989e-02    0,000000000e+00    0,000000000e+00    0,000000000e+00    0,000000000e+00
     1374000000   -6,416196823e-01    1,301054060e-01    2,026308626e-01    1,370381005e-02    0,000000000e+00    0,000000000e+00    0,000000000e+00    0,000000000e+00
     1388000000   -4,591947794e-01    3,667278886e-01    2,184420675e-01   -5,727352574e-02    0,000000000e+00    0,000000000e+00    0,000000000e+00    0,000000000e+00
     1402000000   -2,320346236e-01    4,522035718e-01    1,882070601e-01   -8,993898332e-02    0,000000000e+00    0,000000000e+00    0,000000000e+00    0,000000000e+00
     1416000000   -2,274060808e-02    4,123609662e-01    1,666267812e-01   -9,750395268e-02    0,000000000e+00    0,000000000e+00    0,000000000e+00    0,000000000e+00
     1430000000    1,305551529e-01    3,040885925e-01    1,683245897e-01   -1,363510936e-01    0,000000000e+00    0,000000000e+00    0,000000000e+00    0,000000000e+00
     1444000000    2,093682587e-01    1,467526108e-01    1,493552327e-01   -1,061942056e-01    0,000000000e+00    0,000000000e+00    0,000000000e+00    0,000000000e+00
     1458000000    2,326321751e-01   -1,970265992e-02    1,377897412e-01   -7,246480882e-02    0,000000000e+00    0,000000000e+00    0,000000000e+00    0,000000000e+00
     1472000000    1,928010881e-01   -2,065385729e-01    1,439330727e-01   -3,891711310e-02    0,000000000e+00    0,000000000e+00    0,000000000e+00    0,000000000e+00
     1486000000    6,520676613e-02   -3,715013564e-01    1,777503490e-01    3,156427667e-02    0,000000000e+00    0,000000000e+00    0,000000000e+00    0,000000000e+00
     1500000000   -1,749000996e-01   -4,881283343e-01    2,518579364e-01    1,155968532e-01    0,000000000e+00    0,000000000e+00    0,000000000e+00    0,000000000e+00
