! NanoVNA-App
! Date: 2025-09-25 15:30:13
! Start: 100MHz Stop: 1,5GHz Points: 101
! S-Parameter data: F S11 S21 S12 S22
# Hz S RI R 50
!     Frequency           S11_Real           S11_Imag           S21_Real           S21_Imag           S12_Real           S12_Imag           S22_Real           S22_Imag
      100000000   -2,886208706e-02   -4,179676529e-03    3,740798235e-01   -7,217594981e-01    0,000000000e+00    0,000000000e+00    0,000000000e+00    0,000000000e+00
      114000000   -1,652682386e-02    1,154301129e-02   -8,920947462e-02   -8,055056930e-01    0,000000000e+00    0,000000000e+00    0,000000000e+00    0,000000000e+00
      128000000    3,456449136e-03    1,049213484e-02   -5,147517920e-01   -6,206393838e-01    0,000000000e+00    0,000000000e+00    0,000000000e+00    0,000000000e+00
      142000000    1,452958770e-02   -2,917262027e-03   -7,672182918e-01   -2,367011309e-01    0,000000000e+00    0,000000000e+00    0,000000000e+00    0,000000000e+00
      156000000    1,586636901e-02   -1,431721728e-02   -7,697904110e-01    2,240930796e-01    0,000000000e+00    0,000000000e+00    0,000000000e+00    0,000000000e+00
      170000000    1,668829471e-02   -2,252532728e-02   -5,181220770e-01    6,047608256e-01    0,000000000e+00    0,000000000e+00    0,000000000e+00    0,000000000e+00
      184000000    2,093997039e-02   -3,710896522e-02   -1,015905291e-01    7,861693501e-01    0,000000000e+00    0,000000000e+00    0,000000000e+00    0,000000000e+00
      198000000    1,296421513e-02   -6,246599555e-02    3,434026837e-01    7,124585509e-01    0,000000000e+00    0,000000000e+00    0,000000000e+00    0,000000000e+00
      212000000   -1,860827208e-02   -8,135600388e-02    6,782931685e-01    4,101498425e-01    0,000000000e+00    0,000000000e+00    0,000000000e+00    0,000000000e+00
      226000000   -6,172848120e-02   -6,917443871e-02    7,958475351e-01   -3,060662001e-02    0,000000000e+00    0,000000000e+00    0,000000000e+00    0,000000000e+00
      240000000   -8,260053396e-02   -2,565199882e-02    6,462026238e-01   -4,668486416e-01    0,000000000e+00    0,000000000e+00    0,000000000e+00    0,000000000e+00
      254000000   -6,354316324e-02    1,717240550e-02    2,759771943e-01   -7,429859042e-01    0,000000000e+00    0,000000000e+00    0,000000000e+00    0,000000000e+00
      268000000   -2,392571047e-02    2,897726372e-02   -1,782318354e-01   -7,648264766e-01    0,000000000e+00    0,000000000e+00    0,000000000e+00    0,000000000e+00
      282000000    4,126112442e-03    1,188561693e-02   -5,618207455e-01   -5,357125998e-01    0,000000000e+00    0,000000000e+00    0,000000000e+00    0,000000000e+00
      296000000    9,636477567e-03   -7,817528211e-03   -7,597087622e-01   -1,396465153e-01    0,000000000e+00    0,000000000e+00    0,000000000e+00    0,000000000e+00
      310000000    1,123416051e-02   -1,608434319e-02   -7,117025256e-01    2,982168198e-01    0,000000000e+00    0,000000000e+00    0,000000000e+00    0,000000000e+00
      324000000    1,960357651e-02   -2,632171474e-02   -4,273701906e-01    6,376333237e-01    0,000000000e+00    0,000000000e+00    0,000000000e+00    0,000000000e+00
      338000000    2,541647665e-02   -5,230693519e-02   -9,111490101e-03    7,613046765e-01    0,000000000e+00    0,000000000e+00    0,000000000e+00    0,000000000e+00
      352000000    7,345722057e-03   -8,495754749e-02    4,063938558e-01    6,389396787e-01    0,000000000e+00    0,000000000e+00    0,000000000e+00    0,000000000e+00
      366000000   -3,479512781e-02   -9,535377473e-02    6,907721162e-01    3,115253150e-01    0,000000000e+00    0,000000000e+00    0,000000000e+00    0,000000000e+00
      380000000   -7,058384269e-02   -7,108135521e-02    7,483898401e-01   -1,260033846e-01    0,000000000e+00    0,000000000e+00    0,000000000e+00    0,000000000e+00
      394000000   -7,275571674e-02   -3,266302124e-02    5,466349721e-01   -5,211782455e-01    0,000000000e+00    0,000000000e+00    0,000000000e+00    0,000000000e+00
      408000000   -4,661684483e-02   -1,616599225e-02    1,605052501e-01   -7,312320471e-01    0,000000000e+00    0,000000000e+00    0,000000000e+00    0,000000000e+00
      422000000   -2,839244902e-02   -3,180521354e-02   -2,677115798e-01   -6,948684454e-01    0,000000000e+00    0,000000000e+00    0,000000000e+00    0,000000000e+00
      436000000   -4,082647711e-02   -5,161419883e-02   -6,042829752e-01   -4,323582053e-01    0,000000000e+00    0,000000000e+00    0,000000000e+00    0,000000000e+00
      450000000   -6,729234010e-02   -4,354765639e-02   -7,405796051e-01   -2,139855176e-02    0,000000000e+00    0,000000000e+00    0,000000000e+00    0,000000000e+00
      464000000   -7,360160351e-02   -1,142530330e-02   -6,184263825e-01    3,972259164e-01    0,000000000e+00    0,000000000e+00    0,000000000e+00    0,000000000e+00
      478000000   -4,754592106e-02    1,191545557e-02   -2,821185589e-01    6,676050425e-01    0,000000000e+00    0,000000000e+00    0,000000000e+00    0,000000000e+00
      492000000   -1,567338407e-02    6,159929559e-03    1,370293200e-01    7,020812035e-01    0,000000000e+00    0,000000000e+00    0,000000000e+00    0,000000000e+00
      506000000   -2,647066489e-03   -1,556885708e-02    4,977339506e-01    5,026388764e-01    0,000000000e+00    0,000000000e+00    0,000000000e+00    0,000000000e+00
      520000000   -5,077096634e-03   -3,139126673e-02    6,867592335e-01    1,415935010e-01    0,000000000e+00    0,000000000e+00    0,000000000e+00    0,000000000e+00
      534000000   -3,984431271e-03   -3,833849728e-02    6,437182426e-01   -2,625317276e-01    0,000000000e+00    0,000000000e+00    0,000000000e+00    0,000000000e+00
      548000000    5,885195918e-03   -5,351983756e-02    3,809853792e-01   -5,669285059e-01    0,000000000e+00    0,000000000e+00    0,000000000e+00    0,000000000e+00
      562000000    3,115939442e-03   -8,942539245e-02    1,999904169e-03   -6,720939279e-01    0,000000000e+00    0,000000000e+00    0,000000000e+00    0,000000000e+00
      576000000   -3,438500687e-02   -1,241935715e-01   -3,695689738e-01   -5,572653413e-01    0,000000000e+00    0,000000000e+00    0,000000000e+00    0,000000000e+00
      590000000   -9,639197588e-02   -1,225380599e-01   -6,193388700e-01   -2,643242180e-01    0,000000000e+00    0,000000000e+00    0,000000000e+00    0,000000000e+00
      604000000   -1,397125572e-01   -7,200016826e-02   -6,654351354e-01    1,375450790e-01    0,000000000e+00    0,000000000e+00    0,000000000e+00    0,000000000e+00
      618000000   -1,294480115e-01   -9,536418132e-03   -4,642862678e-01    4,949697852e-01    0,000000000e+00    0,000000000e+00    0,000000000e+00    0,000000000e+00
      632000000   -8,347491175e-02    1,631754078e-02   -9,814568609e-02    6,630874276e-01    0,000000000e+00    0,000000000e+00    0,000000000e+00    0,000000000e+00
      646000000   -5,055341870e-02    7,128764410e-04    2,875376046e-01    5,947902203e-01    0,000000000e+00    0,000000000e+00    0,000000000e+00    0,000000000e+00
      660000000   -5,311066285e-02   -2,107281797e-02    5,677594543e-01    3,232463002e-01    0,000000000e+00    0,000000000e+00    0,000000000e+00    0,000000000e+00
      674000000   -7,013780624e-02   -1,700057089e-02    6,428446770e-01   -6,549847126e-02    0,000000000e+00    0,000000000e+00    0,000000000e+00    0,000000000e+00
      688000000   -6,899404526e-02    9,231377393e-03    4,716923833e-01   -4,282943606e-01    0,000000000e+00    0,000000000e+00    0,000000000e+00    0,000000000e+00
      702000000   -3,817779198e-02    2,616643347e-02    1,166589856e-01   -6,066390276e-01    0,000000000e+00    0,000000000e+00    0,000000000e+00    0,000000000e+00
      716000000    1,928467071e-03    1,724159904e-02   -2,640152872e-01   -5,469908714e-01    0,000000000e+00    0,000000000e+00    0,000000000e+00    0,000000000e+00
      730000000    3,691815957e-02   -1,150200609e-02   -5,287432075e-01   -2,688468993e-01    0,000000000e+00    0,000000000e+00    0,000000000e+00    0,000000000e+00
      744000000    6,581331044e-02   -6,271512806e-02   -5,642969608e-01    1,064123288e-01    0,000000000e+00    0,000000000e+00    0,000000000e+00    0,000000000e+00
      758000000    6,709431857e-02   -1,523566544e-01   -3,636823893e-01    4,102816582e-01    0,000000000e+00    0,000000000e+00    0,000000000e+00    0,000000000e+00
      772000000   -1,291797496e-02   -2,630030215e-01   -3,347948939e-02    5,154446959e-01    0,000000000e+00    0,000000000e+00    0,000000000e+00    0,000000000e+00
      786000000   -2,065644711e-01   -3,037089109e-01    2,739703655e-01    3,953504264e-01    0,000000000e+00    0,000000000e+00    0,000000000e+00    0,000000000e+00
      800000000   -4,261643291e-01   -1,298914552e-01    4,175455570e-01    9,852123260e-02    0,000000000e+00    0,000000000e+00    0,000000000e+00    0,000000000e+00
      814000000   -3,902119398e-01    2,208788246e-01    2,823556960e-01   -1,732627898e-01    0,000000000e+00    0,000000000e+00    0,000000000e+00    0,000000000e+00
      828000000   -4,981585220e-02    3,687362075e-01    5,489108711e-02   -1,884589940e-01    0,000000000e+00    0,000000000e+00    0,000000000e+00    0,000000000e+00
      842000000    2,347012907e-01    1,855292469e-01   -1,734824479e-02   -7,026868314e-02    0,000000000e+00    0,000000000e+00    0,000000000e+00    0,000000000e+00
      856000000    2,804434001e-01   -1,247330680e-01    4,578478634e-02   -1,252881624e-02    0,000000000e+00    0,000000000e+00    0,000000000e+00    0,000000000e+00
      870000000    7,473757118e-02   -3,762798011e-01    1,138569117e-01   -9,128971398e-02    0,000000000e+00    0,000000000e+00    0,000000000e+00    0,000000000e+00
      884000000   -2,965309620e-01   -3,612661660e-01    2,850421891e-02   -2,465401590e-01    0,000000000e+00    0,000000000e+00    0,000000000e+00    0,000000000e+00
      898000000   -4,716573954e-01    1,024628710e-02   -2,219441831e-01   -2,273970842e-01    0,000000000e+00    0,000000000e+00    0,000000000e+00    0,000000000e+00
      912000000   -2,254491001e-01    2,946957052e-01   -3,361384571e-01    6,625922024e-02    0,000000000e+00    0,000000000e+00    0,000000000e+00    0,000000000e+00
      926000000    6,639321893e-02    2,617957890e-01   -2,172373682e-01    2,646244764e-01    0,000000000e+00    0,000000000e+00    0,000000000e+00    0,000000000e+00
      940000000    2,158186436e-01    7,796905190e-02   -3,562728316e-02    3,276476562e-01    0,000000000e+00    0,000000000e+00    0,000000000e+00    0,000000000e+00
      954000000    2,239773422e-01   -1,279265583e-01    1,325369030e-01    3,077129722e-01    0,000000000e+00    0,000000000e+00    0,000000000e+00    0,000000000e+00
      968000000    1,149681732e-01   -3,023475707e-01    2,713147700e-01    2,178683728e-01    0,000000000e+00    0,000000000e+00    0,000000000e+00    0,000000000e+00
      982000000   -8,077117056e-02   -3,900021017e-01    3,657816052e-01    6,380213797e-02    0,000000000e+00    0,000000000e+00    0,000000000e+00    0,000000000e+00
      996000000   -3,151147962e-01   -3,304245174e-01    3,688599765e-01   -1,457366943e-01    0,000000000e+00    0,000000000e+00    0,000000000e+00    0,000000000e+00
     1010000000   -4,597670138e-01   -1,087336987e-01    2,223849595e-01   -3,416304588e-01    0,000000000e+00    0,000000000e+00    0,000000000e+00    0,000000000e+00
     1024000000   -4,117912948e-01    1,528926790e-01   -3,493540362e-02   -3,927952945e-01    0,000000000e+00    0,000000000e+00    0,000000000e+00    0,000000000e+00
     1038000000   -2,153252512e-01    2,885620892e-01   -2,465467453e-01   -2,609776855e-01    0,000000000e+00    0,000000000e+00    0,000000000e+00    0,000000000e+00
     1052000000   -5,544505548e-03    2,769568563e-01   -3,196783960e-01   -4,528871924e-02    0,000000000e+00    0,000000000e+00    0,000000000e+00    0,000000000e+00
     1066000000    1,342139691e-01    1,613730043e-01   -2,595052719e-01    1,430265754e-01    0,000000000e+00    0,000000000e+00    0,000000000e+00    0,000000000e+00
     1080000000    1,939927787e-01   -3,567440202e-03   -1,178584695e-01    2,623356283e-01    0,000000000e+00    0,000000000e+00    0,000000000e+00    0,000000000e+00
     1094000000    1,513329446e-01   -1,756971031e-01    6,347046047e-02    3,031960726e-01    0,000000000e+00    0,000000000e+00    0,000000000e+00    0,000000000e+00
     1108000000    1,186888330e-04   -3,072738349e-01    2,765885592e-01    2,442382127e-01    0,000000000e+00    0,000000000e+00    0,000000000e+00    0,000000000e+00
     1122000000   -2,537945509e-01   -2,631519139e-01    4,744617045e-01    1,344604697e-02    0,000000000e+00    0,000000000e+00    0,000000000e+00    0,000000000e+00
     1136000000   -3,150497973e-01    3,313396126e-02    3,999543786e-01   -3,950607181e-01    0,000000000e+00    0,000000000e+00    0,000000000e+00    0,000000000e+00
     1150000000   -4,231439158e-02    1,494816840e-01    8,368350565e-03   -5,415743589e-01    0,000000000e+00    0,000000000e+00    0,000000000e+00    0,000000000e+00
     1164000000    1,235791668e-01   -6,481309235e-02   -2,770672739e-01   -3,795849979e-01    0,000000000e+00    0,000000000e+00    0,000000000e+00    0,000000000e+00
     1178000000    1,523368713e-02   -3,052539229e-01   -3,691843450e-01   -1,503801197e-01    0,000000000e+00    0,000000000e+00    0,000000000e+00    0,000000000e+00
     1192000000   -2,644516826e-01   -3,681930602e-01   -3,200924098e-01    5,666467175e-02    0,000000000e+00    0,000000000e+00    0,000000000e+00    0,000000000e+00
     1206000000   -5,175544620e-01   -1,631964147e-01   -1,644077748e-01    1,804329455e-01    0,000000000e+00    0,000000000e+00    0,000000000e+00    0,000000000e+00
     1220000000   -5,101805329e-01    1,757870466e-01   -2,384595136e-04    1,592988223e-01    0,000000000e+00    0,000000000e+00    0,000000000e+00    0,000000000e+00
     1234000000   -2,817586660e-01    3,659788966e-01    7,149825990e-02    6,590900570e-02    0,000000000e+00    0,000000000e+00    0,000000000e+00    0,000000000e+00
     1248000000   -4,678590223e-02    3,696835041e-01    5,529781431e-02   -4,194055218e-03    0,000000000e+00    0,000000000e+00    0,000000000e+00    0,000000000e+00
     1262000000    1,199821085e-01    2,551990151e-01    1,518308744e-02   -1,905663870e-02    0,000000000e+00    0,000000000e+00    0,000000000e+00    0,000000000e+00
     1276000000    2,093797177e-01    9,641590714e-02   -3,575320123e-03    2,323934110e-03    0,000000000e+00    0,000000000e+00    0,000000000e+00    0,000000000e+00
     1290000000    2,220219523e-01   -6,986151636e-02    1,788385399e-02    5,592016503e-02    0,000000000e+00    0,000000000e+00    0,000000000e+00    0,000000000e+00
     1304000000    1,573231220e-01   -2,400427908e-01    1,298386902e-01    6,431878358e-02    0,000000000e+00    0,000000000e+00    0,000000000e+00    0,000000000e+00
     1318000000    3,599700332e-02   -3,358134031e-01    1,288559139e-01   -1,678935587e-01    0,000000000e+00    0,000000000e+00    0,000000000e+00    0,000000000e+00
     1332000000   -1,312828660e-01   -4,398298264e-01   -5,175835267e-02   -4,590797052e-02    0,000000000e+00    0,000000000e+00    0,000000000e+00    0,000000000e+00
     1346000000   -3,920176029e-01   -4,040149450e-01    2,877118066e-02    7,274225354e-02    0,000000000e+00    0,000000000e+00    0,000000000e+00    0,000000000e+00
     1360000000   -6,045134068e-01   -1,923687905e-01    1,390227973e-01    7,146027684e-02    0,000000000e+00    0,000000000e+00    0,000000000e+00    0,000000000e+00
     1374000000   -6,245406270e-01    1,219035462e-01    2,149874568e-01    4,221660551e-03    0,000000000e+00    0,000000000e+00    0,000000000e+00    0,000000000e+00
     1388000000   -4,633958340e-01    3,746363521e-01    2,175704390e-01   -5,818161741e-02    0,000000000e+00    0,000000000e+00    0,000000000e+00    0,000000000e+00
     1402000000   -2,354352027e-01    4,542336464e-01    1,905980855e-01   -8,744935691e-02    0,000000000e+00    0,000000000e+00    0,000000000e+00    0,000000000e+00
     1416000000   -2,272930183e-02    4,109067917e-01    1,828547269e-01   -1,047525555e-01    0,000000000e+00    0,000000000e+00    0,000000000e+00    0,000000000e+00
     1430000000    1,265385300e-01    3,004213572e-01    1,963773817e-01   -1,181042269e-01    0,000000000e+00    0,000000000e+00    0,000000000e+00    0,000000000e+00
     1444000000    2,026091218e-01    1,520272791e-01    1,492738724e-01   -9,782756865e-02    0,000000000e+00    0,000000000e+00    0,000000000e+00    0,000000000e+00
     1458000000    2,341859937e-01   -2,205386013e-02    1,455264241e-01   -8,016954362e-02    0,000000000e+00    0,000000000e+00    0,000000000e+00    0,000000000e+00
     1472000000    1,950522512e-01   -2,007997036e-01    1,487759948e-01   -2,655232139e-02    0,000000000e+00    0,000000000e+00    0,000000000e+00    0,000000000e+00
     1486000000    6,349731982e-02   -3,784859776e-01    1,622838527e-01    2,654902078e-02    0,000000000e+00    0,000000000e+00    0,000000000e+00    0,000000000e+00
     1500000000   -1,669055372e-01   -4,889619648e-01    2,573491037e-01    9,017764777e-02    0,000000000e+00    0,000000000e+00    0,000000000e+00    0,000000000e+00
