! NanoVNA-App
! Date: 2025-09-25 15:37:43
! Start: 100MHz Stop: 1,5GHz Points: 101
! S-Parameter data: F S11 S21 S12 S22
# Hz S RI R 50
!     Frequency           S11_Real           S11_Imag           S21_Real           S21_Imag           S12_Real           S12_Imag           S22_Real           S22_Imag
      100000000   -2,883886918e-02   -4,161807708e-03    3,741248846e-01   -7,217701674e-01    0,000000000e+00    0,000000000e+00    0,000000000e+00    0,000000000e+00
      114000000   -1,647976972e-02    1,150916796e-02   -8,912131935e-02   -8,053222895e-01    0,000000000e+00    0,000000000e+00    0,000000000e+00    0,000000000e+00
      128000000    3,516654251e-03    1,047322620e-02   -5,145432353e-01   -6,203772426e-01    0,000000000e+00    0,000000000e+00    0,000000000e+00    0,000000000e+00
      142000000    1,458760072e-02   -2,961386926e-03   -7,670415044e-01   -2,365209162e-01    0,000000000e+00    0,000000000e+00    0,000000000e+00    0,000000000e+00
      156000000    1,430083252e-02   -1,480387617e-02   -7,637519240e-01    2,188423723e-01    0,000000000e+00    0,000000000e+00    0,000000000e+00    0,000000000e+00
      170000000    1,673580334e-02   -2,254978567e-02   -5,181274414e-01    6,047022343e-01    0,000000000e+00    0,000000000e+00    0,000000000e+00    0,000000000e+00
      184000000    2,107562125e-02   -3,707753867e-02   -1,015370116e-01    7,859624624e-01    0,000000000e+00    0,000000000e+00    0,000000000e+00    0,000000000e+00
      198000000    1,305218041e-02   -6,246577948e-02    3,433807492e-01    7,125437260e-01    0,000000000e+00    0,000000000e+00    0,000000000e+00    0,000000000e+00
      212000000   -1,860382967e-02   -8,129205555e-02    6,781342030e-01    4,098953009e-01    0,000000000e+00    0,000000000e+00    0,000000000e+00    0,000000000e+00
      226000000   -6,167524680e-02   -6,926535815e-02    7,958346605e-01   -3,057073615e-02    0,000000000e+00    0,000000000e+00    0,000000000e+00    0,000000000e+00
      240000000   -8,257006109e-02   -2,568388917e-02    6,459330320e-01   -4,668428302e-01    0,000000000e+00    0,000000000e+00    0,000000000e+00    0,000000000e+00
      254000000   -6,346224993e-02    1,721517555e-02    2,758484483e-01   -7,431241870e-01    0,000000000e+00    0,000000000e+00    0,000000000e+00    0,000000000e+00
      268000000   -2,384051681e-02    2,885842137e-02   -1,780824810e-01   -7,644059658e-01    0,000000000e+00    0,000000000e+00    0,000000000e+00    0,000000000e+00
      282000000    4,226365127e-03    1,192336809e-02   -5,618198514e-01   -5,358122587e-01    0,000000000e+00    0,000000000e+00    0,000000000e+00    0,000000000e+00
      296000000    9,779813699e-03   -7,862096652e-03   -7,598915696e-01   -1,395505518e-01    0,000000000e+00    0,000000000e+00    0,000000000e+00    0,000000000e+00
      310000000    1,115273312e-02   -1,634343527e-02   -7,119745016e-01    2,975590825e-01    0,000000000e+00    0,000000000e+00    0,000000000e+00    0,000000000e+00
      324000000    1,958812773e-02   -2,659340389e-02   -4,279050529e-01    6,379929781e-01    0,000000000e+00    0,000000000e+00    0,000000000e+00    0,000000000e+00
      338000000    2,556709386e-02   -5,218362063e-02   -7,214134559e-03    7,640190721e-01    0,000000000e+00    0,000000000e+00    0,000000000e+00    0,000000000e+00
      352000000    7,512803189e-03   -8,474401385e-02    4,066955447e-01    6,393404007e-01    0,000000000e+00    0,000000000e+00    0,000000000e+00    0,000000000e+00
      366000000   -3,462454677e-02   -9,582062066e-02    6,909269691e-01    3,107815683e-01    0,000000000e+00    0,000000000e+00    0,000000000e+00    0,000000000e+00
      380000000   -7,088217884e-02   -7,144891471e-02    7,476101518e-01   -1,261486709e-01    0,000000000e+00    0,000000000e+00    0,000000000e+00    0,000000000e+00
      394000000   -7,268078625e-02   -3,228589892e-02    5,464228988e-01   -5,218241215e-01    0,000000000e+00    0,000000000e+00    0,000000000e+00    0,000000000e+00
      408000000   -4,656185210e-02   -1,603266038e-02    1,604015827e-01   -7,314760089e-01    0,000000000e+00    0,000000000e+00    0,000000000e+00    0,000000000e+00
      422000000   -2,826397866e-02   -3,200728074e-02   -2,677969933e-01   -6,949669123e-01    0,000000000e+00    0,000000000e+00    0,000000000e+00    0,000000000e+00
      436000000   -4,064023867e-02   -5,180772021e-02   -6,039227247e-01   -4,318831861e-01    0,000000000e+00    0,000000000e+00    0,000000000e+00    0,000000000e+00
      450000000   -6,738133729e-02   -4,395769909e-02   -7,405371666e-01   -2,165596187e-02    0,000000000e+00    0,000000000e+00    0,000000000e+00    0,000000000e+00
      464000000   -7,358607650e-02   -1,180407964e-02   -6,189303994e-01    3,976937234e-01    0,000000000e+00    0,000000000e+00    0,000000000e+00    0,000000000e+00
      478000000   -4,775389284e-02    1,145206857e-02   -2,826782763e-01    6,675402522e-01    0,000000000e+00    0,000000000e+00    0,000000000e+00    0,000000000e+00
      492000000   -1,575387269e-02    6,141731516e-03    1,380021274e-01    7,022512555e-01    0,000000000e+00    0,000000000e+00    0,000000000e+00    0,000000000e+00
      506000000   -2,781804418e-03   -1,581157371e-02    4,978635907e-01    5,024547577e-01    0,000000000e+00    0,000000000e+00    0,000000000e+00    0,000000000e+00
      520000000   -4,828546662e-03   -3,167567775e-02    6,878245473e-01    1,421433240e-01    0,000000000e+00    0,000000000e+00    0,000000000e+00    0,000000000e+00
      534000000   -4,090327770e-03   -3,802238032e-02    6,436222196e-01   -2,624650896e-01    0,000000000e+00    0,000000000e+00    0,000000000e+00    0,000000000e+00
      548000000    6,241960451e-03   -5,374523997e-02    3,816879094e-01   -5,669846535e-01    0,000000000e+00    0,000000000e+00    0,000000000e+00    0,000000000e+00
      562000000    2,829577075e-03   -8,976733685e-02    1,807967201e-03   -6,719872355e-01    0,000000000e+00    0,000000000e+00    0,000000000e+00    0,000000000e+00
      576000000   -3,443362936e-02   -1,241350845e-01   -3,693236411e-01   -5,576363802e-01    0,000000000e+00    0,000000000e+00    0,000000000e+00    0,000000000e+00
      590000000   -9,620123357e-02   -1,225402802e-01   -6,210725904e-01   -2,619007826e-01    0,000000000e+00    0,000000000e+00    0,000000000e+00    0,000000000e+00
      604000000   -1,393172443e-01   -7,176518440e-02   -6,650297642e-01    1,374735385e-01    0,000000000e+00    0,000000000e+00    0,000000000e+00    0,000000000e+00
      618000000   -1,291908324e-01   -9,041171521e-03   -4,643912315e-01    4,949174821e-01    0,000000000e+00    0,000000000e+00    0,000000000e+00    0,000000000e+00
      632000000   -8,366469294e-02    1,718099043e-02   -9,908873588e-02    6,639786363e-01    0,000000000e+00    0,000000000e+00    0,000000000e+00    0,000000000e+00
      646000000   -5,084123090e-02   -1,648025500e-04    2,870879769e-01    5,956375599e-01    0,000000000e+00    0,000000000e+00    0,000000000e+00    0,000000000e+00
      660000000   -5,353501439e-02   -2,107443847e-02    5,678812861e-01    3,229328096e-01    0,000000000e+00    0,000000000e+00    0,000000000e+00    0,000000000e+00
      674000000   -6,946535408e-02   -1,792591996e-02    6,427798867e-01   -6,519065797e-02    0,000000000e+00    0,000000000e+00    0,000000000e+00    0,000000000e+00
      688000000   -6,796375662e-02    9,118501097e-03    4,712058604e-01   -4,286646545e-01    0,000000000e+00    0,000000000e+00    0,000000000e+00    0,000000000e+00
      702000000   -3,669529036e-02    2,683912404e-02    1,175493896e-01   -6,083968282e-01    0,000000000e+00    0,000000000e+00    0,000000000e+00    0,000000000e+00
      716000000    2,121360740e-03    1,842749678e-02   -2,648151815e-01   -5,466169119e-01    0,000000000e+00    0,000000000e+00    0,000000000e+00    0,000000000e+00
      730000000    3,644870222e-02   -1,112635806e-02   -5,283178687e-01   -2,690857947e-01    0,000000000e+00    0,000000000e+00    0,000000000e+00    0,000000000e+00
      744000000    6,515867263e-02   -6,303186715e-02   -5,637761354e-01    1,061094403e-01    0,000000000e+00    0,000000000e+00    0,000000000e+00    0,000000000e+00
      758000000    6,704903394e-02   -1,528677195e-01   -3,644571006e-01    4,109220207e-01    0,000000000e+00    0,000000000e+00    0,000000000e+00    0,000000000e+00
      772000000   -1,237819809e-02   -2,625380754e-01   -3,520407900e-02    5,155019760e-01    0,000000000e+00    0,000000000e+00    0,000000000e+00    0,000000000e+00
      786000000   -2,066362947e-01   -3,032633960e-01    2,746990025e-01    3,957229853e-01    0,000000000e+00    0,000000000e+00    0,000000000e+00    0,000000000e+00
      800000000   -4,252337515e-01   -1,312669218e-01    4,172168076e-01    9,925128520e-02    0,000000000e+00    0,000000000e+00    0,000000000e+00    0,000000000e+00
      814000000   -3,890925646e-01    2,209301442e-01    2,827391326e-01   -1,733107120e-01    0,000000000e+00    0,000000000e+00    0,000000000e+00    0,000000000e+00
      828000000   -4,924163967e-02    3,679353297e-01    5,561820418e-02   -1,890259981e-01    0,000000000e+00    0,000000000e+00    0,000000000e+00    0,000000000e+00
      842000000    2,352488488e-01    1,859193146e-01   -1,737479493e-02   -7,120176405e-02    0,000000000e+00    0,000000000e+00    0,000000000e+00    0,000000000e+00
      856000000    2,807845473e-01   -1,244596019e-01    4,538062215e-02   -1,293895021e-02    0,000000000e+00    0,000000000e+00    0,000000000e+00    0,000000000e+00
      870000000    7,562143356e-02   -3,759893477e-01    1,134988666e-01   -9,109865129e-02    0,000000000e+00    0,000000000e+00    0,000000000e+00    0,000000000e+00
      884000000   -2,957408130e-01   -3,618429005e-01    2,861472778e-02   -2,453841418e-01    0,000000000e+00    0,000000000e+00    0,000000000e+00    0,000000000e+00
      898000000   -4,729618728e-01    8,531901054e-03   -2,219032049e-01   -2,279136330e-01    0,000000000e+00    0,000000000e+00    0,000000000e+00    0,000000000e+00
      912000000   -2,263755947e-01    2,940615714e-01   -3,472391665e-01    6,010773778e-02    0,000000000e+00    0,000000000e+00    0,000000000e+00    0,000000000e+00
      926000000    6,553888321e-02    2,646609247e-01   -2,184641957e-01    2,664750218e-01    0,000000000e+00    0,000000000e+00    0,000000000e+00    0,000000000e+00
      940000000    2,145875096e-01    7,977959514e-02   -3,740712255e-02    3,292583823e-01    0,000000000e+00    0,000000000e+00    0,000000000e+00    0,000000000e+00
      954000000    2,238917202e-01   -1,297233403e-01    1,322191209e-01    3,070972562e-01    0,000000000e+00    0,000000000e+00    0,000000000e+00    0,000000000e+00
      968000000    1,133146062e-01   -3,000854552e-01    2,719747722e-01    2,193831950e-01    0,000000000e+00    0,000000000e+00    0,000000000e+00    0,000000000e+00
      982000000   -8,272852749e-02   -3,901601732e-01    3,663028479e-01    6,420321763e-02    0,000000000e+00    0,000000000e+00    0,000000000e+00    0,000000000e+00
      996000000   -3,189782500e-01   -3,277310133e-01    3,692617416e-01   -1,446064860e-01    0,000000000e+00    0,000000000e+00    0,000000000e+00    0,000000000e+00
     1010000000   -4,596762359e-01   -1,118673310e-01    2,231091559e-01   -3,404661119e-01    0,000000000e+00    0,000000000e+00    0,000000000e+00    0,000000000e+00
     1024000000   -4,175761938e-01    1,503115296e-01   -3,279690072e-02   -3,933579922e-01    0,000000000e+00    0,000000000e+00    0,000000000e+00    0,000000000e+00
     1038000000   -2,200629115e-01    2,899075747e-01   -2,497654408e-01   -2,618117929e-01    0,000000000e+00    0,000000000e+00    0,000000000e+00    0,000000000e+00
     1052000000   -5,839696154e-03    2,814813256e-01   -3,159739077e-01   -4,523450881e-02    0,000000000e+00    0,000000000e+00    0,000000000e+00    0,000000000e+00
     1066000000    1,357284188e-01    1,651462764e-01   -2,578705251e-01    1,424637437e-01    0,000000000e+00    0,000000000e+00    0,000000000e+00    0,000000000e+00
     1080000000    1,909120381e-01   -5,798005150e-04   -1,184090897e-01    2,634983063e-01    0,000000000e+00    0,000000000e+00    0,000000000e+00    0,000000000e+00
     1094000000    1,526021957e-01   -1,768550724e-01    6,105335429e-02    3,049508035e-01    0,000000000e+00    0,000000000e+00    0,000000000e+00    0,000000000e+00
     1108000000   -1,520673861e-03   -3,087801039e-01    2,771156728e-01    2,479559481e-01    0,000000000e+00    0,000000000e+00    0,000000000e+00    0,000000000e+00
     1122000000   -2,448473722e-01   -2,638193667e-01    4,722247422e-01    1,387541927e-02    0,000000000e+00    0,000000000e+00    0,000000000e+00    0,000000000e+00
     1136000000   -3,211581409e-01    2,858236432e-02    3,970662355e-01   -3,927368522e-01    0,000000000e+00    0,000000000e+00    0,000000000e+00    0,000000000e+00
     1150000000   -4,286414385e-02    1,536830664e-01    5,281344522e-03   -5,418153405e-01    0,000000000e+00    0,000000000e+00    0,000000000e+00    0,000000000e+00
     1164000000    1,265681684e-01   -6,355457008e-02   -2,746688426e-01   -3,790284395e-01    0,000000000e+00    0,000000000e+00    0,000000000e+00    0,000000000e+00
     1178000000    1,791287214e-02   -3,053440154e-01   -3,697707057e-01   -1,520067900e-01    0,000000000e+00    0,000000000e+00    0,000000000e+00    0,000000000e+00
     1192000000   -2,678168416e-01   -3,679206073e-01   -3,204950690e-01    5,789035186e-02    0,000000000e+00    0,000000000e+00    0,000000000e+00    0,000000000e+00
     1206000000   -5,172800422e-01   -1,607950777e-01   -1,674815714e-01    1,769380420e-01    0,000000000e+00    0,000000000e+00    0,000000000e+00    0,000000000e+00
     1220000000   -5,067427754e-01    1,774997860e-01    6,724860985e-03    1,633317322e-01    0,000000000e+00    0,000000000e+00    0,000000000e+00    0,000000000e+00
     1234000000   -2,883036733e-01    3,602940142e-01    7,047618926e-02    6,296687573e-02    0,000000000e+00    0,000000000e+00    0,000000000e+00    0,000000000e+00
     1248000000   -4,833564535e-02    3,700525165e-01    5,224202573e-02   -5,493613891e-03    0,000000000e+00    0,000000000e+00    0,000000000e+00    0,000000000e+00
     1262000000    1,231140196e-01    2,568764091e-01    2,263718657e-02   -1,896371879e-02    0,000000000e+00    0,000000000e+00    0,000000000e+00    0,000000000e+00
     1276000000    2,124927789e-01    1,034654900e-01   -3,543914296e-03    3,907354549e-03    0,000000000e+00    0,000000000e+00    0,000000000e+00    0,000000000e+00
     1290000000    2,248849869e-01   -7,755547017e-02    2,093223669e-02    5,128305405e-02    0,000000000e+00    0,000000000e+00    0,000000000e+00    0,000000000e+00
     1304000000    1,558372825e-01   -2,398844212e-01    1,358982474e-01    6,826936454e-02    0,000000000e+00    0,000000000e+00    0,000000000e+00    0,000000000e+00
     1318000000    3,683738783e-02   -3,397499919e-01    1,360605210e-01   -1,654601395e-01    0,000000000e+00    0,000000000e+00    0,000000000e+00    0,000000000e+00
     1332000000   -1,315743625e-01   -4,404392242e-01   -4,866812006e-02   -4,914055020e-02    0,000000000e+00    0,000000000e+00    0,000000000e+00    0,000000000e+00
     1346000000   -3,960065544e-01   -4,143604934e-01    2,623795718e-02    6,377562135e-02    0,000000000e+00    0,000000000e+00    0,000000000e+00    0,000000000e+00
     1360000000   -6,082988381e-01   -1,903309822e-01    1,431381255e-01    6,792753935e-02    0,000000000e+00    0,000000000e+00    0,000000000e+00    0,000000000e+00
     1374000000   -6,389728785e-01    1,376688629e-01    2,072653025e-01    7,142095361e-03    0,000000000e+00    0,000000000e+00    0,000000000e+00    0,000000000e+00
     1388000000   -4,629106522e-01    3,638186753e-01    2,248312682e-01   -6,028824672e-02    0,000000000e+00    0,000000000e+00    0,000000000e+00    0,000000000e+00
     1402000000   -2,277743518e-01    4,571472704e-01    1,884378642e-01   -9,094356745e-02    0,000000000e+00    0,000000000e+00    0,000000000e+00    0,000000000e+00
     1416000000   -2,637514286e-02    4,142196476e-01    1,715413034e-01   -1,006790027e-01    0,000000000e+00    0,000000000e+00    0,000000000e+00    0,000000000e+00
     1430000000    1,193579361e-01    3,056019247e-01    1,933740228e-01   -1,043031812e-01    0,000000000e+00    0,000000000e+00    0,000000000e+00    0,000000000e+00
     1444000000    2,074695379e-01    1,493590176e-01    1,521774083e-01   -9,945079684e-02    0,000000000e+00    0,000000000e+00    0,000000000e+00    0,000000000e+00
     1458000000    2,354030162e-01   -2,032658830e-02    1,484033465e-01   -6,920721382e-02    0,000000000e+00    0,000000000e+00    0,000000000e+00    0,000000000e+00
     1472000000    1,931540519e-01   -2,004815787e-01    1,406055987e-01   -3,270836920e-02    0,000000000e+00    0,000000000e+00    0,000000000e+00    0,000000000e+00
     1486000000    6,066767499e-02   -3,734906018e-01    1,808203906e-01    5,057170987e-02    0,000000000e+00    0,000000000e+00    0,000000000e+00    0,000000000e+00
     1500000000   -1,605731249e-01   -5,004941821e-01    2,559750676e-01    8,619990200e-02    0,000000000e+00    0,000000000e+00    0,000000000e+00    0,000000000e+00
