! NanoVNA-App
! Date: 2025-09-25 15:32:56
! Start: 100MHz Stop: 1,5GHz Points: 101
! S-Parameter data: F S11 S21 S12 S22
# Hz S RI R 50
!     Frequency           S11_Real           S11_Imag           S21_Real           S21_Imag           S12_Real           S12_Imag           S22_Real           S22_Imag
      100000000   -2,887226269e-02   -4,171813373e-03    3,741447926e-01   -7,218105793e-01    0,000000000e+00    0,000000000e+00    0,000000000e+00    0,000000000e+00
      114000000   -1,650264487e-02    1,151961274e-02   -8,895505965e-02   -8,055773377e-01    0,000000000e+00    0,000000000e+00    0,000000000e+00    0,000000000e+00
      128000000    3,487364622e-03    1,055033505e-02   -5,145974159e-01   -6,203657389e-01    0,000000000e+00    0,000000000e+00    0,000000000e+00    0,000000000e+00
      142000000    1,454354730e-02   -2,943273401e-03   -7,672305703e-01   -2,366153896e-01    0,000000000e+00    0,000000000e+00    0,000000000e+00    0,000000000e+00
      156000000    1,588116214e-02   -1,438262686e-02   -7,696971297e-01    2,241072655e-01    0,000000000e+00    0,000000000e+00    0,000000000e+00    0,000000000e+00
      170000000    1,669140160e-02   -2,254839055e-02   -5,181860328e-01    6,048150063e-01    0,000000000e+00    0,000000000e+00    0,000000000e+00    0,000000000e+00
      184000000    2,098243870e-02   -3,709039092e-02   -1,014339402e-01    7,861175537e-01    0,000000000e+00    0,000000000e+00    0,000000000e+00    0,000000000e+00
      198000000    1,304486301e-02   -6,245466322e-02    3,433063328e-01    7,121158242e-01    0,000000000e+00    0,000000000e+00    0,000000000e+00    0,000000000e+00
      212000000   -1,865845919e-02   -8,129944652e-02    6,781826615e-01    4,099194109e-01    0,000000000e+00    0,000000000e+00    0,000000000e+00    0,000000000e+00
      226000000   -6,171927229e-02   -6,912729144e-02    7,958406210e-01   -3,062126040e-02    0,000000000e+00    0,000000000e+00    0,000000000e+00    0,000000000e+00
      240000000   -8,261494339e-02   -2,564093471e-02    6,460469365e-01   -4,670860171e-01    0,000000000e+00    0,000000000e+00    0,000000000e+00    0,000000000e+00
      254000000   -6,350073963e-02    1,725535281e-02    2,762471139e-01   -7,432230115e-01    0,000000000e+00    0,000000000e+00    0,000000000e+00    0,000000000e+00
      268000000   -2,380584553e-02    2,897476219e-02   -1,782213151e-01   -7,639417648e-01    0,000000000e+00    0,000000000e+00    0,000000000e+00    0,000000000e+00
      282000000    4,181576427e-03    1,199243683e-02   -5,617169738e-01   -5,355054140e-01    0,000000000e+00    0,000000000e+00    0,000000000e+00    0,000000000e+00
      296000000    9,679457173e-03   -7,706767414e-03   -7,598948479e-01   -1,396931857e-01    0,000000000e+00    0,000000000e+00    0,000000000e+00    0,000000000e+00
      310000000    1,125024632e-02   -1,619182341e-02   -7,127965689e-01    2,987839580e-01    0,000000000e+00    0,000000000e+00    0,000000000e+00    0,000000000e+00
      324000000    1,952765882e-02   -2,639697865e-02   -4,277493954e-01    6,388877630e-01    0,000000000e+00    0,000000000e+00    0,000000000e+00    0,000000000e+00
      338000000    2,555494569e-02   -5,223523453e-02   -1,005631778e-02    7,615977526e-01    0,000000000e+00    0,000000000e+00    0,000000000e+00    0,000000000e+00
      352000000    7,453709841e-03   -8,458562195e-02    4,067725837e-01    6,397155523e-01    0,000000000e+00    0,000000000e+00    0,000000000e+00    0,000000000e+00
      366000000   -3,467928618e-02   -9,533406049e-02    6,901766658e-01    3,113279045e-01    0,000000000e+00    0,000000000e+00    0,000000000e+00    0,000000000e+00
      380000000   -7,084514946e-02   -7,113740593e-02    7,472388148e-01   -1,262210459e-01    0,000000000e+00    0,000000000e+00    0,000000000e+00    0,000000000e+00
      394000000   -7,262091339e-02   -3,216751665e-02    5,475227237e-01   -5,223388672e-01    0,000000000e+00    0,000000000e+00    0,000000000e+00    0,000000000e+00
      408000000   -4,660781845e-02   -1,605003700e-02    1,599127799e-01   -7,331681848e-01    0,000000000e+00    0,000000000e+00    0,000000000e+00    0,000000000e+00
      422000000   -2,835557796e-02   -3,226498514e-02   -2,669503391e-01   -6,955808997e-01    0,000000000e+00    0,000000000e+00    0,000000000e+00    0,000000000e+00
      436000000   -4,084460437e-02   -5,179719999e-02   -6,041796207e-01   -4,322160780e-01    0,000000000e+00    0,000000000e+00    0,000000000e+00    0,000000000e+00
      450000000   -6,748369336e-02   -4,399039969e-02   -7,408362627e-01   -2,136555500e-02    0,000000000e+00    0,000000000e+00    0,000000000e+00    0,000000000e+00
      464000000   -7,328309119e-02   -1,148487255e-02   -6,185685396e-01    3,976129889e-01    0,000000000e+00    0,000000000e+00    0,000000000e+00    0,000000000e+00
      478000000   -4,767834395e-02    1,168940868e-02   -2,826687992e-01    6,674212217e-01    0,000000000e+00    0,000000000e+00    0,000000000e+00    0,000000000e+00
      492000000   -1,604002342e-02    6,135120057e-03    1,385933757e-01    7,017833591e-01    0,000000000e+00    0,000000000e+00    0,000000000e+00    0,000000000e+00
      506000000   -2,540749032e-03   -1,581848785e-02    4,990210235e-01    5,035281181e-01    0,000000000e+00    0,000000000e+00    0,000000000e+00    0,000000000e+00
      520000000   -5,011977162e-03   -3,193488717e-02    6,895208359e-01    1,413049102e-01    0,000000000e+00    0,000000000e+00    0,000000000e+00    0,000000000e+00
      534000000   -3,673505969e-03   -3,823512793e-02    6,440128088e-01   -2,621126771e-01    0,000000000e+00    0,000000000e+00    0,000000000e+00    0,000000000e+00
      548000000    6,074505392e-03   -5,369000882e-02    3,815300167e-01   -5,677022338e-01    0,000000000e+00    0,000000000e+00    0,000000000e+00    0,000000000e+00
      562000000    2,757355338e-03   -8,917457610e-02    2,255638130e-03   -6,722287536e-01    0,000000000e+00    0,000000000e+00    0,000000000e+00    0,000000000e+00
      576000000   -3,452397883e-02   -1,242239550e-01   -3,683674634e-01   -5,566211343e-01    0,000000000e+00    0,000000000e+00    0,000000000e+00    0,000000000e+00
      590000000   -9,629040211e-02   -1,226460114e-01   -6,220224500e-01   -2,652469277e-01    0,000000000e+00    0,000000000e+00    0,000000000e+00    0,000000000e+00
      604000000   -1,394139975e-01   -7,194994390e-02   -6,648573875e-01    1,375428885e-01    0,000000000e+00    0,000000000e+00    0,000000000e+00    0,000000000e+00
      618000000   -1,293382645e-01   -9,204363450e-03   -4,636509717e-01    4,948200583e-01    0,000000000e+00    0,000000000e+00    0,000000000e+00    0,000000000e+00
      632000000   -8,472260833e-02    1,675292477e-02   -9,809227288e-02    6,626703739e-01    0,000000000e+00    0,000000000e+00    0,000000000e+00    0,000000000e+00
      646000000   -5,046647787e-02    8,267871453e-04    2,877169847e-01    5,949010253e-01    0,000000000e+00    0,000000000e+00    0,000000000e+00    0,000000000e+00
      660000000   -5,300319940e-02   -2,103294991e-02    5,683115125e-01    3,225877881e-01    0,000000000e+00    0,000000000e+00    0,000000000e+00    0,000000000e+00
      674000000   -7,023669034e-02   -1,703761891e-02    6,428846717e-01   -6,558972597e-02    0,000000000e+00    0,000000000e+00    0,000000000e+00    0,000000000e+00
      688000000   -6,891530752e-02    9,179100394e-03    4,705709815e-01   -4,283486307e-01    0,000000000e+00    0,000000000e+00    0,000000000e+00    0,000000000e+00
      702000000   -3,686088696e-02    2,717439085e-02    1,178776249e-01   -6,122483611e-01    0,000000000e+00    0,000000000e+00    0,000000000e+00    0,000000000e+00
      716000000    1,813828712e-03    1,736837812e-02   -2,651862800e-01   -5,463657379e-01    0,000000000e+00    0,000000000e+00    0,000000000e+00    0,000000000e+00
      730000000    3,706858680e-02   -1,141774096e-02   -5,280220509e-01   -2,692369521e-01    0,000000000e+00    0,000000000e+00    0,000000000e+00    0,000000000e+00
      744000000    6,575518847e-02   -6,226310134e-02   -5,642107129e-01    1,061746478e-01    0,000000000e+00    0,000000000e+00    0,000000000e+00    0,000000000e+00
      758000000    6,605067849e-02   -1,524988711e-01   -3,632163703e-01    4,093061090e-01    0,000000000e+00    0,000000000e+00    0,000000000e+00    0,000000000e+00
      772000000   -1,282265969e-02   -2,631011605e-01   -3,498574719e-02    5,156798959e-01    0,000000000e+00    0,000000000e+00    0,000000000e+00    0,000000000e+00
      786000000   -2,060843110e-01   -3,031968474e-01    2,743575871e-01    3,948658705e-01    0,000000000e+00    0,000000000e+00    0,000000000e+00    0,000000000e+00
      800000000   -4,251208007e-01   -1,295352876e-01    4,170376956e-01    9,880391508e-02    0,000000000e+00    0,000000000e+00    0,000000000e+00    0,000000000e+00
      814000000   -3,892258704e-01    2,207710296e-01    2,826287448e-01   -1,726468205e-01    0,000000000e+00    0,000000000e+00    0,000000000e+00    0,000000000e+00
      828000000   -5,054940656e-02    3,679410815e-01    5,538234487e-02   -1,889856160e-01    0,000000000e+00    0,000000000e+00    0,000000000e+00    0,000000000e+00
      842000000    2,352542132e-01    1,858883649e-01   -1,694730110e-02   -7,086034864e-02    0,000000000e+00    0,000000000e+00    0,000000000e+00    0,000000000e+00
      856000000    2,805329263e-01   -1,243062913e-01    4,526811093e-02   -1,331336237e-02    0,000000000e+00    0,000000000e+00    0,000000000e+00    0,000000000e+00
      870000000    7,508197427e-02   -3,760635257e-01    1,135024652e-01   -9,111266583e-02    0,000000000e+00    0,000000000e+00    0,000000000e+00    0,000000000e+00
      884000000   -2,959395349e-01   -3,621214628e-01    2,896859683e-02   -2,452792972e-01    0,000000000e+00    0,000000000e+00    0,000000000e+00    0,000000000e+00
      898000000   -4,715937674e-01    8,525262587e-03   -2,219920754e-01   -2,285340279e-01    0,000000000e+00    0,000000000e+00    0,000000000e+00    0,000000000e+00
      912000000   -2,259919792e-01    2,941637039e-01   -3,503984213e-01    6,299971044e-02    0,000000000e+00    0,000000000e+00    0,000000000e+00    0,000000000e+00
      926000000    6,856749207e-02    2,642704248e-01   -2,163627446e-01    2,630813718e-01    0,000000000e+00    0,000000000e+00    0,000000000e+00    0,000000000e+00
      940000000    2,147186249e-01    8,031119406e-02   -3,701479360e-02    3,293437660e-01    0,000000000e+00    0,000000000e+00    0,000000000e+00    0,000000000e+00
      954000000    2,212387323e-01   -1,293986738e-01    1,315618753e-01    3,074568212e-01    0,000000000e+00    0,000000000e+00    0,000000000e+00    0,000000000e+00
      968000000    1,164815500e-01   -3,017699420e-01    2,710298002e-01    2,191778421e-01    0,000000000e+00    0,000000000e+00    0,000000000e+00    0,000000000e+00
      982000000   -8,231590688e-02   -3,846950829e-01    3,659876585e-01    6,621951610e-02    0,000000000e+00    0,000000000e+00    0,000000000e+00    0,000000000e+00
      996000000   -3,195061386e-01   -3,302877247e-01    3,677832782e-01   -1,450566798e-01    0,000000000e+00    0,000000000e+00    0,000000000e+00    0,000000000e+00
     1010000000   -4,628654122e-01   -1,145084053e-01    2,219478488e-01   -3,416284621e-01    0,000000000e+00    0,000000000e+00    0,000000000e+00    0,000000000e+00
     1024000000   -4,161421955e-01    1,521534026e-01   -3,176233545e-02   -3,930701017e-01    0,000000000e+00    0,000000000e+00    0,000000000e+00    0,000000000e+00
     1038000000   -2,214581668e-01    2,930564582e-01   -2,466770113e-01   -2,597825229e-01    0,000000000e+00    0,000000000e+00    0,000000000e+00    0,000000000e+00
     1052000000   -9,756142274e-03    2,771210968e-01   -3,169144690e-01   -4,613288119e-02    0,000000000e+00    0,000000000e+00    0,000000000e+00    0,000000000e+00
     1066000000    1,372148842e-01    1,604929119e-01   -2,606947422e-01    1,418009698e-01    0,000000000e+00    0,000000000e+00    0,000000000e+00    0,000000000e+00
     1080000000    1,901638806e-01   -3,346186131e-04   -1,195149347e-01    2,640000582e-01    0,000000000e+00    0,000000000e+00    0,000000000e+00    0,000000000e+00
     1094000000    1,524206102e-01   -1,761779487e-01    6,384809315e-02    3,056204617e-01    0,000000000e+00    0,000000000e+00    0,000000000e+00    0,000000000e+00
     1108000000   -9,678147617e-04   -3,080822527e-01    2,766827047e-01    2,482102960e-01    0,000000000e+00    0,000000000e+00    0,000000000e+00    0,000000000e+00
     1122000000   -2,520583570e-01   -2,652421892e-01    4,738847017e-01    1,174778026e-02    0,000000000e+00    0,000000000e+00    0,000000000e+00    0,000000000e+00
     1136000000   -3,219683468e-01    2,936631627e-02    4,008062780e-01   -3,885127008e-01    0,000000000e+00    0,000000000e+00    0,000000000e+00    0,000000000e+00
     1150000000   -4,252927378e-02    1,553766876e-01    5,029930267e-03   -5,412114263e-01    0,000000000e+00    0,000000000e+00    0,000000000e+00    0,000000000e+00
     1164000000    1,187453941e-01   -6,093487889e-02   -2,800929844e-01   -3,784211278e-01    0,000000000e+00    0,000000000e+00    0,000000000e+00    0,000000000e+00
     1178000000    2,149470150e-02   -3,028739691e-01   -3,664174974e-01   -1,516743600e-01    0,000000000e+00    0,000000000e+00    0,000000000e+00    0,000000000e+00
     1192000000   -2,655859292e-01   -3,697369397e-01   -3,254354894e-01    5,727054179e-02    0,000000000e+00    0,000000000e+00    0,000000000e+00    0,000000000e+00
     1206000000   -5,203766823e-01   -1,638851762e-01   -1,633964926e-01    1,790404320e-01    0,000000000e+00    0,000000000e+00    0,000000000e+00    0,000000000e+00
     1220000000   -5,119175315e-01    1,717372239e-01   -3,414522158e-03    1,590662748e-01    0,000000000e+00    0,000000000e+00    0,000000000e+00    0,000000000e+00
     1234000000   -2,920444906e-01    3,632428348e-01    7,020601630e-02    6,315621734e-02    0,000000000e+00    0,000000000e+00    0,000000000e+00    0,000000000e+00
     1248000000   -4,702143371e-02    3,719415665e-01    5,546557903e-02   -1,112733502e-02    0,000000000e+00    0,000000000e+00    0,000000000e+00    0,000000000e+00
     1262000000    1,199672148e-01    2,587839365e-01    1,783576608e-02   -1,932747290e-02    0,000000000e+00    0,000000000e+00    0,000000000e+00    0,000000000e+00
     1276000000    2,159851193e-01    9,955078363e-02    2,667242661e-04    7,970336825e-03    0,000000000e+00    0,000000000e+00    0,000000000e+00    0,000000000e+00
     1290000000    2,227665931e-01   -7,510078698e-02    1,787573658e-02    4,811524972e-02    0,000000000e+00    0,000000000e+00    0,000000000e+00    0,000000000e+00
     1304000000    1,543532014e-01   -2,446947396e-01    1,314044595e-01    6,678899378e-02    0,000000000e+00    0,000000000e+00    0,000000000e+00    0,000000000e+00
     1318000000    3,624110296e-02   -3,366495967e-01    1,314258426e-01   -1,704521626e-01    0,000000000e+00    0,000000000e+00    0,000000000e+00    0,000000000e+00
     1332000000   -1,282519102e-01   -4,363181293e-01   -4,015650600e-02   -4,977529868e-02    0,000000000e+00    0,000000000e+00    0,000000000e+00    0,000000000e+00
     1346000000   -3,928507566e-01   -4,027558863e-01    2,847405151e-02    7,225672156e-02    0,000000000e+00    0,000000000e+00    0,000000000e+00    0,000000000e+00
     1360000000   -6,096658707e-01   -1,870970726e-01    1,308431774e-01    7,933497429e-02    0,000000000e+00    0,000000000e+00    0,000000000e+00    0,000000000e+00
     1374000000   -6,360002756e-01    1,218623966e-01    1,926232874e-01    3,389745718e-03    0,000000000e+00    0,000000000e+00    0,000000000e+00    0,000000000e+00
     1388000000   -4,628150463e-01    3,711981475e-01    2,082418799e-01   -5,621676147e-02    0,000000000e+00    0,000000000e+00    0,000000000e+00    0,000000000e+00
     1402000000   -2,356240898e-01    4,510869682e-01    1,962711066e-01   -9,874071926e-02    0,000000000e+00    0,000000000e+00    0,000000000e+00    0,000000000e+00
     1416000000   -2,656519040e-02    4,189141095e-01    1,772846729e-01   -1,003195718e-01    0,000000000e+00    0,000000000e+00    0,000000000e+00    0,000000000e+00
     1430000000    1,225501820e-01    2,984822690e-01    1,604935974e-01   -1,293800622e-01    0,000000000e+00    0,000000000e+00    0,000000000e+00    0,000000000e+00
     1444000000    2,096181363e-01    1,495881379e-01    1,548288465e-01   -1,105418205e-01    0,000000000e+00    0,000000000e+00    0,000000000e+00    0,000000000e+00
     1458000000    2,386991531e-01   -2,311625518e-02    1,494448930e-01   -7,980345190e-02    0,000000000e+00    0,000000000e+00    0,000000000e+00    0,000000000e+00
     1472000000    1,905302256e-01   -2,024820745e-01    1,495745778e-01   -2,580531873e-02    0,000000000e+00    0,000000000e+00    0,000000000e+00    0,000000000e+00
     1486000000    6,728398055e-02   -3,822107315e-01    1,804496050e-01    2,280603535e-02    0,000000000e+00    0,000000000e+00    0,000000000e+00    0,000000000e+00
     1500000000   -1,719776541e-01   -4,947829843e-01    2,337193638e-01    1,095017344e-01    0,000000000e+00    0,000000000e+00    0,000000000e+00    0,000000000e+00
