! NanoVNA-App
! Date: 2025-09-25 15:30:50
! Start: 100MHz Stop: 1,5GHz Points: 101
! S-Parameter data: F S11 S21 S12 S22
# Hz S RI R 50
!     Frequency           S11_Real           S11_Imag           S21_Real           S21_Imag           S12_Real           S12_Imag           S22_Real           S22_Imag
      100000000   -2,887679078e-02   -4,168676212e-03    3,741131127e-01   -7,217621803e-01    0,000000000e+00    0,000000000e+00    0,000000000e+00    0,000000000e+00
      114000000   -1,653037220e-02    1,152842212e-02   -8,908607811e-02   -8,054308891e-01    0,000000000e+00    0,000000000e+00    0,000000000e+00    0,000000000e+00
      128000000    3,467942821e-03    1,053722482e-02   -5,146566629e-01   -6,205759048e-01    0,000000000e+00    0,000000000e+00    0,000000000e+00    0,000000000e+00
      142000000    1,454303041e-02   -2,926070942e-03   -7,671360970e-01   -2,364536822e-01    0,000000000e+00    0,000000000e+00    0,000000000e+00    0,000000000e+00
      156000000    1,428445242e-02   -1,486163680e-02   -7,638573050e-01    2,188134938e-01    0,000000000e+00    0,000000000e+00    0,000000000e+00    0,000000000e+00
      170000000    1,663897745e-02   -2,253382653e-02   -5,179733038e-01    6,045389771e-01    0,000000000e+00    0,000000000e+00    0,000000000e+00    0,000000000e+00
      184000000    2,098549716e-02   -3,706407174e-02   -1,014448553e-01    7,862979770e-01    0,000000000e+00    0,000000000e+00    0,000000000e+00    0,000000000e+00
      198000000    1,298334543e-02   -6,247254089e-02    3,435558081e-01    7,126526237e-01    0,000000000e+00    0,000000000e+00    0,000000000e+00    0,000000000e+00
      212000000   -1,866875775e-02   -8,132597804e-02    6,781709194e-01    4,100400507e-01    0,000000000e+00    0,000000000e+00    0,000000000e+00    0,000000000e+00
      226000000   -6,168440729e-02   -6,914478540e-02    7,958466411e-01   -3,058387712e-02    0,000000000e+00    0,000000000e+00    0,000000000e+00    0,000000000e+00
      240000000   -8,261146396e-02   -2,560206316e-02    6,461220980e-01   -4,670040309e-01    0,000000000e+00    0,000000000e+00    0,000000000e+00    0,000000000e+00
      254000000   -6,353987008e-02    1,727112010e-02    2,759626210e-01   -7,433354855e-01    0,000000000e+00    0,000000000e+00    0,000000000e+00    0,000000000e+00
      268000000   -2,391995676e-02    2,896956354e-02   -1,781984270e-01   -7,645114064e-01    0,000000000e+00    0,000000000e+00    0,000000000e+00    0,000000000e+00
      282000000    4,170453642e-03    1,201800723e-02   -5,619969964e-01   -5,356774330e-01    0,000000000e+00    0,000000000e+00    0,000000000e+00    0,000000000e+00
      296000000    9,699893184e-03   -7,730261423e-03   -7,597265244e-01   -1,396404207e-01    0,000000000e+00    0,000000000e+00    0,000000000e+00    0,000000000e+00
      310000000    1,120979432e-02   -1,632562838e-02   -7,120306492e-01    2,976616025e-01    0,000000000e+00    0,000000000e+00    0,000000000e+00    0,000000000e+00
      324000000    1,966690458e-02   -2,665958181e-02   -4,270197153e-01    6,382910013e-01    0,000000000e+00    0,000000000e+00    0,000000000e+00    0,000000000e+00
      338000000    2,565083653e-02   -5,212394893e-02   -9,167945944e-03    7,623776793e-01    0,000000000e+00    0,000000000e+00    0,000000000e+00    0,000000000e+00
      352000000    7,433752064e-03   -8,490712196e-02    4,068704545e-01    6,392700076e-01    0,000000000e+00    0,000000000e+00    0,000000000e+00    0,000000000e+00
      366000000   -3,469010442e-02   -9,535764158e-02    6,901524067e-01    3,112077415e-01    0,000000000e+00    0,000000000e+00    0,000000000e+00    0,000000000e+00
      380000000   -7,070512325e-02   -7,101757079e-02    7,471469641e-01   -1,255283654e-01    0,000000000e+00    0,000000000e+00    0,000000000e+00    0,000000000e+00
      394000000   -7,263172418e-02   -3,221693262e-02    5,466321707e-01   -5,224689841e-01    0,000000000e+00    0,000000000e+00    0,000000000e+00    0,000000000e+00
      408000000   -4,653292522e-02   -1,626636274e-02    1,606952697e-01   -7,329128981e-01    0,000000000e+00    0,000000000e+00    0,000000000e+00    0,000000000e+00
      422000000   -2,832125127e-02   -3,217720240e-02   -2,678824961e-01   -6,948865652e-01    0,000000000e+00    0,000000000e+00    0,000000000e+00    0,000000000e+00
      436000000   -4,057598859e-02   -5,193554237e-02   -6,037080884e-01   -4,317919314e-01    0,000000000e+00    0,000000000e+00    0,000000000e+00    0,000000000e+00
      450000000   -6,746336818e-02   -4,395689070e-02   -7,409301400e-01   -2,100582235e-02    0,000000000e+00    0,000000000e+00    0,000000000e+00    0,000000000e+00
      464000000   -7,307921350e-02   -1,135462336e-02   -6,181355715e-01    3,975159526e-01    0,000000000e+00    0,000000000e+00    0,000000000e+00    0,000000000e+00
      478000000   -4,777262360e-02    1,159664430e-02   -2,819846869e-01    6,678761840e-01    0,000000000e+00    0,000000000e+00    0,000000000e+00    0,000000000e+00
      492000000   -1,552059036e-02    5,670348182e-03    1,378952712e-01    7,013157010e-01    0,000000000e+00    0,000000000e+00    0,000000000e+00    0,000000000e+00
      506000000   -2,344675595e-03   -1,569989696e-02    4,988800287e-01    5,027431250e-01    0,000000000e+00    0,000000000e+00    0,000000000e+00    0,000000000e+00
      520000000   -4,765098915e-03   -3,146496043e-02    6,899456978e-01    1,423560530e-01    0,000000000e+00    0,000000000e+00    0,000000000e+00    0,000000000e+00
      534000000   -3,845558967e-03   -3,837758675e-02    6,436862350e-01   -2,624005079e-01    0,000000000e+00    0,000000000e+00    0,000000000e+00    0,000000000e+00
      548000000    5,957512651e-03   -5,377747864e-02    3,812792897e-01   -5,675339103e-01    0,000000000e+00    0,000000000e+00    0,000000000e+00    0,000000000e+00
      562000000    2,711858833e-03   -8,922520280e-02    3,018731950e-03   -6,719919443e-01    0,000000000e+00    0,000000000e+00    0,000000000e+00    0,000000000e+00
      576000000   -3,424064070e-02   -1,239362136e-01   -3,688870072e-01   -5,563959479e-01    0,000000000e+00    0,000000000e+00    0,000000000e+00    0,000000000e+00
      590000000   -9,621422738e-02   -1,224899665e-01   -6,222631335e-01   -2,623816729e-01    0,000000000e+00    0,000000000e+00    0,000000000e+00    0,000000000e+00
      604000000   -1,391962320e-01   -7,191742212e-02   -6,642456055e-01    1,377546638e-01    0,000000000e+00    0,000000000e+00    0,000000000e+00    0,000000000e+00
      618000000   -1,290278882e-01   -8,675295860e-03   -4,640580118e-01    4,956103265e-01    0,000000000e+00    0,000000000e+00    0,000000000e+00    0,000000000e+00
      632000000   -8,374423534e-02    1,636834070e-02   -9,874124825e-02    6,634112000e-01    0,000000000e+00    0,000000000e+00    0,000000000e+00    0,000000000e+00
      646000000   -5,131640285e-02    1,207692316e-03    2,876672149e-01    5,940383077e-01    0,000000000e+00    0,000000000e+00    0,000000000e+00    0,000000000e+00
      660000000   -5,374917388e-02   -2,122658677e-02    5,671409369e-01    3,226590753e-01    0,000000000e+00    0,000000000e+00    0,000000000e+00    0,000000000e+00
      674000000   -7,087702304e-02   -1,768139936e-02    6,432353854e-01   -6,559010595e-02    0,000000000e+00    0,000000000e+00    0,000000000e+00    0,000000000e+00
      688000000   -6,903037429e-02    8,405218832e-03    4,714632630e-01   -4,280661643e-01    0,000000000e+00    0,000000000e+00    0,000000000e+00    0,000000000e+00
      702000000   -3,795607388e-02    2,674738690e-02    1,208390221e-01   -6,081364155e-01    0,000000000e+00    0,000000000e+00    0,000000000e+00    0,000000000e+00
      716000000    1,753894961e-03    1,769561134e-02   -2,645242810e-01   -5,458334088e-01    0,000000000e+00    0,000000000e+00    0,000000000e+00    0,000000000e+00
      730000000    3,653114289e-02   -1,134761143e-02   -5,278218985e-01   -2,688811123e-01    0,000000000e+00    0,000000000e+00    0,000000000e+00    0,000000000e+00
      744000000    6,474760175e-02   -6,201524287e-02   -5,638430119e-01    1,061971337e-01    0,000000000e+00    0,000000000e+00    0,000000000e+00    0,000000000e+00
      758000000    6,688298285e-02   -1,529728472e-01   -3,641528487e-01    4,098917544e-01    0,000000000e+00    0,000000000e+00    0,000000000e+00    0,000000000e+00
      772000000   -1,276243012e-02   -2,629058957e-01   -3,414154053e-02    5,159309506e-01    0,000000000e+00    0,000000000e+00    0,000000000e+00    0,000000000e+00
      786000000   -2,068953663e-01   -3,034818769e-01    2,743445635e-01    3,952606618e-01    0,000000000e+00    0,000000000e+00    0,000000000e+00    0,000000000e+00
      800000000   -4,260979295e-01   -1,295420527e-01    4,170543849e-01    9,917086363e-02    0,000000000e+00    0,000000000e+00    0,000000000e+00    0,000000000e+00
      814000000   -3,902585506e-01    2,214246094e-01    2,818807662e-01   -1,734632701e-01    0,000000000e+00    0,000000000e+00    0,000000000e+00    0,000000000e+00
      828000000   -4,976011813e-02    3,678286076e-01    5,487047881e-02   -1,887389719e-01    0,000000000e+00    0,000000000e+00    0,000000000e+00    0,000000000e+00
      842000000    2,352591157e-01    1,855313778e-01   -1,699202135e-02   -7,090169191e-02    0,000000000e+00    0,000000000e+00    0,000000000e+00    0,000000000e+00
      856000000    2,801295817e-01   -1,245605946e-01    4,552470148e-02   -1,307888050e-02    0,000000000e+00    0,000000000e+00    0,000000000e+00    0,000000000e+00
      870000000    7,457504421e-02   -3,759457171e-01    1,143553555e-01   -9,159889817e-02    0,000000000e+00    0,000000000e+00    0,000000000e+00    0,000000000e+00
      884000000   -2,957230210e-01   -3,613662422e-01    2,823290974e-02   -2,459337562e-01    0,000000000e+00    0,000000000e+00    0,000000000e+00    0,000000000e+00
      898000000   -4,728077054e-01    9,215477854e-03   -2,229518890e-01   -2,283298671e-01    0,000000000e+00    0,000000000e+00    0,000000000e+00    0,000000000e+00
      912000000   -2,266828269e-01    2,949085832e-01   -3,426401019e-01    5,992915854e-02    0,000000000e+00    0,000000000e+00    0,000000000e+00    0,000000000e+00
      926000000    6,863165647e-02    2,642283738e-01   -2,153589129e-01    2,643465400e-01    0,000000000e+00    0,000000000e+00    0,000000000e+00    0,000000000e+00
      940000000    2,140540332e-01    8,089406788e-02   -3,771073744e-02    3,275388181e-01    0,000000000e+00    0,000000000e+00    0,000000000e+00    0,000000000e+00
      954000000    2,233290523e-01   -1,308214068e-01    1,312272549e-01    3,071514666e-01    0,000000000e+00    0,000000000e+00    0,000000000e+00    0,000000000e+00
      968000000    1,137427837e-01   -2,978187799e-01    2,703930140e-01    2,173520923e-01    0,000000000e+00    0,000000000e+00    0,000000000e+00    0,000000000e+00
      982000000   -8,443372697e-02   -3,884406984e-01    3,654658794e-01    6,553800404e-02    0,000000000e+00    0,000000000e+00    0,000000000e+00    0,000000000e+00
      996000000   -3,168535531e-01   -3,268327713e-01    3,700762689e-01   -1,455831528e-01    0,000000000e+00    0,000000000e+00    0,000000000e+00    0,000000000e+00
     1010000000   -4,585741460e-01   -1,120748445e-01    2,233981490e-01   -3,414897323e-01    0,000000000e+00    0,000000000e+00    0,000000000e+00    0,000000000e+00
     1024000000   -4,175329208e-01    1,500679553e-01   -3,159335628e-02   -3,912724555e-01    0,000000000e+00    0,000000000e+00    0,000000000e+00    0,000000000e+00
     1038000000   -2,191921473e-01    2,895183563e-01   -2,459669560e-01   -2,612473667e-01    0,000000000e+00    0,000000000e+00    0,000000000e+00    0,000000000e+00
     1052000000   -7,080013864e-03    2,758846581e-01   -3,171839416e-01   -4,337029159e-02    0,000000000e+00    0,000000000e+00    0,000000000e+00    0,000000000e+00
     1066000000    1,349820644e-01    1,650937349e-01   -2,587809563e-01    1,424796432e-01    0,000000000e+00    0,000000000e+00    0,000000000e+00    0,000000000e+00
     1080000000    1,967329085e-01   -1,140496694e-03   -1,196737438e-01    2,633225322e-01    0,000000000e+00    0,000000000e+00    0,000000000e+00    0,000000000e+00
     1094000000    1,548276395e-01   -1,728287041e-01    6,431721151e-02    3,042612970e-01    0,000000000e+00    0,000000000e+00    0,000000000e+00    0,000000000e+00
     1108000000   -2,799327485e-03   -3,019317985e-01    2,774975896e-01    2,454343736e-01    0,000000000e+00    0,000000000e+00    0,000000000e+00    0,000000000e+00
     1122000000   -2,517722249e-01   -2,631109953e-01    4,734629095e-01    1,352832466e-02    0,000000000e+00    0,000000000e+00    0,000000000e+00    0,000000000e+00
     1136000000   -3,222204745e-01    3,096289746e-02    3,981234133e-01   -3,923292756e-01    0,000000000e+00    0,000000000e+00    0,000000000e+00    0,000000000e+00
     1150000000   -3,882407770e-02    1,542488188e-01    3,951623570e-03   -5,422722697e-01    0,000000000e+00    0,000000000e+00    0,000000000e+00    0,000000000e+00
     1164000000    1,229006946e-01   -6,541977078e-02   -2,779207230e-01   -3,772039711e-01    0,000000000e+00    0,000000000e+00    0,000000000e+00    0,000000000e+00
     1178000000    1,833780482e-02   -3,061238527e-01   -3,701101243e-01   -1,529023349e-01    0,000000000e+00    0,000000000e+00    0,000000000e+00    0,000000000e+00
     1192000000   -2,688614428e-01   -3,688450754e-01   -3,246496618e-01    5,868011340e-02    0,000000000e+00    0,000000000e+00    0,000000000e+00    0,000000000e+00
     1206000000   -5,189750791e-01   -1,577477455e-01   -1,658099294e-01    1,808573306e-01    0,000000000e+00    0,000000000e+00    0,000000000e+00    0,000000000e+00
     1220000000   -5,102254748e-01    1,786310077e-01   -7,614026981e-05    1,598968357e-01    0,000000000e+00    0,000000000e+00    0,000000000e+00    0,000000000e+00
     1234000000   -2,880184650e-01    3,702454567e-01    6,738057733e-02    6,398493052e-02    0,000000000e+00    0,000000000e+00    0,000000000e+00    0,000000000e+00
     1248000000   -4,167383164e-02    3,632740378e-01    5,619887263e-02   -5,744199734e-03    0,000000000e+00    0,000000000e+00    0,000000000e+00    0,000000000e+00
     1262000000    1,263539195e-01    2,570321560e-01    1,691502519e-02   -2,114002407e-02    0,000000000e+00    0,000000000e+00    0,000000000e+00    0,000000000e+00
     1276000000    2,136371434e-01    1,024753302e-01   -2,949800808e-03    3,570168512e-03    0,000000000e+00    0,000000000e+00    0,000000000e+00    0,000000000e+00
     1290000000    2,247439921e-01   -7,324354351e-02    1,838615350e-02    4,883486405e-02    0,000000000e+00    0,000000000e+00    0,000000000e+00    0,000000000e+00
     1304000000    1,543740183e-01   -2,418295294e-01    1,352299005e-01    6,406433135e-02    0,000000000e+00    0,000000000e+00    0,000000000e+00    0,000000000e+00
     1318000000    3,863598034e-02   -3,315504193e-01    1,303914040e-01   -1,669498831e-01    0,000000000e+00    0,000000000e+00    0,000000000e+00    0,000000000e+00
     1332000000   -1,307948828e-01   -4,364310503e-01   -4,975341633e-02   -4,775851220e-02    0,000000000e+00    0,000000000e+00    0,000000000e+00    0,000000000e+00
     1346000000   -3,925397396e-01   -4,119537175e-01    2,884227037e-02    6,504264474e-02    0,000000000e+00    0,000000000e+00    0,000000000e+00    0,000000000e+00
     1360000000   -5,991447568e-01   -1,926294714e-01    1,426812708e-01    6,750531495e-02    0,000000000e+00    0,000000000e+00    0,000000000e+00    0,000000000e+00
     1374000000   -6,291147470e-01    1,260079592e-01    2,128263116e-01    6,743324455e-03    0,000000000e+00    0,000000000e+00    0,000000000e+00    0,000000000e+00
     1388000000   -4,715486169e-01    3,748946190e-01    2,009565979e-01   -6,632349640e-02    0,000000000e+00    0,000000000e+00    0,000000000e+00    0,000000000e+00
     1402000000   -2,309677601e-01    4,516629279e-01    1,839303523e-01   -1,043892875e-01    0,000000000e+00    0,000000000e+00    0,000000000e+00    0,000000000e+00
     1416000000   -2,894937806e-02    4,086252451e-01    1,767230034e-01   -1,066164449e-01    0,000000000e+00    0,000000000e+00    0,000000000e+00    0,000000000e+00
     1430000000    1,216110885e-01    3,080163598e-01    1,646504700e-01   -9,743876010e-02    0,000000000e+00    0,000000000e+00    0,000000000e+00    0,000000000e+00
     1444000000    2,106334418e-01    1,480437964e-01    1,608347893e-01   -1,076251566e-01    0,000000000e+00    0,000000000e+00    0,000000000e+00    0,000000000e+00
     1458000000    2,356979698e-01   -2,113890462e-02    1,352551728e-01   -8,039461821e-02    0,000000000e+00    0,000000000e+00    0,000000000e+00    0,000000000e+00
     1472000000    1,925861537e-01   -2,001753151e-01    1,361378878e-01   -2,240091190e-02    0,000000000e+00    0,000000000e+00    0,000000000e+00    0,000000000e+00
     1486000000    6,275693327e-02   -3,704465032e-01    1,821442544e-01    3,615605086e-02    0,000000000e+00    0,000000000e+00    0,000000000e+00    0,000000000e+00
     1500000000   -1,741332114e-01   -4,961306155e-01    2,423756570e-01    7,754155993e-02    0,000000000e+00    0,000000000e+00    0,000000000e+00    0,000000000e+00
