! NanoVNA-App
! Date: 2025-09-25 15:31:28
! Start: 100MHz Stop: 1,5GHz Points: 101
! S-Parameter data: F S11 S21 S12 S22
# Hz S RI R 50
!     Frequency           S11_Real           S11_Imag           S21_Real           S21_Imag           S12_Real           S12_Imag           S22_Real           S22_Imag
      100000000   -2,886608616e-02   -4,176086746e-03    3,741514087e-01   -7,218095064e-01    0,000000000e+00    0,000000000e+00    0,000000000e+00    0,000000000e+00
      114000000   -1,651628129e-02    1,152341720e-02   -8,914797008e-02   -8,054998517e-01    0,000000000e+00    0,000000000e+00    0,000000000e+00    0,000000000e+00
      128000000    3,475246718e-03    1,057534013e-02   -5,146309733e-01   -6,203514934e-01    0,000000000e+00    0,000000000e+00    0,000000000e+00    0,000000000e+00
      142000000    1,454209909e-02   -2,953947522e-03   -7,672185898e-01   -2,365483046e-01    0,000000000e+00    0,000000000e+00    0,000000000e+00    0,000000000e+00
      156000000    1,609693840e-02   -1,433929428e-02   -7,702319026e-01    2,243725955e-01    0,000000000e+00    0,000000000e+00    0,000000000e+00    0,000000000e+00
      170000000    1,670299284e-02   -2,253829688e-02   -5,183210969e-01    6,047507524e-01    0,000000000e+00    0,000000000e+00    0,000000000e+00    0,000000000e+00
      184000000    2,103581652e-02   -3,707814962e-02   -1,014280245e-01    7,862271070e-01    0,000000000e+00    0,000000000e+00    0,000000000e+00    0,000000000e+00
      198000000    1,300224382e-02   -6,245846674e-02    3,433707058e-01    7,121761441e-01    0,000000000e+00    0,000000000e+00    0,000000000e+00    0,000000000e+00
      212000000   -1,868704520e-02   -8,126646280e-02    6,780917048e-01    4,100181162e-01    0,000000000e+00    0,000000000e+00    0,000000000e+00    0,000000000e+00
      226000000   -6,169882044e-02   -6,921120733e-02    7,958225608e-01   -3,052781895e-02    0,000000000e+00    0,000000000e+00    0,000000000e+00    0,000000000e+00
      240000000   -8,260695636e-02   -2,556253225e-02    6,460885406e-01   -4,672084153e-01    0,000000000e+00    0,000000000e+00    0,000000000e+00    0,000000000e+00
      254000000   -6,351304799e-02    1,723492518e-02    2,759175599e-01   -7,434226871e-01    0,000000000e+00    0,000000000e+00    0,000000000e+00    0,000000000e+00
      268000000   -2,379210852e-02    2,887880243e-02   -1,782066673e-01   -7,647194266e-01    0,000000000e+00    0,000000000e+00    0,000000000e+00    0,000000000e+00
      282000000    4,137035925e-03    1,193267852e-02   -5,617071390e-01   -5,354900360e-01    0,000000000e+00    0,000000000e+00    0,000000000e+00    0,000000000e+00
      296000000    9,666483849e-03   -7,857793942e-03   -7,596178651e-01   -1,395873427e-01    0,000000000e+00    0,000000000e+00    0,000000000e+00    0,000000000e+00
      310000000    1,119611040e-02   -1,616548002e-02   -7,125483155e-01    2,993326485e-01    0,000000000e+00    0,000000000e+00    0,000000000e+00    0,000000000e+00
      324000000    1,972824335e-02   -2,645506710e-02   -4,264400899e-01    6,373839378e-01    0,000000000e+00    0,000000000e+00    0,000000000e+00    0,000000000e+00
      338000000    2,553220093e-02   -5,206160247e-02   -6,564654876e-03    7,648288608e-01    0,000000000e+00    0,000000000e+00    0,000000000e+00    0,000000000e+00
      352000000    7,364825346e-03   -8,472186327e-02    4,071435034e-01    6,394965649e-01    0,000000000e+00    0,000000000e+00    0,000000000e+00    0,000000000e+00
      366000000   -3,488791734e-02   -9,557873011e-02    6,904344559e-01    3,111407757e-01    0,000000000e+00    0,000000000e+00    0,000000000e+00    0,000000000e+00
      380000000   -7,072304934e-02   -7,110690325e-02    7,471944094e-01   -1,259484440e-01    0,000000000e+00    0,000000000e+00    0,000000000e+00    0,000000000e+00
      394000000   -7,266269624e-02   -3,250520304e-02    5,467345119e-01   -5,216442347e-01    0,000000000e+00    0,000000000e+00    0,000000000e+00    0,000000000e+00
      408000000   -4,659407586e-02   -1,602160744e-02    1,617058218e-01   -7,330849767e-01    0,000000000e+00    0,000000000e+00    0,000000000e+00    0,000000000e+00
      422000000   -2,834328823e-02   -3,190314025e-02   -2,686031461e-01   -6,947061419e-01    0,000000000e+00    0,000000000e+00    0,000000000e+00    0,000000000e+00
      436000000   -4,081395268e-02   -5,192278698e-02   -6,041088104e-01   -4,321860969e-01    0,000000000e+00    0,000000000e+00    0,000000000e+00    0,000000000e+00
      450000000   -6,767595559e-02   -4,398583248e-02   -7,408156991e-01   -2,172407322e-02    0,000000000e+00    0,000000000e+00    0,000000000e+00    0,000000000e+00
      464000000   -7,358511537e-02   -1,156656537e-02   -6,186845303e-01    3,976289332e-01    0,000000000e+00    0,000000000e+00    0,000000000e+00    0,000000000e+00
      478000000   -4,801244661e-02    1,147973910e-02   -2,827827632e-01    6,676537395e-01    0,000000000e+00    0,000000000e+00    0,000000000e+00    0,000000000e+00
      492000000   -1,555753872e-02    6,360901520e-03    1,374773532e-01    7,016161680e-01    0,000000000e+00    0,000000000e+00    0,000000000e+00    0,000000000e+00
      506000000   -2,557385480e-03   -1,580915600e-02    4,988735914e-01    5,017401576e-01    0,000000000e+00    0,000000000e+00    0,000000000e+00    0,000000000e+00
      520000000   -5,384332035e-03   -3,127837181e-02    6,879756451e-01    1,408822238e-01    0,000000000e+00    0,000000000e+00    0,000000000e+00    0,000000000e+00
      534000000   -3,573588328e-03   -3,808305040e-02    6,437698603e-01   -2,620849609e-01    0,000000000e+00    0,000000000e+00    0,000000000e+00    0,000000000e+00
      548000000    5,623212084e-03   -5,387658253e-02    3,806010485e-01   -5,671002865e-01    0,000000000e+00    0,000000000e+00    0,000000000e+00    0,000000000e+00
      562000000    2,952500014e-03   -8,980369568e-02    2,783379517e-03   -6,721244454e-01    0,000000000e+00    0,000000000e+00    0,000000000e+00    0,000000000e+00
      576000000   -3,417857736e-02   -1,241326630e-01   -3,693837821e-01   -5,570859909e-01    0,000000000e+00    0,000000000e+00    0,000000000e+00    0,000000000e+00
      590000000   -9,643457830e-02   -1,225473657e-01   -6,197570562e-01   -2,635219693e-01    0,000000000e+00    0,000000000e+00    0,000000000e+00    0,000000000e+00
      604000000   -1,397375911e-01   -7,196856290e-02   -6,655128598e-01    1,376428455e-01    0,000000000e+00    0,000000000e+00    0,000000000e+00    0,000000000e+00
      618000000   -1,299555004e-01   -9,336873889e-03   -4,640793800e-01    4,943700433e-01    0,000000000e+00    0,000000000e+00    0,000000000e+00    0,000000000e+00
      632000000   -8,415960521e-02    1,722151600e-02   -9,944417328e-02    6,645172834e-01    0,000000000e+00    0,000000000e+00    0,000000000e+00    0,000000000e+00
      646000000   -5,158701912e-02    5,797815975e-04    2,870875001e-01    5,944589376e-01    0,000000000e+00    0,000000000e+00    0,000000000e+00    0,000000000e+00
      660000000   -5,316235498e-02   -2,233745903e-02    5,667027831e-01    3,225235343e-01    0,000000000e+00    0,000000000e+00    0,000000000e+00    0,000000000e+00
      674000000   -6,967445463e-02   -1,777330972e-02    6,432268620e-01   -6,553305686e-02    0,000000000e+00    0,000000000e+00    0,000000000e+00    0,000000000e+00
      688000000   -6,787839532e-02    9,340880439e-03    4,708497822e-01   -4,277199507e-01    0,000000000e+00    0,000000000e+00    0,000000000e+00    0,000000000e+00
      702000000   -3,737985343e-02    2,598065324e-02    1,176906005e-01   -6,120947003e-01    0,000000000e+00    0,000000000e+00    0,000000000e+00    0,000000000e+00
      716000000    2,771463478e-03    1,708715223e-02   -2,638939917e-01   -5,465841293e-01    0,000000000e+00    0,000000000e+00    0,000000000e+00    0,000000000e+00
      730000000    3,627918661e-02   -1,093640458e-02   -5,287864208e-01   -2,693066001e-01    0,000000000e+00    0,000000000e+00    0,000000000e+00    0,000000000e+00
      744000000    6,453504413e-02   -6,273510307e-02   -5,642517805e-01    1,066440120e-01    0,000000000e+00    0,000000000e+00    0,000000000e+00    0,000000000e+00
      758000000    6,679225713e-02   -1,518283933e-01   -3,638214171e-01    4,103500247e-01    0,000000000e+00    0,000000000e+00    0,000000000e+00    0,000000000e+00
      772000000   -1,225925051e-02   -2,630771101e-01   -3,461792693e-02    5,164262652e-01    0,000000000e+00    0,000000000e+00    0,000000000e+00    0,000000000e+00
      786000000   -2,060305923e-01   -3,022848964e-01    2,736500204e-01    3,952190876e-01    0,000000000e+00    0,000000000e+00    0,000000000e+00    0,000000000e+00
      800000000   -4,249594212e-01   -1,293404400e-01    4,170179367e-01    9,880221635e-02    0,000000000e+00    0,000000000e+00    0,000000000e+00    0,000000000e+00
      814000000   -3,898378909e-01    2,211022526e-01    2,819658816e-01   -1,736096144e-01    0,000000000e+00    0,000000000e+00    0,000000000e+00    0,000000000e+00
      828000000   -4,980755597e-02    3,689563572e-01    5,493295193e-02   -1,892324686e-01    0,000000000e+00    0,000000000e+00    0,000000000e+00    0,000000000e+00
      842000000    2,353381515e-01    1,857592165e-01   -1,665473916e-02   -7,060408592e-02    0,000000000e+00    0,000000000e+00    0,000000000e+00    0,000000000e+00
      856000000    2,805310190e-01   -1,246312633e-01    4,550606385e-02   -1,284119207e-02    0,000000000e+00    0,000000000e+00    0,000000000e+00    0,000000000e+00
      870000000    7,458657771e-02   -3,765786588e-01    1,135275885e-01   -9,141216427e-02    0,000000000e+00    0,000000000e+00    0,000000000e+00    0,000000000e+00
      884000000   -2,954827547e-01   -3,623210192e-01    2,887463756e-02   -2,459131777e-01    0,000000000e+00    0,000000000e+00    0,000000000e+00    0,000000000e+00
      898000000   -4,726936221e-01    8,473415859e-03   -2,226020247e-01   -2,280821502e-01    0,000000000e+00    0,000000000e+00    0,000000000e+00    0,000000000e+00
      912000000   -2,256043553e-01    2,942534387e-01   -3,518055081e-01    6,364270300e-02    0,000000000e+00    0,000000000e+00    0,000000000e+00    0,000000000e+00
      926000000    6,755997241e-02    2,650742531e-01   -2,166616321e-01    2,667836845e-01    0,000000000e+00    0,000000000e+00    0,000000000e+00    0,000000000e+00
      940000000    2,165218294e-01    7,888526469e-02   -3,441536427e-02    3,291329741e-01    0,000000000e+00    0,000000000e+00    0,000000000e+00    0,000000000e+00
      954000000    2,247018069e-01   -1,292196363e-01    1,314949095e-01    3,065562546e-01    0,000000000e+00    0,000000000e+00    0,000000000e+00    0,000000000e+00
      968000000    1,163637191e-01   -2,972581089e-01    2,718016505e-01    2,184183449e-01    0,000000000e+00    0,000000000e+00    0,000000000e+00    0,000000000e+00
      982000000   -8,066104352e-02   -3,906558454e-01    3,650184870e-01    6,539520621e-02    0,000000000e+00    0,000000000e+00    0,000000000e+00    0,000000000e+00
      996000000   -3,196380436e-01   -3,308102489e-01    3,692584336e-01   -1,446120441e-01    0,000000000e+00    0,000000000e+00    0,000000000e+00    0,000000000e+00
     1010000000   -4,625540078e-01   -1,065115929e-01    2,220933288e-01   -3,416584134e-01    0,000000000e+00    0,000000000e+00    0,000000000e+00    0,000000000e+00
     1024000000   -4,107806683e-01    1,454694867e-01   -3,377238661e-02   -3,923877478e-01    0,000000000e+00    0,000000000e+00    0,000000000e+00    0,000000000e+00
     1038000000   -2,142901421e-01    2,932125330e-01   -2,471585274e-01   -2,599375844e-01    0,000000000e+00    0,000000000e+00    0,000000000e+00    0,000000000e+00
     1052000000   -4,908618052e-03    2,792341411e-01   -3,178519905e-01   -4,705530405e-02    0,000000000e+00    0,000000000e+00    0,000000000e+00    0,000000000e+00
     1066000000    1,348681301e-01    1,616421193e-01   -2,591726780e-01    1,457868665e-01    0,000000000e+00    0,000000000e+00    0,000000000e+00    0,000000000e+00
     1080000000    1,926340610e-01    1,851075911e-03   -1,200848818e-01    2,623648047e-01    0,000000000e+00    0,000000000e+00    0,000000000e+00    0,000000000e+00
     1094000000    1,510303169e-01   -1,764088124e-01    6,361051649e-02    3,042768240e-01    0,000000000e+00    0,000000000e+00    0,000000000e+00    0,000000000e+00
     1108000000    3,065250639e-04   -3,025758266e-01    2,781349123e-01    2,446164936e-01    0,000000000e+00    0,000000000e+00    0,000000000e+00    0,000000000e+00
     1122000000   -2,483930439e-01   -2,687019706e-01    4,721373916e-01    1,100844983e-02    0,000000000e+00    0,000000000e+00    0,000000000e+00    0,000000000e+00
     1136000000   -3,215255439e-01    3,715773299e-02    3,966141343e-01   -3,934939206e-01    0,000000000e+00    0,000000000e+00    0,000000000e+00    0,000000000e+00
     1150000000   -3,681160882e-02    1,521381885e-01    7,675024681e-03   -5,419925451e-01    0,000000000e+00    0,000000000e+00    0,000000000e+00    0,000000000e+00
     1164000000    1,233034432e-01   -6,565842777e-02   -2,775897086e-01   -3,795748949e-01    0,000000000e+00    0,000000000e+00    0,000000000e+00    0,000000000e+00
     1178000000    1,721453294e-02   -3,083448112e-01   -3,689874411e-01   -1,526124328e-01    0,000000000e+00    0,000000000e+00    0,000000000e+00    0,000000000e+00
     1192000000   -2,647076249e-01   -3,718613684e-01   -3,213506639e-01    5,470786616e-02    0,000000000e+00    0,000000000e+00    0,000000000e+00    0,000000000e+00
     1206000000   -5,169596076e-01   -1,612593085e-01   -1,647728831e-01    1,782564819e-01    0,000000000e+00    0,000000000e+00    0,000000000e+00    0,000000000e+00
     1220000000   -5,090306997e-01    1,699429452e-01   -4,080444574e-03    1,609562188e-01    0,000000000e+00    0,000000000e+00    0,000000000e+00    0,000000000e+00
     1234000000   -2,866948545e-01    3,573394120e-01    7,027778029e-02    5,997745693e-02    0,000000000e+00    0,000000000e+00    0,000000000e+00    0,000000000e+00
     1248000000   -4,414220527e-02    3,675904274e-01    5,060563982e-02   -3,253118834e-03    0,000000000e+00    0,000000000e+00    0,000000000e+00    0,000000000e+00
     1262000000    1,268260330e-01    2,562571764e-01    2,121665515e-02   -2,112023905e-02    0,000000000e+00    0,000000000e+00    0,000000000e+00    0,000000000e+00
     1276000000    2,135151774e-01    1,033146009e-01   -8,814570028e-04    8,055279031e-03    0,000000000e+00    0,000000000e+00    0,000000000e+00    0,000000000e+00
     1290000000    2,270315737e-01   -7,436259091e-02    2,048129961e-02    5,378040299e-02    0,000000000e+00    0,000000000e+00    0,000000000e+00    0,000000000e+00
     1304000000    1,515521109e-01   -2,433033586e-01    1,287809461e-01    6,668727845e-02    0,000000000e+00    0,000000000e+00    0,000000000e+00    0,000000000e+00
     1318000000    3,723107651e-02   -3,364816904e-01    1,288453788e-01   -1,664885432e-01    0,000000000e+00    0,000000000e+00    0,000000000e+00    0,000000000e+00
     1332000000   -1,336989701e-01   -4,364202917e-01   -4,843963310e-02   -4,449716210e-02    0,000000000e+00    0,000000000e+00    0,000000000e+00    0,000000000e+00
     1346000000   -4,003631175e-01   -4,073412716e-01    2,048566751e-02    6,615912169e-02    0,000000000e+00    0,000000000e+00    0,000000000e+00    0,000000000e+00
     1360000000   -6,052160263e-01   -1,809038818e-01    1,437088400e-01    7,481525093e-02    0,000000000e+00    0,000000000e+00    0,000000000e+00    0,000000000e+00
     1374000000   -6,316791177e-01    1,356306076e-01    2,010312378e-01    1,154186297e-02    0,000000000e+00    0,000000000e+00    0,000000000e+00    0,000000000e+00
     1388000000   -4,707630873e-01    3,712927401e-01    2,022942603e-01   -5,346404016e-02    0,000000000e+00    0,000000000e+00    0,000000000e+00    0,000000000e+00
     1402000000   -2,280546874e-01    4,536301792e-01    1,879896373e-01   -1,021024436e-01    0,000000000e+00    0,000000000e+00    0,000000000e+00    0,000000000e+00
     1416000000   -3,165944666e-02    4,117467999e-01    1,694768071e-01   -1,130988523e-01    0,000000000e+00    0,000000000e+00    0,000000000e+00    0,000000000e+00
     1430000000    1,215807945e-01    3,071908951e-01    1,606864780e-01   -8,545624465e-02    0,000000000e+00    0,000000000e+00    0,000000000e+00    0,000000000e+00
     1444000000    2,054055780e-01    1,536246240e-01    1,400798559e-01   -9,542342275e-02    0,000000000e+00    0,000000000e+00    0,000000000e+00    0,000000000e+00
     1458000000    2,363682389e-01   -1,824797131e-02    1,409396380e-01   -7,053210586e-02    0,000000000e+00    0,000000000e+00    0,000000000e+00    0,000000000e+00
     1472000000    1,904445291e-01   -2,028883100e-01    1,348966658e-01   -1,826446131e-02    0,000000000e+00    0,000000000e+00    0,000000000e+00    0,000000000e+00
     1486000000    6,796092540e-02   -3,738888800e-01    1,884211302e-01    3,588983789e-02    0,000000000e+00    0,000000000e+00    0,000000000e+00    0,000000000e+00
     1500000000   -1,809224337e-01   -4,897036254e-01    2,382139266e-01    1,084002405e-01    0,000000000e+00    0,000000000e+00    0,000000000e+00    0,000000000e+00
