! NanoVNA-App
! Date: 2025-09-25 15:32:46
! Start: 100MHz Stop: 1,5GHz Points: 101
! S-Parameter data: F S11 S21 S12 S22
# Hz S RI R 50
!     Frequency           S11_Real           S11_Imag           S21_Real           S21_Imag           S12_Real           S12_Imag           S22_Real           S22_Imag
      100000000   -2,887533233e-02   -4,167671781e-03    3,741172552e-01   -7,218225598e-01    0,000000000e+00    0,000000000e+00    0,000000000e+00    0,000000000e+00
      114000000   -1,649965532e-02    1,153232716e-02   -8,905737102e-02   -8,055571318e-01    0,000000000e+00    0,000000000e+00    0,000000000e+00    0,000000000e+00
      128000000    3,458201187e-03    1,057623606e-02   -5,145274997e-01   -6,205047965e-01    0,000000000e+00    0,000000000e+00    0,000000000e+00    0,000000000e+00
      142000000    1,453998685e-02   -2,964392770e-03   -7,672699690e-01   -2,366976887e-01    0,000000000e+00    0,000000000e+00    0,000000000e+00    0,000000000e+00
      156000000    1,592515782e-02   -1,435755845e-02   -7,697413564e-01    2,241427898e-01    0,000000000e+00    0,000000000e+00    0,000000000e+00    0,000000000e+00
      170000000    1,668832079e-02   -2,253860980e-02   -5,180941224e-01    6,047341824e-01    0,000000000e+00    0,000000000e+00    0,000000000e+00    0,000000000e+00
      184000000    2,095462382e-02   -3,703423217e-02   -1,013828889e-01    7,861539721e-01    0,000000000e+00    0,000000000e+00    0,000000000e+00    0,000000000e+00
      198000000    1,303706598e-02   -6,247605011e-02    3,430427015e-01    7,126161456e-01    0,000000000e+00    0,000000000e+00    0,000000000e+00    0,000000000e+00
      212000000   -1,861623302e-02   -8,134227246e-02    6,782174110e-01    4,098954201e-01    0,000000000e+00    0,000000000e+00    0,000000000e+00    0,000000000e+00
      226000000   -6,165980548e-02   -6,922045350e-02    7,956931591e-01   -3,049321473e-02    0,000000000e+00    0,000000000e+00    0,000000000e+00    0,000000000e+00
      240000000   -8,261815459e-02   -2,559954301e-02    6,462596655e-01   -4,671070278e-01    0,000000000e+00    0,000000000e+00    0,000000000e+00    0,000000000e+00
      254000000   -6,350882351e-02    1,724942215e-02    2,762049735e-01   -7,433782816e-01    0,000000000e+00    0,000000000e+00    0,000000000e+00    0,000000000e+00
      268000000   -2,387783490e-02    2,892230451e-02   -1,781347841e-01   -7,642534971e-01    0,000000000e+00    0,000000000e+00    0,000000000e+00    0,000000000e+00
      282000000    4,204254132e-03    1,199851464e-02   -5,618410707e-01   -5,353677869e-01    0,000000000e+00    0,000000000e+00    0,000000000e+00    0,000000000e+00
      296000000    9,568131529e-03   -7,893458009e-03   -7,598211169e-01   -1,395006925e-01    0,000000000e+00    0,000000000e+00    0,000000000e+00    0,000000000e+00
      310000000    1,108782180e-02   -1,622147113e-02   -7,122753263e-01    2,974198461e-01    0,000000000e+00    0,000000000e+00    0,000000000e+00    0,000000000e+00
      324000000    1,945830882e-02   -2,649078146e-02   -4,282576144e-01    6,371612549e-01    0,000000000e+00    0,000000000e+00    0,000000000e+00    0,000000000e+00
      338000000    2,560300753e-02   -5,224192515e-02   -7,564446423e-03    7,632778883e-01    0,000000000e+00    0,000000000e+00    0,000000000e+00    0,000000000e+00
      352000000    7,461478002e-03   -8,458013833e-02    4,072474241e-01    6,390672922e-01    0,000000000e+00    0,000000000e+00    0,000000000e+00    0,000000000e+00
      366000000   -3,482354432e-02   -9,539955854e-02    6,908572912e-01    3,114314675e-01    0,000000000e+00    0,000000000e+00    0,000000000e+00    0,000000000e+00
      380000000   -7,098188996e-02   -7,109564543e-02    7,478122711e-01   -1,257096678e-01    0,000000000e+00    0,000000000e+00    0,000000000e+00    0,000000000e+00
      394000000   -7,264564931e-02   -3,229274228e-02    5,470104814e-01   -5,223569870e-01    0,000000000e+00    0,000000000e+00    0,000000000e+00    0,000000000e+00
      408000000   -4,649496824e-02   -1,616479084e-02    1,606257111e-01   -7,319156528e-01    0,000000000e+00    0,000000000e+00    0,000000000e+00    0,000000000e+00
      422000000   -2,846406214e-02   -3,206558153e-02   -2,675656378e-01   -6,956077814e-01    0,000000000e+00    0,000000000e+00    0,000000000e+00    0,000000000e+00
      436000000   -4,057696089e-02   -5,181148276e-02   -6,037795544e-01   -4,319142699e-01    0,000000000e+00    0,000000000e+00    0,000000000e+00    0,000000000e+00
      450000000   -6,719221920e-02   -4,382366687e-02   -7,406481504e-01   -2,112595364e-02    0,000000000e+00    0,000000000e+00    0,000000000e+00    0,000000000e+00
      464000000   -7,356254011e-02   -1,148368325e-02   -6,189376712e-01    3,974431753e-01    0,000000000e+00    0,000000000e+00    0,000000000e+00    0,000000000e+00
      478000000   -4,791239277e-02    1,167127676e-02   -2,827005088e-01    6,681402922e-01    0,000000000e+00    0,000000000e+00    0,000000000e+00    0,000000000e+00
      492000000   -1,555916015e-02    5,710147321e-03    1,379007846e-01    7,006003857e-01    0,000000000e+00    0,000000000e+00    0,000000000e+00    0,000000000e+00
      506000000   -2,586602699e-03   -1,571732759e-02    4,987232983e-01    5,028151870e-01    0,000000000e+00    0,000000000e+00    0,000000000e+00    0,000000000e+00
      520000000   -4,912391771e-03   -3,132247180e-02    6,868191361e-01    1,422739178e-01    0,000000000e+00    0,000000000e+00    0,000000000e+00    0,000000000e+00
      534000000   -4,084662069e-03   -3,801701590e-02    6,434275508e-01   -2,625155747e-01    0,000000000e+00    0,000000000e+00    0,000000000e+00    0,000000000e+00
      548000000    5,665549543e-03   -5,395065993e-02    3,812355399e-01   -5,677946806e-01    0,000000000e+00    0,000000000e+00    0,000000000e+00    0,000000000e+00
      562000000    3,109408775e-03   -8,905679733e-02    1,727018738e-03   -6,731427908e-01    0,000000000e+00    0,000000000e+00    0,000000000e+00    0,000000000e+00
      576000000   -3,380312398e-02   -1,245560646e-01   -3,693559468e-01   -5,577514172e-01    0,000000000e+00    0,000000000e+00    0,000000000e+00    0,000000000e+00
      590000000   -9,647971392e-02   -1,227639243e-01   -6,204124093e-01   -2,624396980e-01    0,000000000e+00    0,000000000e+00    0,000000000e+00    0,000000000e+00
      604000000   -1,391920447e-01   -7,209609449e-02   -6,645361781e-01    1,379446238e-01    0,000000000e+00    0,000000000e+00    0,000000000e+00    0,000000000e+00
      618000000   -1,289549917e-01   -8,821961470e-03   -4,647610784e-01    4,945573807e-01    0,000000000e+00    0,000000000e+00    0,000000000e+00    0,000000000e+00
      632000000   -8,343251050e-02    1,705576666e-02   -9,897974879e-02    6,628849506e-01    0,000000000e+00    0,000000000e+00    0,000000000e+00    0,000000000e+00
      646000000   -5,133338645e-02    1,229557529e-04    2,879751921e-01    5,960767865e-01    0,000000000e+00    0,000000000e+00    0,000000000e+00    0,000000000e+00
      660000000   -5,321026593e-02   -2,095366828e-02    5,675508380e-01    3,229370117e-01    0,000000000e+00    0,000000000e+00    0,000000000e+00    0,000000000e+00
      674000000   -6,966542453e-02   -1,794333942e-02    6,434818506e-01   -6,510807574e-02    0,000000000e+00    0,000000000e+00    0,000000000e+00    0,000000000e+00
      688000000   -6,907851994e-02    8,476581424e-03    4,712873101e-01   -4,287120998e-01    0,000000000e+00    0,000000000e+00    0,000000000e+00    0,000000000e+00
      702000000   -3,837431222e-02    2,556188032e-02    1,220183298e-01   -6,107158065e-01    0,000000000e+00    0,000000000e+00    0,000000000e+00    0,000000000e+00
      716000000    2,838494722e-03    1,729792356e-02   -2,652630508e-01   -5,466054082e-01    0,000000000e+00    0,000000000e+00    0,000000000e+00    0,000000000e+00
      730000000    3,606043383e-02   -1,094317995e-02   -5,286368728e-01   -2,686686218e-01    0,000000000e+00    0,000000000e+00    0,000000000e+00    0,000000000e+00
      744000000    6,564042717e-02   -6,238983572e-02   -5,640442371e-01    1,061943099e-01    0,000000000e+00    0,000000000e+00    0,000000000e+00    0,000000000e+00
      758000000    6,648064405e-02   -1,525964439e-01   -3,631879985e-01    4,107330441e-01    0,000000000e+00    0,000000000e+00    0,000000000e+00    0,000000000e+00
      772000000   -1,253228169e-02   -2,618713975e-01   -3,484867513e-02    5,146514177e-01    0,000000000e+00    0,000000000e+00    0,000000000e+00    0,000000000e+00
      786000000   -2,076561004e-01   -3,027063310e-01    2,744476199e-01    3,955084383e-01    0,000000000e+00    0,000000000e+00    0,000000000e+00    0,000000000e+00
      800000000   -4,263172150e-01   -1,310034543e-01    4,173038602e-01    9,949896485e-02    0,000000000e+00    0,000000000e+00    0,000000000e+00    0,000000000e+00
      814000000   -3,890424371e-01    2,223040462e-01    2,824081182e-01   -1,728878766e-01    0,000000000e+00    0,000000000e+00    0,000000000e+00    0,000000000e+00
      828000000   -4,986744374e-02    3,689057529e-01    5,529731140e-02   -1,895352304e-01    0,000000000e+00    0,000000000e+00    0,000000000e+00    0,000000000e+00
      842000000    2,348849326e-01    1,857871711e-01   -1,696845144e-02   -7,100355625e-02    0,000000000e+00    0,000000000e+00    0,000000000e+00    0,000000000e+00
      856000000    2,806660831e-01   -1,240988225e-01    4,560797662e-02   -1,296080370e-02    0,000000000e+00    0,000000000e+00    0,000000000e+00    0,000000000e+00
      870000000    7,482419163e-02   -3,774352372e-01    1,138260216e-01   -9,141303599e-02    0,000000000e+00    0,000000000e+00    0,000000000e+00    0,000000000e+00
      884000000   -2,960568666e-01   -3,625896573e-01    2,870793827e-02   -2,452846915e-01    0,000000000e+00    0,000000000e+00    0,000000000e+00    0,000000000e+00
      898000000   -4,728837311e-01    8,689034730e-03   -2,226156443e-01   -2,284955680e-01    0,000000000e+00    0,000000000e+00    0,000000000e+00    0,000000000e+00
      912000000   -2,248611301e-01    2,943986356e-01   -3,463968933e-01    7,629609853e-02    0,000000000e+00    0,000000000e+00    0,000000000e+00    0,000000000e+00
      926000000    6,680245697e-02    2,651768029e-01   -2,167904079e-01    2,665169835e-01    0,000000000e+00    0,000000000e+00    0,000000000e+00    0,000000000e+00
      940000000    2,140540183e-01    7,993698865e-02   -3,503870219e-02    3,308555782e-01    0,000000000e+00    0,000000000e+00    0,000000000e+00    0,000000000e+00
      954000000    2,213091403e-01   -1,291514337e-01    1,297076046e-01    3,069103658e-01    0,000000000e+00    0,000000000e+00    0,000000000e+00    0,000000000e+00
      968000000    1,160796657e-01   -3,016851544e-01    2,710963190e-01    2,196026891e-01    0,000000000e+00    0,000000000e+00    0,000000000e+00    0,000000000e+00
      982000000   -8,484561741e-02   -3,866281807e-01    3,665822446e-01    6,521262974e-02    0,000000000e+00    0,000000000e+00    0,000000000e+00    0,000000000e+00
      996000000   -3,178001344e-01   -3,329077661e-01    3,692485094e-01   -1,448046118e-01    0,000000000e+00    0,000000000e+00    0,000000000e+00    0,000000000e+00
     1010000000   -4,610635042e-01   -1,086217910e-01    2,223436385e-01   -3,417970538e-01    0,000000000e+00    0,000000000e+00    0,000000000e+00    0,000000000e+00
     1024000000   -4,119364321e-01    1,469762772e-01   -3,362334520e-02   -3,942016661e-01    0,000000000e+00    0,000000000e+00    0,000000000e+00    0,000000000e+00
     1038000000   -2,202702761e-01    2,925759256e-01   -2,463276833e-01   -2,594362795e-01    0,000000000e+00    0,000000000e+00    0,000000000e+00    0,000000000e+00
     1052000000   -1,056298520e-02    2,783340216e-01   -3,152563274e-01   -4,706517980e-02    0,000000000e+00    0,000000000e+00    0,000000000e+00    0,000000000e+00
     1066000000    1,342204809e-01    1,615554094e-01   -2,575536966e-01    1,450398266e-01    0,000000000e+00    0,000000000e+00    0,000000000e+00    0,000000000e+00
     1080000000    1,949823201e-01   -2,927094465e-03   -1,196871325e-01    2,645601630e-01    0,000000000e+00    0,000000000e+00    0,000000000e+00    0,000000000e+00
     1094000000    1,506675482e-01   -1,757438481e-01    6,371679902e-02    3,023530543e-01    0,000000000e+00    0,000000000e+00    0,000000000e+00    0,000000000e+00
     1108000000    7,618051022e-04   -3,030788004e-01    2,764945030e-01    2,468333244e-01    0,000000000e+00    0,000000000e+00    0,000000000e+00    0,000000000e+00
     1122000000   -2,494881153e-01   -2,597933412e-01    4,701669514e-01    1,400894299e-02    0,000000000e+00    0,000000000e+00    0,000000000e+00    0,000000000e+00
     1136000000   -3,233746588e-01    3,447012603e-02    3,988482952e-01   -3,929430842e-01    0,000000000e+00    0,000000000e+00    0,000000000e+00    0,000000000e+00
     1150000000   -3,729732335e-02    1,517303884e-01    7,803500630e-03   -5,448268056e-01    0,000000000e+00    0,000000000e+00    0,000000000e+00    0,000000000e+00
     1164000000    1,203712150e-01   -6,523443013e-02   -2,781800628e-01   -3,775854707e-01    0,000000000e+00    0,000000000e+00    0,000000000e+00    0,000000000e+00
     1178000000    1,960129663e-02   -3,023405075e-01   -3,679441512e-01   -1,497270763e-01    0,000000000e+00    0,000000000e+00    0,000000000e+00    0,000000000e+00
     1192000000   -2,672151625e-01   -3,738472164e-01   -3,237057030e-01    5,782205239e-02    0,000000000e+00    0,000000000e+00    0,000000000e+00    0,000000000e+00
     1206000000   -5,207372308e-01   -1,612249017e-01   -1,642562300e-01    1,803516448e-01    0,000000000e+00    0,000000000e+00    0,000000000e+00    0,000000000e+00
     1220000000   -5,124215484e-01    1,760151684e-01    2,993040252e-03    1,576540768e-01    0,000000000e+00    0,000000000e+00    0,000000000e+00    0,000000000e+00
     1234000000   -2,821246982e-01    3,638280630e-01    6,932262331e-02    6,390935928e-02    0,000000000e+00    0,000000000e+00    0,000000000e+00    0,000000000e+00
     1248000000   -4,243034124e-02    3,679598570e-01    6,175531074e-02   -8,633851074e-03    0,000000000e+00    0,000000000e+00    0,000000000e+00    0,000000000e+00
     1262000000    1,252669394e-01    2,535902858e-01    1,942674443e-02   -2,247991227e-02    0,000000000e+00    0,000000000e+00    0,000000000e+00    0,000000000e+00
     1276000000    2,159518450e-01    9,904817492e-02   -6,221313961e-04    3,008598927e-03    0,000000000e+00    0,000000000e+00    0,000000000e+00    0,000000000e+00
     1290000000    2,219740897e-01   -7,816962898e-02    1,800458878e-02    5,015050620e-02    0,000000000e+00    0,000000000e+00    0,000000000e+00    0,000000000e+00
     1304000000    1,541154534e-01   -2,457548827e-01    1,327905357e-01    6,456034631e-02    0,000000000e+00    0,000000000e+00    0,000000000e+00    0,000000000e+00
     1318000000    3,266556561e-02   -3,330790997e-01    1,245864853e-01   -1,572407186e-01    0,000000000e+00    0,000000000e+00    0,000000000e+00    0,000000000e+00
     1332000000   -1,318697780e-01   -4,337517917e-01   -5,360457301e-02   -4,356627911e-02    0,000000000e+00    0,000000000e+00    0,000000000e+00    0,000000000e+00
     1346000000   -4,002529979e-01   -4,138690233e-01    2,470177226e-02    6,746912003e-02    0,000000000e+00    0,000000000e+00    0,000000000e+00    0,000000000e+00
     1360000000   -6,068771482e-01   -1,822834015e-01    1,399656087e-01    7,365714759e-02    0,000000000e+00    0,000000000e+00    0,000000000e+00    0,000000000e+00
     1374000000   -6,355065107e-01    1,251868457e-01    2,025646120e-01    3,556315787e-03    0,000000000e+00    0,000000000e+00    0,000000000e+00    0,000000000e+00
     1388000000   -4,699569046e-01    3,658095598e-01    2,078958303e-01   -6,911844760e-02    0,000000000e+00    0,000000000e+00    0,000000000e+00    0,000000000e+00
     1402000000   -2,326483279e-01    4,550004601e-01    1,857513040e-01   -1,033185497e-01    0,000000000e+00    0,000000000e+00    0,000000000e+00    0,000000000e+00
     1416000000   -3,146524355e-02    4,115201235e-01    1,616458595e-01   -1,001963615e-01    0,000000000e+00    0,000000000e+00    0,000000000e+00    0,000000000e+00
     1430000000    1,236175373e-01    2,987309992e-01    1,714727432e-01   -9,039364755e-02    0,000000000e+00    0,000000000e+00    0,000000000e+00    0,000000000e+00
     1444000000    2,072792649e-01    1,538335234e-01    1,515832841e-01   -9,263686091e-02    0,000000000e+00    0,000000000e+00    0,000000000e+00    0,000000000e+00
     1458000000    2,347278297e-01   -1,745899022e-02    1,361188293e-01   -7,211093605e-02    0,000000000e+00    0,000000000e+00    0,000000000e+00    0,000000000e+00
     1472000000    1,952830851e-01   -2,061952353e-01    1,363943815e-01   -2,866694145e-02    0,000000000e+00    0,000000000e+00    0,000000000e+00    0,000000000e+00
     1486000000    5,780969560e-02   -3,735654056e-01    1,673786044e-01    4,611573741e-02    0,000000000e+00    0,000000000e+00    0,000000000e+00    0,000000000e+00
     1500000000   -1,763840318e-01   -4,980612099e-01    2,398196608e-01    1,041410714e-01    0,000000000e+00    0,000000000e+00    0,000000000e+00    0,000000000e+00
