! NanoVNA-App
! Date: 2025-09-25 15:31:12
! Start: 100MHz Stop: 1,5GHz Points: 101
! S-Parameter data: F S11 S21 S12 S22
# Hz S RI R 50
!     Frequency           S11_Real           S11_Imag           S21_Real           S21_Imag           S12_Real           S12_Imag           S22_Real           S22_Imag
      100000000   -2,887374349e-02   -4,169280175e-03    3,741041124e-01   -7,217833400e-01    0,000000000e+00    0,000000000e+00    0,000000000e+00    0,000000000e+00
      114000000   -1,651257835e-02    1,151055843e-02   -8,902949095e-02   -8,052604198e-01    0,000000000e+00    0,000000000e+00    0,000000000e+00    0,000000000e+00
      128000000    3,474906553e-03    1,051844936e-02   -5,147782564e-01   -6,206971407e-01    0,000000000e+00    0,000000000e+00    0,000000000e+00    0,000000000e+00
      142000000    1,454255451e-02   -2,926656744e-03   -7,669824958e-01   -2,365072221e-01    0,000000000e+00    0,000000000e+00    0,000000000e+00    0,000000000e+00
      156000000    1,437754743e-02   -1,481955033e-02   -7,644200325e-01    2,202574164e-01    0,000000000e+00    0,000000000e+00    0,000000000e+00    0,000000000e+00
      170000000    1,664615981e-02   -2,257530391e-02   -5,181013942e-01    6,045147181e-01    0,000000000e+00    0,000000000e+00    0,000000000e+00    0,000000000e+00
      184000000    2,096667513e-02   -3,706590831e-02   -1,013948768e-01    7,863512039e-01    0,000000000e+00    0,000000000e+00    0,000000000e+00    0,000000000e+00
      198000000    1,297288295e-02   -6,243850291e-02    3,432399929e-01    7,122852802e-01    0,000000000e+00    0,000000000e+00    0,000000000e+00    0,000000000e+00
      212000000   -1,867751777e-02   -8,128204942e-02    6,782281995e-01    4,099995196e-01    0,000000000e+00    0,000000000e+00    0,000000000e+00    0,000000000e+00
      226000000   -6,165880710e-02   -6,917306781e-02    7,957481146e-01   -3,066558205e-02    0,000000000e+00    0,000000000e+00    0,000000000e+00    0,000000000e+00
      240000000   -8,260261267e-02   -2,560892887e-02    6,462257504e-01   -4,670204222e-01    0,000000000e+00    0,000000000e+00    0,000000000e+00    0,000000000e+00
      254000000   -6,353672594e-02    1,727434434e-02    2,760932446e-01   -7,435114980e-01    0,000000000e+00    0,000000000e+00    0,000000000e+00    0,000000000e+00
      268000000   -2,388021350e-02    2,895337902e-02   -1,779899299e-01   -7,642832994e-01    0,000000000e+00    0,000000000e+00    0,000000000e+00    0,000000000e+00
      282000000    4,123381339e-03    1,191578899e-02   -5,617454052e-01   -5,361745954e-01    0,000000000e+00    0,000000000e+00    0,000000000e+00    0,000000000e+00
      296000000    9,579170495e-03   -7,802778389e-03   -7,595034242e-01   -1,396443844e-01    0,000000000e+00    0,000000000e+00    0,000000000e+00    0,000000000e+00
      310000000    1,113667246e-02   -1,605151035e-02   -7,132703066e-01    2,993773818e-01    0,000000000e+00    0,000000000e+00    0,000000000e+00    0,000000000e+00
      324000000    1,966538839e-02   -2,647998556e-02   -4,265147150e-01    6,375123858e-01    0,000000000e+00    0,000000000e+00    0,000000000e+00    0,000000000e+00
      338000000    2,560338750e-02   -5,190648884e-02   -8,724195883e-03    7,607658505e-01    0,000000000e+00    0,000000000e+00    0,000000000e+00    0,000000000e+00
      352000000    7,651143707e-03   -8,453965187e-02    4,064439833e-01    6,390636563e-01    0,000000000e+00    0,000000000e+00    0,000000000e+00    0,000000000e+00
      366000000   -3,467797488e-02   -9,533582628e-02    6,902275085e-01    3,110279441e-01    0,000000000e+00    0,000000000e+00    0,000000000e+00    0,000000000e+00
      380000000   -7,069125026e-02   -7,101581246e-02    7,479465008e-01   -1,256217510e-01    0,000000000e+00    0,000000000e+00    0,000000000e+00    0,000000000e+00
      394000000   -7,252133638e-02   -3,220979497e-02    5,472396016e-01   -5,223734379e-01    0,000000000e+00    0,000000000e+00    0,000000000e+00    0,000000000e+00
      408000000   -4,633226618e-02   -1,629185490e-02    1,617295593e-01   -7,337266207e-01    0,000000000e+00    0,000000000e+00    0,000000000e+00    0,000000000e+00
      422000000   -2,827207930e-02   -3,217129409e-02   -2,674416006e-01   -6,955569386e-01    0,000000000e+00    0,000000000e+00    0,000000000e+00    0,000000000e+00
      436000000   -4,045933485e-02   -5,211417750e-02   -6,038644314e-01   -4,319250882e-01    0,000000000e+00    0,000000000e+00    0,000000000e+00    0,000000000e+00
      450000000   -6,766160578e-02   -4,383249208e-02   -7,408387661e-01   -2,096042968e-02    0,000000000e+00    0,000000000e+00    0,000000000e+00    0,000000000e+00
      464000000   -7,342994958e-02   -1,143167913e-02   -6,186306477e-01    3,980782330e-01    0,000000000e+00    0,000000000e+00    0,000000000e+00    0,000000000e+00
      478000000   -4,762606323e-02    1,161495410e-02   -2,815659940e-01    6,674926877e-01    0,000000000e+00    0,000000000e+00    0,000000000e+00    0,000000000e+00
      492000000   -1,591656730e-02    6,170937791e-03    1,374409944e-01    7,008435130e-01    0,000000000e+00    0,000000000e+00    0,000000000e+00    0,000000000e+00
      506000000   -2,773462795e-03   -1,586286351e-02    4,983162582e-01    5,017648339e-01    0,000000000e+00    0,000000000e+00    0,000000000e+00    0,000000000e+00
      520000000   -5,170131568e-03   -3,102352284e-02    6,887813807e-01    1,407498121e-01    0,000000000e+00    0,000000000e+00    0,000000000e+00    0,000000000e+00
      534000000   -3,668575780e-03   -3,823097423e-02    6,434304118e-01   -2,627954483e-01    0,000000000e+00    0,000000000e+00    0,000000000e+00    0,000000000e+00
      548000000    6,274768151e-03   -5,365538597e-02    3,810257316e-01   -5,674548149e-01    0,000000000e+00    0,000000000e+00    0,000000000e+00    0,000000000e+00
      562000000    2,899432089e-03   -8,968702704e-02    2,839819295e-03   -6,721338630e-01    0,000000000e+00    0,000000000e+00    0,000000000e+00    0,000000000e+00
      576000000   -3,429466859e-02   -1,248817518e-01   -3,692311645e-01   -5,580651164e-01    0,000000000e+00    0,000000000e+00    0,000000000e+00    0,000000000e+00
      590000000   -9,611813724e-02   -1,227818057e-01   -6,225686073e-01   -2,644579411e-01    0,000000000e+00    0,000000000e+00    0,000000000e+00    0,000000000e+00
      604000000   -1,398308277e-01   -7,206245512e-02   -6,647287011e-01    1,378836483e-01    0,000000000e+00    0,000000000e+00    0,000000000e+00    0,000000000e+00
      618000000   -1,297120750e-01   -8,541671559e-03   -4,648154080e-01    4,942335188e-01    0,000000000e+00    0,000000000e+00    0,000000000e+00    0,000000000e+00
      632000000   -8,433936536e-02    1,714253053e-02   -9,875348210e-02    6,624480486e-01    0,000000000e+00    0,000000000e+00    0,000000000e+00    0,000000000e+00
      646000000   -5,172041059e-02    9,221857181e-04    2,879126966e-01    5,957902670e-01    0,000000000e+00    0,000000000e+00    0,000000000e+00    0,000000000e+00
      660000000   -5,269037560e-02   -2,155589499e-02    5,667081475e-01    3,230249584e-01    0,000000000e+00    0,000000000e+00    0,000000000e+00    0,000000000e+00
      674000000   -7,084581256e-02   -1,798850857e-02    6,431182623e-01   -6,547544152e-02    0,000000000e+00    0,000000000e+00    0,000000000e+00    0,000000000e+00
      688000000   -6,893323362e-02    8,610480465e-03    4,711661339e-01   -4,280139804e-01    0,000000000e+00    0,000000000e+00    0,000000000e+00    0,000000000e+00
      702000000   -3,707494214e-02    2,685452811e-02    1,172547340e-01   -6,090049148e-01    0,000000000e+00    0,000000000e+00    0,000000000e+00    0,000000000e+00
      716000000    1,660672366e-03    1,814992353e-02   -2,657495737e-01   -5,472252965e-01    0,000000000e+00    0,000000000e+00    0,000000000e+00    0,000000000e+00
      730000000    3,629210591e-02   -1,119025797e-02   -5,287442803e-01   -2,688674927e-01    0,000000000e+00    0,000000000e+00    0,000000000e+00    0,000000000e+00
      744000000    6,564742327e-02   -6,194920093e-02   -5,646350980e-01    1,062182114e-01    0,000000000e+00    0,000000000e+00    0,000000000e+00    0,000000000e+00
      758000000    6,686483324e-02   -1,518295258e-01   -3,635182083e-01    4,102078378e-01    0,000000000e+00    0,000000000e+00    0,000000000e+00    0,000000000e+00
      772000000   -1,257086545e-02   -2,615789771e-01   -3,434645757e-02    5,149642825e-01    0,000000000e+00    0,000000000e+00    0,000000000e+00    0,000000000e+00
      786000000   -2,064400911e-01   -3,033036292e-01    2,741701007e-01    3,954597116e-01    0,000000000e+00    0,000000000e+00    0,000000000e+00    0,000000000e+00
      800000000   -4,266163111e-01   -1,304775923e-01    4,173102379e-01    9,920880198e-02    0,000000000e+00    0,000000000e+00    0,000000000e+00    0,000000000e+00
      814000000   -3,907499909e-01    2,213151753e-01    2,818963528e-01   -1,730068624e-01    0,000000000e+00    0,000000000e+00    0,000000000e+00    0,000000000e+00
      828000000   -4,896898195e-02    3,691270053e-01    5,553045869e-02   -1,892038286e-01    0,000000000e+00    0,000000000e+00    0,000000000e+00    0,000000000e+00
      842000000    2,350889444e-01    1,860736012e-01   -1,717992313e-02   -7,017917931e-02    0,000000000e+00    0,000000000e+00    0,000000000e+00    0,000000000e+00
      856000000    2,805359066e-01   -1,248414591e-01    4,506083950e-02   -1,320685167e-02    0,000000000e+00    0,000000000e+00    0,000000000e+00    0,000000000e+00
      870000000    7,519251853e-02   -3,762926161e-01    1,134992987e-01   -9,147801250e-02    0,000000000e+00    0,000000000e+00    0,000000000e+00    0,000000000e+00
      884000000   -2,963296473e-01   -3,612087071e-01    2,955468930e-02   -2,456249744e-01    0,000000000e+00    0,000000000e+00    0,000000000e+00    0,000000000e+00
      898000000   -4,726607502e-01    9,472367354e-03   -2,226241082e-01   -2,274579704e-01    0,000000000e+00    0,000000000e+00    0,000000000e+00    0,000000000e+00
      912000000   -2,262027562e-01    2,949293554e-01   -3,382714987e-01    6,375116110e-02    0,000000000e+00    0,000000000e+00    0,000000000e+00    0,000000000e+00
      926000000    6,585343927e-02    2,639196813e-01   -2,188870013e-01    2,665460408e-01    0,000000000e+00    0,000000000e+00    0,000000000e+00    0,000000000e+00
      940000000    2,145779729e-01    7,872995734e-02   -3,664007410e-02    3,292737007e-01    0,000000000e+00    0,000000000e+00    0,000000000e+00    0,000000000e+00
      954000000    2,233518958e-01   -1,296221912e-01    1,316200793e-01    3,070661128e-01    0,000000000e+00    0,000000000e+00    0,000000000e+00    0,000000000e+00
      968000000    1,136843190e-01   -2,988803983e-01    2,703763247e-01    2,188772559e-01    0,000000000e+00    0,000000000e+00    0,000000000e+00    0,000000000e+00
      982000000   -8,450832963e-02   -3,885578811e-01    3,662855327e-01    6,541440636e-02    0,000000000e+00    0,000000000e+00    0,000000000e+00    0,000000000e+00
      996000000   -3,184359670e-01   -3,313196003e-01    3,686703444e-01   -1,451401711e-01    0,000000000e+00    0,000000000e+00    0,000000000e+00    0,000000000e+00
     1010000000   -4,654701948e-01   -1,071006954e-01    2,236940563e-01   -3,406897485e-01    0,000000000e+00    0,000000000e+00    0,000000000e+00    0,000000000e+00
     1024000000   -4,104608595e-01    1,467179805e-01   -3,422622383e-02   -3,930420578e-01    0,000000000e+00    0,000000000e+00    0,000000000e+00    0,000000000e+00
     1038000000   -2,207500786e-01    2,913696170e-01   -2,472927123e-01   -2,609550953e-01    0,000000000e+00    0,000000000e+00    0,000000000e+00    0,000000000e+00
     1052000000   -9,807751514e-03    2,754592896e-01   -3,185488582e-01   -4,605104029e-02    0,000000000e+00    0,000000000e+00    0,000000000e+00    0,000000000e+00
     1066000000    1,372036487e-01    1,662158668e-01   -2,598366737e-01    1,407850534e-01    0,000000000e+00    0,000000000e+00    0,000000000e+00    0,000000000e+00
     1080000000    1,954798102e-01   -2,709621564e-03   -1,203138530e-01    2,662313879e-01    0,000000000e+00    0,000000000e+00    0,000000000e+00    0,000000000e+00
     1094000000    1,494210660e-01   -1,750520617e-01    6,433315575e-02    3,045818806e-01    0,000000000e+00    0,000000000e+00    0,000000000e+00    0,000000000e+00
     1108000000   -1,840191428e-03   -3,069154322e-01    2,795591354e-01    2,470401376e-01    0,000000000e+00    0,000000000e+00    0,000000000e+00    0,000000000e+00
     1122000000   -2,508532107e-01   -2,617557943e-01    4,728486836e-01    1,267522760e-02    0,000000000e+00    0,000000000e+00    0,000000000e+00    0,000000000e+00
     1136000000   -3,138598800e-01    3,193822131e-02    3,994529843e-01   -3,945406973e-01    0,000000000e+00    0,000000000e+00    0,000000000e+00    0,000000000e+00
     1150000000   -3,570811823e-02    1,537636369e-01    4,276047926e-03   -5,425059199e-01    0,000000000e+00    0,000000000e+00    0,000000000e+00    0,000000000e+00
     1164000000    1,230778694e-01   -6,575704366e-02   -2,768276334e-01   -3,810169399e-01    0,000000000e+00    0,000000000e+00    0,000000000e+00    0,000000000e+00
     1178000000    1,819275320e-02   -3,063322008e-01   -3,690924048e-01   -1,514782459e-01    0,000000000e+00    0,000000000e+00    0,000000000e+00    0,000000000e+00
     1192000000   -2,660205066e-01   -3,723577559e-01   -3,237564862e-01    5,435882509e-02    0,000000000e+00    0,000000000e+00    0,000000000e+00    0,000000000e+00
     1206000000   -5,184657574e-01   -1,603353024e-01   -1,639194041e-01    1,792482734e-01    0,000000000e+00    0,000000000e+00    0,000000000e+00    0,000000000e+00
     1220000000   -5,121425986e-01    1,709000021e-01    2,500446280e-03    1,558791548e-01    0,000000000e+00    0,000000000e+00    0,000000000e+00    0,000000000e+00
     1234000000   -2,817758024e-01    3,612108827e-01    7,336738706e-02    6,127441674e-02    0,000000000e+00    0,000000000e+00    0,000000000e+00    0,000000000e+00
     1248000000   -4,072081670e-02    3,617591262e-01    5,641197413e-02   -4,604927264e-03    0,000000000e+00    0,000000000e+00    0,000000000e+00    0,000000000e+00
     1262000000    1,234992445e-01    2,583852112e-01    2,113665454e-02   -1,688115858e-02    0,000000000e+00    0,000000000e+00    0,000000000e+00    0,000000000e+00
     1276000000    2,137392610e-01    9,705015272e-02   -4,659816041e-04    2,030222211e-03    0,000000000e+00    0,000000000e+00    0,000000000e+00    0,000000000e+00
     1290000000    2,232574821e-01   -7,730922848e-02    1,616858505e-02    4,993519932e-02    0,000000000e+00    0,000000000e+00    0,000000000e+00    0,000000000e+00
     1304000000    1,516109258e-01   -2,398919314e-01    1,257445216e-01    6,832443923e-02    0,000000000e+00    0,000000000e+00    0,000000000e+00    0,000000000e+00
     1318000000    3,670758754e-02   -3,359873891e-01    1,340091079e-01   -1,631931365e-01    0,000000000e+00    0,000000000e+00    0,000000000e+00    0,000000000e+00
     1332000000   -1,282364726e-01   -4,347206950e-01   -4,433858395e-02   -4,460464418e-02    0,000000000e+00    0,000000000e+00    0,000000000e+00    0,000000000e+00
     1346000000   -3,905521035e-01   -4,137585461e-01    2,616714127e-02    6,181392074e-02    0,000000000e+00    0,000000000e+00    0,000000000e+00    0,000000000e+00
     1360000000   -6,029794216e-01   -1,928500682e-01    1,452146769e-01    7,149180770e-02    0,000000000e+00    0,000000000e+00    0,000000000e+00    0,000000000e+00
     1374000000   -6,414894462e-01    1,187627241e-01    1,976720840e-01   -1,603457349e-04    0,000000000e+00    0,000000000e+00    0,000000000e+00    0,000000000e+00
     1388000000   -4,623709619e-01    3,794790804e-01    2,060516924e-01   -5,713259801e-02    0,000000000e+00    0,000000000e+00    0,000000000e+00    0,000000000e+00
     1402000000   -2,383642942e-01    4,539880455e-01    1,861182004e-01   -9,771782905e-02    0,000000000e+00    0,000000000e+00    0,000000000e+00    0,000000000e+00
     1416000000   -3,362997994e-02    4,061545730e-01    1,685189158e-01   -1,048492491e-01    0,000000000e+00    0,000000000e+00    0,000000000e+00    0,000000000e+00
     1430000000    1,204802394e-01    3,025073707e-01    1,701831818e-01   -8,452422917e-02    0,000000000e+00    0,000000000e+00    0,000000000e+00    0,000000000e+00
     1444000000    2,105223089e-01    1,486624628e-01    1,573830992e-01   -9,231374413e-02    0,000000000e+00    0,000000000e+00    0,000000000e+00    0,000000000e+00
     1458000000    2,346004099e-01   -2,101631463e-02    1,410745382e-01   -8,009854704e-02    0,000000000e+00    0,000000000e+00    0,000000000e+00    0,000000000e+00
     1472000000    1,949558854e-01   -2,051038146e-01    1,444563121e-01   -3,144716471e-02    0,000000000e+00    0,000000000e+00    0,000000000e+00    0,000000000e+00
     1486000000    5,697158724e-02   -3,788964450e-01    1,563088596e-01    2,649537846e-02    0,000000000e+00    0,000000000e+00    0,000000000e+00    0,000000000e+00
     1500000000   -1,685520709e-01   -4,925324917e-01    2,454510927e-01    9,171950072e-02    0,000000000e+00    0,000000000e+00    0,000000000e+00    0,000000000e+00
