! NanoVNA-App
! Date: 2025-09-25 15:32:51
! Start: 100MHz Stop: 1,5GHz Points: 101
! S-Parameter data: F S11 S21 S12 S22
# Hz S RI R 50
!     Frequency           S11_Real           S11_Imag           S21_Real           S21_Imag           S12_Real           S12_Imag           S22_Real           S22_Imag
      100000000   -2,887239680e-02   -4,154444207e-03    3,740974963e-01   -7,218522429e-01    0,000000000e+00    0,000000000e+00    0,000000000e+00    0,000000000e+00
      114000000   -1,655377075e-02    1,151039544e-02   -8,900622278e-02   -8,053401113e-01    0,000000000e+00    0,000000000e+00    0,000000000e+00    0,000000000e+00
      128000000    3,491524141e-03    1,059124060e-02   -5,147578120e-01   -6,205888391e-01    0,000000000e+00    0,000000000e+00    0,000000000e+00    0,000000000e+00
      142000000    1,453382988e-02   -2,943888307e-03   -7,673052549e-01   -2,365984768e-01    0,000000000e+00    0,000000000e+00    0,000000000e+00    0,000000000e+00
      156000000    1,478020940e-02   -1,477232482e-02   -7,660211325e-01    2,214702964e-01    0,000000000e+00    0,000000000e+00    0,000000000e+00    0,000000000e+00
      170000000    1,671649329e-02   -2,250014246e-02   -5,181583762e-01    6,051032543e-01    0,000000000e+00    0,000000000e+00    0,000000000e+00    0,000000000e+00
      184000000    2,098340914e-02   -3,706322983e-02   -1,015628874e-01    7,861330509e-01    0,000000000e+00    0,000000000e+00    0,000000000e+00    0,000000000e+00
      198000000    1,301533077e-02   -6,244144961e-02    3,435647786e-01    7,125290036e-01    0,000000000e+00    0,000000000e+00    0,000000000e+00    0,000000000e+00
      212000000   -1,866136305e-02   -8,127706498e-02    6,780219674e-01    4,101085663e-01    0,000000000e+00    0,000000000e+00    0,000000000e+00    0,000000000e+00
      226000000   -6,164369360e-02   -6,918212771e-02    7,957611084e-01   -3,062524088e-02    0,000000000e+00    0,000000000e+00    0,000000000e+00    0,000000000e+00
      240000000   -8,261167258e-02   -2,562125400e-02    6,460042000e-01   -4,672343731e-01    0,000000000e+00    0,000000000e+00    0,000000000e+00    0,000000000e+00
      254000000   -6,351609528e-02    1,727786474e-02    2,761049271e-01   -7,436627746e-01    0,000000000e+00    0,000000000e+00    0,000000000e+00    0,000000000e+00
      268000000   -2,386374027e-02    2,897895686e-02   -1,781828552e-01   -7,646561861e-01    0,000000000e+00    0,000000000e+00    0,000000000e+00    0,000000000e+00
      282000000    4,116397351e-03    1,200187858e-02   -5,618730783e-01   -5,356644392e-01    0,000000000e+00    0,000000000e+00    0,000000000e+00    0,000000000e+00
      296000000    9,700905532e-03   -7,757714950e-03   -7,598606944e-01   -1,396695524e-01    0,000000000e+00    0,000000000e+00    0,000000000e+00    0,000000000e+00
      310000000    1,107604243e-02   -1,615138538e-02   -7,131035924e-01    2,974986434e-01    0,000000000e+00    0,000000000e+00    0,000000000e+00    0,000000000e+00
      324000000    1,951412670e-02   -2,645523846e-02   -4,273750186e-01    6,376910210e-01    0,000000000e+00    0,000000000e+00    0,000000000e+00    0,000000000e+00
      338000000    2,535822801e-02   -5,188789964e-02   -7,348299026e-03    7,618309855e-01    0,000000000e+00    0,000000000e+00    0,000000000e+00    0,000000000e+00
      352000000    7,370519452e-03   -8,498665690e-02    4,068813920e-01    6,390336156e-01    0,000000000e+00    0,000000000e+00    0,000000000e+00    0,000000000e+00
      366000000   -3,461070359e-02   -9,548491240e-02    6,908622980e-01    3,112572730e-01    0,000000000e+00    0,000000000e+00    0,000000000e+00    0,000000000e+00
      380000000   -7,062098384e-02   -7,133711129e-02    7,478932142e-01   -1,257134825e-01    0,000000000e+00    0,000000000e+00    0,000000000e+00    0,000000000e+00
      394000000   -7,248631865e-02   -3,234434873e-02    5,466997623e-01   -5,232481956e-01    0,000000000e+00    0,000000000e+00    0,000000000e+00    0,000000000e+00
      408000000   -4,649782181e-02   -1,626807265e-02    1,625764966e-01   -7,331956029e-01    0,000000000e+00    0,000000000e+00    0,000000000e+00    0,000000000e+00
      422000000   -2,838792279e-02   -3,197436035e-02   -2,671642303e-01   -6,952791810e-01    0,000000000e+00    0,000000000e+00    0,000000000e+00    0,000000000e+00
      436000000   -4,041997716e-02   -5,194134638e-02   -6,040106416e-01   -4,321130216e-01    0,000000000e+00    0,000000000e+00    0,000000000e+00    0,000000000e+00
      450000000   -6,741119921e-02   -4,379251599e-02   -7,404493690e-01   -2,087414451e-02    0,000000000e+00    0,000000000e+00    0,000000000e+00    0,000000000e+00
      464000000   -7,351427525e-02   -1,136982534e-02   -6,185128093e-01    3,977770805e-01    0,000000000e+00    0,000000000e+00    0,000000000e+00    0,000000000e+00
      478000000   -4,799423739e-02    1,176587958e-02   -2,827509046e-01    6,681196094e-01    0,000000000e+00    0,000000000e+00    0,000000000e+00    0,000000000e+00
      492000000   -1,614258811e-02    6,087195128e-03    1,371811032e-01    7,018948197e-01    0,000000000e+00    0,000000000e+00    0,000000000e+00    0,000000000e+00
      506000000   -2,574695274e-03   -1,571060158e-02    4,983463287e-01    5,023406148e-01    0,000000000e+00    0,000000000e+00    0,000000000e+00    0,000000000e+00
      520000000   -5,121350288e-03   -3,141306341e-02    6,887868643e-01    1,404148936e-01    0,000000000e+00    0,000000000e+00    0,000000000e+00    0,000000000e+00
      534000000   -4,128947388e-03   -3,812882677e-02    6,426674128e-01   -2,625211179e-01    0,000000000e+00    0,000000000e+00    0,000000000e+00    0,000000000e+00
      548000000    6,183823571e-03   -5,410918593e-02    3,814017177e-01   -5,680817366e-01    0,000000000e+00    0,000000000e+00    0,000000000e+00    0,000000000e+00
      562000000    2,914730459e-03   -8,940181136e-02    2,314648824e-03   -6,728096604e-01    0,000000000e+00    0,000000000e+00    0,000000000e+00    0,000000000e+00
      576000000   -3,402798250e-02   -1,243805736e-01   -3,693497777e-01   -5,568509102e-01    0,000000000e+00    0,000000000e+00    0,000000000e+00    0,000000000e+00
      590000000   -9,639201313e-02   -1,225200444e-01   -6,201485395e-01   -2,653987110e-01    0,000000000e+00    0,000000000e+00    0,000000000e+00    0,000000000e+00
      604000000   -1,393870413e-01   -7,188149542e-02   -6,648418307e-01    1,377597153e-01    0,000000000e+00    0,000000000e+00    0,000000000e+00    0,000000000e+00
      618000000   -1,297128946e-01   -9,269369766e-03   -4,648022354e-01    4,948194623e-01    0,000000000e+00    0,000000000e+00    0,000000000e+00    0,000000000e+00
      632000000   -8,421462774e-02    1,722323895e-02   -9,898781776e-02    6,636949182e-01    0,000000000e+00    0,000000000e+00    0,000000000e+00    0,000000000e+00
      646000000   -5,066403002e-02    6,024859031e-04    2,871887982e-01    5,955480933e-01    0,000000000e+00    0,000000000e+00    0,000000000e+00    0,000000000e+00
      660000000   -5,339708179e-02   -2,229685709e-02    5,673099756e-01    3,227442205e-01    0,000000000e+00    0,000000000e+00    0,000000000e+00    0,000000000e+00
      674000000   -7,051437348e-02   -1,718954742e-02    6,432463527e-01   -6,535054743e-02    0,000000000e+00    0,000000000e+00    0,000000000e+00    0,000000000e+00
      688000000   -6,903527677e-02    8,649432100e-03    4,715651870e-01   -4,286950827e-01    0,000000000e+00    0,000000000e+00    0,000000000e+00    0,000000000e+00
      702000000   -3,680359572e-02    2,715165913e-02    1,175634339e-01   -6,081979275e-01    0,000000000e+00    0,000000000e+00    0,000000000e+00    0,000000000e+00
      716000000    2,257464221e-03    1,711530611e-02   -2,644320130e-01   -5,465469360e-01    0,000000000e+00    0,000000000e+00    0,000000000e+00    0,000000000e+00
      730000000    3,625054657e-02   -1,069647167e-02   -5,291112065e-01   -2,690677643e-01    0,000000000e+00    0,000000000e+00    0,000000000e+00    0,000000000e+00
      744000000    6,466159225e-02   -6,293175370e-02   -5,643796921e-01    1,065672711e-01    0,000000000e+00    0,000000000e+00    0,000000000e+00    0,000000000e+00
      758000000    6,676778942e-02   -1,525419354e-01   -3,629902899e-01    4,109449089e-01    0,000000000e+00    0,000000000e+00    0,000000000e+00    0,000000000e+00
      772000000   -1,273706276e-02   -2,628158033e-01   -3,462990001e-02    5,151375532e-01    0,000000000e+00    0,000000000e+00    0,000000000e+00    0,000000000e+00
      786000000   -2,061726302e-01   -3,018444777e-01    2,744366527e-01    3,960757256e-01    0,000000000e+00    0,000000000e+00    0,000000000e+00    0,000000000e+00
      800000000   -4,253361225e-01   -1,309020668e-01    4,169612229e-01    9,903347492e-02    0,000000000e+00    0,000000000e+00    0,000000000e+00    0,000000000e+00
      814000000   -3,902312517e-01    2,221428007e-01    2,819178700e-01   -1,727688164e-01    0,000000000e+00    0,000000000e+00    0,000000000e+00    0,000000000e+00
      828000000   -4,923918471e-02    3,678853810e-01    5,547840893e-02   -1,893364191e-01    0,000000000e+00    0,000000000e+00    0,000000000e+00    0,000000000e+00
      842000000    2,352420539e-01    1,857838482e-01   -1,736936346e-02   -7,097052038e-02    0,000000000e+00    0,000000000e+00    0,000000000e+00    0,000000000e+00
      856000000    2,805326283e-01   -1,245507672e-01    4,509442300e-02   -1,289106067e-02    0,000000000e+00    0,000000000e+00    0,000000000e+00    0,000000000e+00
      870000000    7,474388927e-02   -3,759618998e-01    1,135766953e-01   -9,129173309e-02    0,000000000e+00    0,000000000e+00    0,000000000e+00    0,000000000e+00
      884000000   -2,965205312e-01   -3,630391955e-01    2,849665843e-02   -2,464146614e-01    0,000000000e+00    0,000000000e+00    0,000000000e+00    0,000000000e+00
      898000000   -4,715092480e-01    8,503238671e-03   -2,216625810e-01   -2,279696763e-01    0,000000000e+00    0,000000000e+00    0,000000000e+00    0,000000000e+00
      912000000   -2,262815833e-01    2,948361039e-01   -3,552626967e-01    7,022130489e-02    0,000000000e+00    0,000000000e+00    0,000000000e+00    0,000000000e+00
      926000000    6,673633307e-02    2,658613920e-01   -2,163289338e-01    2,642815709e-01    0,000000000e+00    0,000000000e+00    0,000000000e+00    0,000000000e+00
      940000000    2,147917002e-01    8,097203821e-02   -3,631629422e-02    3,296311796e-01    0,000000000e+00    0,000000000e+00    0,000000000e+00    0,000000000e+00
      954000000    2,210656106e-01   -1,289567798e-01    1,297853887e-01    3,070155978e-01    0,000000000e+00    0,000000000e+00    0,000000000e+00    0,000000000e+00
      968000000    1,147926152e-01   -2,973538339e-01    2,711864412e-01    2,192718089e-01    0,000000000e+00    0,000000000e+00    0,000000000e+00    0,000000000e+00
      982000000   -8,016638458e-02   -3,897443712e-01    3,661088645e-01    6,438018382e-02    0,000000000e+00    0,000000000e+00    0,000000000e+00    0,000000000e+00
      996000000   -3,148202896e-01   -3,291310072e-01    3,701647520e-01   -1,447147876e-01    0,000000000e+00    0,000000000e+00    0,000000000e+00    0,000000000e+00
     1010000000   -4,656976759e-01   -1,136947721e-01    2,217840105e-01   -3,425599933e-01    0,000000000e+00    0,000000000e+00    0,000000000e+00    0,000000000e+00
     1024000000   -4,146952629e-01    1,462172866e-01   -3,293619305e-02   -3,914115727e-01    0,000000000e+00    0,000000000e+00    0,000000000e+00    0,000000000e+00
     1038000000   -2,169926614e-01    2,885749638e-01   -2,466581315e-01   -2,590879500e-01    0,000000000e+00    0,000000000e+00    0,000000000e+00    0,000000000e+00
     1052000000   -9,770681150e-03    2,811783552e-01   -3,174299896e-01   -4,569457844e-02    0,000000000e+00    0,000000000e+00    0,000000000e+00    0,000000000e+00
     1066000000    1,396777630e-01    1,646949947e-01   -2,577790916e-01    1,434733868e-01    0,000000000e+00    0,000000000e+00    0,000000000e+00    0,000000000e+00
     1080000000    1,926440001e-01   -3,138595726e-03   -1,205710843e-01    2,641848922e-01    0,000000000e+00    0,000000000e+00    0,000000000e+00    0,000000000e+00
     1094000000    1,511473805e-01   -1,731088012e-01    6,643223763e-02    3,073294759e-01    0,000000000e+00    0,000000000e+00    0,000000000e+00    0,000000000e+00
     1108000000    1,997593557e-03   -3,053868711e-01    2,774567008e-01    2,459515184e-01    0,000000000e+00    0,000000000e+00    0,000000000e+00    0,000000000e+00
     1122000000   -2,509991229e-01   -2,669426501e-01    4,731888175e-01    1,399312448e-02    0,000000000e+00    0,000000000e+00    0,000000000e+00    0,000000000e+00
     1136000000   -3,165115714e-01    2,872009762e-02    3,962399065e-01   -3,934521079e-01    0,000000000e+00    0,000000000e+00    0,000000000e+00    0,000000000e+00
     1150000000   -3,695523366e-02    1,536412835e-01    5,554250441e-03   -5,402182341e-01    0,000000000e+00    0,000000000e+00    0,000000000e+00    0,000000000e+00
     1164000000    1,223025024e-01   -6,586238742e-02   -2,779528201e-01   -3,787026703e-01    0,000000000e+00    0,000000000e+00    0,000000000e+00    0,000000000e+00
     1178000000    1,960031129e-02   -3,062053621e-01   -3,712185919e-01   -1,527528614e-01    0,000000000e+00    0,000000000e+00    0,000000000e+00    0,000000000e+00
     1192000000   -2,690122128e-01   -3,717789054e-01   -3,261756599e-01    5,832939968e-02    0,000000000e+00    0,000000000e+00    0,000000000e+00    0,000000000e+00
     1206000000   -5,233255625e-01   -1,613127887e-01   -1,694107354e-01    1,834964901e-01    0,000000000e+00    0,000000000e+00    0,000000000e+00    0,000000000e+00
     1220000000   -5,112075210e-01    1,769970655e-01    2,553956816e-03    1,580231339e-01    0,000000000e+00    0,000000000e+00    0,000000000e+00    0,000000000e+00
     1234000000   -2,923577428e-01    3,629249632e-01    7,030838728e-02    5,951319262e-02    0,000000000e+00    0,000000000e+00    0,000000000e+00    0,000000000e+00
     1248000000   -4,738343507e-02    3,634465635e-01    5,317488685e-02   -1,040381286e-02    0,000000000e+00    0,000000000e+00    0,000000000e+00    0,000000000e+00
     1262000000    1,271337122e-01    2,542121112e-01    2,009402029e-02   -2,290298603e-02    0,000000000e+00    0,000000000e+00    0,000000000e+00    0,000000000e+00
     1276000000    2,157697976e-01    1,006261781e-01   -3,855577379e-04    4,167014267e-03    0,000000000e+00    0,000000000e+00    0,000000000e+00    0,000000000e+00
     1290000000    2,209565043e-01   -7,964128256e-02    1,643235423e-02    4,932665080e-02    0,000000000e+00    0,000000000e+00    0,000000000e+00    0,000000000e+00
     1304000000    1,579902172e-01   -2,425363660e-01    1,314837486e-01    6,402961910e-02    0,000000000e+00    0,000000000e+00    0,000000000e+00    0,000000000e+00
     1318000000    4,015765712e-02   -3,396448195e-01    1,346208900e-01   -1,688430011e-01    0,000000000e+00    0,000000000e+00    0,000000000e+00    0,000000000e+00
     1332000000   -1,291090548e-01   -4,372722507e-01   -4,116522893e-02   -5,023147911e-02    0,000000000e+00    0,000000000e+00    0,000000000e+00    0,000000000e+00
     1346000000   -3,898569047e-01   -4,066130221e-01    3,101814911e-02    7,206598669e-02    0,000000000e+00    0,000000000e+00    0,000000000e+00    0,000000000e+00
     1360000000   -6,110258698e-01   -1,815438867e-01    1,346091777e-01    7,718072832e-02    0,000000000e+00    0,000000000e+00    0,000000000e+00    0,000000000e+00
     1374000000   -6,280593872e-01    1,249563247e-01    2,086613029e-01    5,155147053e-03    0,000000000e+00    0,000000000e+00    0,000000000e+00    0,000000000e+00
     1388000000   -4,639392495e-01    3,683508337e-01    2,044099867e-01   -6,943230331e-02    0,000000000e+00    0,000000000e+00    0,000000000e+00    0,000000000e+00
     1402000000   -2,315621972e-01    4,515128136e-01    1,845409423e-01   -9,659697115e-02    0,000000000e+00    0,000000000e+00    0,000000000e+00    0,000000000e+00
     1416000000   -2,438655496e-02    4,110276997e-01    1,726752520e-01   -1,073350534e-01    0,000000000e+00    0,000000000e+00    0,000000000e+00    0,000000000e+00
     1430000000    1,196084693e-01    3,051545322e-01    1,865879744e-01   -9,378317744e-02    0,000000000e+00    0,000000000e+00    0,000000000e+00    0,000000000e+00
     1444000000    2,076074332e-01    1,498894244e-01    1,505401134e-01   -9,750301391e-02    0,000000000e+00    0,000000000e+00    0,000000000e+00    0,000000000e+00
     1458000000    2,381271422e-01   -1,953430101e-02    1,447825730e-01   -7,383847982e-02    0,000000000e+00    0,000000000e+00    0,000000000e+00    0,000000000e+00
     1472000000    1,940215379e-01   -2,012212425e-01    1,455141157e-01   -1,954488084e-02    0,000000000e+00    0,000000000e+00    0,000000000e+00    0,000000000e+00
     1486000000    5,437193438e-02   -3,725812137e-01    1,667832732e-01    4,799526185e-02    0,000000000e+00    0,000000000e+00    0,000000000e+00    0,000000000e+00
     1500000000   -1,723134816e-01   -4,909886718e-01    2,285200506e-01    9,172138572e-02    0,000000000e+00    0,000000000e+00    0,000000000e+00    0,000000000e+00
