! NanoVNA-App
! Date: 2025-09-25 15:36:15
! Start: 100MHz Stop: 1,5GHz Points: 101
! S-Parameter data: F S11 S21 S12 S22
# Hz S RI R 50
!     Frequency           S11_Real           S11_Imag           S21_Real           S21_Imag           S12_Real           S12_Imag           S22_Real           S22_Imag
      100000000   -2,882336266e-02   -4,181042314e-03    3,740864396e-01   -7,217525244e-01    0,000000000e+00    0,000000000e+00    0,000000000e+00    0,000000000e+00
      114000000   -1,648585685e-02    1,150247641e-02   -8,911205828e-02   -8,053806424e-01    0,000000000e+00    0,000000000e+00    0,000000000e+00    0,000000000e+00
      128000000    3,479237901e-03    1,057824027e-02   -5,145816207e-01   -6,206059456e-01    0,000000000e+00    0,000000000e+00    0,000000000e+00    0,000000000e+00
      142000000    1,457167044e-02   -2,962749684e-03   -7,671080828e-01   -2,365259677e-01    0,000000000e+00    0,000000000e+00    0,000000000e+00    0,000000000e+00
      156000000    1,567559689e-02   -1,455855183e-02   -7,690533400e-01    2,237493545e-01    0,000000000e+00    0,000000000e+00    0,000000000e+00    0,000000000e+00
      170000000    1,666912995e-02   -2,258099057e-02   -5,181009173e-01    6,046656966e-01    0,000000000e+00    0,000000000e+00    0,000000000e+00    0,000000000e+00
      184000000    2,106934600e-02   -3,706414625e-02   -1,012793481e-01    7,860060930e-01    0,000000000e+00    0,000000000e+00    0,000000000e+00    0,000000000e+00
      198000000    1,301197615e-02   -6,244813651e-02    3,433281183e-01    7,123798728e-01    0,000000000e+00    0,000000000e+00    0,000000000e+00    0,000000000e+00
      212000000   -1,863792539e-02   -8,130560815e-02    6,779863834e-01    4,100415111e-01    0,000000000e+00    0,000000000e+00    0,000000000e+00    0,000000000e+00
      226000000   -6,165078282e-02   -6,922103465e-02    7,957114577e-01   -3,055964969e-02    0,000000000e+00    0,000000000e+00    0,000000000e+00    0,000000000e+00
      240000000   -8,254986256e-02   -2,558330446e-02    6,460415125e-01   -4,672379494e-01    0,000000000e+00    0,000000000e+00    0,000000000e+00    0,000000000e+00
      254000000   -6,344920397e-02    1,726198941e-02    2,758369744e-01   -7,432962656e-01    0,000000000e+00    0,000000000e+00    0,000000000e+00    0,000000000e+00
      268000000   -2,383028902e-02    2,896763198e-02   -1,782186329e-01   -7,644392848e-01    0,000000000e+00    0,000000000e+00    0,000000000e+00    0,000000000e+00
      282000000    4,226083867e-03    1,196912676e-02   -5,618930459e-01   -5,351523757e-01    0,000000000e+00    0,000000000e+00    0,000000000e+00    0,000000000e+00
      296000000    9,740647860e-03   -7,856089622e-03   -7,597771883e-01   -1,397139877e-01    0,000000000e+00    0,000000000e+00    0,000000000e+00    0,000000000e+00
      310000000    1,123209205e-02   -1,602435112e-02   -7,117400765e-01    2,976998687e-01    0,000000000e+00    0,000000000e+00    0,000000000e+00    0,000000000e+00
      324000000    1,967513189e-02   -2,650095895e-02   -4,275770187e-01    6,380372047e-01    0,000000000e+00    0,000000000e+00    0,000000000e+00    0,000000000e+00
      338000000    2,556316555e-02   -5,202604085e-02   -6,869646255e-03    7,613282800e-01    0,000000000e+00    0,000000000e+00    0,000000000e+00    0,000000000e+00
      352000000    7,518957835e-03   -8,461387455e-02    4,064533114e-01    6,405397654e-01    0,000000000e+00    0,000000000e+00    0,000000000e+00    0,000000000e+00
      366000000   -3,479341045e-02   -9,564608335e-02    6,905809641e-01    3,107939959e-01    0,000000000e+00    0,000000000e+00    0,000000000e+00    0,000000000e+00
      380000000   -7,085415721e-02   -7,101822644e-02    7,473685741e-01   -1,258841455e-01    0,000000000e+00    0,000000000e+00    0,000000000e+00    0,000000000e+00
      394000000   -7,251930982e-02   -3,246099874e-02    5,476453304e-01   -5,225022435e-01    0,000000000e+00    0,000000000e+00    0,000000000e+00    0,000000000e+00
      408000000   -4,664227739e-02   -1,617295295e-02    1,593663990e-01   -7,333774567e-01    0,000000000e+00    0,000000000e+00    0,000000000e+00    0,000000000e+00
      422000000   -2,824155614e-02   -3,236489743e-02   -2,680377960e-01   -6,961296201e-01    0,000000000e+00    0,000000000e+00    0,000000000e+00    0,000000000e+00
      436000000   -4,066560417e-02   -5,202491581e-02   -6,041854620e-01   -4,326106906e-01    0,000000000e+00    0,000000000e+00    0,000000000e+00    0,000000000e+00
      450000000   -6,743078679e-02   -4,400204495e-02   -7,408980131e-01   -2,099761739e-02    0,000000000e+00    0,000000000e+00    0,000000000e+00    0,000000000e+00
      464000000   -7,362991571e-02   -1,174994931e-02   -6,186534166e-01    3,974709809e-01    0,000000000e+00    0,000000000e+00    0,000000000e+00    0,000000000e+00
      478000000   -4,753929004e-02    1,157463621e-02   -2,818773985e-01    6,678864956e-01    0,000000000e+00    0,000000000e+00    0,000000000e+00    0,000000000e+00
      492000000   -1,565704495e-02    6,201909389e-03    1,382187158e-01    7,016999722e-01    0,000000000e+00    0,000000000e+00    0,000000000e+00    0,000000000e+00
      506000000   -2,728556748e-03   -1,554657519e-02    4,981666207e-01    5,029402971e-01    0,000000000e+00    0,000000000e+00    0,000000000e+00    0,000000000e+00
      520000000   -5,126999691e-03   -3,182105348e-02    6,880685687e-01    1,403472722e-01    0,000000000e+00    0,000000000e+00    0,000000000e+00    0,000000000e+00
      534000000   -3,881927812e-03   -3,829856962e-02    6,431812644e-01   -2,624591291e-01    0,000000000e+00    0,000000000e+00    0,000000000e+00    0,000000000e+00
      548000000    5,880595651e-03   -5,414448306e-02    3,807358146e-01   -5,673418641e-01    0,000000000e+00    0,000000000e+00    0,000000000e+00    0,000000000e+00
      562000000    3,198741935e-03   -8,891666681e-02    1,554714749e-03   -6,723625660e-01    0,000000000e+00    0,000000000e+00    0,000000000e+00    0,000000000e+00
      576000000   -3,385950252e-02   -1,245906428e-01   -3,688930571e-01   -5,572213531e-01    0,000000000e+00    0,000000000e+00    0,000000000e+00    0,000000000e+00
      590000000   -9,631852061e-02   -1,226062626e-01   -6,224979758e-01   -2,629743814e-01    0,000000000e+00    0,000000000e+00    0,000000000e+00    0,000000000e+00
      604000000   -1,397106200e-01   -7,183537632e-02   -6,653218865e-01    1,381240785e-01    0,000000000e+00    0,000000000e+00    0,000000000e+00    0,000000000e+00
      618000000   -1,289990991e-01   -9,044683538e-03   -4,654505849e-01    4,947236478e-01    0,000000000e+00    0,000000000e+00    0,000000000e+00    0,000000000e+00
      632000000   -8,398052305e-02    1,608915813e-02   -9,859158099e-02    6,646304131e-01    0,000000000e+00    0,000000000e+00    0,000000000e+00    0,000000000e+00
      646000000   -5,061049759e-02    1,965512056e-04    2,872164249e-01    5,944923759e-01    0,000000000e+00    0,000000000e+00    0,000000000e+00    0,000000000e+00
      660000000   -5,260282382e-02   -2,149628662e-02    5,679388046e-01    3,232250214e-01    0,000000000e+00    0,000000000e+00    0,000000000e+00    0,000000000e+00
      674000000   -6,990350783e-02   -1,729512028e-02    6,432518363e-01   -6,570331007e-02    0,000000000e+00    0,000000000e+00    0,000000000e+00    0,000000000e+00
      688000000   -6,820151955e-02    8,224335499e-03    4,714876413e-01   -4,285112321e-01    0,000000000e+00    0,000000000e+00    0,000000000e+00    0,000000000e+00
      702000000   -3,662097454e-02    2,593988366e-02    1,167971566e-01   -6,084314585e-01    0,000000000e+00    0,000000000e+00    0,000000000e+00    0,000000000e+00
      716000000    1,753292046e-03    1,779419370e-02   -2,651687562e-01   -5,464912653e-01    0,000000000e+00    0,000000000e+00    0,000000000e+00    0,000000000e+00
      730000000    3,682163730e-02   -1,038830634e-02   -5,286718607e-01   -2,690237463e-01    0,000000000e+00    0,000000000e+00    0,000000000e+00    0,000000000e+00
      744000000    6,586965919e-02   -6,257335842e-02   -5,646641850e-01    1,068684533e-01    0,000000000e+00    0,000000000e+00    0,000000000e+00    0,000000000e+00
      758000000    6,582246721e-02   -1,522618234e-01   -3,638193309e-01    4,104635417e-01    0,000000000e+00    0,000000000e+00    0,000000000e+00    0,000000000e+00
      772000000   -1,287954766e-02   -2,620609105e-01   -3,574607149e-02    5,154070258e-01    0,000000000e+00    0,000000000e+00    0,000000000e+00    0,000000000e+00
      786000000   -2,066758871e-01   -3,025451601e-01    2,744302452e-01    3,960285187e-01    0,000000000e+00    0,000000000e+00    0,000000000e+00    0,000000000e+00
      800000000   -4,247289598e-01   -1,308940649e-01    4,173433185e-01    9,896815568e-02    0,000000000e+00    0,000000000e+00    0,000000000e+00    0,000000000e+00
      814000000   -3,902892172e-01    2,210743874e-01    2,826336026e-01   -1,734811664e-01    0,000000000e+00    0,000000000e+00    0,000000000e+00    0,000000000e+00
      828000000   -4,963132367e-02    3,677206635e-01    5,562213436e-02   -1,888999641e-01    0,000000000e+00    0,000000000e+00    0,000000000e+00    0,000000000e+00
      842000000    2,348096371e-01    1,858912855e-01   -1,726095378e-02   -7,081169635e-02    0,000000000e+00    0,000000000e+00    0,000000000e+00    0,000000000e+00
      856000000    2,811597586e-01   -1,245635152e-01    4,576437920e-02   -1,333428454e-02    0,000000000e+00    0,000000000e+00    0,000000000e+00    0,000000000e+00
      870000000    7,516051829e-02   -3,761046827e-01    1,136157513e-01   -9,111889452e-02    0,000000000e+00    0,000000000e+00    0,000000000e+00    0,000000000e+00
      884000000   -2,958497703e-01   -3,616079986e-01    2,814820595e-02   -2,452067733e-01    0,000000000e+00    0,000000000e+00    0,000000000e+00    0,000000000e+00
      898000000   -4,722198248e-01    9,386897087e-03   -2,230783999e-01   -2,269032598e-01    0,000000000e+00    0,000000000e+00    0,000000000e+00    0,000000000e+00
      912000000   -2,256469280e-01    2,945503891e-01   -3,482861817e-01    7,757360488e-02    0,000000000e+00    0,000000000e+00    0,000000000e+00    0,000000000e+00
      926000000    6,608057022e-02    2,643519342e-01   -2,184867710e-01    2,659088969e-01    0,000000000e+00    0,000000000e+00    0,000000000e+00    0,000000000e+00
      940000000    2,139209062e-01    8,079216629e-02   -3,578069806e-02    3,297192156e-01    0,000000000e+00    0,000000000e+00    0,000000000e+00    0,000000000e+00
      954000000    2,209842056e-01   -1,288387924e-01    1,307823956e-01    3,066755533e-01    0,000000000e+00    0,000000000e+00    0,000000000e+00    0,000000000e+00
      968000000    1,172660068e-01   -2,995677590e-01    2,713809609e-01    2,185507119e-01    0,000000000e+00    0,000000000e+00    0,000000000e+00    0,000000000e+00
      982000000   -8,314935863e-02   -3,916392028e-01    3,661023080e-01    6,541008502e-02    0,000000000e+00    0,000000000e+00    0,000000000e+00    0,000000000e+00
      996000000   -3,175506890e-01   -3,325381875e-01    3,699846268e-01   -1,446420848e-01    0,000000000e+00    0,000000000e+00    0,000000000e+00    0,000000000e+00
     1010000000   -4,662066400e-01   -1,098554954e-01    2,249766737e-01   -3,420506418e-01    0,000000000e+00    0,000000000e+00    0,000000000e+00    0,000000000e+00
     1024000000   -4,165896177e-01    1,499293298e-01   -3,277077153e-02   -3,955507874e-01    0,000000000e+00    0,000000000e+00    0,000000000e+00    0,000000000e+00
     1038000000   -2,154311389e-01    2,942614257e-01   -2,464913875e-01   -2,607437670e-01    0,000000000e+00    0,000000000e+00    0,000000000e+00    0,000000000e+00
     1052000000   -1,014326513e-02    2,803113163e-01   -3,180067241e-01   -4,805196822e-02    0,000000000e+00    0,000000000e+00    0,000000000e+00    0,000000000e+00
     1066000000    1,381471455e-01    1,648791879e-01   -2,546461523e-01    1,395985484e-01    0,000000000e+00    0,000000000e+00    0,000000000e+00    0,000000000e+00
     1080000000    1,935057044e-01   -2,996439347e-03   -1,192421094e-01    2,664579153e-01    0,000000000e+00    0,000000000e+00    0,000000000e+00    0,000000000e+00
     1094000000    1,569823027e-01   -1,758690774e-01    6,497935206e-02    3,060913980e-01    0,000000000e+00    0,000000000e+00    0,000000000e+00    0,000000000e+00
     1108000000    1,991540426e-03   -3,007825315e-01    2,778843045e-01    2,442178428e-01    0,000000000e+00    0,000000000e+00    0,000000000e+00    0,000000000e+00
     1122000000   -2,473192811e-01   -2,678727508e-01    4,733950794e-01    1,236218121e-02    0,000000000e+00    0,000000000e+00    0,000000000e+00    0,000000000e+00
     1136000000   -3,178488612e-01    3,798120469e-02    3,976881802e-01   -3,931752443e-01    0,000000000e+00    0,000000000e+00    0,000000000e+00    0,000000000e+00
     1150000000   -3,619312495e-02    1,499190778e-01    2,447857987e-03   -5,411931276e-01    0,000000000e+00    0,000000000e+00    0,000000000e+00    0,000000000e+00
     1164000000    1,228637546e-01   -6,488101184e-02   -2,771395147e-01   -3,791396618e-01    0,000000000e+00    0,000000000e+00    0,000000000e+00    0,000000000e+00
     1178000000    1,902930439e-02   -3,060006797e-01   -3,678521514e-01   -1,540206969e-01    0,000000000e+00    0,000000000e+00    0,000000000e+00    0,000000000e+00
     1192000000   -2,706258595e-01   -3,715593815e-01   -3,235834241e-01    5,978935212e-02    0,000000000e+00    0,000000000e+00    0,000000000e+00    0,000000000e+00
     1206000000   -5,211793780e-01   -1,591207534e-01   -1,684915423e-01    1,843076497e-01    0,000000000e+00    0,000000000e+00    0,000000000e+00    0,000000000e+00
     1220000000   -5,116975904e-01    1,754830778e-01    3,446988994e-03    1,581278890e-01    0,000000000e+00    0,000000000e+00    0,000000000e+00    0,000000000e+00
     1234000000   -2,787158191e-01    3,618808091e-01    7,070557028e-02    6,139821187e-02    0,000000000e+00    0,000000000e+00    0,000000000e+00    0,000000000e+00
     1248000000   -4,215572029e-02    3,713447154e-01    5,958405510e-02   -1,075053588e-02    0,000000000e+00    0,000000000e+00    0,000000000e+00    0,000000000e+00
     1262000000    1,251842380e-01    2,583335042e-01    2,009430900e-02   -2,675769106e-02    0,000000000e+00    0,000000000e+00    0,000000000e+00    0,000000000e+00
     1276000000    2,111393809e-01    1,017879993e-01   -3,912212793e-03    6,679581478e-03    0,000000000e+00    0,000000000e+00    0,000000000e+00    0,000000000e+00
     1290000000    2,259801477e-01   -7,606223226e-02    2,202915587e-02    5,384249240e-02    0,000000000e+00    0,000000000e+00    0,000000000e+00    0,000000000e+00
     1304000000    1,546614319e-01   -2,421658188e-01    1,362986565e-01    6,091546640e-02    0,000000000e+00    0,000000000e+00    0,000000000e+00    0,000000000e+00
     1318000000    3,427286446e-02   -3,369265199e-01    1,260789186e-01   -1,637741327e-01    0,000000000e+00    0,000000000e+00    0,000000000e+00    0,000000000e+00
     1332000000   -1,341627687e-01   -4,392392039e-01   -5,172567442e-02   -5,329378322e-02    0,000000000e+00    0,000000000e+00    0,000000000e+00    0,000000000e+00
     1346000000   -3,962467909e-01   -4,083225131e-01    2,227022313e-02    6,931370497e-02    0,000000000e+00    0,000000000e+00    0,000000000e+00    0,000000000e+00
     1360000000   -5,999101996e-01   -1,898946017e-01    1,450787187e-01    7,063673437e-02    0,000000000e+00    0,000000000e+00    0,000000000e+00    0,000000000e+00
     1374000000   -6,315205693e-01    1,203542054e-01    2,074074894e-01    6,869708188e-03    0,000000000e+00    0,000000000e+00    0,000000000e+00    0,000000000e+00
     1388000000   -4,693989158e-01    3,713083267e-01    2,027382255e-01   -6,322315335e-02    0,000000000e+00    0,000000000e+00    0,000000000e+00    0,000000000e+00
     1402000000   -2,300401479e-01    4,529772401e-01    1,898785233e-01   -9,019098431e-02    0,000000000e+00    0,000000000e+00    0,000000000e+00    0,000000000e+00
     1416000000   -2,800563537e-02    4,121269882e-01    1,646026373e-01   -1,052898765e-01    0,000000000e+00    0,000000000e+00    0,000000000e+00    0,000000000e+00
     1430000000    1,212447807e-01    3,072978854e-01    1,887368709e-01   -9,249121696e-02    0,000000000e+00    0,000000000e+00    0,000000000e+00    0,000000000e+00
     1444000000    2,102622241e-01    1,515764743e-01    1,504093111e-01   -9,488809854e-02    0,000000000e+00    0,000000000e+00    0,000000000e+00    0,000000000e+00
     1458000000    2,287191451e-01   -2,311723493e-02    1,447158158e-01   -8,003760874e-02    0,000000000e+00    0,000000000e+00    0,000000000e+00    0,000000000e+00
     1472000000    1,932879537e-01   -2,007935941e-01    1,528353095e-01   -2,872773074e-02    0,000000000e+00    0,000000000e+00    0,000000000e+00    0,000000000e+00
     1486000000    7,337234169e-02   -3,695649803e-01    1,712396741e-01    4,076173156e-02    0,000000000e+00    0,000000000e+00    0,000000000e+00    0,000000000e+00
     1500000000   -1,711794138e-01   -4,938581288e-01    2,541469634e-01    9,377316386e-02    0,000000000e+00    0,000000000e+00    0,000000000e+00    0,000000000e+00
