! NanoVNA-App
! Date: 2025-09-25 15:31:52
! Start: 100MHz Stop: 1,5GHz Points: 101
! S-Parameter data: F S11 S21 S12 S22
# Hz S RI R 50
!     Frequency           S11_Real           S11_Imag           S21_Real           S21_Imag           S12_Real           S12_Imag           S22_Real           S22_Imag
      100000000   -2,887358144e-02   -4,175436683e-03    3,741349280e-01   -7,218067050e-01    0,000000000e+00    0,000000000e+00    0,000000000e+00    0,000000000e+00
      114000000   -1,653456315e-02    1,155742630e-02   -8,909869194e-02   -8,055832982e-01    0,000000000e+00    0,000000000e+00    0,000000000e+00    0,000000000e+00
      128000000    3,392174607e-03    1,056476962e-02   -5,146437287e-01   -6,205531955e-01    0,000000000e+00    0,000000000e+00    0,000000000e+00    0,000000000e+00
      142000000    1,454260573e-02   -2,936615609e-03   -7,672988176e-01   -2,365927845e-01    0,000000000e+00    0,000000000e+00    0,000000000e+00    0,000000000e+00
      156000000    1,600934193e-02   -1,439786050e-02   -7,702758908e-01    2,243524343e-01    0,000000000e+00    0,000000000e+00    0,000000000e+00    0,000000000e+00
      170000000    1,665840670e-02   -2,258839272e-02   -5,182839632e-01    6,045530438e-01    0,000000000e+00    0,000000000e+00    0,000000000e+00    0,000000000e+00
      184000000    2,101808228e-02   -3,707851470e-02   -1,013436019e-01    7,864015102e-01    0,000000000e+00    0,000000000e+00    0,000000000e+00    0,000000000e+00
      198000000    1,298383344e-02   -6,242437288e-02    3,432198763e-01    7,123862505e-01    0,000000000e+00    0,000000000e+00    0,000000000e+00    0,000000000e+00
      212000000   -1,866140962e-02   -8,133506775e-02    6,780340672e-01    4,099875391e-01    0,000000000e+00    0,000000000e+00    0,000000000e+00    0,000000000e+00
      226000000   -6,166107208e-02   -6,919846684e-02    7,957784534e-01   -3,060618974e-02    0,000000000e+00    0,000000000e+00    0,000000000e+00    0,000000000e+00
      240000000   -8,256308734e-02   -2,559739538e-02    6,461246014e-01   -4,672627747e-01    0,000000000e+00    0,000000000e+00    0,000000000e+00    0,000000000e+00
      254000000   -6,350022554e-02    1,727644727e-02    2,761174440e-01   -7,436794639e-01    0,000000000e+00    0,000000000e+00    0,000000000e+00    0,000000000e+00
      268000000   -2,390009351e-02    2,897517383e-02   -1,781952083e-01   -7,645440698e-01    0,000000000e+00    0,000000000e+00    0,000000000e+00    0,000000000e+00
      282000000    4,111937247e-03    1,198913716e-02   -5,617746115e-01   -5,356069803e-01    0,000000000e+00    0,000000000e+00    0,000000000e+00    0,000000000e+00
      296000000    9,791464545e-03   -7,831864990e-03   -7,600322962e-01   -1,395627558e-01    0,000000000e+00    0,000000000e+00    0,000000000e+00    0,000000000e+00
      310000000    1,111911237e-02   -1,611980796e-02   -7,114617229e-01    2,990244031e-01    0,000000000e+00    0,000000000e+00    0,000000000e+00    0,000000000e+00
      324000000    1,961207949e-02   -2,666212805e-02   -4,277539253e-01    6,370728016e-01    0,000000000e+00    0,000000000e+00    0,000000000e+00    0,000000000e+00
      338000000    2,534816414e-02   -5,186951905e-02   -7,954241708e-03    7,599702477e-01    0,000000000e+00    0,000000000e+00    0,000000000e+00    0,000000000e+00
      352000000    7,466750219e-03   -8,475764096e-02    4,073332250e-01    6,398663521e-01    0,000000000e+00    0,000000000e+00    0,000000000e+00    0,000000000e+00
      366000000   -3,463126719e-02   -9,556428343e-02    6,902233362e-01    3,108277917e-01    0,000000000e+00    0,000000000e+00    0,000000000e+00    0,000000000e+00
      380000000   -7,082426548e-02   -7,119112462e-02    7,477703691e-01   -1,259333491e-01    0,000000000e+00    0,000000000e+00    0,000000000e+00    0,000000000e+00
      394000000   -7,254967839e-02   -3,215411305e-02    5,466650128e-01   -5,224146843e-01    0,000000000e+00    0,000000000e+00    0,000000000e+00    0,000000000e+00
      408000000   -4,654375464e-02   -1,613363437e-02    1,611827761e-01   -7,330060601e-01    0,000000000e+00    0,000000000e+00    0,000000000e+00    0,000000000e+00
      422000000   -2,838265337e-02   -3,194551170e-02   -2,677191794e-01   -6,948188543e-01    0,000000000e+00    0,000000000e+00    0,000000000e+00    0,000000000e+00
      436000000   -4,085610807e-02   -5,172036961e-02   -6,044105887e-01   -4,321948886e-01    0,000000000e+00    0,000000000e+00    0,000000000e+00    0,000000000e+00
      450000000   -6,775254011e-02   -4,376779497e-02   -7,405732274e-01   -2,169317938e-02    0,000000000e+00    0,000000000e+00    0,000000000e+00    0,000000000e+00
      464000000   -7,349991798e-02   -1,186142210e-02   -6,189802885e-01    3,975288570e-01    0,000000000e+00    0,000000000e+00    0,000000000e+00    0,000000000e+00
      478000000   -4,773725197e-02    1,159924455e-02   -2,822380066e-01    6,688589454e-01    0,000000000e+00    0,000000000e+00    0,000000000e+00    0,000000000e+00
      492000000   -1,557163708e-02    5,762489047e-03    1,376694143e-01    7,016143203e-01    0,000000000e+00    0,000000000e+00    0,000000000e+00    0,000000000e+00
      506000000   -2,348142909e-03   -1,555358339e-02    4,988281727e-01    5,024382472e-01    0,000000000e+00    0,000000000e+00    0,000000000e+00    0,000000000e+00
      520000000   -5,049497820e-03   -3,163839132e-02    6,875760555e-01    1,406505853e-01    0,000000000e+00    0,000000000e+00    0,000000000e+00    0,000000000e+00
      534000000   -3,832919756e-03   -3,823626414e-02    6,433990598e-01   -2,622483671e-01    0,000000000e+00    0,000000000e+00    0,000000000e+00    0,000000000e+00
      548000000    6,044752430e-03   -5,367584899e-02    3,811367750e-01   -5,668931007e-01    0,000000000e+00    0,000000000e+00    0,000000000e+00    0,000000000e+00
      562000000    3,559806617e-03   -8,937355876e-02    2,834152896e-03   -6,724120378e-01    0,000000000e+00    0,000000000e+00    0,000000000e+00    0,000000000e+00
      576000000   -3,425931931e-02   -1,243855134e-01   -3,702410161e-01   -5,569933057e-01    0,000000000e+00    0,000000000e+00    0,000000000e+00    0,000000000e+00
      590000000   -9,640638530e-02   -1,225754991e-01   -6,206026077e-01   -2,651323080e-01    0,000000000e+00    0,000000000e+00    0,000000000e+00    0,000000000e+00
      604000000   -1,396068037e-01   -7,176418602e-02   -6,653946638e-01    1,378518790e-01    0,000000000e+00    0,000000000e+00    0,000000000e+00    0,000000000e+00
      618000000   -1,289131343e-01   -8,604836650e-03   -4,640313983e-01    4,947493970e-01    0,000000000e+00    0,000000000e+00    0,000000000e+00    0,000000000e+00
      632000000   -8,349178731e-02    1,705648191e-02   -9,901734442e-02    6,640552282e-01    0,000000000e+00    0,000000000e+00    0,000000000e+00    0,000000000e+00
      646000000   -5,134696886e-02   -1,036588292e-04    2,880572081e-01    5,954579115e-01    0,000000000e+00    0,000000000e+00    0,000000000e+00    0,000000000e+00
      660000000   -5,275078118e-02   -2,214292809e-02    5,677840710e-01    3,228672147e-01    0,000000000e+00    0,000000000e+00    0,000000000e+00    0,000000000e+00
      674000000   -6,973110139e-02   -1,786128245e-02    6,430978179e-01   -6,545782089e-02    0,000000000e+00    0,000000000e+00    0,000000000e+00    0,000000000e+00
      688000000   -6,786773354e-02    8,805782534e-03    4,708112180e-01   -4,288503230e-01    0,000000000e+00    0,000000000e+00    0,000000000e+00    0,000000000e+00
      702000000   -3,735844791e-02    2,733975276e-02    1,183517203e-01   -6,149450541e-01    0,000000000e+00    0,000000000e+00    0,000000000e+00    0,000000000e+00
      716000000    2,933666809e-03    1,830128394e-02   -2,640679181e-01   -5,453396440e-01    0,000000000e+00    0,000000000e+00    0,000000000e+00    0,000000000e+00
      730000000    3,703604639e-02   -1,152656879e-02   -5,284670591e-01   -2,683910131e-01    0,000000000e+00    0,000000000e+00    0,000000000e+00    0,000000000e+00
      744000000    6,594331563e-02   -6,221793965e-02   -5,643175840e-01    1,062107235e-01    0,000000000e+00    0,000000000e+00    0,000000000e+00    0,000000000e+00
      758000000    6,672941893e-02   -1,527595669e-01   -3,631367087e-01    4,099294245e-01    0,000000000e+00    0,000000000e+00    0,000000000e+00    0,000000000e+00
      772000000   -1,303930860e-02   -2,621243596e-01   -3,499971330e-02    5,143195391e-01    0,000000000e+00    0,000000000e+00    0,000000000e+00    0,000000000e+00
      786000000   -2,063989192e-01   -3,038739562e-01    2,745577693e-01    3,958464563e-01    0,000000000e+00    0,000000000e+00    0,000000000e+00    0,000000000e+00
      800000000   -4,250015020e-01   -1,306618154e-01    4,167556763e-01    9,967704862e-02    0,000000000e+00    0,000000000e+00    0,000000000e+00    0,000000000e+00
      814000000   -3,886595666e-01    2,216996849e-01    2,821875215e-01   -1,720934212e-01    0,000000000e+00    0,000000000e+00    0,000000000e+00    0,000000000e+00
      828000000   -4,993104935e-02    3,684490919e-01    5,536435544e-02   -1,892074049e-01    0,000000000e+00    0,000000000e+00    0,000000000e+00    0,000000000e+00
      842000000    2,353766710e-01    1,860326529e-01   -1,713802852e-02   -7,068359852e-02    0,000000000e+00    0,000000000e+00    0,000000000e+00    0,000000000e+00
      856000000    2,804365754e-01   -1,240872741e-01    4,556787759e-02   -1,312628668e-02    0,000000000e+00    0,000000000e+00    0,000000000e+00    0,000000000e+00
      870000000    7,487467676e-02   -3,766692281e-01    1,140220240e-01   -9,129642695e-02    0,000000000e+00    0,000000000e+00    0,000000000e+00    0,000000000e+00
      884000000   -2,944807410e-01   -3,622586429e-01    2,836872265e-02   -2,456775606e-01    0,000000000e+00    0,000000000e+00    0,000000000e+00    0,000000000e+00
      898000000   -4,718649685e-01    9,452112950e-03   -2,215980738e-01   -2,273205966e-01    0,000000000e+00    0,000000000e+00    0,000000000e+00    0,000000000e+00
      912000000   -2,264647186e-01    2,945840061e-01   -3,544690013e-01    7,249691337e-02    0,000000000e+00    0,000000000e+00    0,000000000e+00    0,000000000e+00
      926000000    6,612317264e-02    2,630105913e-01   -2,166228443e-01    2,643546462e-01    0,000000000e+00    0,000000000e+00    0,000000000e+00    0,000000000e+00
      940000000    2,157039344e-01    7,904307544e-02   -3,634896874e-02    3,288192153e-01    0,000000000e+00    0,000000000e+00    0,000000000e+00    0,000000000e+00
      954000000    2,226850539e-01   -1,255433112e-01    1,299653500e-01    3,055862486e-01    0,000000000e+00    0,000000000e+00    0,000000000e+00    0,000000000e+00
      968000000    1,136039943e-01   -3,009001315e-01    2,705869079e-01    2,200981230e-01    0,000000000e+00    0,000000000e+00    0,000000000e+00    0,000000000e+00
      982000000   -8,309268951e-02   -3,901530504e-01    3,686599731e-01    6,469336897e-02    0,000000000e+00    0,000000000e+00    0,000000000e+00    0,000000000e+00
      996000000   -3,158532381e-01   -3,273475170e-01    3,690087199e-01   -1,456471235e-01    0,000000000e+00    0,000000000e+00    0,000000000e+00    0,000000000e+00
     1010000000   -4,618637264e-01   -1,132275462e-01    2,214163840e-01   -3,411744237e-01    0,000000000e+00    0,000000000e+00    0,000000000e+00    0,000000000e+00
     1024000000   -4,169967771e-01    1,523707658e-01   -3,540506214e-02   -3,942952454e-01    0,000000000e+00    0,000000000e+00    0,000000000e+00    0,000000000e+00
     1038000000   -2,135728300e-01    2,940900326e-01   -2,473885715e-01   -2,600553930e-01    0,000000000e+00    0,000000000e+00    0,000000000e+00    0,000000000e+00
     1052000000   -7,535924669e-03    2,744000554e-01   -3,182576299e-01   -4,737384245e-02    0,000000000e+00    0,000000000e+00    0,000000000e+00    0,000000000e+00
     1066000000    1,379138529e-01    1,599448174e-01   -2,584401965e-01    1,463278383e-01    0,000000000e+00    0,000000000e+00    0,000000000e+00    0,000000000e+00
     1080000000    1,925772130e-01    2,079978352e-03   -1,186881438e-01    2,624832094e-01    0,000000000e+00    0,000000000e+00    0,000000000e+00    0,000000000e+00
     1094000000    1,563891917e-01   -1,733675897e-01    6,536414474e-02    3,047598600e-01    0,000000000e+00    0,000000000e+00    0,000000000e+00    0,000000000e+00
     1108000000   -3,432470257e-04   -3,020650446e-01    2,785950303e-01    2,458493710e-01    0,000000000e+00    0,000000000e+00    0,000000000e+00    0,000000000e+00
     1122000000   -2,493144572e-01   -2,603757083e-01    4,706303179e-01    1,155152265e-02    0,000000000e+00    0,000000000e+00    0,000000000e+00    0,000000000e+00
     1136000000   -3,215723932e-01    3,364406899e-02    3,996618688e-01   -3,937278688e-01    0,000000000e+00    0,000000000e+00    0,000000000e+00    0,000000000e+00
     1150000000   -3,570196778e-02    1,519488245e-01    7,315190043e-03   -5,402133465e-01    0,000000000e+00    0,000000000e+00    0,000000000e+00    0,000000000e+00
     1164000000    1,247697100e-01   -6,013036147e-02   -2,766423225e-01   -3,769088984e-01    0,000000000e+00    0,000000000e+00    0,000000000e+00    0,000000000e+00
     1178000000    1,803272590e-02   -3,053510189e-01   -3,674049675e-01   -1,536354721e-01    0,000000000e+00    0,000000000e+00    0,000000000e+00    0,000000000e+00
     1192000000   -2,682693601e-01   -3,751512468e-01   -3,217805028e-01    5,962293223e-02    0,000000000e+00    0,000000000e+00    0,000000000e+00    0,000000000e+00
     1206000000   -5,170466900e-01   -1,664205492e-01   -1,640089303e-01    1,837357283e-01    0,000000000e+00    0,000000000e+00    0,000000000e+00    0,000000000e+00
     1220000000   -5,061646700e-01    1,710622311e-01    1,252062939e-04    1,555150002e-01    0,000000000e+00    0,000000000e+00    0,000000000e+00    0,000000000e+00
     1234000000   -2,882573307e-01    3,642863929e-01    6,526897103e-02    5,791299790e-02    0,000000000e+00    0,000000000e+00    0,000000000e+00    0,000000000e+00
     1248000000   -4,915701225e-02    3,600612581e-01    5,684478208e-02   -9,338941425e-03    0,000000000e+00    0,000000000e+00    0,000000000e+00    0,000000000e+00
     1262000000    1,272003949e-01    2,536794543e-01    1,792838238e-02   -2,383826301e-02    0,000000000e+00    0,000000000e+00    0,000000000e+00    0,000000000e+00
     1276000000    2,151707113e-01    1,008484513e-01   -3,382012248e-03    7,814304903e-03    0,000000000e+00    0,000000000e+00    0,000000000e+00    0,000000000e+00
     1290000000    2,240553945e-01   -7,243146002e-02    1,851337962e-02    5,662833527e-02    0,000000000e+00    0,000000000e+00    0,000000000e+00    0,000000000e+00
     1304000000    1,576229781e-01   -2,418875098e-01    1,314896643e-01    6,497563422e-02    0,000000000e+00    0,000000000e+00    0,000000000e+00    0,000000000e+00
     1318000000    3,295583278e-02   -3,342046142e-01    1,286341548e-01   -1,652045101e-01    0,000000000e+00    0,000000000e+00    0,000000000e+00    0,000000000e+00
     1332000000   -1,285241842e-01   -4,440380931e-01   -3,888112679e-02   -5,348814279e-02    0,000000000e+00    0,000000000e+00    0,000000000e+00    0,000000000e+00
     1346000000   -3,903036118e-01   -4,104073644e-01    2,931993082e-02    6,668645144e-02    0,000000000e+00    0,000000000e+00    0,000000000e+00    0,000000000e+00
     1360000000   -6,151325107e-01   -1,935074627e-01    1,280302703e-01    7,355101407e-02    0,000000000e+00    0,000000000e+00    0,000000000e+00    0,000000000e+00
     1374000000   -6,299329996e-01    1,353840828e-01    2,019761801e-01    1,283046138e-02    0,000000000e+00    0,000000000e+00    0,000000000e+00    0,000000000e+00
     1388000000   -4,685976505e-01    3,700980246e-01    2,069886178e-01   -5,722173676e-02    0,000000000e+00    0,000000000e+00    0,000000000e+00    0,000000000e+00
     1402000000   -2,413419634e-01    4,573537409e-01    1,771521121e-01   -9,859760851e-02    0,000000000e+00    0,000000000e+00    0,000000000e+00    0,000000000e+00
     1416000000   -2,588259056e-02    4,150954485e-01    1,650892943e-01   -1,089776531e-01    0,000000000e+00    0,000000000e+00    0,000000000e+00    0,000000000e+00
     1430000000    1,174231097e-01    3,004428148e-01    1,612027735e-01   -1,149236858e-01    0,000000000e+00    0,000000000e+00    0,000000000e+00    0,000000000e+00
     1444000000    2,015079856e-01    1,534495503e-01    1,560967267e-01   -1,006231979e-01    0,000000000e+00    0,000000000e+00    0,000000000e+00    0,000000000e+00
     1458000000    2,363717258e-01   -1,865590923e-02    1,469664276e-01   -6,855839491e-02    0,000000000e+00    0,000000000e+00    0,000000000e+00    0,000000000e+00
     1472000000    1,940070838e-01   -2,036169022e-01    1,535825729e-01   -3,426755965e-02    0,000000000e+00    0,000000000e+00    0,000000000e+00    0,000000000e+00
     1486000000    5,970068648e-02   -3,693269789e-01    1,654434502e-01    3,340463713e-02    0,000000000e+00    0,000000000e+00    0,000000000e+00    0,000000000e+00
     1500000000   -1,773198545e-01   -4,946112633e-01    2,485116571e-01    1,085947827e-01    0,000000000e+00    0,000000000e+00    0,000000000e+00    0,000000000e+00
