! NanoVNA-App
! Date: 2025-09-25 15:37:34
! Start: 100MHz Stop: 1,5GHz Points: 101
! S-Parameter data: F S11 S21 S12 S22
# Hz S RI R 50
!     Frequency           S11_Real           S11_Imag           S21_Real           S21_Imag           S12_Real           S12_Imag           S22_Real           S22_Imag
      100000000   -2,881190181e-02   -4,179989919e-03    3,740855455e-01   -7,217282653e-01    0,000000000e+00    0,000000000e+00    0,000000000e+00    0,000000000e+00
      114000000   -1,646068878e-02    1,152464841e-02   -8,916316926e-02   -8,055468798e-01    0,000000000e+00    0,000000000e+00    0,000000000e+00    0,000000000e+00
      128000000    3,543091705e-03    1,054124441e-02   -5,145040751e-01   -6,204566956e-01    0,000000000e+00    0,000000000e+00    0,000000000e+00    0,000000000e+00
      142000000    1,456895564e-02   -2,968370914e-03   -7,671242356e-01   -2,365009189e-01    0,000000000e+00    0,000000000e+00    0,000000000e+00    0,000000000e+00
      156000000    1,474963687e-02   -1,506696269e-02   -7,669597268e-01    2,184515595e-01    0,000000000e+00    0,000000000e+00    0,000000000e+00    0,000000000e+00
      170000000    1,668952219e-02   -2,259326912e-02   -5,179783106e-01    6,046662331e-01    0,000000000e+00    0,000000000e+00    0,000000000e+00    0,000000000e+00
      184000000    2,104933932e-02   -3,710550815e-02   -1,014664024e-01    7,861311436e-01    0,000000000e+00    0,000000000e+00    0,000000000e+00    0,000000000e+00
      198000000    1,308362558e-02   -6,251044571e-02    3,432123959e-01    7,124505639e-01    0,000000000e+00    0,000000000e+00    0,000000000e+00    0,000000000e+00
      212000000   -1,863382012e-02   -8,130910248e-02    6,778942347e-01    4,100458920e-01    0,000000000e+00    0,000000000e+00    0,000000000e+00    0,000000000e+00
      226000000   -6,162618101e-02   -6,921495497e-02    7,957904339e-01   -3,062490933e-02    0,000000000e+00    0,000000000e+00    0,000000000e+00    0,000000000e+00
      240000000   -8,254653960e-02   -2,561162598e-02    6,461518407e-01   -4,669827819e-01    0,000000000e+00    0,000000000e+00    0,000000000e+00    0,000000000e+00
      254000000   -6,342799217e-02    1,727066562e-02    2,760636508e-01   -7,435310483e-01    0,000000000e+00    0,000000000e+00    0,000000000e+00    0,000000000e+00
      268000000   -2,389004081e-02    2,882311121e-02   -1,779204011e-01   -7,644799352e-01    0,000000000e+00    0,000000000e+00    0,000000000e+00    0,000000000e+00
      282000000    4,225587938e-03    1,191930659e-02   -5,616198778e-01   -5,354370475e-01    0,000000000e+00    0,000000000e+00    0,000000000e+00    0,000000000e+00
      296000000    9,802645072e-03   -7,874408737e-03   -7,597747445e-01   -1,396677792e-01    0,000000000e+00    0,000000000e+00    0,000000000e+00    0,000000000e+00
      310000000    1,109037641e-02   -1,614608802e-02   -7,130104303e-01    2,987320125e-01    0,000000000e+00    0,000000000e+00    0,000000000e+00    0,000000000e+00
      324000000    1,963157393e-02   -2,655417100e-02   -4,266973734e-01    6,377569437e-01    0,000000000e+00    0,000000000e+00    0,000000000e+00    0,000000000e+00
      338000000    2,562897280e-02   -5,204802379e-02   -1,057535596e-02    7,636353374e-01    0,000000000e+00    0,000000000e+00    0,000000000e+00    0,000000000e+00
      352000000    7,352937944e-03   -8,470376581e-02    4,066835344e-01    6,402996778e-01    0,000000000e+00    0,000000000e+00    0,000000000e+00    0,000000000e+00
      366000000   -3,463712707e-02   -9,533674270e-02    6,912120581e-01    3,112578690e-01    0,000000000e+00    0,000000000e+00    0,000000000e+00    0,000000000e+00
      380000000   -7,082338631e-02   -7,134748250e-02    7,477158308e-01   -1,261077374e-01    0,000000000e+00    0,000000000e+00    0,000000000e+00    0,000000000e+00
      394000000   -7,238949835e-02   -3,255463019e-02    5,464290380e-01   -5,229151249e-01    0,000000000e+00    0,000000000e+00    0,000000000e+00    0,000000000e+00
      408000000   -4,643455893e-02   -1,605355740e-02    1,600933820e-01   -7,328099012e-01    0,000000000e+00    0,000000000e+00    0,000000000e+00    0,000000000e+00
      422000000   -2,807022259e-02   -3,215230629e-02   -2,673666477e-01   -6,945132017e-01    0,000000000e+00    0,000000000e+00    0,000000000e+00    0,000000000e+00
      436000000   -4,028723016e-02   -5,205810443e-02   -6,035398841e-01   -4,317481220e-01    0,000000000e+00    0,000000000e+00    0,000000000e+00    0,000000000e+00
      450000000   -6,715478748e-02   -4,399511963e-02   -7,404732108e-01   -2,125522122e-02    0,000000000e+00    0,000000000e+00    0,000000000e+00    0,000000000e+00
      464000000   -7,343712449e-02   -1,198163442e-02   -6,186616421e-01    3,972063959e-01    0,000000000e+00    0,000000000e+00    0,000000000e+00    0,000000000e+00
      478000000   -4,772993550e-02    1,158208679e-02   -2,821519375e-01    6,676640511e-01    0,000000000e+00    0,000000000e+00    0,000000000e+00    0,000000000e+00
      492000000   -1,524128299e-02    6,104435306e-03    1,388402283e-01    7,018876672e-01    0,000000000e+00    0,000000000e+00    0,000000000e+00    0,000000000e+00
      506000000   -2,228809753e-03   -1,555642672e-02    4,987071455e-01    5,025437474e-01    0,000000000e+00    0,000000000e+00    0,000000000e+00    0,000000000e+00
      520000000   -4,893737379e-03   -3,152781725e-02    6,878198385e-01    1,423416734e-01    0,000000000e+00    0,000000000e+00    0,000000000e+00    0,000000000e+00
      534000000   -3,646098543e-03   -3,833069280e-02    6,439501047e-01   -2,626320124e-01    0,000000000e+00    0,000000000e+00    0,000000000e+00    0,000000000e+00
      548000000    5,819439422e-03   -5,424671248e-02    3,809833527e-01   -5,673892498e-01    0,000000000e+00    0,000000000e+00    0,000000000e+00    0,000000000e+00
      562000000    2,995257266e-03   -8,921453357e-02    2,997555304e-03   -6,721134186e-01    0,000000000e+00    0,000000000e+00    0,000000000e+00    0,000000000e+00
      576000000   -3,440620750e-02   -1,241230145e-01   -3,687093556e-01   -5,575754642e-01    0,000000000e+00    0,000000000e+00    0,000000000e+00    0,000000000e+00
      590000000   -9,647262841e-02   -1,225843355e-01   -6,226050854e-01   -2,638263702e-01    0,000000000e+00    0,000000000e+00    0,000000000e+00    0,000000000e+00
      604000000   -1,394798309e-01   -7,147572190e-02   -6,650027633e-01    1,380439550e-01    0,000000000e+00    0,000000000e+00    0,000000000e+00    0,000000000e+00
      618000000   -1,293412000e-01   -9,246842936e-03   -4,648647010e-01    4,948416352e-01    0,000000000e+00    0,000000000e+00    0,000000000e+00    0,000000000e+00
      632000000   -8,362920582e-02    1,629675180e-02   -9,789298475e-02    6,633236408e-01    0,000000000e+00    0,000000000e+00    0,000000000e+00    0,000000000e+00
      646000000   -5,068869889e-02    9,444770403e-04    2,865228951e-01    5,947129130e-01    0,000000000e+00    0,000000000e+00    0,000000000e+00    0,000000000e+00
      660000000   -5,325245485e-02   -2,100192383e-02    5,671187639e-01    3,232932091e-01    0,000000000e+00    0,000000000e+00    0,000000000e+00    0,000000000e+00
      674000000   -7,097794116e-02   -1,732209325e-02    6,431630850e-01   -6,533858180e-02    0,000000000e+00    0,000000000e+00    0,000000000e+00    0,000000000e+00
      688000000   -6,910295784e-02    8,678177372e-03    4,712711275e-01   -4,290106595e-01    0,000000000e+00    0,000000000e+00    0,000000000e+00    0,000000000e+00
      702000000   -3,699456900e-02    2,679580450e-02    1,185964048e-01   -6,085254550e-01    0,000000000e+00    0,000000000e+00    0,000000000e+00    0,000000000e+00
      716000000    2,435496077e-03    1,716705039e-02   -2,648650706e-01   -5,466661453e-01    0,000000000e+00    0,000000000e+00    0,000000000e+00    0,000000000e+00
      730000000    3,625288978e-02   -1,100544725e-02   -5,285925865e-01   -2,693730593e-01    0,000000000e+00    0,000000000e+00    0,000000000e+00    0,000000000e+00
      744000000    6,568066031e-02   -6,198634952e-02   -5,641819239e-01    1,063156202e-01    0,000000000e+00    0,000000000e+00    0,000000000e+00    0,000000000e+00
      758000000    6,597463042e-02   -1,526701599e-01   -3,634632826e-01    4,103053510e-01    0,000000000e+00    0,000000000e+00    0,000000000e+00    0,000000000e+00
      772000000   -1,330876257e-02   -2,622117400e-01   -3,457885608e-02    5,156360865e-01    0,000000000e+00    0,000000000e+00    0,000000000e+00    0,000000000e+00
      786000000   -2,067679167e-01   -3,031101227e-01    2,747294605e-01    3,955198228e-01    0,000000000e+00    0,000000000e+00    0,000000000e+00    0,000000000e+00
      800000000   -4,253367186e-01   -1,298609674e-01    4,174099267e-01    9,935297817e-02    0,000000000e+00    0,000000000e+00    0,000000000e+00    0,000000000e+00
      814000000   -3,886414170e-01    2,210331261e-01    2,823386490e-01   -1,730024815e-01    0,000000000e+00    0,000000000e+00    0,000000000e+00    0,000000000e+00
      828000000   -4,998714104e-02    3,682152629e-01    5,554008484e-02   -1,895432770e-01    0,000000000e+00    0,000000000e+00    0,000000000e+00    0,000000000e+00
      842000000    2,351028919e-01    1,856391579e-01   -1,729777083e-02   -7,104995102e-02    0,000000000e+00    0,000000000e+00    0,000000000e+00    0,000000000e+00
      856000000    2,807421982e-01   -1,243036017e-01    4,554493353e-02   -1,281445380e-02    0,000000000e+00    0,000000000e+00    0,000000000e+00    0,000000000e+00
      870000000    7,495268434e-02   -3,754332364e-01    1,135429665e-01   -9,037087113e-02    0,000000000e+00    0,000000000e+00    0,000000000e+00    0,000000000e+00
      884000000   -2,950152457e-01   -3,617902100e-01    2,888506092e-02   -2,452562153e-01    0,000000000e+00    0,000000000e+00    0,000000000e+00    0,000000000e+00
      898000000   -4,720333219e-01    9,465707466e-03   -2,219770998e-01   -2,269110382e-01    0,000000000e+00    0,000000000e+00    0,000000000e+00    0,000000000e+00
      912000000   -2,270254046e-01    2,950723171e-01   -3,352422416e-01    6,648834050e-02    0,000000000e+00    0,000000000e+00    0,000000000e+00    0,000000000e+00
      926000000    6,907498091e-02    2,640970349e-01   -2,161220908e-01    2,643817067e-01    0,000000000e+00    0,000000000e+00    0,000000000e+00    0,000000000e+00
      940000000    2,167192698e-01    8,113823831e-02   -3,503880650e-02    3,305069804e-01    0,000000000e+00    0,000000000e+00    0,000000000e+00    0,000000000e+00
      954000000    2,215757072e-01   -1,263141334e-01    1,325523108e-01    3,071414828e-01    0,000000000e+00    0,000000000e+00    0,000000000e+00    0,000000000e+00
      968000000    1,170092076e-01   -2,983795106e-01    2,705506980e-01    2,195569426e-01    0,000000000e+00    0,000000000e+00    0,000000000e+00    0,000000000e+00
      982000000   -7,982305437e-02   -3,859438300e-01    3,664452136e-01    6,491427124e-02    0,000000000e+00    0,000000000e+00    0,000000000e+00    0,000000000e+00
      996000000   -3,167189956e-01   -3,255741894e-01    3,692600131e-01   -1,460992098e-01    0,000000000e+00    0,000000000e+00    0,000000000e+00    0,000000000e+00
     1010000000   -4,605991542e-01   -1,095836312e-01    2,215325832e-01   -3,430923223e-01    0,000000000e+00    0,000000000e+00    0,000000000e+00    0,000000000e+00
     1024000000   -4,130457640e-01    1,532893777e-01   -3,348347545e-02   -3,947410882e-01    0,000000000e+00    0,000000000e+00    0,000000000e+00    0,000000000e+00
     1038000000   -2,186710536e-01    2,932122946e-01   -2,472674698e-01   -2,612549961e-01    0,000000000e+00    0,000000000e+00    0,000000000e+00    0,000000000e+00
     1052000000   -5,704160780e-03    2,810112834e-01   -3,165299296e-01   -4,629998654e-02    0,000000000e+00    0,000000000e+00    0,000000000e+00    0,000000000e+00
     1066000000    1,361453533e-01    1,675304770e-01   -2,581596971e-01    1,407624185e-01    0,000000000e+00    0,000000000e+00    0,000000000e+00    0,000000000e+00
     1080000000    1,944200099e-01   -2,892074874e-03   -1,171957031e-01    2,633829713e-01    0,000000000e+00    0,000000000e+00    0,000000000e+00    0,000000000e+00
     1094000000    1,572155654e-01   -1,766600460e-01    6,327813864e-02    3,055787086e-01    0,000000000e+00    0,000000000e+00    0,000000000e+00    0,000000000e+00
     1108000000   -1,367302903e-04   -3,034026921e-01    2,756753564e-01    2,473027259e-01    0,000000000e+00    0,000000000e+00    0,000000000e+00    0,000000000e+00
     1122000000   -2,503994107e-01   -2,608854771e-01    4,733199477e-01    1,535193622e-02    0,000000000e+00    0,000000000e+00    0,000000000e+00    0,000000000e+00
     1136000000   -3,243545592e-01    3,227528185e-02    3,985457420e-01   -3,933736384e-01    0,000000000e+00    0,000000000e+00    0,000000000e+00    0,000000000e+00
     1150000000   -4,184497520e-02    1,499572098e-01    6,491327193e-03   -5,415062308e-01    0,000000000e+00    0,000000000e+00    0,000000000e+00    0,000000000e+00
     1164000000    1,199731380e-01   -6,323543936e-02   -2,818593681e-01   -3,760598302e-01    0,000000000e+00    0,000000000e+00    0,000000000e+00    0,000000000e+00
     1178000000    1,494087093e-02   -3,047457337e-01   -3,685289323e-01   -1,500250846e-01    0,000000000e+00    0,000000000e+00    0,000000000e+00    0,000000000e+00
     1192000000   -2,666614056e-01   -3,674298823e-01   -3,194510937e-01    5,685964227e-02    0,000000000e+00    0,000000000e+00    0,000000000e+00    0,000000000e+00
     1206000000   -5,181569457e-01   -1,619073749e-01   -1,701806337e-01    1,787108034e-01    0,000000000e+00    0,000000000e+00    0,000000000e+00    0,000000000e+00
     1220000000   -5,117016435e-01    1,740819365e-01   -1,101159840e-03    1,610568762e-01    0,000000000e+00    0,000000000e+00    0,000000000e+00    0,000000000e+00
     1234000000   -2,789500654e-01    3,655532002e-01    6,691905111e-02    6,187785789e-02    0,000000000e+00    0,000000000e+00    0,000000000e+00    0,000000000e+00
     1248000000   -5,113363639e-02    3,665416241e-01    5,644665286e-02   -8,600031957e-03    0,000000000e+00    0,000000000e+00    0,000000000e+00    0,000000000e+00
     1262000000    1,235218942e-01    2,523613870e-01    1,304667071e-02   -2,091615088e-02    0,000000000e+00    0,000000000e+00    0,000000000e+00    0,000000000e+00
     1276000000    2,105544358e-01    1,021255329e-01   -2,789801219e-03    4,701555241e-03    0,000000000e+00    0,000000000e+00    0,000000000e+00    0,000000000e+00
     1290000000    2,221640646e-01   -7,365305722e-02    1,638949290e-02    5,192077905e-02    0,000000000e+00    0,000000000e+00    0,000000000e+00    0,000000000e+00
     1304000000    1,572660059e-01   -2,427403778e-01    1,274008751e-01    6,662115455e-02    0,000000000e+00    0,000000000e+00    0,000000000e+00    0,000000000e+00
     1318000000    3,436361998e-02   -3,408801854e-01    1,278265417e-01   -1,711953282e-01    0,000000000e+00    0,000000000e+00    0,000000000e+00    0,000000000e+00
     1332000000   -1,268373877e-01   -4,408047497e-01   -4,117411003e-02   -5,089001730e-02    0,000000000e+00    0,000000000e+00    0,000000000e+00    0,000000000e+00
     1346000000   -3,934078813e-01   -4,026035666e-01    3,207326308e-02    7,063151151e-02    0,000000000e+00    0,000000000e+00    0,000000000e+00    0,000000000e+00
     1360000000   -6,082780957e-01   -1,944588125e-01    1,436580271e-01    6,733974069e-02    0,000000000e+00    0,000000000e+00    0,000000000e+00    0,000000000e+00
     1374000000   -6,372678876e-01    1,295203865e-01    1,957945824e-01    7,024937775e-03    0,000000000e+00    0,000000000e+00    0,000000000e+00    0,000000000e+00
     1388000000   -4,645323157e-01    3,688444197e-01    2,086207718e-01   -6,411330402e-02    0,000000000e+00    0,000000000e+00    0,000000000e+00    0,000000000e+00
     1402000000   -2,349524498e-01    4,546679854e-01    1,929062456e-01   -8,997455984e-02    0,000000000e+00    0,000000000e+00    0,000000000e+00    0,000000000e+00
     1416000000   -2,234304324e-02    4,083769917e-01    1,743007898e-01   -1,101488844e-01    0,000000000e+00    0,000000000e+00    0,000000000e+00    0,000000000e+00
     1430000000    1,142417267e-01    3,030596077e-01    1,535457373e-01   -9,407254308e-02    0,000000000e+00    0,000000000e+00    0,000000000e+00    0,000000000e+00
     1444000000    2,070675492e-01    1,492531598e-01    1,524869055e-01   -1,009349078e-01    0,000000000e+00    0,000000000e+00    0,000000000e+00    0,000000000e+00
     1458000000    2,347843200e-01   -2,428189665e-02    1,549043059e-01   -7,859457284e-02    0,000000000e+00    0,000000000e+00    0,000000000e+00    0,000000000e+00
     1472000000    1,959456205e-01   -2,020967156e-01    1,354140937e-01   -3,977695107e-02    0,000000000e+00    0,000000000e+00    0,000000000e+00    0,000000000e+00
     1486000000    6,132799387e-02   -3,781175911e-01    1,589720994e-01    4,194614291e-02    0,000000000e+00    0,000000000e+00    0,000000000e+00    0,000000000e+00
     1500000000   -1,716976166e-01   -4,936832488e-01    2,582409084e-01    9,802512825e-02    0,000000000e+00    0,000000000e+00    0,000000000e+00    0,000000000e+00
