! NanoVNA-App
! Date: 2025-09-25 15:34:56
! Start: 100MHz Stop: 1,5GHz Points: 101
! S-Parameter data: F S11 S21 S12 S22
# Hz S RI R 50
!     Frequency           S11_Real           S11_Imag           S21_Real           S21_Imag           S12_Real           S12_Imag           S22_Real           S22_Imag
      100000000   -2,883768082e-02   -4,171061330e-03    3,741230071e-01   -7,218191624e-01    0,000000000e+00    0,000000000e+00    0,000000000e+00    0,000000000e+00
      114000000   -1,649370790e-02    1,152061112e-02   -8,899671584e-02   -8,054155111e-01    0,000000000e+00    0,000000000e+00    0,000000000e+00    0,000000000e+00
      128000000    3,539599711e-03    1,048955228e-02   -5,146937370e-01   -6,205906868e-01    0,000000000e+00    0,000000000e+00    0,000000000e+00    0,000000000e+00
      142000000    1,457725186e-02   -2,971584210e-03   -7,669828534e-01   -2,366903573e-01    0,000000000e+00    0,000000000e+00    0,000000000e+00    0,000000000e+00
      156000000    1,609234698e-02   -1,429295819e-02   -7,702631950e-01    2,243208438e-01    0,000000000e+00    0,000000000e+00    0,000000000e+00    0,000000000e+00
      170000000    1,672379114e-02   -2,251049131e-02   -5,179917216e-01    6,046315432e-01    0,000000000e+00    0,000000000e+00    0,000000000e+00    0,000000000e+00
      184000000    2,103466168e-02   -3,701817617e-02   -1,014067158e-01    7,862125635e-01    0,000000000e+00    0,000000000e+00    0,000000000e+00    0,000000000e+00
      198000000    1,307710540e-02   -6,251081079e-02    3,430774212e-01    7,124068737e-01    0,000000000e+00    0,000000000e+00    0,000000000e+00    0,000000000e+00
      212000000   -1,867497899e-02   -8,132487535e-02    6,779822111e-01    4,100677073e-01    0,000000000e+00    0,000000000e+00    0,000000000e+00    0,000000000e+00
      226000000   -6,168321520e-02   -6,927151978e-02    7,958595157e-01   -3,057175502e-02    0,000000000e+00    0,000000000e+00    0,000000000e+00    0,000000000e+00
      240000000   -8,261413127e-02   -2,564871684e-02    6,462393403e-01   -4,670710266e-01    0,000000000e+00    0,000000000e+00    0,000000000e+00    0,000000000e+00
      254000000   -6,350376457e-02    1,725063659e-02    2,763062716e-01   -7,432296872e-01    0,000000000e+00    0,000000000e+00    0,000000000e+00    0,000000000e+00
      268000000   -2,389550395e-02    2,888691984e-02   -1,779292822e-01   -7,642766833e-01    0,000000000e+00    0,000000000e+00    0,000000000e+00    0,000000000e+00
      282000000    4,272499122e-03    1,199215837e-02   -5,622450709e-01   -5,358188748e-01    0,000000000e+00    0,000000000e+00    0,000000000e+00    0,000000000e+00
      296000000    9,792811237e-03   -7,771010976e-03   -7,599336505e-01   -1,396093369e-01    0,000000000e+00    0,000000000e+00    0,000000000e+00    0,000000000e+00
      310000000    1,126845181e-02   -1,600859314e-02   -7,115210295e-01    2,974269688e-01    0,000000000e+00    0,000000000e+00    0,000000000e+00    0,000000000e+00
      324000000    1,964963600e-02   -2,639619075e-02   -4,280477464e-01    6,382447481e-01    0,000000000e+00    0,000000000e+00    0,000000000e+00    0,000000000e+00
      338000000    2,573670447e-02   -5,189661682e-02   -9,378191084e-03    7,599676251e-01    0,000000000e+00    0,000000000e+00    0,000000000e+00    0,000000000e+00
      352000000    7,236138452e-03   -8,459273726e-02    4,060985446e-01    6,402609348e-01    0,000000000e+00    0,000000000e+00    0,000000000e+00    0,000000000e+00
      366000000   -3,481080756e-02   -9,569355845e-02    6,906527281e-01    3,111580014e-01    0,000000000e+00    0,000000000e+00    0,000000000e+00    0,000000000e+00
      380000000   -7,054424286e-02   -7,113695890e-02    7,481276393e-01   -1,258416623e-01    0,000000000e+00    0,000000000e+00    0,000000000e+00    0,000000000e+00
      394000000   -7,270015031e-02   -3,252732009e-02    5,467771292e-01   -5,220102668e-01    0,000000000e+00    0,000000000e+00    0,000000000e+00    0,000000000e+00
      408000000   -4,638667405e-02   -1,589413546e-02    1,597048640e-01   -7,323417664e-01    0,000000000e+00    0,000000000e+00    0,000000000e+00    0,000000000e+00
      422000000   -2,818425186e-02   -3,220368549e-02   -2,671314776e-01   -6,953862906e-01    0,000000000e+00    0,000000000e+00    0,000000000e+00    0,000000000e+00
      436000000   -4,077213630e-02   -5,192817003e-02   -6,043780446e-01   -4,314025342e-01    0,000000000e+00    0,000000000e+00    0,000000000e+00    0,000000000e+00
      450000000   -6,751535833e-02   -4,404037818e-02   -7,408471107e-01   -2,139190957e-02    0,000000000e+00    0,000000000e+00    0,000000000e+00    0,000000000e+00
      464000000   -7,347508520e-02   -1,201190706e-02   -6,187030077e-01    3,976886570e-01    0,000000000e+00    0,000000000e+00    0,000000000e+00    0,000000000e+00
      478000000   -4,771717638e-02    1,193750743e-02   -2,820958793e-01    6,682149172e-01    0,000000000e+00    0,000000000e+00    0,000000000e+00    0,000000000e+00
      492000000   -1,547501609e-02    6,032489240e-03    1,380138695e-01    7,014741898e-01    0,000000000e+00    0,000000000e+00    0,000000000e+00    0,000000000e+00
      506000000   -2,312466269e-03   -1,568832994e-02    4,992387593e-01    5,027683973e-01    0,000000000e+00    0,000000000e+00    0,000000000e+00    0,000000000e+00
      520000000   -4,810337443e-03   -3,177079931e-02    6,890759468e-01    1,414423585e-01    0,000000000e+00    0,000000000e+00    0,000000000e+00    0,000000000e+00
      534000000   -3,883089405e-03   -3,805553168e-02    6,437631845e-01   -2,623950541e-01    0,000000000e+00    0,000000000e+00    0,000000000e+00    0,000000000e+00
      548000000    6,167304236e-03   -5,412697420e-02    3,810750842e-01   -5,672048330e-01    0,000000000e+00    0,000000000e+00    0,000000000e+00    0,000000000e+00
      562000000    3,460445907e-03   -8,958062530e-02    3,160928143e-03   -6,722900867e-01    0,000000000e+00    0,000000000e+00    0,000000000e+00    0,000000000e+00
      576000000   -3,446361050e-02   -1,244194582e-01   -3,693839312e-01   -5,573443174e-01    0,000000000e+00    0,000000000e+00    0,000000000e+00    0,000000000e+00
      590000000   -9,618689865e-02   -1,229310855e-01   -6,193217635e-01   -2,633044124e-01    0,000000000e+00    0,000000000e+00    0,000000000e+00    0,000000000e+00
      604000000   -1,397729814e-01   -7,153997570e-02   -6,654258370e-01    1,374148428e-01    0,000000000e+00    0,000000000e+00    0,000000000e+00    0,000000000e+00
      618000000   -1,292196512e-01   -8,685102686e-03   -4,645933509e-01    4,949777424e-01    0,000000000e+00    0,000000000e+00    0,000000000e+00    0,000000000e+00
      632000000   -8,402699232e-02    1,625389606e-02   -9,926237911e-02    6,654413939e-01    0,000000000e+00    0,000000000e+00    0,000000000e+00    0,000000000e+00
      646000000   -5,147238821e-02    2,243470663e-04    2,877853811e-01    5,948926806e-01    0,000000000e+00    0,000000000e+00    0,000000000e+00    0,000000000e+00
      660000000   -5,322809517e-02   -2,215784602e-02    5,675901771e-01    3,225744665e-01    0,000000000e+00    0,000000000e+00    0,000000000e+00    0,000000000e+00
      674000000   -7,069619000e-02   -1,732773893e-02    6,433593035e-01   -6,585597992e-02    0,000000000e+00    0,000000000e+00    0,000000000e+00    0,000000000e+00
      688000000   -6,771390885e-02    8,714823984e-03    4,706793427e-01   -4,276598096e-01    0,000000000e+00    0,000000000e+00    0,000000000e+00    0,000000000e+00
      702000000   -3,670820221e-02    2,755517885e-02    1,169862002e-01   -6,106927991e-01    0,000000000e+00    0,000000000e+00    0,000000000e+00    0,000000000e+00
      716000000    2,294396749e-03    1,694503613e-02   -2,646078765e-01   -5,468094945e-01    0,000000000e+00    0,000000000e+00    0,000000000e+00    0,000000000e+00
      730000000    3,616700694e-02   -1,085912623e-02   -5,282439590e-01   -2,688157856e-01    0,000000000e+00    0,000000000e+00    0,000000000e+00    0,000000000e+00
      744000000    6,521464884e-02   -6,174413115e-02   -5,640884638e-01    1,068535745e-01    0,000000000e+00    0,000000000e+00    0,000000000e+00    0,000000000e+00
      758000000    6,704554707e-02   -1,527725905e-01   -3,635567725e-01    4,104250371e-01    0,000000000e+00    0,000000000e+00    0,000000000e+00    0,000000000e+00
      772000000   -1,252298988e-02   -2,620351017e-01   -3,445196524e-02    5,151646137e-01    0,000000000e+00    0,000000000e+00    0,000000000e+00    0,000000000e+00
      786000000   -2,065903097e-01   -3,023214340e-01    2,746138573e-01    3,954644203e-01    0,000000000e+00    0,000000000e+00    0,000000000e+00    0,000000000e+00
      800000000   -4,265325069e-01   -1,299664378e-01    4,172526896e-01    9,858101606e-02    0,000000000e+00    0,000000000e+00    0,000000000e+00    0,000000000e+00
      814000000   -3,888135254e-01    2,220372260e-01    2,826451659e-01   -1,733820587e-01    0,000000000e+00    0,000000000e+00    0,000000000e+00    0,000000000e+00
      828000000   -5,002761260e-02    3,685413301e-01    5,546212196e-02   -1,889117807e-01    0,000000000e+00    0,000000000e+00    0,000000000e+00    0,000000000e+00
      842000000    2,345466465e-01    1,861457527e-01   -1,721012592e-02   -7,103221864e-02    0,000000000e+00    0,000000000e+00    0,000000000e+00    0,000000000e+00
      856000000    2,806309164e-01   -1,240061298e-01    4,538542777e-02   -1,294004172e-02    0,000000000e+00    0,000000000e+00    0,000000000e+00    0,000000000e+00
      870000000    7,477167994e-02   -3,755726814e-01    1,130506024e-01   -9,107685834e-02    0,000000000e+00    0,000000000e+00    0,000000000e+00    0,000000000e+00
      884000000   -2,947112620e-01   -3,608151376e-01    2,902703919e-02   -2,447212636e-01    0,000000000e+00    0,000000000e+00    0,000000000e+00    0,000000000e+00
      898000000   -4,716982841e-01    8,261468261e-03   -2,214974165e-01   -2,282552123e-01    0,000000000e+00    0,000000000e+00    0,000000000e+00    0,000000000e+00
      912000000   -2,251201570e-01    2,939389050e-01   -3,522252738e-01    6,018184125e-02    0,000000000e+00    0,000000000e+00    0,000000000e+00    0,000000000e+00
      926000000    6,830650568e-02    2,629018128e-01   -2,154907286e-01    2,627467215e-01    0,000000000e+00    0,000000000e+00    0,000000000e+00    0,000000000e+00
      940000000    2,179522365e-01    7,878616452e-02   -3,413863480e-02    3,307676613e-01    0,000000000e+00    0,000000000e+00    0,000000000e+00    0,000000000e+00
      954000000    2,241163403e-01   -1,256484985e-01    1,312067360e-01    3,075833619e-01    0,000000000e+00    0,000000000e+00    0,000000000e+00    0,000000000e+00
      968000000    1,160362065e-01   -3,009573817e-01    2,710083723e-01    2,193312198e-01    0,000000000e+00    0,000000000e+00    0,000000000e+00    0,000000000e+00
      982000000   -8,421460539e-02   -3,865313232e-01    3,670135438e-01    6,604597718e-02    0,000000000e+00    0,000000000e+00    0,000000000e+00    0,000000000e+00
      996000000   -3,146875799e-01   -3,310791254e-01    3,688994944e-01   -1,472951323e-01    0,000000000e+00    0,000000000e+00    0,000000000e+00    0,000000000e+00
     1010000000   -4,665593505e-01   -1,112333238e-01    2,220152318e-01   -3,426826000e-01    0,000000000e+00    0,000000000e+00    0,000000000e+00    0,000000000e+00
     1024000000   -4,162683785e-01    1,452594250e-01   -3,197292611e-02   -3,938219547e-01    0,000000000e+00    0,000000000e+00    0,000000000e+00    0,000000000e+00
     1038000000   -2,172764689e-01    2,901206017e-01   -2,455161959e-01   -2,617417276e-01    0,000000000e+00    0,000000000e+00    0,000000000e+00    0,000000000e+00
     1052000000   -7,823172957e-03    2,757834494e-01   -3,182005882e-01   -4,578850418e-02    0,000000000e+00    0,000000000e+00    0,000000000e+00    0,000000000e+00
     1066000000    1,386371404e-01    1,637659818e-01   -2,574366331e-01    1,416386962e-01    0,000000000e+00    0,000000000e+00    0,000000000e+00    0,000000000e+00
     1080000000    1,944147497e-01    2,576375846e-03   -1,194073185e-01    2,633585334e-01    0,000000000e+00    0,000000000e+00    0,000000000e+00    0,000000000e+00
     1094000000    1,525380760e-01   -1,726751477e-01    6,605504453e-02    3,059110940e-01    0,000000000e+00    0,000000000e+00    0,000000000e+00    0,000000000e+00
     1108000000    1,121280366e-03   -3,034833074e-01    2,759099305e-01    2,457715869e-01    0,000000000e+00    0,000000000e+00    0,000000000e+00    0,000000000e+00
     1122000000   -2,494201958e-01   -2,595598102e-01    4,747406244e-01    1,306241285e-02    0,000000000e+00    0,000000000e+00    0,000000000e+00    0,000000000e+00
     1136000000   -3,159175813e-01    2,876673453e-02    4,005841911e-01   -3,930749595e-01    0,000000000e+00    0,000000000e+00    0,000000000e+00    0,000000000e+00
     1150000000   -3,580220416e-02    1,508092433e-01    3,882723628e-03   -5,424440503e-01    0,000000000e+00    0,000000000e+00    0,000000000e+00    0,000000000e+00
     1164000000    1,272975355e-01   -6,245737895e-02   -2,759596705e-01   -3,802505732e-01    0,000000000e+00    0,000000000e+00    0,000000000e+00    0,000000000e+00
     1178000000    1,988328621e-02   -3,040626645e-01   -3,678383827e-01   -1,510642916e-01    0,000000000e+00    0,000000000e+00    0,000000000e+00    0,000000000e+00
     1192000000   -2,654106319e-01   -3,674444556e-01   -3,266445398e-01    6,000568345e-02    0,000000000e+00    0,000000000e+00    0,000000000e+00    0,000000000e+00
     1206000000   -5,222662687e-01   -1,563120633e-01   -1,678510457e-01    1,829681545e-01    0,000000000e+00    0,000000000e+00    0,000000000e+00    0,000000000e+00
     1220000000   -5,136905313e-01    1,752654612e-01   -4,324378911e-03    1,583151966e-01    0,000000000e+00    0,000000000e+00    0,000000000e+00    0,000000000e+00
     1234000000   -2,834637463e-01    3,656675816e-01    7,230859995e-02    6,218447536e-02    0,000000000e+00    0,000000000e+00    0,000000000e+00    0,000000000e+00
     1248000000   -4,417153820e-02    3,614340425e-01    5,404821038e-02   -1,295039058e-02    0,000000000e+00    0,000000000e+00    0,000000000e+00    0,000000000e+00
     1262000000    1,289038658e-01    2,598475516e-01    1,819058694e-02   -1,882929355e-02    0,000000000e+00    0,000000000e+00    0,000000000e+00    0,000000000e+00
     1276000000    2,133147866e-01    9,938103706e-02   -1,605676138e-03    6,374365184e-04    0,000000000e+00    0,000000000e+00    0,000000000e+00    0,000000000e+00
     1290000000    2,245001942e-01   -7,215826213e-02    1,917715371e-02    5,088714510e-02    0,000000000e+00    0,000000000e+00    0,000000000e+00    0,000000000e+00
     1304000000    1,566983014e-01   -2,410738468e-01    1,320815235e-01    6,967685372e-02    0,000000000e+00    0,000000000e+00    0,000000000e+00    0,000000000e+00
     1318000000    3,109500930e-02   -3,336698413e-01    1,296700388e-01   -1,631570607e-01    0,000000000e+00    0,000000000e+00    0,000000000e+00    0,000000000e+00
     1332000000   -1,364584416e-01   -4,416666329e-01   -5,083736777e-02   -4,474605992e-02    0,000000000e+00    0,000000000e+00    0,000000000e+00    0,000000000e+00
     1346000000   -3,976617157e-01   -4,116153121e-01    2,227107808e-02    6,193723902e-02    0,000000000e+00    0,000000000e+00    0,000000000e+00    0,000000000e+00
     1360000000   -6,044249535e-01   -1,930641532e-01    1,433021873e-01    6,951212138e-02    0,000000000e+00    0,000000000e+00    0,000000000e+00    0,000000000e+00
     1374000000   -6,305395961e-01    1,330197453e-01    2,143891454e-01    1,347269770e-02    0,000000000e+00    0,000000000e+00    0,000000000e+00    0,000000000e+00
     1388000000   -4,649515748e-01    3,681003153e-01    2,131511271e-01   -5,500995368e-02    0,000000000e+00    0,000000000e+00    0,000000000e+00    0,000000000e+00
     1402000000   -2,404235154e-01    4,567367435e-01    1,819740981e-01   -8,772245795e-02    0,000000000e+00    0,000000000e+00    0,000000000e+00    0,000000000e+00
     1416000000   -2,380001359e-02    4,121763110e-01    1,803358942e-01   -1,044667885e-01    0,000000000e+00    0,000000000e+00    0,000000000e+00    0,000000000e+00
     1430000000    1,235121116e-01    3,068176210e-01    1,671195775e-01   -9,219294786e-02    0,000000000e+00    0,000000000e+00    0,000000000e+00    0,000000000e+00
     1444000000    2,065221220e-01    1,490735263e-01    1,471484303e-01   -1,053965986e-01    0,000000000e+00    0,000000000e+00    0,000000000e+00    0,000000000e+00
     1458000000    2,344926745e-01   -1,854407601e-02    1,372874379e-01   -6,737989187e-02    0,000000000e+00    0,000000000e+00    0,000000000e+00    0,000000000e+00
     1472000000    1,848320812e-01   -2,031715959e-01    1,388516426e-01   -3,184422106e-02    0,000000000e+00    0,000000000e+00    0,000000000e+00    0,000000000e+00
     1486000000    6,368521601e-02   -3,729561567e-01    1,693808585e-01    4,381643981e-02    0,000000000e+00    0,000000000e+00    0,000000000e+00    0,000000000e+00
     1500000000   -1,666157544e-01   -4,952585995e-01    2,633264661e-01    9,242498875e-02    0,000000000e+00    0,000000000e+00    0,000000000e+00    0,000000000e+00
