! NanoVNA-App
! Date: 2025-09-25 15:33:07
! Start: 100MHz Stop: 1,5GHz Points: 101
! S-Parameter data: F S11 S21 S12 S22
# Hz S RI R 50
!     Frequency           S11_Real           S11_Imag           S21_Real           S21_Imag           S12_Real           S12_Imag           S22_Real           S22_Imag
      100000000   -2,887135185e-02   -4,177946132e-03    3,741316199e-01   -7,217850685e-01    0,000000000e+00    0,000000000e+00    0,000000000e+00    0,000000000e+00
      114000000   -1,649069786e-02    1,149239205e-02   -8,914992213e-02   -8,055347800e-01    0,000000000e+00    0,000000000e+00    0,000000000e+00    0,000000000e+00
      128000000    3,501787549e-03    1,053727325e-02   -5,147760510e-01   -6,206771731e-01    0,000000000e+00    0,000000000e+00    0,000000000e+00    0,000000000e+00
      142000000    1,454308257e-02   -2,951752627e-03   -7,670912743e-01   -2,364874333e-01    0,000000000e+00    0,000000000e+00    0,000000000e+00    0,000000000e+00
      156000000    1,610113494e-02   -1,428096741e-02   -7,723445892e-01    2,246140093e-01    0,000000000e+00    0,000000000e+00    0,000000000e+00    0,000000000e+00
      170000000    1,669107191e-02   -2,248184569e-02   -5,182613730e-01    6,048687696e-01    0,000000000e+00    0,000000000e+00    0,000000000e+00    0,000000000e+00
      184000000    2,098143846e-02   -3,707386553e-02   -1,011150107e-01    7,860922217e-01    0,000000000e+00    0,000000000e+00    0,000000000e+00    0,000000000e+00
      198000000    1,298381947e-02   -6,245337799e-02    3,432261050e-01    7,124701142e-01    0,000000000e+00    0,000000000e+00    0,000000000e+00    0,000000000e+00
      212000000   -1,866995730e-02   -8,129756898e-02    6,781194806e-01    4,098506868e-01    0,000000000e+00    0,000000000e+00    0,000000000e+00    0,000000000e+00
      226000000   -6,169274077e-02   -6,924653798e-02    7,957818508e-01   -3,048962168e-02    0,000000000e+00    0,000000000e+00    0,000000000e+00    0,000000000e+00
      240000000   -8,263260126e-02   -2,560880966e-02    6,460061669e-01   -4,669492841e-01    0,000000000e+00    0,000000000e+00    0,000000000e+00    0,000000000e+00
      254000000   -6,352684647e-02    1,725429669e-02    2,761690319e-01   -7,434908748e-01    0,000000000e+00    0,000000000e+00    0,000000000e+00    0,000000000e+00
      268000000   -2,383228950e-02    2,892245911e-02   -1,779914796e-01   -7,643811107e-01    0,000000000e+00    0,000000000e+00    0,000000000e+00    0,000000000e+00
      282000000    4,136355128e-03    1,201474387e-02   -5,615220666e-01   -5,355575085e-01    0,000000000e+00    0,000000000e+00    0,000000000e+00    0,000000000e+00
      296000000    9,673603810e-03   -7,946518250e-03   -7,596903443e-01   -1,396080554e-01    0,000000000e+00    0,000000000e+00    0,000000000e+00    0,000000000e+00
      310000000    1,113620773e-02   -1,608121954e-02   -7,123756409e-01    2,988658249e-01    0,000000000e+00    0,000000000e+00    0,000000000e+00    0,000000000e+00
      324000000    1,977443323e-02   -2,669019252e-02   -4,269155860e-01    6,380090117e-01    0,000000000e+00    0,000000000e+00    0,000000000e+00    0,000000000e+00
      338000000    2,554425411e-02   -5,235046893e-02   -7,095394190e-03    7,622274160e-01    0,000000000e+00    0,000000000e+00    0,000000000e+00    0,000000000e+00
      352000000    7,466287352e-03   -8,477111161e-02    4,066835046e-01    6,400375366e-01    0,000000000e+00    0,000000000e+00    0,000000000e+00    0,000000000e+00
      366000000   -3,484648466e-02   -9,545727819e-02    6,905182600e-01    3,113905489e-01    0,000000000e+00    0,000000000e+00    0,000000000e+00    0,000000000e+00
      380000000   -7,070790976e-02   -7,130262256e-02    7,478018403e-01   -1,262790859e-01    0,000000000e+00    0,000000000e+00    0,000000000e+00    0,000000000e+00
      394000000   -7,296232879e-02   -3,250718489e-02    5,456436872e-01   -5,226490498e-01    0,000000000e+00    0,000000000e+00    0,000000000e+00    0,000000000e+00
      408000000   -4,636474326e-02   -1,614374667e-02    1,623764634e-01   -7,313583493e-01    0,000000000e+00    0,000000000e+00    0,000000000e+00    0,000000000e+00
      422000000   -2,828367986e-02   -3,193750232e-02   -2,675935030e-01   -6,960143447e-01    0,000000000e+00    0,000000000e+00    0,000000000e+00    0,000000000e+00
      436000000   -4,085372016e-02   -5,145205185e-02   -6,041993499e-01   -4,320713580e-01    0,000000000e+00    0,000000000e+00    0,000000000e+00    0,000000000e+00
      450000000   -6,748907268e-02   -4,407363385e-02   -7,402841449e-01   -2,153918333e-02    0,000000000e+00    0,000000000e+00    0,000000000e+00    0,000000000e+00
      464000000   -7,354582846e-02   -1,159158163e-02   -6,188471317e-01    3,975458145e-01    0,000000000e+00    0,000000000e+00    0,000000000e+00    0,000000000e+00
      478000000   -4,786719754e-02    1,160112116e-02   -2,823260427e-01    6,672836542e-01    0,000000000e+00    0,000000000e+00    0,000000000e+00    0,000000000e+00
      492000000   -1,569358073e-02    5,637400784e-03    1,379414052e-01    7,012033463e-01    0,000000000e+00    0,000000000e+00    0,000000000e+00    0,000000000e+00
      506000000   -2,197753405e-03   -1,574379578e-02    4,989869595e-01    5,024928451e-01    0,000000000e+00    0,000000000e+00    0,000000000e+00    0,000000000e+00
      520000000   -5,258930847e-03   -3,149645030e-02    6,884332895e-01    1,414055675e-01    0,000000000e+00    0,000000000e+00    0,000000000e+00    0,000000000e+00
      534000000   -4,106579348e-03   -3,845215216e-02    6,435012221e-01   -2,625539005e-01    0,000000000e+00    0,000000000e+00    0,000000000e+00    0,000000000e+00
      548000000    6,297157146e-03   -5,403847992e-02    3,818255067e-01   -5,674775243e-01    0,000000000e+00    0,000000000e+00    0,000000000e+00    0,000000000e+00
      562000000    3,284574952e-03   -8,967719972e-02    2,704432001e-03   -6,730329394e-01    0,000000000e+00    0,000000000e+00    0,000000000e+00    0,000000000e+00
      576000000   -3,471685573e-02   -1,245120019e-01   -3,688885868e-01   -5,575416684e-01    0,000000000e+00    0,000000000e+00    0,000000000e+00    0,000000000e+00
      590000000   -9,620913863e-02   -1,226702929e-01   -6,196025610e-01   -2,649475634e-01    0,000000000e+00    0,000000000e+00    0,000000000e+00    0,000000000e+00
      604000000   -1,393059194e-01   -7,169685513e-02   -6,646240950e-01    1,377262920e-01    0,000000000e+00    0,000000000e+00    0,000000000e+00    0,000000000e+00
      618000000   -1,296913922e-01   -9,588357992e-03   -4,646847546e-01    4,941812754e-01    0,000000000e+00    0,000000000e+00    0,000000000e+00    0,000000000e+00
      632000000   -8,360312134e-02    1,634738036e-02   -9,945461154e-02    6,638116837e-01    0,000000000e+00    0,000000000e+00    0,000000000e+00    0,000000000e+00
      646000000   -5,050547794e-02    5,689868121e-04    2,875596583e-01    5,958299637e-01    0,000000000e+00    0,000000000e+00    0,000000000e+00    0,000000000e+00
      660000000   -5,364952236e-02   -2,180053852e-02    5,681219101e-01    3,236053288e-01    0,000000000e+00    0,000000000e+00    0,000000000e+00    0,000000000e+00
      674000000   -7,008641213e-02   -1,702165231e-02    6,430271268e-01   -6,547162682e-02    0,000000000e+00    0,000000000e+00    0,000000000e+00    0,000000000e+00
      688000000   -6,823742390e-02    8,224859834e-03    4,710398614e-01   -4,275686443e-01    0,000000000e+00    0,000000000e+00    0,000000000e+00    0,000000000e+00
      702000000   -3,747705370e-02    2,723060362e-02    1,174062192e-01   -6,111447811e-01    0,000000000e+00    0,000000000e+00    0,000000000e+00    0,000000000e+00
      716000000    3,118133172e-03    1,819794066e-02   -2,651852965e-01   -5,460663438e-01    0,000000000e+00    0,000000000e+00    0,000000000e+00    0,000000000e+00
      730000000    3,702856973e-02   -1,164870709e-02   -5,286445022e-01   -2,694679201e-01    0,000000000e+00    0,000000000e+00    0,000000000e+00    0,000000000e+00
      744000000    6,465266645e-02   -6,226539984e-02   -5,639112592e-01    1,062989086e-01    0,000000000e+00    0,000000000e+00    0,000000000e+00    0,000000000e+00
      758000000    6,630441546e-02   -1,529075950e-01   -3,633008301e-01    4,106428623e-01    0,000000000e+00    0,000000000e+00    0,000000000e+00    0,000000000e+00
      772000000   -1,262632292e-02   -2,627442181e-01   -3,442087770e-02    5,150946975e-01    0,000000000e+00    0,000000000e+00    0,000000000e+00    0,000000000e+00
      786000000   -2,058822811e-01   -3,027316034e-01    2,738038003e-01    3,958086669e-01    0,000000000e+00    0,000000000e+00    0,000000000e+00    0,000000000e+00
      800000000   -4,260541201e-01   -1,304459423e-01    4,176979661e-01    9,953204542e-02    0,000000000e+00    0,000000000e+00    0,000000000e+00    0,000000000e+00
      814000000   -3,885322809e-01    2,211998850e-01    2,824140787e-01   -1,726931334e-01    0,000000000e+00    0,000000000e+00    0,000000000e+00    0,000000000e+00
      828000000   -4,965590313e-02    3,683291972e-01    5,536589772e-02   -1,889966428e-01    0,000000000e+00    0,000000000e+00    0,000000000e+00    0,000000000e+00
      842000000    2,351170480e-01    1,859245151e-01   -1,738191769e-02   -7,090428472e-02    0,000000000e+00    0,000000000e+00    0,000000000e+00    0,000000000e+00
      856000000    2,804593444e-01   -1,241153777e-01    4,502291605e-02   -1,302228216e-02    0,000000000e+00    0,000000000e+00    0,000000000e+00    0,000000000e+00
      870000000    7,492808253e-02   -3,770284355e-01    1,140612885e-01   -9,084783494e-02    0,000000000e+00    0,000000000e+00    0,000000000e+00    0,000000000e+00
      884000000   -2,959377766e-01   -3,619182110e-01    2,845740877e-02   -2,457012981e-01    0,000000000e+00    0,000000000e+00    0,000000000e+00    0,000000000e+00
      898000000   -4,715432525e-01    8,532738313e-03   -2,219341695e-01   -2,277698666e-01    0,000000000e+00    0,000000000e+00    0,000000000e+00    0,000000000e+00
      912000000   -2,254301757e-01    2,943308949e-01   -3,452354074e-01    7,660645992e-02    0,000000000e+00    0,000000000e+00    0,000000000e+00    0,000000000e+00
      926000000    6,567572057e-02    2,640508115e-01   -2,185346633e-01    2,652360797e-01    0,000000000e+00    0,000000000e+00    0,000000000e+00    0,000000000e+00
      940000000    2,146756500e-01    7,891653478e-02   -3,716995940e-02    3,290032148e-01    0,000000000e+00    0,000000000e+00    0,000000000e+00    0,000000000e+00
      954000000    2,228447050e-01   -1,261093020e-01    1,310263127e-01    3,082695305e-01    0,000000000e+00    0,000000000e+00    0,000000000e+00    0,000000000e+00
      968000000    1,140136346e-01   -2,986613214e-01    2,717510164e-01    2,182914466e-01    0,000000000e+00    0,000000000e+00    0,000000000e+00    0,000000000e+00
      982000000   -7,943844795e-02   -3,895412982e-01    3,665899932e-01    6,648264080e-02    0,000000000e+00    0,000000000e+00    0,000000000e+00    0,000000000e+00
      996000000   -3,138865530e-01   -3,282120824e-01    3,690676689e-01   -1,452244222e-01    0,000000000e+00    0,000000000e+00    0,000000000e+00    0,000000000e+00
     1010000000   -4,641544521e-01   -1,133071855e-01    2,224002928e-01   -3,420277834e-01    0,000000000e+00    0,000000000e+00    0,000000000e+00    0,000000000e+00
     1024000000   -4,103250802e-01    1,456796676e-01   -3,410076350e-02   -3,934623003e-01    0,000000000e+00    0,000000000e+00    0,000000000e+00    0,000000000e+00
     1038000000   -2,142922878e-01    2,893216014e-01   -2,480487972e-01   -2,616324127e-01    0,000000000e+00    0,000000000e+00    0,000000000e+00    0,000000000e+00
     1052000000   -3,153560450e-03    2,777504623e-01   -3,181423545e-01   -4,635912552e-02    0,000000000e+00    0,000000000e+00    0,000000000e+00    0,000000000e+00
     1066000000    1,329487413e-01    1,638393551e-01   -2,566432953e-01    1,422501504e-01    0,000000000e+00    0,000000000e+00    0,000000000e+00    0,000000000e+00
     1080000000    1,940786541e-01    1,913541113e-03   -1,186799332e-01    2,625465691e-01    0,000000000e+00    0,000000000e+00    0,000000000e+00    0,000000000e+00
     1094000000    1,515022814e-01   -1,719713956e-01    6,328308582e-02    3,050429523e-01    0,000000000e+00    0,000000000e+00    0,000000000e+00    0,000000000e+00
     1108000000   -3,405937925e-03   -3,045825660e-01    2,778741419e-01    2,438919544e-01    0,000000000e+00    0,000000000e+00    0,000000000e+00    0,000000000e+00
     1122000000   -2,511758804e-01   -2,662666440e-01    4,720503092e-01    1,214987878e-02    0,000000000e+00    0,000000000e+00    0,000000000e+00    0,000000000e+00
     1136000000   -3,189992905e-01    2,865457349e-02    3,993907273e-01   -3,974990547e-01    0,000000000e+00    0,000000000e+00    0,000000000e+00    0,000000000e+00
     1150000000   -3,977942467e-02    1,510000527e-01    5,410625599e-03   -5,431376100e-01    0,000000000e+00    0,000000000e+00    0,000000000e+00    0,000000000e+00
     1164000000    1,265033931e-01   -6,253518164e-02   -2,782729864e-01   -3,765777051e-01    0,000000000e+00    0,000000000e+00    0,000000000e+00    0,000000000e+00
     1178000000    1,707321405e-02   -3,012161553e-01   -3,683379889e-01   -1,523839384e-01    0,000000000e+00    0,000000000e+00    0,000000000e+00    0,000000000e+00
     1192000000   -2,654572725e-01   -3,737397790e-01   -3,209018707e-01    5,447211862e-02    0,000000000e+00    0,000000000e+00    0,000000000e+00    0,000000000e+00
     1206000000   -5,240883231e-01   -1,606344879e-01   -1,650973856e-01    1,791641712e-01    0,000000000e+00    0,000000000e+00    0,000000000e+00    0,000000000e+00
     1220000000   -5,076828003e-01    1,759019345e-01    3,226115834e-03    1,580510437e-01    0,000000000e+00    0,000000000e+00    0,000000000e+00    0,000000000e+00
     1234000000   -2,865309417e-01    3,578528762e-01    7,181139290e-02    6,293499470e-02    0,000000000e+00    0,000000000e+00    0,000000000e+00    0,000000000e+00
     1248000000   -4,945503548e-02    3,682721555e-01    5,521772429e-02   -3,060971154e-03    0,000000000e+00    0,000000000e+00    0,000000000e+00    0,000000000e+00
     1262000000    1,272387207e-01    2,591449320e-01    1,954285242e-02   -2,385150269e-02    0,000000000e+00    0,000000000e+00    0,000000000e+00    0,000000000e+00
     1276000000    2,112434953e-01    9,765893966e-02    1,391097438e-03    5,072070286e-03    0,000000000e+00    0,000000000e+00    0,000000000e+00    0,000000000e+00
     1290000000    2,203248888e-01   -7,394977659e-02    1,846788637e-02    4,933977872e-02    0,000000000e+00    0,000000000e+00    0,000000000e+00    0,000000000e+00
     1304000000    1,535210907e-01   -2,402801663e-01    1,337630004e-01    6,854736805e-02    0,000000000e+00    0,000000000e+00    0,000000000e+00    0,000000000e+00
     1318000000    3,612856194e-02   -3,371822834e-01    1,326883584e-01   -1,678544730e-01    0,000000000e+00    0,000000000e+00    0,000000000e+00    0,000000000e+00
     1332000000   -1,322641820e-01   -4,405673444e-01   -4,626368359e-02   -5,071579665e-02    0,000000000e+00    0,000000000e+00    0,000000000e+00    0,000000000e+00
     1346000000   -3,937900662e-01   -4,048924744e-01    1,140879095e-02    7,194384933e-02    0,000000000e+00    0,000000000e+00    0,000000000e+00    0,000000000e+00
     1360000000   -6,068397164e-01   -1,895689815e-01    1,393086910e-01    6,799996644e-02    0,000000000e+00    0,000000000e+00    0,000000000e+00    0,000000000e+00
     1374000000   -6,380822062e-01    1,232915968e-01    2,008137703e-01    4,939645529e-03    0,000000000e+00    0,000000000e+00    0,000000000e+00    0,000000000e+00
     1388000000   -4,666005373e-01    3,647334576e-01    2,096987814e-01   -7,383792102e-02    0,000000000e+00    0,000000000e+00    0,000000000e+00    0,000000000e+00
     1402000000   -2,284584492e-01    4,548061490e-01    1,970667094e-01   -1,010240018e-01    0,000000000e+00    0,000000000e+00    0,000000000e+00    0,000000000e+00
     1416000000   -2,134621143e-02    4,113958776e-01    1,765775532e-01   -1,010060906e-01    0,000000000e+00    0,000000000e+00    0,000000000e+00    0,000000000e+00
     1430000000    1,228017434e-01    2,996499836e-01    1,904102117e-01   -8,532919735e-02    0,000000000e+00    0,000000000e+00    0,000000000e+00    0,000000000e+00
     1444000000    2,087028325e-01    1,504889280e-01    1,592205018e-01   -1,017437279e-01    0,000000000e+00    0,000000000e+00    0,000000000e+00    0,000000000e+00
     1458000000    2,371001691e-01   -2,076551132e-02    1,495756656e-01   -7,343085855e-02    0,000000000e+00    0,000000000e+00    0,000000000e+00    0,000000000e+00
     1472000000    1,941988319e-01   -1,991200745e-01    1,384193897e-01   -2,441271581e-02    0,000000000e+00    0,000000000e+00    0,000000000e+00    0,000000000e+00
     1486000000    6,238900870e-02   -3,732094765e-01    1,640806496e-01    3,648751602e-02    0,000000000e+00    0,000000000e+00    0,000000000e+00    0,000000000e+00
     1500000000   -1,701083779e-01   -4,889268577e-01    2,376480103e-01    1,102768630e-01    0,000000000e+00    0,000000000e+00    0,000000000e+00    0,000000000e+00
