! NanoVNA-App
! Date: 2025-09-25 15:30:39
! Start: 100MHz Stop: 1,5GHz Points: 101
! S-Parameter data: F S11 S21 S12 S22
# Hz S RI R 50
!     Frequency           S11_Real           S11_Imag           S21_Real           S21_Imag           S12_Real           S12_Imag           S22_Real           S22_Imag
      100000000   -2,888217755e-02   -4,177238792e-03    3,741316199e-01   -7,217415571e-01    0,000000000e+00    0,000000000e+00    0,000000000e+00    0,000000000e+00
      114000000   -1,652409881e-02    1,153924130e-02   -8,920695633e-02   -8,055096865e-01    0,000000000e+00    0,000000000e+00    0,000000000e+00    0,000000000e+00
      128000000    3,482795786e-03    1,059877127e-02   -5,146449804e-01   -6,203123927e-01    0,000000000e+00    0,000000000e+00    0,000000000e+00    0,000000000e+00
      142000000    1,453002170e-02   -2,938001184e-03   -7,671257854e-01   -2,365382761e-01    0,000000000e+00    0,000000000e+00    0,000000000e+00    0,000000000e+00
      156000000    1,598463394e-02   -1,433623023e-02   -7,698719501e-01    2,242047787e-01    0,000000000e+00    0,000000000e+00    0,000000000e+00    0,000000000e+00
      170000000    1,661711931e-02   -2,256428637e-02   -5,182816982e-01    6,047380567e-01    0,000000000e+00    0,000000000e+00    0,000000000e+00    0,000000000e+00
      184000000    2,097695693e-02   -3,708609194e-02   -1,011977792e-01    7,857534885e-01    0,000000000e+00    0,000000000e+00    0,000000000e+00    0,000000000e+00
      198000000    1,298969332e-02   -6,241459772e-02    3,435662091e-01    7,123273015e-01    0,000000000e+00    0,000000000e+00    0,000000000e+00    0,000000000e+00
      212000000   -1,866200194e-02   -8,127661049e-02    6,781420708e-01    4,100018144e-01    0,000000000e+00    0,000000000e+00    0,000000000e+00    0,000000000e+00
      226000000   -6,169620156e-02   -6,918761879e-02    7,957535982e-01   -3,049188852e-02    0,000000000e+00    0,000000000e+00    0,000000000e+00    0,000000000e+00
      240000000   -8,257770538e-02   -2,565099485e-02    6,459962130e-01   -4,671423435e-01    0,000000000e+00    0,000000000e+00    0,000000000e+00    0,000000000e+00
      254000000   -6,352891028e-02    1,723564789e-02    2,761740386e-01   -7,432926297e-01    0,000000000e+00    0,000000000e+00    0,000000000e+00    0,000000000e+00
      268000000   -2,386548556e-02    2,889798954e-02   -1,777633429e-01   -7,641213536e-01    0,000000000e+00    0,000000000e+00    0,000000000e+00    0,000000000e+00
      282000000    4,163173027e-03    1,200654265e-02   -5,620244741e-01   -5,359259844e-01    0,000000000e+00    0,000000000e+00    0,000000000e+00    0,000000000e+00
      296000000    9,686417878e-03   -7,841517217e-03   -7,598195076e-01   -1,396016777e-01    0,000000000e+00    0,000000000e+00    0,000000000e+00    0,000000000e+00
      310000000    1,115266792e-02   -1,638463885e-02   -7,131593227e-01    2,993797660e-01    0,000000000e+00    0,000000000e+00    0,000000000e+00    0,000000000e+00
      324000000    1,956232078e-02   -2,653093264e-02   -4,271950722e-01    6,377315521e-01    0,000000000e+00    0,000000000e+00    0,000000000e+00    0,000000000e+00
      338000000    2,534331940e-02   -5,250915885e-02   -7,432556245e-03    7,621986270e-01    0,000000000e+00    0,000000000e+00    0,000000000e+00    0,000000000e+00
      352000000    7,330223918e-03   -8,470638096e-02    4,060420394e-01    6,392583847e-01    0,000000000e+00    0,000000000e+00    0,000000000e+00    0,000000000e+00
      366000000   -3,463454172e-02   -9,529705346e-02    6,908450127e-01    3,114784658e-01    0,000000000e+00    0,000000000e+00    0,000000000e+00    0,000000000e+00
      380000000   -7,078888267e-02   -7,107964903e-02    7,476027012e-01   -1,259161085e-01    0,000000000e+00    0,000000000e+00    0,000000000e+00    0,000000000e+00
      394000000   -7,257786393e-02   -3,239791840e-02    5,455499291e-01   -5,215712190e-01    0,000000000e+00    0,000000000e+00    0,000000000e+00    0,000000000e+00
      408000000   -4,671286047e-02   -1,588274725e-02    1,615091860e-01   -7,329195738e-01    0,000000000e+00    0,000000000e+00    0,000000000e+00    0,000000000e+00
      422000000   -2,818011679e-02   -3,176649660e-02   -2,669429183e-01   -6,944020987e-01    0,000000000e+00    0,000000000e+00    0,000000000e+00    0,000000000e+00
      436000000   -4,072545096e-02   -5,187031254e-02   -6,038322449e-01   -4,324015081e-01    0,000000000e+00    0,000000000e+00    0,000000000e+00    0,000000000e+00
      450000000   -6,746847928e-02   -4,410518333e-02   -7,404829264e-01   -2,152587101e-02    0,000000000e+00    0,000000000e+00    0,000000000e+00    0,000000000e+00
      464000000   -7,300351560e-02   -1,172899362e-02   -6,183865666e-01    3,972810507e-01    0,000000000e+00    0,000000000e+00    0,000000000e+00    0,000000000e+00
      478000000   -4,761187360e-02    1,183221396e-02   -2,818224430e-01    6,681633592e-01    0,000000000e+00    0,000000000e+00    0,000000000e+00    0,000000000e+00
      492000000   -1,551963761e-02    6,343681365e-03    1,375987679e-01    7,014513612e-01    0,000000000e+00    0,000000000e+00    0,000000000e+00    0,000000000e+00
      506000000   -2,802204574e-03   -1,550965104e-02    4,988107681e-01    5,029907823e-01    0,000000000e+00    0,000000000e+00    0,000000000e+00    0,000000000e+00
      520000000   -5,235991906e-03   -3,184798360e-02    6,875447035e-01    1,406653225e-01    0,000000000e+00    0,000000000e+00    0,000000000e+00    0,000000000e+00
      534000000   -4,009150434e-03   -3,793017566e-02    6,439067721e-01   -2,622119188e-01    0,000000000e+00    0,000000000e+00    0,000000000e+00    0,000000000e+00
      548000000    6,062388420e-03   -5,389592797e-02    3,811416626e-01   -5,679036975e-01    0,000000000e+00    0,000000000e+00    0,000000000e+00    0,000000000e+00
      562000000    3,429669887e-03   -8,942696452e-02    2,771347063e-03   -6,726093292e-01    0,000000000e+00    0,000000000e+00    0,000000000e+00    0,000000000e+00
      576000000   -3,456319124e-02   -1,244482100e-01   -3,695495129e-01   -5,573128462e-01    0,000000000e+00    0,000000000e+00    0,000000000e+00    0,000000000e+00
      590000000   -9,640613198e-02   -1,227610260e-01   -6,221854091e-01   -2,645495534e-01    0,000000000e+00    0,000000000e+00    0,000000000e+00    0,000000000e+00
      604000000   -1,394125670e-01   -7,155282050e-02   -6,651621461e-01    1,381390095e-01    0,000000000e+00    0,000000000e+00    0,000000000e+00    0,000000000e+00
      618000000   -1,293013692e-01   -9,525912814e-03   -4,640070796e-01    4,955092072e-01    0,000000000e+00    0,000000000e+00    0,000000000e+00    0,000000000e+00
      632000000   -8,460348099e-02    1,694392972e-02   -9,857903421e-02    6,633328795e-01    0,000000000e+00    0,000000000e+00    0,000000000e+00    0,000000000e+00
      646000000   -5,142895877e-02    2,614059485e-04    2,877184749e-01    5,953384042e-01    0,000000000e+00    0,000000000e+00    0,000000000e+00    0,000000000e+00
      660000000   -5,323212594e-02   -2,221505344e-02    5,671127439e-01    3,229911029e-01    0,000000000e+00    0,000000000e+00    0,000000000e+00    0,000000000e+00
      674000000   -7,078396529e-02   -1,746868715e-02    6,430457830e-01   -6,561961025e-02    0,000000000e+00    0,000000000e+00    0,000000000e+00    0,000000000e+00
      688000000   -6,780123711e-02    9,229510091e-03    4,712247849e-01   -4,283054173e-01    0,000000000e+00    0,000000000e+00    0,000000000e+00    0,000000000e+00
      702000000   -3,803788871e-02    2,620168030e-02    1,218458191e-01   -6,147829890e-01    0,000000000e+00    0,000000000e+00    0,000000000e+00    0,000000000e+00
      716000000    1,512127579e-03    1,804908924e-02   -2,648508549e-01   -5,463017821e-01    0,000000000e+00    0,000000000e+00    0,000000000e+00    0,000000000e+00
      730000000    3,629566357e-02   -1,174353994e-02   -5,284906030e-01   -2,691341639e-01    0,000000000e+00    0,000000000e+00    0,000000000e+00    0,000000000e+00
      744000000    6,473005563e-02   -6,211191788e-02   -5,642054081e-01    1,062307283e-01    0,000000000e+00    0,000000000e+00    0,000000000e+00    0,000000000e+00
      758000000    6,692206115e-02   -1,516593546e-01   -3,632479310e-01    4,098267555e-01    0,000000000e+00    0,000000000e+00    0,000000000e+00    0,000000000e+00
      772000000   -1,266135648e-02   -2,631986439e-01   -3,460828587e-02    5,156084299e-01    0,000000000e+00    0,000000000e+00    0,000000000e+00    0,000000000e+00
      786000000   -2,056227326e-01   -3,035799563e-01    2,750379145e-01    3,951227069e-01    0,000000000e+00    0,000000000e+00    0,000000000e+00    0,000000000e+00
      800000000   -4,249686897e-01   -1,303317845e-01    4,170223475e-01    9,896718711e-02    0,000000000e+00    0,000000000e+00    0,000000000e+00    0,000000000e+00
      814000000   -3,898831010e-01    2,213287652e-01    2,815519869e-01   -1,732016057e-01    0,000000000e+00    0,000000000e+00    0,000000000e+00    0,000000000e+00
      828000000   -4,881543294e-02    3,679705560e-01    5,483579263e-02   -1,891191304e-01    0,000000000e+00    0,000000000e+00    0,000000000e+00    0,000000000e+00
      842000000    2,351003289e-01    1,855845749e-01   -1,676809601e-02   -7,039998472e-02    0,000000000e+00    0,000000000e+00    0,000000000e+00    0,000000000e+00
      856000000    2,805326283e-01   -1,247028634e-01    4,551880062e-02   -1,298829727e-02    0,000000000e+00    0,000000000e+00    0,000000000e+00    0,000000000e+00
      870000000    7,495258003e-02   -3,760846853e-01    1,142965034e-01   -9,110414982e-02    0,000000000e+00    0,000000000e+00    0,000000000e+00    0,000000000e+00
      884000000   -2,948296964e-01   -3,615311980e-01    2,836206742e-02   -2,460149974e-01    0,000000000e+00    0,000000000e+00    0,000000000e+00    0,000000000e+00
      898000000   -4,716892540e-01    9,765331633e-03   -2,216666639e-01   -2,271461189e-01    0,000000000e+00    0,000000000e+00    0,000000000e+00    0,000000000e+00
      912000000   -2,250811458e-01    2,942010164e-01   -3,503668010e-01    6,147753820e-02    0,000000000e+00    0,000000000e+00    0,000000000e+00    0,000000000e+00
      926000000    6,606049836e-02    2,648966610e-01   -2,163740844e-01    2,638926506e-01    0,000000000e+00    0,000000000e+00    0,000000000e+00    0,000000000e+00
      940000000    2,172500640e-01    7,917082310e-02   -3,571052477e-02    3,283752501e-01    0,000000000e+00    0,000000000e+00    0,000000000e+00    0,000000000e+00
      954000000    2,234269977e-01   -1,259070337e-01    1,307726651e-01    3,062214851e-01    0,000000000e+00    0,000000000e+00    0,000000000e+00    0,000000000e+00
      968000000    1,143752709e-01   -2,986124754e-01    2,716082931e-01    2,185356468e-01    0,000000000e+00    0,000000000e+00    0,000000000e+00    0,000000000e+00
      982000000   -7,910922170e-02   -3,889096379e-01    3,662019670e-01    6,519541144e-02    0,000000000e+00    0,000000000e+00    0,000000000e+00    0,000000000e+00
      996000000   -3,148038089e-01   -3,273830414e-01    3,696453869e-01   -1,453023702e-01    0,000000000e+00    0,000000000e+00    0,000000000e+00    0,000000000e+00
     1010000000   -4,634121060e-01   -1,134850085e-01    2,225444764e-01   -3,401398659e-01    0,000000000e+00    0,000000000e+00    0,000000000e+00    0,000000000e+00
     1024000000   -4,102327526e-01    1,483334452e-01   -3,421833739e-02   -3,935789168e-01    0,000000000e+00    0,000000000e+00    0,000000000e+00    0,000000000e+00
     1038000000   -2,186758965e-01    2,888771892e-01   -2,452539504e-01   -2,609425485e-01    0,000000000e+00    0,000000000e+00    0,000000000e+00    0,000000000e+00
     1052000000   -9,864522144e-03    2,804376781e-01   -3,153562546e-01   -4,677481204e-02    0,000000000e+00    0,000000000e+00    0,000000000e+00    0,000000000e+00
     1066000000    1,346601546e-01    1,638451070e-01   -2,578216195e-01    1,427980065e-01    0,000000000e+00    0,000000000e+00    0,000000000e+00    0,000000000e+00
     1080000000    1,923835278e-01   -2,248382661e-03   -1,183726639e-01    2,642907798e-01    0,000000000e+00    0,000000000e+00    0,000000000e+00    0,000000000e+00
     1094000000    1,509003043e-01   -1,737856418e-01    6,444875896e-02    3,060875833e-01    0,000000000e+00    0,000000000e+00    0,000000000e+00    0,000000000e+00
     1108000000    1,488153241e-03   -3,033113182e-01    2,745009363e-01    2,436754555e-01    0,000000000e+00    0,000000000e+00    0,000000000e+00    0,000000000e+00
     1122000000   -2,501378655e-01   -2,664455473e-01    4,721779227e-01    1,191109326e-02    0,000000000e+00    0,000000000e+00    0,000000000e+00    0,000000000e+00
     1136000000   -3,197356462e-01    3,499686345e-02    3,978399932e-01   -3,903026581e-01    0,000000000e+00    0,000000000e+00    0,000000000e+00    0,000000000e+00
     1150000000   -3,684851900e-02    1,509324610e-01    4,443145357e-03   -5,424277186e-01    0,000000000e+00    0,000000000e+00    0,000000000e+00    0,000000000e+00
     1164000000    1,221898869e-01   -6,513980776e-02   -2,784745395e-01   -3,799529374e-01    0,000000000e+00    0,000000000e+00    0,000000000e+00    0,000000000e+00
     1178000000    1,678159088e-02   -3,039465845e-01   -3,701375127e-01   -1,500255018e-01    0,000000000e+00    0,000000000e+00    0,000000000e+00    0,000000000e+00
     1192000000   -2,676666975e-01   -3,717300296e-01   -3,258030713e-01    5,730847642e-02    0,000000000e+00    0,000000000e+00    0,000000000e+00    0,000000000e+00
     1206000000   -5,195518732e-01   -1,620620340e-01   -1,658444256e-01    1,809558123e-01    0,000000000e+00    0,000000000e+00    0,000000000e+00    0,000000000e+00
     1220000000   -5,118260980e-01    1,787774861e-01    2,972142771e-03    1,595089287e-01    0,000000000e+00    0,000000000e+00    0,000000000e+00    0,000000000e+00
     1234000000   -2,921003103e-01    3,634826839e-01    6,695486605e-02    6,394106895e-02    0,000000000e+00    0,000000000e+00    0,000000000e+00    0,000000000e+00
     1248000000   -4,719695821e-02    3,615480363e-01    5,546459928e-02   -1,022673305e-02    0,000000000e+00    0,000000000e+00    0,000000000e+00    0,000000000e+00
     1262000000    1,221934333e-01    2,579931915e-01    2,036594227e-02   -2,118345536e-02    0,000000000e+00    0,000000000e+00    0,000000000e+00    0,000000000e+00
     1276000000    2,136165649e-01    9,885207564e-02    4,184067075e-04    6,554920226e-03    0,000000000e+00    0,000000000e+00    0,000000000e+00    0,000000000e+00
     1290000000    2,236707658e-01   -7,406041026e-02    1,781677268e-02    5,210448056e-02    0,000000000e+00    0,000000000e+00    0,000000000e+00    0,000000000e+00
     1304000000    1,581027657e-01   -2,419796437e-01    1,289141327e-01    6,601537764e-02    0,000000000e+00    0,000000000e+00    0,000000000e+00    0,000000000e+00
     1318000000    3,652339056e-02   -3,330359161e-01    1,321223378e-01   -1,595765352e-01    0,000000000e+00    0,000000000e+00    0,000000000e+00    0,000000000e+00
     1332000000   -1,285236031e-01   -4,351402223e-01   -4,868745431e-02   -5,237364396e-02    0,000000000e+00    0,000000000e+00    0,000000000e+00    0,000000000e+00
     1346000000   -3,982983232e-01   -4,041686058e-01    1,757824235e-02    7,454444468e-02    0,000000000e+00    0,000000000e+00    0,000000000e+00    0,000000000e+00
     1360000000   -6,069663763e-01   -1,835483313e-01    1,407388449e-01    7,848946005e-02    0,000000000e+00    0,000000000e+00    0,000000000e+00    0,000000000e+00
     1374000000   -6,248887777e-01    1,223262325e-01    2,107400298e-01    8,978302591e-03    0,000000000e+00    0,000000000e+00    0,000000000e+00    0,000000000e+00
     1388000000   -4,738336504e-01    3,706046641e-01    2,001476288e-01   -5,921905488e-02    0,000000000e+00    0,000000000e+00    0,000000000e+00    0,000000000e+00
     1402000000   -2,316202074e-01    4,534140825e-01    1,800466478e-01   -9,647438675e-02    0,000000000e+00    0,000000000e+00    0,000000000e+00    0,000000000e+00
     1416000000   -2,736561000e-02    4,152790010e-01    1,628794074e-01   -9,912066162e-02    0,000000000e+00    0,000000000e+00    0,000000000e+00    0,000000000e+00
     1430000000    1,247334033e-01    3,053428531e-01    1,656326801e-01   -1,323564351e-01    0,000000000e+00    0,000000000e+00    0,000000000e+00    0,000000000e+00
     1444000000    2,072517574e-01    1,464170814e-01    1,548049003e-01   -1,053321883e-01    0,000000000e+00    0,000000000e+00    0,000000000e+00    0,000000000e+00
     1458000000    2,333614528e-01   -1,670802943e-02    1,400918812e-01   -7,020240277e-02    0,000000000e+00    0,000000000e+00    0,000000000e+00    0,000000000e+00
     1472000000    1,913749725e-01   -2,067015916e-01    1,495486647e-01   -3,641459346e-02    0,000000000e+00    0,000000000e+00    0,000000000e+00    0,000000000e+00
     1486000000    6,875263155e-02   -3,729193509e-01    1,803494245e-01    3,557851166e-02    0,000000000e+00    0,000000000e+00    0,000000000e+00    0,000000000e+00
     1500000000   -1,739962995e-01   -4,859270155e-01    2,336311042e-01    1,010663137e-01    0,000000000e+00    0,000000000e+00    0,000000000e+00    0,000000000e+00
