! NanoVNA-App
! Date: 2025-09-25 15:34:30
! Start: 100MHz Stop: 1,5GHz Points: 101
! S-Parameter data: F S11 S21 S12 S22
# Hz S RI R 50
!     Frequency           S11_Real           S11_Imag           S21_Real           S21_Imag           S12_Real           S12_Imag           S22_Real           S22_Imag
      100000000   -2,884962969e-02   -4,174181260e-03    3,740835786e-01   -7,217437625e-01    0,000000000e+00    0,000000000e+00    0,000000000e+00    0,000000000e+00
      114000000   -1,651319303e-02    1,152953785e-02   -8,903029561e-02   -8,053917289e-01    0,000000000e+00    0,000000000e+00    0,000000000e+00    0,000000000e+00
      128000000    3,464475041e-03    1,054646727e-02   -5,145464540e-01   -6,204183698e-01    0,000000000e+00    0,000000000e+00    0,000000000e+00    0,000000000e+00
      142000000    1,455699280e-02   -2,964141546e-03   -7,671000957e-01   -2,366751283e-01    0,000000000e+00    0,000000000e+00    0,000000000e+00    0,000000000e+00
      156000000    1,444854122e-02   -1,488117501e-02   -7,649019957e-01    2,180044055e-01    0,000000000e+00    0,000000000e+00    0,000000000e+00    0,000000000e+00
      170000000    1,664318703e-02   -2,262060530e-02   -5,183866620e-01    6,047194004e-01    0,000000000e+00    0,000000000e+00    0,000000000e+00    0,000000000e+00
      184000000    2,102210559e-02   -3,710267693e-02   -1,014534980e-01    7,859116793e-01    0,000000000e+00    0,000000000e+00    0,000000000e+00    0,000000000e+00
      198000000    1,299264561e-02   -6,244301423e-02    3,432717621e-01    7,121582627e-01    0,000000000e+00    0,000000000e+00    0,000000000e+00    0,000000000e+00
      212000000   -1,867463998e-02   -8,135107160e-02    6,781315207e-01    4,100240469e-01    0,000000000e+00    0,000000000e+00    0,000000000e+00    0,000000000e+00
      226000000   -6,170683354e-02   -6,922412664e-02    7,957155108e-01   -3,052449226e-02    0,000000000e+00    0,000000000e+00    0,000000000e+00    0,000000000e+00
      240000000   -8,257724345e-02   -2,564975806e-02    6,460273862e-01   -4,671241343e-01    0,000000000e+00    0,000000000e+00    0,000000000e+00    0,000000000e+00
      254000000   -6,352133304e-02    1,726568863e-02    2,760718167e-01   -7,430974245e-01    0,000000000e+00    0,000000000e+00    0,000000000e+00    0,000000000e+00
      268000000   -2,386961877e-02    2,890506014e-02   -1,780565977e-01   -7,644713521e-01    0,000000000e+00    0,000000000e+00    0,000000000e+00    0,000000000e+00
      282000000    4,155547824e-03    1,190746762e-02   -5,618421435e-01   -5,359779596e-01    0,000000000e+00    0,000000000e+00    0,000000000e+00    0,000000000e+00
      296000000    9,722777642e-03   -7,816687226e-03   -7,599326372e-01   -1,397913843e-01    0,000000000e+00    0,000000000e+00    0,000000000e+00    0,000000000e+00
      310000000    1,116714254e-02   -1,625040732e-02   -7,132546306e-01    2,984734178e-01    0,000000000e+00    0,000000000e+00    0,000000000e+00    0,000000000e+00
      324000000    1,964768954e-02   -2,637881786e-02   -4,275119007e-01    6,382511258e-01    0,000000000e+00    0,000000000e+00    0,000000000e+00    0,000000000e+00
      338000000    2,562380210e-02   -5,247573182e-02   -8,741694503e-03    7,620795369e-01    0,000000000e+00    0,000000000e+00    0,000000000e+00    0,000000000e+00
      352000000    7,529832423e-03   -8,491303772e-02    4,065319300e-01    6,385509968e-01    0,000000000e+00    0,000000000e+00    0,000000000e+00    0,000000000e+00
      366000000   -3,471207246e-02   -9,555934370e-02    6,903198957e-01    3,114254177e-01    0,000000000e+00    0,000000000e+00    0,000000000e+00    0,000000000e+00
      380000000   -7,081348449e-02   -7,138750702e-02    7,471166253e-01   -1,259328872e-01    0,000000000e+00    0,000000000e+00    0,000000000e+00    0,000000000e+00
      394000000   -7,265477628e-02   -3,252021223e-02    5,459643006e-01   -5,217282176e-01    0,000000000e+00    0,000000000e+00    0,000000000e+00    0,000000000e+00
      408000000   -4,675034806e-02   -1,620182209e-02    1,606144756e-01   -7,327440977e-01    0,000000000e+00    0,000000000e+00    0,000000000e+00    0,000000000e+00
      422000000   -2,853080817e-02   -3,193198889e-02   -2,674977183e-01   -6,949082017e-01    0,000000000e+00    0,000000000e+00    0,000000000e+00    0,000000000e+00
      436000000   -4,032916948e-02   -5,194669962e-02   -6,039131284e-01   -4,320488274e-01    0,000000000e+00    0,000000000e+00    0,000000000e+00    0,000000000e+00
      450000000   -6,727122515e-02   -4,395008087e-02   -7,400162816e-01   -2,113761567e-02    0,000000000e+00    0,000000000e+00    0,000000000e+00    0,000000000e+00
      464000000   -7,327447087e-02   -1,161412615e-02   -6,185683012e-01    3,976589143e-01    0,000000000e+00    0,000000000e+00    0,000000000e+00    0,000000000e+00
      478000000   -4,790159315e-02    1,210253686e-02   -2,830297053e-01    6,677874327e-01    0,000000000e+00    0,000000000e+00    0,000000000e+00    0,000000000e+00
      492000000   -1,539595425e-02    5,710873287e-03    1,382089108e-01    7,022154927e-01    0,000000000e+00    0,000000000e+00    0,000000000e+00    0,000000000e+00
      506000000   -2,889659721e-03   -1,585368440e-02    4,982103109e-01    5,021809936e-01    0,000000000e+00    0,000000000e+00    0,000000000e+00    0,000000000e+00
      520000000   -4,677666817e-03   -3,127182648e-02    6,878357530e-01    1,411148012e-01    0,000000000e+00    0,000000000e+00    0,000000000e+00    0,000000000e+00
      534000000   -3,748076968e-03   -3,803680837e-02    6,438412070e-01   -2,621631026e-01    0,000000000e+00    0,000000000e+00    0,000000000e+00    0,000000000e+00
      548000000    6,054168567e-03   -5,364524573e-02    3,815239668e-01   -5,668820143e-01    0,000000000e+00    0,000000000e+00    0,000000000e+00    0,000000000e+00
      562000000    3,341395874e-03   -8,953671902e-02    2,988690510e-03   -6,727135181e-01    0,000000000e+00    0,000000000e+00    0,000000000e+00    0,000000000e+00
      576000000   -3,385278583e-02   -1,244556233e-01   -3,694972992e-01   -5,574810505e-01    0,000000000e+00    0,000000000e+00    0,000000000e+00    0,000000000e+00
      590000000   -9,651644528e-02   -1,227563545e-01   -6,204986572e-01   -2,623079419e-01    0,000000000e+00    0,000000000e+00    0,000000000e+00    0,000000000e+00
      604000000   -1,395719200e-01   -7,156372815e-02   -6,648736596e-01    1,384869069e-01    0,000000000e+00    0,000000000e+00    0,000000000e+00    0,000000000e+00
      618000000   -1,291428655e-01   -9,307583794e-03   -4,643100202e-01    4,948131442e-01    0,000000000e+00    0,000000000e+00    0,000000000e+00    0,000000000e+00
      632000000   -8,438637108e-02    1,661221869e-02   -9,995105863e-02    6,644306779e-01    0,000000000e+00    0,000000000e+00    0,000000000e+00    0,000000000e+00
      646000000   -5,108293891e-02    1,752170792e-04    2,870638669e-01    5,948041677e-01    0,000000000e+00    0,000000000e+00    0,000000000e+00    0,000000000e+00
      660000000   -5,309066176e-02   -2,207065746e-02    5,681152344e-01    3,233003020e-01    0,000000000e+00    0,000000000e+00    0,000000000e+00    0,000000000e+00
      674000000   -6,969089806e-02   -1,793073863e-02    6,429319978e-01   -6,564810127e-02    0,000000000e+00    0,000000000e+00    0,000000000e+00    0,000000000e+00
      688000000   -6,780633330e-02    8,591840975e-03    4,712660611e-01   -4,279726744e-01    0,000000000e+00    0,000000000e+00    0,000000000e+00    0,000000000e+00
      702000000   -3,859792277e-02    2,661351860e-02    1,168211102e-01   -6,148371100e-01    0,000000000e+00    0,000000000e+00    0,000000000e+00    0,000000000e+00
      716000000    2,264136681e-03    1,854982972e-02   -2,645604014e-01   -5,467470288e-01    0,000000000e+00    0,000000000e+00    0,000000000e+00    0,000000000e+00
      730000000    3,627900407e-02   -1,112805679e-02   -5,288624167e-01   -2,688559592e-01    0,000000000e+00    0,000000000e+00    0,000000000e+00    0,000000000e+00
      744000000    6,539760530e-02   -6,211720034e-02   -5,644100308e-01    1,059113666e-01    0,000000000e+00    0,000000000e+00    0,000000000e+00    0,000000000e+00
      758000000    6,653345376e-02   -1,518428475e-01   -3,630003631e-01    4,104810357e-01    0,000000000e+00    0,000000000e+00    0,000000000e+00    0,000000000e+00
      772000000   -1,356584392e-02   -2,625128329e-01   -3,415212780e-02    5,146184564e-01    0,000000000e+00    0,000000000e+00    0,000000000e+00    0,000000000e+00
      786000000   -2,062489539e-01   -3,024495840e-01    2,741298974e-01    3,947788477e-01    0,000000000e+00    0,000000000e+00    0,000000000e+00    0,000000000e+00
      800000000   -4,260096848e-01   -1,292513907e-01    4,172886610e-01    9,950261563e-02    0,000000000e+00    0,000000000e+00    0,000000000e+00    0,000000000e+00
      814000000   -3,884777427e-01    2,211014628e-01    2,816045582e-01   -1,728951931e-01    0,000000000e+00    0,000000000e+00    0,000000000e+00    0,000000000e+00
      828000000   -5,035815760e-02    3,678496480e-01    5,448600650e-02   -1,894241124e-01    0,000000000e+00    0,000000000e+00    0,000000000e+00    0,000000000e+00
      842000000    2,349862456e-01    1,863765568e-01   -1,756520569e-02   -7,077816874e-02    0,000000000e+00    0,000000000e+00    0,000000000e+00    0,000000000e+00
      856000000    2,803962529e-01   -1,247678772e-01    4,513341933e-02   -1,351772994e-02    0,000000000e+00    0,000000000e+00    0,000000000e+00    0,000000000e+00
      870000000    7,556320727e-02   -3,770203590e-01    1,134256497e-01   -9,138210118e-02    0,000000000e+00    0,000000000e+00    0,000000000e+00    0,000000000e+00
      884000000   -2,946159244e-01   -3,616299927e-01    2,807249874e-02   -2,454036772e-01    0,000000000e+00    0,000000000e+00    0,000000000e+00    0,000000000e+00
      898000000   -4,720223546e-01    8,058846928e-03   -2,224405706e-01   -2,286873758e-01    0,000000000e+00    0,000000000e+00    0,000000000e+00    0,000000000e+00
      912000000   -2,269216329e-01    2,943330705e-01   -3,487246633e-01    7,592997700e-02    0,000000000e+00    0,000000000e+00    0,000000000e+00    0,000000000e+00
      926000000    6,525961310e-02    2,643387318e-01   -2,169284970e-01    2,671539783e-01    0,000000000e+00    0,000000000e+00    0,000000000e+00    0,000000000e+00
      940000000    2,174476385e-01    7,990676910e-02   -3,400005028e-02    3,298850358e-01    0,000000000e+00    0,000000000e+00    0,000000000e+00    0,000000000e+00
      954000000    2,243611515e-01   -1,265155226e-01    1,304762661e-01    3,073353171e-01    0,000000000e+00    0,000000000e+00    0,000000000e+00    0,000000000e+00
      968000000    1,151804850e-01   -2,996570766e-01    2,705728710e-01    2,182975411e-01    0,000000000e+00    0,000000000e+00    0,000000000e+00    0,000000000e+00
      982000000   -8,431565017e-02   -3,870709240e-01    3,683500588e-01    6,616698951e-02    0,000000000e+00    0,000000000e+00    0,000000000e+00    0,000000000e+00
      996000000   -3,186573386e-01   -3,300206065e-01    3,683273196e-01   -1,438820511e-01    0,000000000e+00    0,000000000e+00    0,000000000e+00    0,000000000e+00
     1010000000   -4,619752467e-01   -1,146207526e-01    2,239632457e-01   -3,395025134e-01    0,000000000e+00    0,000000000e+00    0,000000000e+00    0,000000000e+00
     1024000000   -4,099578559e-01    1,475963891e-01   -3,363248333e-02   -3,929899931e-01    0,000000000e+00    0,000000000e+00    0,000000000e+00    0,000000000e+00
     1038000000   -2,206397951e-01    2,910327613e-01   -2,463481277e-01   -2,587139010e-01    0,000000000e+00    0,000000000e+00    0,000000000e+00    0,000000000e+00
     1052000000   -1,096873824e-02    2,750945985e-01   -3,164533675e-01   -4,710290581e-02    0,000000000e+00    0,000000000e+00    0,000000000e+00    0,000000000e+00
     1066000000    1,374022961e-01    1,602172554e-01   -2,583867610e-01    1,445522904e-01    0,000000000e+00    0,000000000e+00    0,000000000e+00    0,000000000e+00
     1080000000    1,912092865e-01   -3,092456318e-04   -1,181203648e-01    2,633250058e-01    0,000000000e+00    0,000000000e+00    0,000000000e+00    0,000000000e+00
     1094000000    1,555215120e-01   -1,718552262e-01    6,519477814e-02    3,049799800e-01    0,000000000e+00    0,000000000e+00    0,000000000e+00    0,000000000e+00
     1108000000   -1,612155611e-04   -3,069248796e-01    2,796825171e-01    2,473872155e-01    0,000000000e+00    0,000000000e+00    0,000000000e+00    0,000000000e+00
     1122000000   -2,449645102e-01   -2,612709999e-01    4,711719751e-01    1,288996357e-02    0,000000000e+00    0,000000000e+00    0,000000000e+00    0,000000000e+00
     1136000000   -3,164921403e-01    3,526719660e-02    3,975093663e-01   -3,917800486e-01    0,000000000e+00    0,000000000e+00    0,000000000e+00    0,000000000e+00
     1150000000   -3,723660111e-02    1,560449302e-01    9,926812723e-03   -5,437998772e-01    0,000000000e+00    0,000000000e+00    0,000000000e+00    0,000000000e+00
     1164000000    1,230831444e-01   -6,114241853e-02   -2,806192636e-01   -3,763973117e-01    0,000000000e+00    0,000000000e+00    0,000000000e+00    0,000000000e+00
     1178000000    1,925751753e-02   -3,063069880e-01   -3,694242835e-01   -1,517406106e-01    0,000000000e+00    0,000000000e+00    0,000000000e+00    0,000000000e+00
     1192000000   -2,650911808e-01   -3,701869547e-01   -3,252483010e-01    5,717966333e-02    0,000000000e+00    0,000000000e+00    0,000000000e+00    0,000000000e+00
     1206000000   -5,204423070e-01   -1,580567062e-01   -1,644281298e-01    1,837538481e-01    0,000000000e+00    0,000000000e+00    0,000000000e+00    0,000000000e+00
     1220000000   -5,092397928e-01    1,708086878e-01    1,123699360e-03    1,576425880e-01    0,000000000e+00    0,000000000e+00    0,000000000e+00    0,000000000e+00
     1234000000   -2,843723595e-01    3,618676066e-01    7,231104374e-02    6,320622563e-02    0,000000000e+00    0,000000000e+00    0,000000000e+00    0,000000000e+00
     1248000000   -4,902103171e-02    3,639058471e-01    5,042660981e-02   -3,740264568e-03    0,000000000e+00    0,000000000e+00    0,000000000e+00    0,000000000e+00
     1262000000    1,257688552e-01    2,603088021e-01    1,766916178e-02   -1,984083280e-02    0,000000000e+00    0,000000000e+00    0,000000000e+00    0,000000000e+00
     1276000000    2,106739134e-01    9,708812088e-02    2,080144768e-04   -6,848314079e-04    0,000000000e+00    0,000000000e+00    0,000000000e+00    0,000000000e+00
     1290000000    2,228517383e-01   -7,334125787e-02    1,662185788e-02    4,974293709e-02    0,000000000e+00    0,000000000e+00    0,000000000e+00    0,000000000e+00
     1304000000    1,531958580e-01   -2,373965234e-01    1,312453896e-01    7,256627828e-02    0,000000000e+00    0,000000000e+00    0,000000000e+00    0,000000000e+00
     1318000000    3,300801665e-02   -3,353890777e-01    1,292871237e-01   -1,605455279e-01    0,000000000e+00    0,000000000e+00    0,000000000e+00    0,000000000e+00
     1332000000   -1,246936396e-01   -4,365071356e-01   -4,010908306e-02   -4,034949839e-02    0,000000000e+00    0,000000000e+00    0,000000000e+00    0,000000000e+00
     1346000000   -3,976385593e-01   -4,139842987e-01    2,076056972e-02    6,643901020e-02    0,000000000e+00    0,000000000e+00    0,000000000e+00    0,000000000e+00
     1360000000   -6,099170446e-01   -1,875524521e-01    1,366049349e-01    7,513445616e-02    0,000000000e+00    0,000000000e+00    0,000000000e+00    0,000000000e+00
     1374000000   -6,259241700e-01    1,238284931e-01    2,101149857e-01    6,846570875e-03    0,000000000e+00    0,000000000e+00    0,000000000e+00    0,000000000e+00
     1388000000   -4,656113684e-01    3,725790679e-01    2,065613270e-01   -4,914059490e-02    0,000000000e+00    0,000000000e+00    0,000000000e+00    0,000000000e+00
     1402000000   -2,351255417e-01    4,519377649e-01    1,778102368e-01   -9,821204096e-02    0,000000000e+00    0,000000000e+00    0,000000000e+00    0,000000000e+00
     1416000000   -2,416219935e-02    4,152429700e-01    1,754659116e-01   -1,043427363e-01    0,000000000e+00    0,000000000e+00    0,000000000e+00    0,000000000e+00
     1430000000    1,198976785e-01    3,080627918e-01    1,651008576e-01   -9,554479271e-02    0,000000000e+00    0,000000000e+00    0,000000000e+00    0,000000000e+00
     1444000000    2,061962932e-01    1,510339230e-01    1,504955888e-01   -1,036941335e-01    0,000000000e+00    0,000000000e+00    0,000000000e+00    0,000000000e+00
     1458000000    2,344091982e-01   -1,764416695e-02    1,472413540e-01   -7,761390507e-02    0,000000000e+00    0,000000000e+00    0,000000000e+00    0,000000000e+00
     1472000000    1,892623603e-01   -2,054309249e-01    1,344098747e-01   -3,023442626e-02    0,000000000e+00    0,000000000e+00    0,000000000e+00    0,000000000e+00
     1486000000    6,270543486e-02   -3,798807859e-01    1,703480929e-01    2,261175960e-02    0,000000000e+00    0,000000000e+00    0,000000000e+00    0,000000000e+00
     1500000000   -1,576166153e-01   -4,921748042e-01    2,556601167e-01    8,295116574e-02    0,000000000e+00    0,000000000e+00    0,000000000e+00    0,000000000e+00
