! NanoVNA-App
! Date: 2025-09-25 15:33:07
! Start: 100MHz Stop: 1,5GHz Points: 101
! S-Parameter data: F S11 S21 S12 S22
# Hz S RI R 50
!     Frequency           S11_Real           S11_Imag           S21_Real           S21_Imag           S12_Real           S12_Imag           S22_Real           S22_Imag
      100000000   -2,888453938e-02   -4,159971606e-03    3,741378486e-01   -7,217971087e-01    0,000000000e+00    0,000000000e+00    0,000000000e+00    0,000000000e+00
      114000000   -1,649465039e-02    1,151101477e-02   -8,908173442e-02   -8,056457043e-01    0,000000000e+00    0,000000000e+00    0,000000000e+00    0,000000000e+00
      128000000    3,485513851e-03    1,057435293e-02   -5,147127509e-01   -6,206142902e-01    0,000000000e+00    0,000000000e+00    0,000000000e+00    0,000000000e+00
      142000000    1,455503609e-02   -2,949052257e-03   -7,670624852e-01   -2,367204130e-01    0,000000000e+00    0,000000000e+00    0,000000000e+00    0,000000000e+00
      156000000    1,542952377e-02   -1,494685654e-02   -7,714157701e-01    2,217953801e-01    0,000000000e+00    0,000000000e+00    0,000000000e+00    0,000000000e+00
      170000000    1,669013500e-02   -2,251681499e-02   -5,181631446e-01    6,044619679e-01    0,000000000e+00    0,000000000e+00    0,000000000e+00    0,000000000e+00
      184000000    2,097661979e-02   -3,713987395e-02   -1,016003713e-01    7,861679792e-01    0,000000000e+00    0,000000000e+00    0,000000000e+00    0,000000000e+00
      198000000    1,297493558e-02   -6,243349239e-02    3,433091640e-01    7,122021914e-01    0,000000000e+00    0,000000000e+00    0,000000000e+00    0,000000000e+00
      212000000   -1,865514740e-02   -8,132391423e-02    6,780849695e-01    4,102067649e-01    0,000000000e+00    0,000000000e+00    0,000000000e+00    0,000000000e+00
      226000000   -6,175681204e-02   -6,918923557e-02    7,958154678e-01   -3,058322892e-02    0,000000000e+00    0,000000000e+00    0,000000000e+00    0,000000000e+00
      240000000   -8,257172257e-02   -2,563950792e-02    6,461324692e-01   -4,671040177e-01    0,000000000e+00    0,000000000e+00    0,000000000e+00    0,000000000e+00
      254000000   -6,352680922e-02    1,727738604e-02    2,761304379e-01   -7,437307835e-01    0,000000000e+00    0,000000000e+00    0,000000000e+00    0,000000000e+00
      268000000   -2,388102375e-02    2,898618951e-02   -1,780308485e-01   -7,643500566e-01    0,000000000e+00    0,000000000e+00    0,000000000e+00    0,000000000e+00
      282000000    4,182852339e-03    1,185893919e-02   -5,618659258e-01   -5,357164741e-01    0,000000000e+00    0,000000000e+00    0,000000000e+00    0,000000000e+00
      296000000    9,768434800e-03   -7,836637087e-03   -7,600708604e-01   -1,397062987e-01    0,000000000e+00    0,000000000e+00    0,000000000e+00    0,000000000e+00
      310000000    1,115580648e-02   -1,607145183e-02   -7,116510868e-01    2,983230054e-01    0,000000000e+00    0,000000000e+00    0,000000000e+00    0,000000000e+00
      324000000    1,971246861e-02   -2,645381354e-02   -4,272376895e-01    6,381610632e-01    0,000000000e+00    0,000000000e+00    0,000000000e+00    0,000000000e+00
      338000000    2,535857446e-02   -5,183426663e-02   -8,704577573e-03    7,603139877e-01    0,000000000e+00    0,000000000e+00    0,000000000e+00    0,000000000e+00
      352000000    7,156922482e-03   -8,496452123e-02    4,068424702e-01    6,398168802e-01    0,000000000e+00    0,000000000e+00    0,000000000e+00    0,000000000e+00
      366000000   -3,454239666e-02   -9,559982270e-02    6,912887096e-01    3,113412857e-01    0,000000000e+00    0,000000000e+00    0,000000000e+00    0,000000000e+00
      380000000   -7,077376544e-02   -7,096742839e-02    7,472528219e-01   -1,253152341e-01    0,000000000e+00    0,000000000e+00    0,000000000e+00    0,000000000e+00
      394000000   -7,269406319e-02   -3,218051791e-02    5,470693707e-01   -5,212889910e-01    0,000000000e+00    0,000000000e+00    0,000000000e+00    0,000000000e+00
      408000000   -4,664099589e-02   -1,608681493e-02    1,607792228e-01   -7,305267453e-01    0,000000000e+00    0,000000000e+00    0,000000000e+00    0,000000000e+00
      422000000   -2,842221037e-02   -3,195918351e-02   -2,681749463e-01   -6,940677762e-01    0,000000000e+00    0,000000000e+00    0,000000000e+00    0,000000000e+00
      436000000   -4,054501280e-02   -5,163611472e-02   -6,037243009e-01   -4,317798615e-01    0,000000000e+00    0,000000000e+00    0,000000000e+00    0,000000000e+00
      450000000   -6,746120006e-02   -4,364206642e-02   -7,407924533e-01   -2,111512795e-02    0,000000000e+00    0,000000000e+00    0,000000000e+00    0,000000000e+00
      464000000   -7,316734642e-02   -1,170730218e-02   -6,185305715e-01    3,975779116e-01    0,000000000e+00    0,000000000e+00    0,000000000e+00    0,000000000e+00
      478000000   -4,739719257e-02    1,196212880e-02   -2,830878198e-01    6,676912904e-01    0,000000000e+00    0,000000000e+00    0,000000000e+00    0,000000000e+00
      492000000   -1,548360847e-02    6,321932655e-03    1,372708827e-01    7,009866834e-01    0,000000000e+00    0,000000000e+00    0,000000000e+00    0,000000000e+00
      506000000   -2,727017505e-03   -1,554960385e-02    4,977770746e-01    5,027741790e-01    0,000000000e+00    0,000000000e+00    0,000000000e+00    0,000000000e+00
      520000000   -5,025437567e-03   -3,183379769e-02    6,895111799e-01    1,427744329e-01    0,000000000e+00    0,000000000e+00    0,000000000e+00    0,000000000e+00
      534000000   -3,846956883e-03   -3,790099174e-02    6,440494061e-01   -2,622909248e-01    0,000000000e+00    0,000000000e+00    0,000000000e+00    0,000000000e+00
      548000000    5,889185239e-03   -5,413801596e-02    3,814767599e-01   -5,676078796e-01    0,000000000e+00    0,000000000e+00    0,000000000e+00    0,000000000e+00
      562000000    2,886128379e-03   -8,908440173e-02    2,402409445e-03   -6,721199155e-01    0,000000000e+00    0,000000000e+00    0,000000000e+00    0,000000000e+00
      576000000   -3,472966701e-02   -1,243827790e-01   -3,693520427e-01   -5,572363138e-01    0,000000000e+00    0,000000000e+00    0,000000000e+00    0,000000000e+00
      590000000   -9,611965716e-02   -1,225982979e-01   -6,199730635e-01   -2,627339959e-01    0,000000000e+00    0,000000000e+00    0,000000000e+00    0,000000000e+00
      604000000   -1,393127739e-01   -7,191659510e-02   -6,650114059e-01    1,374916732e-01    0,000000000e+00    0,000000000e+00    0,000000000e+00    0,000000000e+00
      618000000   -1,297799796e-01   -8,762979880e-03   -4,640650153e-01    4,958578348e-01    0,000000000e+00    0,000000000e+00    0,000000000e+00    0,000000000e+00
      632000000   -8,450872451e-02    1,658899896e-02   -9,877979010e-02    6,636619568e-01    0,000000000e+00    0,000000000e+00    0,000000000e+00    0,000000000e+00
      646000000   -5,130859837e-02    1,489033020e-04    2,872222960e-01    5,951588154e-01    0,000000000e+00    0,000000000e+00    0,000000000e+00    0,000000000e+00
      660000000   -5,298486352e-02   -2,186058648e-02    5,670275092e-01    3,234535158e-01    0,000000000e+00    0,000000000e+00    0,000000000e+00    0,000000000e+00
      674000000   -6,976786256e-02   -1,755169220e-02    6,431497931e-01   -6,558439136e-02    0,000000000e+00    0,000000000e+00    0,000000000e+00    0,000000000e+00
      688000000   -6,847929209e-02    8,153017610e-03    4,708712101e-01   -4,277485311e-01    0,000000000e+00    0,000000000e+00    0,000000000e+00    0,000000000e+00
      702000000   -3,731613606e-02    2,554949000e-02    1,195391119e-01   -6,077942848e-01    0,000000000e+00    0,000000000e+00    0,000000000e+00    0,000000000e+00
      716000000    1,675459207e-03    1,791010052e-02   -2,651706934e-01   -5,466132760e-01    0,000000000e+00    0,000000000e+00    0,000000000e+00    0,000000000e+00
      730000000    3,688053042e-02   -1,155706774e-02   -5,286173224e-01   -2,698573172e-01    0,000000000e+00    0,000000000e+00    0,000000000e+00    0,000000000e+00
      744000000    6,462254375e-02   -6,247956678e-02   -5,646470189e-01    1,063851416e-01    0,000000000e+00    0,000000000e+00    0,000000000e+00    0,000000000e+00
      758000000    6,658339500e-02   -1,526421905e-01   -3,628090620e-01    4,107568860e-01    0,000000000e+00    0,000000000e+00    0,000000000e+00    0,000000000e+00
      772000000   -1,283563767e-02   -2,621925175e-01   -3,600189090e-02    5,154485106e-01    0,000000000e+00    0,000000000e+00    0,000000000e+00    0,000000000e+00
      786000000   -2,073731571e-01   -3,029281795e-01    2,754231393e-01    3,945583403e-01    0,000000000e+00    0,000000000e+00    0,000000000e+00    0,000000000e+00
      800000000   -4,256499708e-01   -1,307956427e-01    4,173852503e-01    9,925544262e-02    0,000000000e+00    0,000000000e+00    0,000000000e+00    0,000000000e+00
      814000000   -3,901515305e-01    2,211861610e-01    2,823339999e-01   -1,728760302e-01    0,000000000e+00    0,000000000e+00    0,000000000e+00    0,000000000e+00
      828000000   -4,964411259e-02    3,684078455e-01    5,544574186e-02   -1,888640821e-01    0,000000000e+00    0,000000000e+00    0,000000000e+00    0,000000000e+00
      842000000    2,354534268e-01    1,858321279e-01   -1,676469855e-02   -7,075200230e-02    0,000000000e+00    0,000000000e+00    0,000000000e+00    0,000000000e+00
      856000000    2,802861631e-01   -1,244180724e-01    4,494519532e-02   -1,256494317e-02    0,000000000e+00    0,000000000e+00    0,000000000e+00    0,000000000e+00
      870000000    7,556795329e-02   -3,768972754e-01    1,135705337e-01   -9,093076736e-02    0,000000000e+00    0,000000000e+00    0,000000000e+00    0,000000000e+00
      884000000   -2,957553267e-01   -3,615977168e-01    2,860295959e-02   -2,451827973e-01    0,000000000e+00    0,000000000e+00    0,000000000e+00    0,000000000e+00
      898000000   -4,727029502e-01    9,351206012e-03   -2,228654772e-01   -2,277842760e-01    0,000000000e+00    0,000000000e+00    0,000000000e+00    0,000000000e+00
      912000000   -2,262196690e-01    2,939430475e-01   -3,439868689e-01    6,072869152e-02    0,000000000e+00    0,000000000e+00    0,000000000e+00    0,000000000e+00
      926000000    6,663746387e-02    2,633420527e-01   -2,174064666e-01    2,644587755e-01    0,000000000e+00    0,000000000e+00    0,000000000e+00    0,000000000e+00
      940000000    2,142391652e-01    7,850065082e-02   -3,637140989e-02    3,287865818e-01    0,000000000e+00    0,000000000e+00    0,000000000e+00    0,000000000e+00
      954000000    2,225965261e-01   -1,292214692e-01    1,292790622e-01    3,062468767e-01    0,000000000e+00    0,000000000e+00    0,000000000e+00    0,000000000e+00
      968000000    1,169041842e-01   -3,006961644e-01    2,717706561e-01    2,178580314e-01    0,000000000e+00    0,000000000e+00    0,000000000e+00    0,000000000e+00
      982000000   -8,052763343e-02   -3,863058388e-01    3,657871485e-01    6,444691867e-02    0,000000000e+00    0,000000000e+00    0,000000000e+00    0,000000000e+00
      996000000   -3,167802989e-01   -3,263101280e-01    3,693226576e-01   -1,448978782e-01    0,000000000e+00    0,000000000e+00    0,000000000e+00    0,000000000e+00
     1010000000   -4,651333392e-01   -1,103223637e-01    2,209671736e-01   -3,414692879e-01    0,000000000e+00    0,000000000e+00    0,000000000e+00    0,000000000e+00
     1024000000   -4,110614061e-01    1,527314931e-01   -3,391408548e-02   -3,940732181e-01    0,000000000e+00    0,000000000e+00    0,000000000e+00    0,000000000e+00
     1038000000   -2,155361474e-01    2,947919071e-01   -2,464095503e-01   -2,604330480e-01    0,000000000e+00    0,000000000e+00    0,000000000e+00    0,000000000e+00
     1052000000   -7,247671485e-03    2,758475840e-01   -3,192544281e-01   -4,620825499e-02    0,000000000e+00    0,000000000e+00    0,000000000e+00    0,000000000e+00
     1066000000    1,329645962e-01    1,636275649e-01   -2,568894625e-01    1,429472566e-01    0,000000000e+00    0,000000000e+00    0,000000000e+00    0,000000000e+00
     1080000000    1,917456537e-01   -2,437398536e-03   -1,186786219e-01    2,627592981e-01    0,000000000e+00    0,000000000e+00    0,000000000e+00    0,000000000e+00
     1094000000    1,531657577e-01   -1,778297275e-01    6,373490393e-02    3,062113225e-01    0,000000000e+00    0,000000000e+00    0,000000000e+00    0,000000000e+00
     1108000000    2,215944231e-03   -3,076065779e-01    2,779438496e-01    2,480194718e-01    0,000000000e+00    0,000000000e+00    0,000000000e+00    0,000000000e+00
     1122000000   -2,534383535e-01   -2,645181119e-01    4,721036851e-01    1,534047350e-02    0,000000000e+00    0,000000000e+00    0,000000000e+00    0,000000000e+00
     1136000000   -3,228600621e-01    3,027511016e-02    4,033843279e-01   -3,949279487e-01    0,000000000e+00    0,000000000e+00    0,000000000e+00    0,000000000e+00
     1150000000   -4,096987471e-02    1,476198733e-01    7,797083817e-03   -5,399236083e-01    0,000000000e+00    0,000000000e+00    0,000000000e+00    0,000000000e+00
     1164000000    1,212583557e-01   -5,964631960e-02   -2,777431011e-01   -3,786013722e-01    0,000000000e+00    0,000000000e+00    0,000000000e+00    0,000000000e+00
     1178000000    1,669517905e-02   -3,054746687e-01   -3,699394763e-01   -1,509373188e-01    0,000000000e+00    0,000000000e+00    0,000000000e+00    0,000000000e+00
     1192000000   -2,671125531e-01   -3,713606596e-01   -3,204569221e-01    5,432205275e-02    0,000000000e+00    0,000000000e+00    0,000000000e+00    0,000000000e+00
     1206000000   -5,212461352e-01   -1,584817469e-01   -1,671877205e-01    1,811662167e-01    0,000000000e+00    0,000000000e+00    0,000000000e+00    0,000000000e+00
     1220000000   -5,038776994e-01    1,697684675e-01    2,545914846e-03    1,591106355e-01    0,000000000e+00    0,000000000e+00    0,000000000e+00    0,000000000e+00
     1234000000   -2,915751040e-01    3,583279550e-01    6,645756960e-02    6,249828637e-02    0,000000000e+00    0,000000000e+00    0,000000000e+00    0,000000000e+00
     1248000000   -4,489937797e-02    3,708314598e-01    5,929478258e-02   -1,995396800e-03    0,000000000e+00    0,000000000e+00    0,000000000e+00    0,000000000e+00
     1262000000    1,290216744e-01    2,543852925e-01    2,031210065e-02   -2,219128236e-02    0,000000000e+00    0,000000000e+00    0,000000000e+00    0,000000000e+00
     1276000000    2,085600495e-01    1,008010879e-01   -8,862795308e-03    4,620311316e-03    0,000000000e+00    0,000000000e+00    0,000000000e+00    0,000000000e+00
     1290000000    2,251607478e-01   -7,323664427e-02    1,810279116e-02    5,311457813e-02    0,000000000e+00    0,000000000e+00    0,000000000e+00    0,000000000e+00
     1304000000    1,585601121e-01   -2,420368791e-01    1,325375438e-01    6,496937573e-02    0,000000000e+00    0,000000000e+00    0,000000000e+00    0,000000000e+00
     1318000000    3,855518624e-02   -3,349565864e-01    1,342379302e-01   -1,619688123e-01    0,000000000e+00    0,000000000e+00    0,000000000e+00    0,000000000e+00
     1332000000   -1,295205206e-01   -4,395044446e-01   -4,099344090e-02   -4,370970279e-02    0,000000000e+00    0,000000000e+00    0,000000000e+00    0,000000000e+00
     1346000000   -3,921668530e-01   -4,081115425e-01    3,325046226e-02    7,466717064e-02    0,000000000e+00    0,000000000e+00    0,000000000e+00    0,000000000e+00
     1360000000   -6,017550826e-01   -1,909058541e-01    1,431489587e-01    7,740917057e-02    0,000000000e+00    0,000000000e+00    0,000000000e+00    0,000000000e+00
     1374000000   -6,240867376e-01    1,309899390e-01    2,104601115e-01    5,390607752e-03    0,000000000e+00    0,000000000e+00    0,000000000e+00    0,000000000e+00
     1388000000   -4,642606080e-01    3,707239926e-01    2,115237862e-01   -7,563766092e-02    0,000000000e+00    0,000000000e+00    0,000000000e+00    0,000000000e+00
     1402000000   -2,273597419e-01    4,516334534e-01    1,877197623e-01   -1,006192416e-01    0,000000000e+00    0,000000000e+00    0,000000000e+00    0,000000000e+00
     1416000000   -2,881661989e-02    4,084450603e-01    1,749870777e-01   -1,094569489e-01    0,000000000e+00    0,000000000e+00    0,000000000e+00    0,000000000e+00
     1430000000    1,147977486e-01    2,954491079e-01    1,481454521e-01   -1,146997139e-01    0,000000000e+00    0,000000000e+00    0,000000000e+00    0,000000000e+00
     1444000000    2,095530927e-01    1,484325975e-01    1,530018747e-01   -1,045735702e-01    0,000000000e+00    0,000000000e+00    0,000000000e+00    0,000000000e+00
     1458000000    2,392144203e-01   -2,341755293e-02    1,537794471e-01   -8,092007041e-02    0,000000000e+00    0,000000000e+00    0,000000000e+00    0,000000000e+00
     1472000000    1,918299049e-01   -1,992433667e-01    1,421579272e-01   -1,872392558e-02    0,000000000e+00    0,000000000e+00    0,000000000e+00    0,000000000e+00
     1486000000    5,913884193e-02   -3,757031560e-01    1,662060618e-01    3,367323801e-02    0,000000000e+00    0,000000000e+00    0,000000000e+00    0,000000000e+00
     1500000000   -1,732990146e-01   -5,079072118e-01    2,430819273e-01    9,593540430e-02    0,000000000e+00    0,000000000e+00    0,000000000e+00    0,000000000e+00
