! NanoVNA-App
! Date: 2025-09-25 15:35:28
! Start: 100MHz Stop: 1,5GHz Points: 101
! S-Parameter data: F S11 S21 S12 S22
# Hz S RI R 50
!     Frequency           S11_Real           S11_Imag           S21_Real           S21_Imag           S12_Real           S12_Imag           S22_Real           S22_Imag
      100000000   -2,882212959e-02   -4,161482211e-03    3,740952015e-01   -7,217422128e-01    0,000000000e+00    0,000000000e+00    0,000000000e+00    0,000000000e+00
      114000000   -1,647028886e-02    1,151372399e-02   -8,906544000e-02   -8,052408099e-01    0,000000000e+00    0,000000000e+00    0,000000000e+00    0,000000000e+00
      128000000    3,517149249e-03    1,054952107e-02   -5,143254399e-01   -6,204339862e-01    0,000000000e+00    0,000000000e+00    0,000000000e+00    0,000000000e+00
      142000000    1,456748508e-02   -2,967658453e-03   -7,669299841e-01   -2,366073132e-01    0,000000000e+00    0,000000000e+00    0,000000000e+00    0,000000000e+00
      156000000    1,601651497e-02   -1,433841418e-02   -7,701004744e-01    2,243378460e-01    0,000000000e+00    0,000000000e+00    0,000000000e+00    0,000000000e+00
      170000000    1,673092693e-02   -2,254122682e-02   -5,180956125e-01    6,046285033e-01    0,000000000e+00    0,000000000e+00    0,000000000e+00    0,000000000e+00
      184000000    2,106686682e-02   -3,706296906e-02   -1,015155017e-01    7,860416770e-01    0,000000000e+00    0,000000000e+00    0,000000000e+00    0,000000000e+00
      198000000    1,300706808e-02   -6,245389581e-02    3,432002664e-01    7,125606537e-01    0,000000000e+00    0,000000000e+00    0,000000000e+00    0,000000000e+00
      212000000   -1,862241514e-02   -8,132220060e-02    6,779250503e-01    4,100179374e-01    0,000000000e+00    0,000000000e+00    0,000000000e+00    0,000000000e+00
      226000000   -6,163402274e-02   -6,923464686e-02    7,957194448e-01   -3,048743680e-02    0,000000000e+00    0,000000000e+00    0,000000000e+00    0,000000000e+00
      240000000   -8,258641511e-02   -2,563728020e-02    6,461092830e-01   -4,670020342e-01    0,000000000e+00    0,000000000e+00    0,000000000e+00    0,000000000e+00
      254000000   -6,343872100e-02    1,726962999e-02    2,760114372e-01   -7,430656552e-01    0,000000000e+00    0,000000000e+00    0,000000000e+00    0,000000000e+00
      268000000   -2,375816740e-02    2,896361984e-02   -1,780668646e-01   -7,642701268e-01    0,000000000e+00    0,000000000e+00    0,000000000e+00    0,000000000e+00
      282000000    4,198534880e-03    1,192216482e-02   -5,620328784e-01   -5,356450081e-01    0,000000000e+00    0,000000000e+00    0,000000000e+00    0,000000000e+00
      296000000    9,825822897e-03   -7,822482847e-03   -7,598390579e-01   -1,397049278e-01    0,000000000e+00    0,000000000e+00    0,000000000e+00    0,000000000e+00
      310000000    1,098962966e-02   -1,624362916e-02   -7,119583488e-01    2,994206846e-01    0,000000000e+00    0,000000000e+00    0,000000000e+00    0,000000000e+00
      324000000    1,985823736e-02   -2,648355439e-02   -4,272778034e-01    6,384398937e-01    0,000000000e+00    0,000000000e+00    0,000000000e+00    0,000000000e+00
      338000000    2,565623634e-02   -5,194124952e-02   -9,733210318e-03    7,607274652e-01    0,000000000e+00    0,000000000e+00    0,000000000e+00    0,000000000e+00
      352000000    7,213043515e-03   -8,461622149e-02    4,065322876e-01    6,398090720e-01    0,000000000e+00    0,000000000e+00    0,000000000e+00    0,000000000e+00
      366000000   -3,458926454e-02   -9,545886517e-02    6,902476549e-01    3,111882210e-01    0,000000000e+00    0,000000000e+00    0,000000000e+00    0,000000000e+00
      380000000   -7,078071684e-02   -7,130187005e-02    7,479236126e-01   -1,256682873e-01    0,000000000e+00    0,000000000e+00    0,000000000e+00    0,000000000e+00
      394000000   -7,255890220e-02   -3,216696903e-02    5,465707183e-01   -5,211129785e-01    0,000000000e+00    0,000000000e+00    0,000000000e+00    0,000000000e+00
      408000000   -4,632857442e-02   -1,588832773e-02    1,615809649e-01   -7,315707207e-01    0,000000000e+00    0,000000000e+00    0,000000000e+00    0,000000000e+00
      422000000   -2,839622460e-02   -3,204914182e-02   -2,677394748e-01   -6,946757436e-01    0,000000000e+00    0,000000000e+00    0,000000000e+00    0,000000000e+00
      436000000   -4,039245471e-02   -5,194648728e-02   -6,037213206e-01   -4,318585694e-01    0,000000000e+00    0,000000000e+00    0,000000000e+00    0,000000000e+00
      450000000   -6,760084629e-02   -4,394380376e-02   -7,406927347e-01   -2,149908431e-02    0,000000000e+00    0,000000000e+00    0,000000000e+00    0,000000000e+00
      464000000   -7,367345691e-02   -1,141513325e-02   -6,182430983e-01    3,974713385e-01    0,000000000e+00    0,000000000e+00    0,000000000e+00    0,000000000e+00
      478000000   -4,755075648e-02    1,174984314e-02   -2,814565003e-01    6,674259901e-01    0,000000000e+00    0,000000000e+00    0,000000000e+00    0,000000000e+00
      492000000   -1,566037536e-02    6,235689390e-03    1,378817558e-01    7,011990547e-01    0,000000000e+00    0,000000000e+00    0,000000000e+00    0,000000000e+00
      506000000   -2,576348372e-03   -1,593898423e-02    4,984369576e-01    5,029050708e-01    0,000000000e+00    0,000000000e+00    0,000000000e+00    0,000000000e+00
      520000000   -5,150905345e-03   -3,125738725e-02    6,866693497e-01    1,425947696e-01    0,000000000e+00    0,000000000e+00    0,000000000e+00    0,000000000e+00
      534000000   -3,732566722e-03   -3,809906542e-02    6,440113783e-01   -2,625316978e-01    0,000000000e+00    0,000000000e+00    0,000000000e+00    0,000000000e+00
      548000000    6,124256179e-03   -5,429407209e-02    3,817083538e-01   -5,667004585e-01    0,000000000e+00    0,000000000e+00    0,000000000e+00    0,000000000e+00
      562000000    2,874601865e-03   -8,945240825e-02    1,796958270e-03   -6,720533371e-01    0,000000000e+00    0,000000000e+00    0,000000000e+00    0,000000000e+00
      576000000   -3,420301899e-02   -1,241695434e-01   -3,688629568e-01   -5,570760965e-01    0,000000000e+00    0,000000000e+00    0,000000000e+00    0,000000000e+00
      590000000   -9,636764228e-02   -1,224778816e-01   -6,197301149e-01   -2,643821836e-01    0,000000000e+00    0,000000000e+00    0,000000000e+00    0,000000000e+00
      604000000   -1,397227645e-01   -7,181990892e-02   -6,652950048e-01    1,376294941e-01    0,000000000e+00    0,000000000e+00    0,000000000e+00    0,000000000e+00
      618000000   -1,295090318e-01   -9,318670258e-03   -4,652931392e-01    4,951540232e-01    0,000000000e+00    0,000000000e+00    0,000000000e+00    0,000000000e+00
      632000000   -8,444620669e-02    1,707327180e-02   -9,909939021e-02    6,633169651e-01    0,000000000e+00    0,000000000e+00    0,000000000e+00    0,000000000e+00
      646000000   -5,148800090e-02    5,613264511e-04    2,877223194e-01    5,952712297e-01    0,000000000e+00    0,000000000e+00    0,000000000e+00    0,000000000e+00
      660000000   -5,349590629e-02   -2,223096788e-02    5,675519109e-01    3,227349818e-01    0,000000000e+00    0,000000000e+00    0,000000000e+00    0,000000000e+00
      674000000   -7,002558559e-02   -1,703531854e-02    6,431327462e-01   -6,528595090e-02    0,000000000e+00    0,000000000e+00    0,000000000e+00    0,000000000e+00
      688000000   -6,880258769e-02    9,161753580e-03    4,712797701e-01   -4,275979400e-01    0,000000000e+00    0,000000000e+00    0,000000000e+00    0,000000000e+00
      702000000   -3,718777001e-02    2,686699294e-02    1,200062558e-01   -6,146502495e-01    0,000000000e+00    0,000000000e+00    0,000000000e+00    0,000000000e+00
      716000000    2,448967891e-03    1,850901358e-02   -2,644461393e-01   -5,466226339e-01    0,000000000e+00    0,000000000e+00    0,000000000e+00    0,000000000e+00
      730000000    3,729004413e-02   -1,123094838e-02   -5,280010104e-01   -2,693596184e-01    0,000000000e+00    0,000000000e+00    0,000000000e+00    0,000000000e+00
      744000000    6,448766589e-02   -6,231065467e-02   -5,642308593e-01    1,063544154e-01    0,000000000e+00    0,000000000e+00    0,000000000e+00    0,000000000e+00
      758000000    6,645687670e-02   -1,528285593e-01   -3,633293509e-01    4,105404913e-01    0,000000000e+00    0,000000000e+00    0,000000000e+00    0,000000000e+00
      772000000   -1,312809717e-02   -2,618732750e-01   -3,453595191e-02    5,153080821e-01    0,000000000e+00    0,000000000e+00    0,000000000e+00    0,000000000e+00
      786000000   -2,064314783e-01   -3,029190302e-01    2,744907439e-01    3,956975341e-01    0,000000000e+00    0,000000000e+00    0,000000000e+00    0,000000000e+00
      800000000   -4,253455400e-01   -1,293748021e-01    4,165922701e-01    9,905101359e-02    0,000000000e+00    0,000000000e+00    0,000000000e+00    0,000000000e+00
      814000000   -3,894090950e-01    2,222272456e-01    2,821146846e-01   -1,727915853e-01    0,000000000e+00    0,000000000e+00    0,000000000e+00    0,000000000e+00
      828000000   -4,896204174e-02    3,677059114e-01    5,544460192e-02   -1,888235956e-01    0,000000000e+00    0,000000000e+00    0,000000000e+00    0,000000000e+00
      842000000    2,346975505e-01    1,857298911e-01   -1,737126336e-02   -7,138533890e-02    0,000000000e+00    0,000000000e+00    0,000000000e+00    0,000000000e+00
      856000000    2,803374529e-01   -1,240379959e-01    4,500416294e-02   -1,292913686e-02    0,000000000e+00    0,000000000e+00    0,000000000e+00    0,000000000e+00
      870000000    7,560564578e-02   -3,763451278e-01    1,137869284e-01   -9,071685374e-02    0,000000000e+00    0,000000000e+00    0,000000000e+00    0,000000000e+00
      884000000   -2,957597077e-01   -3,621134460e-01    2,834402770e-02   -2,451482713e-01    0,000000000e+00    0,000000000e+00    0,000000000e+00    0,000000000e+00
      898000000   -4,717513025e-01    8,806111291e-03   -2,215555459e-01   -2,275942117e-01    0,000000000e+00    0,000000000e+00    0,000000000e+00    0,000000000e+00
      912000000   -2,272123098e-01    2,933848500e-01   -3,361778259e-01    6,758974493e-02    0,000000000e+00    0,000000000e+00    0,000000000e+00    0,000000000e+00
      926000000    6,743340194e-02    2,654209733e-01   -2,173144370e-01    2,653342485e-01    0,000000000e+00    0,000000000e+00    0,000000000e+00    0,000000000e+00
      940000000    2,182857096e-01    7,987485826e-02   -3,668469563e-02    3,295810819e-01    0,000000000e+00    0,000000000e+00    0,000000000e+00    0,000000000e+00
      954000000    2,207627147e-01   -1,282381862e-01    1,306779236e-01    3,069701791e-01    0,000000000e+00    0,000000000e+00    0,000000000e+00    0,000000000e+00
      968000000    1,149475202e-01   -2,986230850e-01    2,708065510e-01    2,198139280e-01    0,000000000e+00    0,000000000e+00    0,000000000e+00    0,000000000e+00
      982000000   -8,482756466e-02   -3,867426515e-01    3,654563725e-01    6,590849161e-02    0,000000000e+00    0,000000000e+00    0,000000000e+00    0,000000000e+00
      996000000   -3,204466999e-01   -3,311353624e-01    3,690564632e-01   -1,452991217e-01    0,000000000e+00    0,000000000e+00    0,000000000e+00    0,000000000e+00
     1010000000   -4,598450363e-01   -1,142404228e-01    2,223941982e-01   -3,419488668e-01    0,000000000e+00    0,000000000e+00    0,000000000e+00    0,000000000e+00
     1024000000   -4,155834913e-01    1,473871469e-01   -3,456530347e-02   -3,950551450e-01    0,000000000e+00    0,000000000e+00    0,000000000e+00    0,000000000e+00
     1038000000   -2,154198885e-01    2,946658432e-01   -2,485737801e-01   -2,611502707e-01    0,000000000e+00    0,000000000e+00    0,000000000e+00    0,000000000e+00
     1052000000   -8,363060653e-03    2,751674354e-01   -3,182222545e-01   -4,691844434e-02    0,000000000e+00    0,000000000e+00    0,000000000e+00    0,000000000e+00
     1066000000    1,388849169e-01    1,622278541e-01   -2,584708333e-01    1,404950619e-01    0,000000000e+00    0,000000000e+00    0,000000000e+00    0,000000000e+00
     1080000000    1,914473027e-01   -9,860297432e-04   -1,171908304e-01    2,622958124e-01    0,000000000e+00    0,000000000e+00    0,000000000e+00    0,000000000e+00
     1094000000    1,552001536e-01   -1,777321845e-01    6,498949230e-02    3,058755696e-01    0,000000000e+00    0,000000000e+00    0,000000000e+00    0,000000000e+00
     1108000000    8,180257864e-04   -3,040421903e-01    2,771623731e-01    2,456801236e-01    0,000000000e+00    0,000000000e+00    0,000000000e+00    0,000000000e+00
     1122000000   -2,476291806e-01   -2,604006827e-01    4,723763168e-01    1,423604880e-02    0,000000000e+00    0,000000000e+00    0,000000000e+00    0,000000000e+00
     1136000000   -3,194657862e-01    3,761822358e-02    3,997269869e-01   -3,915643394e-01    0,000000000e+00    0,000000000e+00    0,000000000e+00    0,000000000e+00
     1150000000   -4,438720271e-02    1,561378241e-01    5,840789527e-03   -5,410202742e-01    0,000000000e+00    0,000000000e+00    0,000000000e+00    0,000000000e+00
     1164000000    1,244350150e-01   -6,123480946e-02   -2,765558064e-01   -3,792307675e-01    0,000000000e+00    0,000000000e+00    0,000000000e+00    0,000000000e+00
     1178000000    1,790659688e-02   -3,033103049e-01   -3,679762781e-01   -1,510528773e-01    0,000000000e+00    0,000000000e+00    0,000000000e+00    0,000000000e+00
     1192000000   -2,694045901e-01   -3,709171116e-01   -3,259108663e-01    5,697523430e-02    0,000000000e+00    0,000000000e+00    0,000000000e+00    0,000000000e+00
     1206000000   -5,232048631e-01   -1,662762612e-01   -1,642476320e-01    1,817784905e-01    0,000000000e+00    0,000000000e+00    0,000000000e+00    0,000000000e+00
     1220000000   -5,080280900e-01    1,696937680e-01   -1,649635029e-03    1,569602638e-01    0,000000000e+00    0,000000000e+00    0,000000000e+00    0,000000000e+00
     1234000000   -2,906982601e-01    3,649172485e-01    6,780140102e-02    6,226028502e-02    0,000000000e+00    0,000000000e+00    0,000000000e+00    0,000000000e+00
     1248000000   -4,385589436e-02    3,584170938e-01    5,518782139e-02   -5,675139837e-03    0,000000000e+00    0,000000000e+00    0,000000000e+00    0,000000000e+00
     1262000000    1,261338592e-01    2,544622719e-01    1,997816563e-02   -2,585941553e-02    0,000000000e+00    0,000000000e+00    0,000000000e+00    0,000000000e+00
     1276000000    2,148081213e-01    1,020598039e-01   -3,151613055e-03    6,331754848e-03    0,000000000e+00    0,000000000e+00    0,000000000e+00    0,000000000e+00
     1290000000    2,244673818e-01   -7,686687261e-02    2,049141563e-02    5,091699585e-02    0,000000000e+00    0,000000000e+00    0,000000000e+00    0,000000000e+00
     1304000000    1,536621451e-01   -2,437726110e-01    1,310353577e-01    7,048483193e-02    0,000000000e+00    0,000000000e+00    0,000000000e+00    0,000000000e+00
     1318000000    3,393500671e-02   -3,340896368e-01    1,330569088e-01   -1,646090746e-01    0,000000000e+00    0,000000000e+00    0,000000000e+00    0,000000000e+00
     1332000000   -1,346774250e-01   -4,390069246e-01   -4,716913402e-02   -5,226236209e-02    0,000000000e+00    0,000000000e+00    0,000000000e+00    0,000000000e+00
     1346000000   -3,941210806e-01   -4,055497944e-01    2,539996430e-02    7,542692870e-02    0,000000000e+00    0,000000000e+00    0,000000000e+00    0,000000000e+00
     1360000000   -6,023890376e-01   -1,924591959e-01    1,413357556e-01    6,790136546e-02    0,000000000e+00    0,000000000e+00    0,000000000e+00    0,000000000e+00
     1374000000   -6,305829883e-01    1,305452734e-01    2,061506063e-01    1,051442046e-02    0,000000000e+00    0,000000000e+00    0,000000000e+00    0,000000000e+00
     1388000000   -4,623130262e-01    3,675878048e-01    2,151940465e-01   -6,496970356e-02    0,000000000e+00    0,000000000e+00    0,000000000e+00    0,000000000e+00
     1402000000   -2,279544920e-01    4,510335922e-01    1,867152750e-01   -9,694220871e-02    0,000000000e+00    0,000000000e+00    0,000000000e+00    0,000000000e+00
     1416000000   -2,597152628e-02    4,166177511e-01    1,730768234e-01   -1,028433889e-01    0,000000000e+00    0,000000000e+00    0,000000000e+00    0,000000000e+00
     1430000000    1,207616478e-01    2,993265092e-01    1,903826743e-01   -9,192063659e-02    0,000000000e+00    0,000000000e+00    0,000000000e+00    0,000000000e+00
     1444000000    2,061485946e-01    1,462122500e-01    1,546420753e-01   -1,015566140e-01    0,000000000e+00    0,000000000e+00    0,000000000e+00    0,000000000e+00
     1458000000    2,315466553e-01   -1,829196699e-02    1,430266649e-01   -7,372972369e-02    0,000000000e+00    0,000000000e+00    0,000000000e+00    0,000000000e+00
     1472000000    1,898941249e-01   -2,027880102e-01    1,358362734e-01   -3,897042945e-02    0,000000000e+00    0,000000000e+00    0,000000000e+00    0,000000000e+00
     1486000000    5,806801096e-02   -3,745968342e-01    1,736665815e-01    4,644643888e-02    0,000000000e+00    0,000000000e+00    0,000000000e+00    0,000000000e+00
     1500000000   -1,721650958e-01   -4,958621860e-01    2,347761989e-01    9,202682972e-02    0,000000000e+00    0,000000000e+00    0,000000000e+00    0,000000000e+00
