! NanoVNA-App
! Date: 2025-09-25 15:34:15
! Start: 100MHz Stop: 1,5GHz Points: 101
! S-Parameter data: F S11 S21 S12 S22
# Hz S RI R 50
!     Frequency           S11_Real           S11_Imag           S21_Real           S21_Imag           S12_Real           S12_Imag           S22_Real           S22_Imag
      100000000   -2,887587622e-02   -4,170015454e-03    3,741053641e-01   -7,217475772e-01    0,000000000e+00    0,000000000e+00    0,000000000e+00    0,000000000e+00
      114000000   -1,651666313e-02    1,149987429e-02   -8,912616968e-02   -8,054710627e-01    0,000000000e+00    0,000000000e+00    0,000000000e+00    0,000000000e+00
      128000000    3,504035762e-03    1,052778028e-02   -5,145394802e-01   -6,204805374e-01    0,000000000e+00    0,000000000e+00    0,000000000e+00    0,000000000e+00
      142000000    1,454447769e-02   -2,962541766e-03   -7,670309544e-01   -2,366251051e-01    0,000000000e+00    0,000000000e+00    0,000000000e+00    0,000000000e+00
      156000000    1,512093563e-02   -1,510328427e-02   -7,693022490e-01    2,197871357e-01    0,000000000e+00    0,000000000e+00    0,000000000e+00    0,000000000e+00
      170000000    1,666389778e-02   -2,258958481e-02   -5,180414915e-01    6,050186753e-01    0,000000000e+00    0,000000000e+00    0,000000000e+00    0,000000000e+00
      184000000    2,101062797e-02   -3,705210239e-02   -1,015057564e-01    7,860388756e-01    0,000000000e+00    0,000000000e+00    0,000000000e+00    0,000000000e+00
      198000000    1,305976510e-02   -6,247826666e-02    3,431406021e-01    7,124562263e-01    0,000000000e+00    0,000000000e+00    0,000000000e+00    0,000000000e+00
      212000000   -1,862810738e-02   -8,135752380e-02    6,782913804e-01    4,099855125e-01    0,000000000e+00    0,000000000e+00    0,000000000e+00    0,000000000e+00
      226000000   -6,164442375e-02   -6,923484802e-02    7,957206368e-01   -3,058192693e-02    0,000000000e+00    0,000000000e+00    0,000000000e+00    0,000000000e+00
      240000000   -8,262413740e-02   -2,559436485e-02    6,462594867e-01   -4,669257104e-01    0,000000000e+00    0,000000000e+00    0,000000000e+00    0,000000000e+00
      254000000   -6,352972984e-02    1,730396226e-02    2,760152817e-01   -7,433580160e-01    0,000000000e+00    0,000000000e+00    0,000000000e+00    0,000000000e+00
      268000000   -2,381914109e-02    2,894198336e-02   -1,780986488e-01   -7,642709017e-01    0,000000000e+00    0,000000000e+00    0,000000000e+00    0,000000000e+00
      282000000    4,150462802e-03    1,196816564e-02   -5,617511868e-01   -5,355079174e-01    0,000000000e+00    0,000000000e+00    0,000000000e+00    0,000000000e+00
      296000000    9,708590806e-03   -7,860018872e-03   -7,597519159e-01   -1,397108138e-01    0,000000000e+00    0,000000000e+00    0,000000000e+00    0,000000000e+00
      310000000    1,114317495e-02   -1,621756516e-02   -7,132706642e-01    2,992971838e-01    0,000000000e+00    0,000000000e+00    0,000000000e+00    0,000000000e+00
      324000000    1,959359460e-02   -2,654612251e-02   -4,283571243e-01    6,384795904e-01    0,000000000e+00    0,000000000e+00    0,000000000e+00    0,000000000e+00
      338000000    2,563359216e-02   -5,243426189e-02   -8,668280207e-03    7,629076838e-01    0,000000000e+00    0,000000000e+00    0,000000000e+00    0,000000000e+00
      352000000    7,433333434e-03   -8,484692127e-02    4,068911672e-01    6,390492320e-01    0,000000000e+00    0,000000000e+00    0,000000000e+00    0,000000000e+00
      366000000   -3,470202535e-02   -9,548345208e-02    6,906631589e-01    3,109301925e-01    0,000000000e+00    0,000000000e+00    0,000000000e+00    0,000000000e+00
      380000000   -7,093244046e-02   -7,135336101e-02    7,480673790e-01   -1,262508780e-01    0,000000000e+00    0,000000000e+00    0,000000000e+00    0,000000000e+00
      394000000   -7,249709964e-02   -3,236859292e-02    5,464857221e-01   -5,228366256e-01    0,000000000e+00    0,000000000e+00    0,000000000e+00    0,000000000e+00
      408000000   -4,651122540e-02   -1,627700031e-02    1,611856073e-01   -7,333938479e-01    0,000000000e+00    0,000000000e+00    0,000000000e+00    0,000000000e+00
      422000000   -2,828305960e-02   -3,178996965e-02   -2,667716742e-01   -6,945065260e-01    0,000000000e+00    0,000000000e+00    0,000000000e+00    0,000000000e+00
      436000000   -4,054712504e-02   -5,191077292e-02   -6,037746668e-01   -4,320643544e-01    0,000000000e+00    0,000000000e+00    0,000000000e+00    0,000000000e+00
      450000000   -6,733684987e-02   -4,387595505e-02   -7,407912016e-01   -2,154571563e-02    0,000000000e+00    0,000000000e+00    0,000000000e+00    0,000000000e+00
      464000000   -7,318708301e-02   -1,160347834e-02   -6,182988286e-01    3,980154097e-01    0,000000000e+00    0,000000000e+00    0,000000000e+00    0,000000000e+00
      478000000   -4,797866568e-02    1,156723779e-02   -2,820143402e-01    6,677445173e-01    0,000000000e+00    0,000000000e+00    0,000000000e+00    0,000000000e+00
      492000000   -1,560542360e-02    6,173666567e-03    1,372447014e-01    7,012136579e-01    0,000000000e+00    0,000000000e+00    0,000000000e+00    0,000000000e+00
      506000000   -2,412981587e-03   -1,554277260e-02    4,981283247e-01    5,031785369e-01    0,000000000e+00    0,000000000e+00    0,000000000e+00    0,000000000e+00
      520000000   -5,086796824e-03   -3,126663342e-02    6,874485016e-01    1,415878683e-01    0,000000000e+00    0,000000000e+00    0,000000000e+00    0,000000000e+00
      534000000   -4,256854299e-03   -3,810742125e-02    6,432749033e-01   -2,625626922e-01    0,000000000e+00    0,000000000e+00    0,000000000e+00    0,000000000e+00
      548000000    6,068838295e-03   -5,353808776e-02    3,814850450e-01   -5,670788884e-01    0,000000000e+00    0,000000000e+00    0,000000000e+00    0,000000000e+00
      562000000    3,438356565e-03   -8,936417103e-02    2,226763638e-03   -6,723404527e-01    0,000000000e+00    0,000000000e+00    0,000000000e+00    0,000000000e+00
      576000000   -3,441354260e-02   -1,246677265e-01   -3,686696291e-01   -5,574966669e-01    0,000000000e+00    0,000000000e+00    0,000000000e+00    0,000000000e+00
      590000000   -9,639905393e-02   -1,226943657e-01   -6,208076477e-01   -2,648962140e-01    0,000000000e+00    0,000000000e+00    0,000000000e+00    0,000000000e+00
      604000000   -1,398204267e-01   -7,161313295e-02   -6,655679345e-01    1,378322840e-01    0,000000000e+00    0,000000000e+00    0,000000000e+00    0,000000000e+00
      618000000   -1,291615218e-01   -9,040608071e-03   -4,647656679e-01    4,943775833e-01    0,000000000e+00    0,000000000e+00    0,000000000e+00    0,000000000e+00
      632000000   -8,380883187e-02    1,715189777e-02   -9,850697964e-02    6,641757488e-01    0,000000000e+00    0,000000000e+00    0,000000000e+00    0,000000000e+00
      646000000   -5,079264194e-02    5,344451711e-05    2,879928648e-01    5,951724648e-01    0,000000000e+00    0,000000000e+00    0,000000000e+00    0,000000000e+00
      660000000   -5,299670622e-02   -2,121373266e-02    5,679383874e-01    3,228442073e-01    0,000000000e+00    0,000000000e+00    0,000000000e+00    0,000000000e+00
      674000000   -7,055428624e-02   -1,817603968e-02    6,430113316e-01   -6,531928480e-02    0,000000000e+00    0,000000000e+00    0,000000000e+00    0,000000000e+00
      688000000   -6,805320829e-02    8,342267945e-03    4,711685181e-01   -4,280433655e-01    0,000000000e+00    0,000000000e+00    0,000000000e+00    0,000000000e+00
      702000000   -3,862808645e-02    2,652110532e-02    1,203071848e-01   -6,142718792e-01    0,000000000e+00    0,000000000e+00    0,000000000e+00    0,000000000e+00
      716000000    2,849499695e-03    1,814975590e-02   -2,653285861e-01   -5,464901924e-01    0,000000000e+00    0,000000000e+00    0,000000000e+00    0,000000000e+00
      730000000    3,678748757e-02   -1,155183837e-02   -5,279390216e-01   -2,689273059e-01    0,000000000e+00    0,000000000e+00    0,000000000e+00    0,000000000e+00
      744000000    6,573578715e-02   -6,267780066e-02   -5,642652512e-01    1,063230336e-01    0,000000000e+00    0,000000000e+00    0,000000000e+00    0,000000000e+00
      758000000    6,673375517e-02   -1,517883390e-01   -3,631788790e-01    4,102274179e-01    0,000000000e+00    0,000000000e+00    0,000000000e+00    0,000000000e+00
      772000000   -1,254220027e-02   -2,630262375e-01   -3,510848433e-02    5,161403418e-01    0,000000000e+00    0,000000000e+00    0,000000000e+00    0,000000000e+00
      786000000   -2,060862631e-01   -3,026084304e-01    2,740988135e-01    3,957878351e-01    0,000000000e+00    0,000000000e+00    0,000000000e+00    0,000000000e+00
      800000000   -4,250872135e-01   -1,314937621e-01    4,171256423e-01    9,955664724e-02    0,000000000e+00    0,000000000e+00    0,000000000e+00    0,000000000e+00
      814000000   -3,905274272e-01    2,221369445e-01    2,822429836e-01   -1,731144488e-01    0,000000000e+00    0,000000000e+00    0,000000000e+00    0,000000000e+00
      828000000   -4,899135977e-02    3,674668372e-01    5,502765998e-02   -1,886146665e-01    0,000000000e+00    0,000000000e+00    0,000000000e+00    0,000000000e+00
      842000000    2,348830849e-01    1,858139783e-01   -1,737209223e-02   -7,122172415e-02    0,000000000e+00    0,000000000e+00    0,000000000e+00    0,000000000e+00
      856000000    2,804419100e-01   -1,243080869e-01    4,527601600e-02   -1,278149616e-02    0,000000000e+00    0,000000000e+00    0,000000000e+00    0,000000000e+00
      870000000    7,510678470e-02   -3,766837120e-01    1,138080060e-01   -9,121923149e-02    0,000000000e+00    0,000000000e+00    0,000000000e+00    0,000000000e+00
      884000000   -2,955246270e-01   -3,615634739e-01    2,874726802e-02   -2,457233965e-01    0,000000000e+00    0,000000000e+00    0,000000000e+00    0,000000000e+00
      898000000   -4,726801515e-01    9,262411855e-03   -2,228275537e-01   -2,272668183e-01    0,000000000e+00    0,000000000e+00    0,000000000e+00    0,000000000e+00
      912000000   -2,264849693e-01    2,940709591e-01   -3,394780159e-01    5,981453881e-02    0,000000000e+00    0,000000000e+00    0,000000000e+00    0,000000000e+00
      926000000    6,591036171e-02    2,638144791e-01   -2,173532546e-01    2,648389637e-01    0,000000000e+00    0,000000000e+00    0,000000000e+00    0,000000000e+00
      940000000    2,141245157e-01    7,877244800e-02   -3,586877510e-02    3,276859224e-01    0,000000000e+00    0,000000000e+00    0,000000000e+00    0,000000000e+00
      954000000    2,215099633e-01   -1,257520616e-01    1,301843077e-01    3,061541617e-01    0,000000000e+00    0,000000000e+00    0,000000000e+00    0,000000000e+00
      968000000    1,136947870e-01   -3,005478382e-01    2,709547877e-01    2,183771580e-01    0,000000000e+00    0,000000000e+00    0,000000000e+00    0,000000000e+00
      982000000   -8,228114247e-02   -3,848230541e-01    3,662885427e-01    6,581703573e-02    0,000000000e+00    0,000000000e+00    0,000000000e+00    0,000000000e+00
      996000000   -3,150890768e-01   -3,312353492e-01    3,688108623e-01   -1,456564367e-01    0,000000000e+00    0,000000000e+00    0,000000000e+00    0,000000000e+00
     1010000000   -4,593921304e-01   -1,116724014e-01    2,208428532e-01   -3,413884640e-01    0,000000000e+00    0,000000000e+00    0,000000000e+00    0,000000000e+00
     1024000000   -4,162673056e-01    1,496547312e-01   -3,405618295e-02   -3,926112354e-01    0,000000000e+00    0,000000000e+00    0,000000000e+00    0,000000000e+00
     1038000000   -2,179342061e-01    2,939642370e-01   -2,462900281e-01   -2,608724833e-01    0,000000000e+00    0,000000000e+00    0,000000000e+00    0,000000000e+00
     1052000000   -6,269061938e-03    2,766154408e-01   -3,175276220e-01   -4,720677435e-02    0,000000000e+00    0,000000000e+00    0,000000000e+00    0,000000000e+00
     1066000000    1,376439780e-01    1,609640419e-01   -2,568668127e-01    1,439935267e-01    0,000000000e+00    0,000000000e+00    0,000000000e+00    0,000000000e+00
     1080000000    1,912632287e-01   -1,753297169e-03   -1,191042662e-01    2,620670199e-01    0,000000000e+00    0,000000000e+00    0,000000000e+00    0,000000000e+00
     1094000000    1,522524208e-01   -1,762454212e-01    6,684266031e-02    3,035299480e-01    0,000000000e+00    0,000000000e+00    0,000000000e+00    0,000000000e+00
     1108000000   -1,803546678e-03   -3,004010022e-01    2,751328945e-01    2,461772859e-01    0,000000000e+00    0,000000000e+00    0,000000000e+00    0,000000000e+00
     1122000000   -2,460176796e-01   -2,670411170e-01    4,706950784e-01    1,278125402e-02    0,000000000e+00    0,000000000e+00    0,000000000e+00    0,000000000e+00
     1136000000   -3,133579195e-01    3,040863015e-02    3,975131512e-01   -3,926791251e-01    0,000000000e+00    0,000000000e+00    0,000000000e+00    0,000000000e+00
     1150000000   -3,722314164e-02    1,541672349e-01    4,842157010e-03   -5,436248779e-01    0,000000000e+00    0,000000000e+00    0,000000000e+00    0,000000000e+00
     1164000000    1,231737882e-01   -6,094163656e-02   -2,778999507e-01   -3,790290058e-01    0,000000000e+00    0,000000000e+00    0,000000000e+00    0,000000000e+00
     1178000000    1,579810120e-02   -3,018875718e-01   -3,688212037e-01   -1,501284391e-01    0,000000000e+00    0,000000000e+00    0,000000000e+00    0,000000000e+00
     1192000000   -2,649051547e-01   -3,700807989e-01   -3,231836259e-01    5,844295770e-02    0,000000000e+00    0,000000000e+00    0,000000000e+00    0,000000000e+00
     1206000000   -5,214033723e-01   -1,569637656e-01   -1,631450355e-01    1,818901449e-01    0,000000000e+00    0,000000000e+00    0,000000000e+00    0,000000000e+00
     1220000000   -5,131443739e-01    1,741149724e-01   -4,144001286e-03    1,603395492e-01    0,000000000e+00    0,000000000e+00    0,000000000e+00    0,000000000e+00
     1234000000   -2,905285060e-01    3,595523834e-01    6,690288335e-02    6,312859803e-02    0,000000000e+00    0,000000000e+00    0,000000000e+00    0,000000000e+00
     1248000000   -4,696112871e-02    3,602416515e-01    5,304300040e-02   -7,192704361e-03    0,000000000e+00    0,000000000e+00    0,000000000e+00    0,000000000e+00
     1262000000    1,260925382e-01    2,524997890e-01    2,106265537e-02   -2,537463605e-02    0,000000000e+00    0,000000000e+00    0,000000000e+00    0,000000000e+00
     1276000000    2,112983018e-01    9,779307246e-02   -6,808372564e-04    3,387263510e-03    0,000000000e+00    0,000000000e+00    0,000000000e+00    0,000000000e+00
     1290000000    2,231519073e-01   -7,745718211e-02    1,579886302e-02    4,942461103e-02    0,000000000e+00    0,000000000e+00    0,000000000e+00    0,000000000e+00
     1304000000    1,571494937e-01   -2,402991652e-01    1,308258772e-01    7,202375680e-02    0,000000000e+00    0,000000000e+00    0,000000000e+00    0,000000000e+00
     1318000000    3,402417526e-02   -3,379638195e-01    1,319141090e-01   -1,713575870e-01    0,000000000e+00    0,000000000e+00    0,000000000e+00    0,000000000e+00
     1332000000   -1,336886883e-01   -4,367060661e-01   -4,741157964e-02   -4,722729698e-02    0,000000000e+00    0,000000000e+00    0,000000000e+00    0,000000000e+00
     1346000000   -3,958807886e-01   -4,062779546e-01    1,591163129e-02    7,345239818e-02    0,000000000e+00    0,000000000e+00    0,000000000e+00    0,000000000e+00
     1360000000   -6,134003401e-01   -1,833956987e-01    1,324463338e-01    7,260517776e-02    0,000000000e+00    0,000000000e+00    0,000000000e+00    0,000000000e+00
     1374000000   -6,403581500e-01    1,282917857e-01    1,950804144e-01    4,322246648e-03    0,000000000e+00    0,000000000e+00    0,000000000e+00    0,000000000e+00
     1388000000   -4,662365317e-01    3,639450371e-01    2,081426531e-01   -7,108076662e-02    0,000000000e+00    0,000000000e+00    0,000000000e+00    0,000000000e+00
     1402000000   -2,383353710e-01    4,513885677e-01    1,777341217e-01   -9,336006641e-02    0,000000000e+00    0,000000000e+00    0,000000000e+00    0,000000000e+00
     1416000000   -2,476353943e-02    4,123904109e-01    1,773033291e-01   -1,038782373e-01    0,000000000e+00    0,000000000e+00    0,000000000e+00    0,000000000e+00
     1430000000    1,244659126e-01    3,085755408e-01    1,780439168e-01   -1,161234006e-01    0,000000000e+00    0,000000000e+00    0,000000000e+00    0,000000000e+00
     1444000000    2,085118890e-01    1,496195644e-01    1,575843990e-01   -1,054034010e-01    0,000000000e+00    0,000000000e+00    0,000000000e+00    0,000000000e+00
     1458000000    2,356517166e-01   -2,035949193e-02    1,349957883e-01   -8,201833814e-02    0,000000000e+00    0,000000000e+00    0,000000000e+00    0,000000000e+00
     1472000000    1,940021366e-01   -2,033895403e-01    1,568968892e-01   -2,255036123e-02    0,000000000e+00    0,000000000e+00    0,000000000e+00    0,000000000e+00
     1486000000    6,737636775e-02   -3,753981888e-01    1,792600751e-01    4,417905957e-02    0,000000000e+00    0,000000000e+00    0,000000000e+00    0,000000000e+00
     1500000000   -1,766612977e-01   -4,902518094e-01    2,361311764e-01    9,640672058e-02    0,000000000e+00    0,000000000e+00    0,000000000e+00    0,000000000e+00
