! NanoVNA-App
! Date: 2025-09-25 15:32:14
! Start: 100MHz Stop: 1,5GHz Points: 101
! S-Parameter data: F S11 S21 S12 S22
# Hz S RI R 50
!     Frequency           S11_Real           S11_Imag           S21_Real           S21_Imag           S12_Real           S12_Imag           S22_Real           S22_Imag
      100000000   -2,886519395e-02   -4,162441939e-03    3,740862608e-01   -7,217563391e-01    0,000000000e+00    0,000000000e+00    0,000000000e+00    0,000000000e+00
      114000000   -1,652222872e-02    1,151862834e-02   -8,897310495e-02   -8,054275513e-01    0,000000000e+00    0,000000000e+00    0,000000000e+00    0,000000000e+00
      128000000    3,491768846e-03    1,056593657e-02   -5,146967769e-01   -6,207545996e-01    0,000000000e+00    0,000000000e+00    0,000000000e+00    0,000000000e+00
      142000000    1,453737915e-02   -2,953158924e-03   -7,672055364e-01   -2,365189195e-01    0,000000000e+00    0,000000000e+00    0,000000000e+00    0,000000000e+00
      156000000    1,589621790e-02   -1,434949227e-02   -7,696784139e-01    2,241371870e-01    0,000000000e+00    0,000000000e+00    0,000000000e+00    0,000000000e+00
      170000000    1,664450765e-02   -2,253108844e-02   -5,179482698e-01    6,047898531e-01    0,000000000e+00    0,000000000e+00    0,000000000e+00    0,000000000e+00
      184000000    2,102117613e-02   -3,710626066e-02   -1,013420001e-01    7,863914371e-01    0,000000000e+00    0,000000000e+00    0,000000000e+00    0,000000000e+00
      198000000    1,303500496e-02   -6,246315315e-02    3,433069587e-01    7,123118639e-01    0,000000000e+00    0,000000000e+00    0,000000000e+00    0,000000000e+00
      212000000   -1,866190135e-02   -8,131517470e-02    6,781420708e-01    4,100345373e-01    0,000000000e+00    0,000000000e+00    0,000000000e+00    0,000000000e+00
      226000000   -6,167121604e-02   -6,918966770e-02    7,957729697e-01   -3,057682142e-02    0,000000000e+00    0,000000000e+00    0,000000000e+00    0,000000000e+00
      240000000   -8,257950097e-02   -2,559367009e-02    6,462011933e-01   -4,668838382e-01    0,000000000e+00    0,000000000e+00    0,000000000e+00    0,000000000e+00
      254000000   -6,351610273e-02    1,723827235e-02    2,760431468e-01   -7,431403995e-01    0,000000000e+00    0,000000000e+00    0,000000000e+00    0,000000000e+00
      268000000   -2,387757041e-02    2,895456366e-02   -1,785113513e-01   -7,647036314e-01    0,000000000e+00    0,000000000e+00    0,000000000e+00    0,000000000e+00
      282000000    4,168092273e-03    1,190713886e-02   -5,619650483e-01   -5,354546309e-01    0,000000000e+00    0,000000000e+00    0,000000000e+00    0,000000000e+00
      296000000    9,642940015e-03   -7,846472785e-03   -7,595708370e-01   -1,397945881e-01    0,000000000e+00    0,000000000e+00    0,000000000e+00    0,000000000e+00
      310000000    1,112226117e-02   -1,620288379e-02   -7,122537494e-01    2,997024655e-01    0,000000000e+00    0,000000000e+00    0,000000000e+00    0,000000000e+00
      324000000    1,958567835e-02   -2,661796100e-02   -4,267209172e-01    6,384252310e-01    0,000000000e+00    0,000000000e+00    0,000000000e+00    0,000000000e+00
      338000000    2,578362823e-02   -5,216126516e-02   -9,216194041e-03    7,627022266e-01    0,000000000e+00    0,000000000e+00    0,000000000e+00    0,000000000e+00
      352000000    7,602246478e-03   -8,485751599e-02    4,074419141e-01    6,398261786e-01    0,000000000e+00    0,000000000e+00    0,000000000e+00    0,000000000e+00
      366000000   -3,476770222e-02   -9,564848244e-02    6,899421811e-01    3,110540509e-01    0,000000000e+00    0,000000000e+00    0,000000000e+00    0,000000000e+00
      380000000   -7,071875781e-02   -7,086604834e-02    7,479431033e-01   -1,260472983e-01    0,000000000e+00    0,000000000e+00    0,000000000e+00    0,000000000e+00
      394000000   -7,280261815e-02   -3,263153881e-02    5,464172959e-01   -5,227729082e-01    0,000000000e+00    0,000000000e+00    0,000000000e+00    0,000000000e+00
      408000000   -4,642376676e-02   -1,590557396e-02    1,608865708e-01   -7,322275639e-01    0,000000000e+00    0,000000000e+00    0,000000000e+00    0,000000000e+00
      422000000   -2,837822214e-02   -3,219349682e-02   -2,670056224e-01   -6,945649385e-01    0,000000000e+00    0,000000000e+00    0,000000000e+00    0,000000000e+00
      436000000   -4,077442363e-02   -5,176519975e-02   -6,045165658e-01   -4,319200516e-01    0,000000000e+00    0,000000000e+00    0,000000000e+00    0,000000000e+00
      450000000   -6,737076491e-02   -4,393218830e-02   -7,404276133e-01   -2,138446085e-02    0,000000000e+00    0,000000000e+00    0,000000000e+00    0,000000000e+00
      464000000   -7,317444682e-02   -1,162398607e-02   -6,182332039e-01    3,979420960e-01    0,000000000e+00    0,000000000e+00    0,000000000e+00    0,000000000e+00
      478000000   -4,764874652e-02    1,188892312e-02   -2,826721966e-01    6,679127216e-01    0,000000000e+00    0,000000000e+00    0,000000000e+00    0,000000000e+00
      492000000   -1,553789992e-02    5,901583470e-03    1,378247589e-01    7,010876536e-01    0,000000000e+00    0,000000000e+00    0,000000000e+00    0,000000000e+00
      506000000   -2,742343117e-03   -1,568356156e-02    4,982292950e-01    5,022870302e-01    0,000000000e+00    0,000000000e+00    0,000000000e+00    0,000000000e+00
      520000000   -5,225972272e-03   -3,164329380e-02    6,868478656e-01    1,410854906e-01    0,000000000e+00    0,000000000e+00    0,000000000e+00    0,000000000e+00
      534000000   -3,959223162e-03   -3,834875673e-02    6,434083581e-01   -2,630935311e-01    0,000000000e+00    0,000000000e+00    0,000000000e+00    0,000000000e+00
      548000000    6,149130408e-03   -5,377167836e-02    3,810280859e-01   -5,673296452e-01    0,000000000e+00    0,000000000e+00    0,000000000e+00    0,000000000e+00
      562000000    3,314635251e-03   -8,941324055e-02    2,289082622e-03   -6,724872589e-01    0,000000000e+00    0,000000000e+00    0,000000000e+00    0,000000000e+00
      576000000   -3,422576189e-02   -1,240654588e-01   -3,695078492e-01   -5,568298697e-01    0,000000000e+00    0,000000000e+00    0,000000000e+00    0,000000000e+00
      590000000   -9,635008126e-02   -1,226380616e-01   -6,221860051e-01   -2,628317177e-01    0,000000000e+00    0,000000000e+00    0,000000000e+00    0,000000000e+00
      604000000   -1,393852383e-01   -7,165671140e-02   -6,648079753e-01    1,379375309e-01    0,000000000e+00    0,000000000e+00    0,000000000e+00    0,000000000e+00
      618000000   -1,290986985e-01   -9,337118827e-03   -4,648760557e-01    4,949451685e-01    0,000000000e+00    0,000000000e+00    0,000000000e+00    0,000000000e+00
      632000000   -8,353014290e-02    1,650521718e-02   -9,904904664e-02    6,634324193e-01    0,000000000e+00    0,000000000e+00    0,000000000e+00    0,000000000e+00
      646000000   -5,092103034e-02    1,191472285e-03    2,880510390e-01    5,953034163e-01    0,000000000e+00    0,000000000e+00    0,000000000e+00    0,000000000e+00
      660000000   -5,311032385e-02   -2,216395177e-02    5,680193305e-01    3,225229979e-01    0,000000000e+00    0,000000000e+00    0,000000000e+00    0,000000000e+00
      674000000   -6,964032352e-02   -1,743605733e-02    6,432810426e-01   -6,544944644e-02    0,000000000e+00    0,000000000e+00    0,000000000e+00    0,000000000e+00
      688000000   -6,850599498e-02    9,410455823e-03    4,715719223e-01   -4,283934534e-01    0,000000000e+00    0,000000000e+00    0,000000000e+00    0,000000000e+00
      702000000   -3,652960435e-02    2,635590732e-02    1,185992360e-01   -6,113887429e-01    0,000000000e+00    0,000000000e+00    0,000000000e+00    0,000000000e+00
      716000000    2,951652044e-03    1,832289249e-02   -2,655065358e-01   -5,463078618e-01    0,000000000e+00    0,000000000e+00    0,000000000e+00    0,000000000e+00
      730000000    3,696673363e-02   -1,044085342e-02   -5,283830166e-01   -2,685844898e-01    0,000000000e+00    0,000000000e+00    0,000000000e+00    0,000000000e+00
      744000000    6,468573958e-02   -6,220962852e-02   -5,643118620e-01    1,066576913e-01    0,000000000e+00    0,000000000e+00    0,000000000e+00    0,000000000e+00
      758000000    6,690482050e-02   -1,520810574e-01   -3,634068370e-01    4,098419845e-01    0,000000000e+00    0,000000000e+00    0,000000000e+00    0,000000000e+00
      772000000   -1,326546725e-02   -2,629449368e-01   -3,415157273e-02    5,152469277e-01    0,000000000e+00    0,000000000e+00    0,000000000e+00    0,000000000e+00
      786000000   -2,066976130e-01   -3,029329181e-01    2,746699452e-01    3,958190978e-01    0,000000000e+00    0,000000000e+00    0,000000000e+00    0,000000000e+00
      800000000   -4,264534414e-01   -1,303082854e-01    4,174209535e-01    9,948595613e-02    0,000000000e+00    0,000000000e+00    0,000000000e+00    0,000000000e+00
      814000000   -3,902409673e-01    2,210362405e-01    2,821607292e-01   -1,734315157e-01    0,000000000e+00    0,000000000e+00    0,000000000e+00    0,000000000e+00
      828000000   -5,006388575e-02    3,688006103e-01    5,484380946e-02   -1,895243078e-01    0,000000000e+00    0,000000000e+00    0,000000000e+00    0,000000000e+00
      842000000    2,346195430e-01    1,858185679e-01   -1,713355444e-02   -7,067648321e-02    0,000000000e+00    0,000000000e+00    0,000000000e+00    0,000000000e+00
      856000000    2,803505361e-01   -1,241444796e-01    4,512149841e-02   -1,284171455e-02    0,000000000e+00    0,000000000e+00    0,000000000e+00    0,000000000e+00
      870000000    7,451672107e-02   -3,764442503e-01    1,133249998e-01   -9,121484309e-02    0,000000000e+00    0,000000000e+00    0,000000000e+00    0,000000000e+00
      884000000   -2,951882482e-01   -3,628610075e-01    2,805778943e-02   -2,455910444e-01    0,000000000e+00    0,000000000e+00    0,000000000e+00    0,000000000e+00
      898000000   -4,719111323e-01    8,330389857e-03   -2,217136323e-01   -2,281130850e-01    0,000000000e+00    0,000000000e+00    0,000000000e+00    0,000000000e+00
      912000000   -2,255159318e-01    2,952030599e-01   -3,431521952e-01    5,982538313e-02    0,000000000e+00    0,000000000e+00    0,000000000e+00    0,000000000e+00
      926000000    6,515364349e-02    2,628887296e-01   -2,181463540e-01    2,647847831e-01    0,000000000e+00    0,000000000e+00    0,000000000e+00    0,000000000e+00
      940000000    2,168653458e-01    8,064403385e-02   -3,646244109e-02    3,307760060e-01    0,000000000e+00    0,000000000e+00    0,000000000e+00    0,000000000e+00
      954000000    2,236780971e-01   -1,298823655e-01    1,311845332e-01    3,067471385e-01    0,000000000e+00    0,000000000e+00    0,000000000e+00    0,000000000e+00
      968000000    1,184934005e-01   -3,014461398e-01    2,696105540e-01    2,173776329e-01    0,000000000e+00    0,000000000e+00    0,000000000e+00    0,000000000e+00
      982000000   -8,247493207e-02   -3,853558302e-01    3,658391237e-01    6,515738368e-02    0,000000000e+00    0,000000000e+00    0,000000000e+00    0,000000000e+00
      996000000   -3,151944876e-01   -3,314323425e-01    3,688991070e-01   -1,446909904e-01    0,000000000e+00    0,000000000e+00    0,000000000e+00    0,000000000e+00
     1010000000   -4,655108452e-01   -1,125971451e-01    2,216166556e-01   -3,424719870e-01    0,000000000e+00    0,000000000e+00    0,000000000e+00    0,000000000e+00
     1024000000   -4,141084552e-01    1,463080347e-01   -3,413026780e-02   -3,928059936e-01    0,000000000e+00    0,000000000e+00    0,000000000e+00    0,000000000e+00
     1038000000   -2,143800259e-01    2,884668112e-01   -2,500665784e-01   -2,619302273e-01    0,000000000e+00    0,000000000e+00    0,000000000e+00    0,000000000e+00
     1052000000   -7,042437792e-03    2,802918255e-01   -3,218200803e-01   -4,653450847e-02    0,000000000e+00    0,000000000e+00    0,000000000e+00    0,000000000e+00
     1066000000    1,331547499e-01    1,604076624e-01   -2,555280626e-01    1,415293366e-01    0,000000000e+00    0,000000000e+00    0,000000000e+00    0,000000000e+00
     1080000000    1,963467151e-01   -2,354278229e-03   -1,210044250e-01    2,652480006e-01    0,000000000e+00    0,000000000e+00    0,000000000e+00    0,000000000e+00
     1094000000    1,529821008e-01   -1,770824045e-01    6,397607177e-02    3,044542372e-01    0,000000000e+00    0,000000000e+00    0,000000000e+00    0,000000000e+00
     1108000000   -2,845833078e-03   -3,089325428e-01    2,766197920e-01    2,452858537e-01    0,000000000e+00    0,000000000e+00    0,000000000e+00    0,000000000e+00
     1122000000   -2,462039292e-01   -2,677538693e-01    4,720333517e-01    1,293342188e-02    0,000000000e+00    0,000000000e+00    0,000000000e+00    0,000000000e+00
     1136000000   -3,145883381e-01    3,536383808e-02    4,010017514e-01   -3,925220966e-01    0,000000000e+00    0,000000000e+00    0,000000000e+00    0,000000000e+00
     1150000000   -4,189811274e-02    1,484285295e-01    5,250363145e-03   -5,422120690e-01    0,000000000e+00    0,000000000e+00    0,000000000e+00    0,000000000e+00
     1164000000    1,237877831e-01   -6,442065537e-02   -2,752432823e-01   -3,785211444e-01    0,000000000e+00    0,000000000e+00    0,000000000e+00    0,000000000e+00
     1178000000    2,023826353e-02   -3,041100502e-01   -3,678303957e-01   -1,489460468e-01    0,000000000e+00    0,000000000e+00    0,000000000e+00    0,000000000e+00
     1192000000   -2,675714195e-01   -3,672783077e-01   -3,255091310e-01    5,684721842e-02    0,000000000e+00    0,000000000e+00    0,000000000e+00    0,000000000e+00
     1206000000   -5,190889239e-01   -1,607505083e-01   -1,611078233e-01    1,822612286e-01    0,000000000e+00    0,000000000e+00    0,000000000e+00    0,000000000e+00
     1220000000   -5,117375851e-01    1,701802313e-01    2,969444497e-03    1,578455716e-01    0,000000000e+00    0,000000000e+00    0,000000000e+00    0,000000000e+00
     1234000000   -2,877060175e-01    3,594079912e-01    7,254350930e-02    6,161414087e-02    0,000000000e+00    0,000000000e+00    0,000000000e+00    0,000000000e+00
     1248000000   -4,364175349e-02    3,602179885e-01    5,936215445e-02   -9,908307344e-03    0,000000000e+00    0,000000000e+00    0,000000000e+00    0,000000000e+00
     1262000000    1,207090616e-01    2,571910620e-01    1,306764595e-02   -2,125573345e-02    0,000000000e+00    0,000000000e+00    0,000000000e+00    0,000000000e+00
     1276000000    2,140558958e-01    1,021027118e-01    3,585361410e-04    4,375258926e-03    0,000000000e+00    0,000000000e+00    0,000000000e+00    0,000000000e+00
     1290000000    2,229987681e-01   -7,193027437e-02    1,591954380e-02    5,765222758e-02    0,000000000e+00    0,000000000e+00    0,000000000e+00    0,000000000e+00
     1304000000    1,529954225e-01   -2,409641743e-01    1,281120777e-01    6,894581020e-02    0,000000000e+00    0,000000000e+00    0,000000000e+00    0,000000000e+00
     1318000000    3,334887326e-02   -3,372171223e-01    1,332516223e-01   -1,644680947e-01    0,000000000e+00    0,000000000e+00    0,000000000e+00    0,000000000e+00
     1332000000   -1,275922656e-01   -4,387844801e-01   -4,420149326e-02   -4,570760205e-02    0,000000000e+00    0,000000000e+00    0,000000000e+00    0,000000000e+00
     1346000000   -3,912591338e-01   -4,032547176e-01    3,588741645e-02    6,801343709e-02    0,000000000e+00    0,000000000e+00    0,000000000e+00    0,000000000e+00
     1360000000   -6,128915548e-01   -1,948477924e-01    1,395333558e-01    6,628195196e-02    0,000000000e+00    0,000000000e+00    0,000000000e+00    0,000000000e+00
     1374000000   -6,346454620e-01    1,310034990e-01    2,056081444e-01    1,819944009e-02    0,000000000e+00    0,000000000e+00    0,000000000e+00    0,000000000e+00
     1388000000   -4,635441005e-01    3,632204533e-01    2,066334635e-01   -6,816324592e-02    0,000000000e+00    0,000000000e+00    0,000000000e+00    0,000000000e+00
     1402000000   -2,410332859e-01    4,523410797e-01    1,795719713e-01   -9,837615490e-02    0,000000000e+00    0,000000000e+00    0,000000000e+00    0,000000000e+00
     1416000000   -2,206652984e-02    4,082549810e-01    1,737807542e-01   -1,105823368e-01    0,000000000e+00    0,000000000e+00    0,000000000e+00    0,000000000e+00
     1430000000    1,223280355e-01    3,037140369e-01    1,917607635e-01   -1,112486199e-01    0,000000000e+00    0,000000000e+00    0,000000000e+00    0,000000000e+00
     1444000000    2,094141394e-01    1,512615979e-01    1,510913670e-01   -1,013616249e-01    0,000000000e+00    0,000000000e+00    0,000000000e+00    0,000000000e+00
     1458000000    2,351534963e-01   -2,010482922e-02    1,427969486e-01   -6,314363331e-02    0,000000000e+00    0,000000000e+00    0,000000000e+00    0,000000000e+00
     1472000000    1,884529889e-01   -2,003431022e-01    1,361614764e-01   -2,202272601e-02    0,000000000e+00    0,000000000e+00    0,000000000e+00    0,000000000e+00
     1486000000    5,815212056e-02   -3,809629679e-01    1,601170152e-01    2,712420560e-02    0,000000000e+00    0,000000000e+00    0,000000000e+00    0,000000000e+00
     1500000000   -1,759891063e-01   -4,845134020e-01    2,454800010e-01    1,043043658e-01    0,000000000e+00    0,000000000e+00    0,000000000e+00    0,000000000e+00
