! NanoVNA-App
! Date: 2025-09-25 15:30:18
! Start: 100MHz Stop: 1,5GHz Points: 101
! S-Parameter data: F S11 S21 S12 S22
# Hz S RI R 50
!     Frequency           S11_Real           S11_Imag           S21_Real           S21_Imag           S12_Real           S12_Imag           S22_Real           S22_Imag
      100000000   -2,886847407e-02   -4,180695862e-03    3,741052151e-01   -7,218723893e-01    0,000000000e+00    0,000000000e+00    0,000000000e+00    0,000000000e+00
      114000000   -1,653704420e-02    1,150644850e-02   -8,896645159e-02   -8,053508997e-01    0,000000000e+00    0,000000000e+00    0,000000000e+00    0,000000000e+00
      128000000    3,455518279e-03    1,056829095e-02   -5,146399736e-01   -6,206842661e-01    0,000000000e+00    0,000000000e+00    0,000000000e+00    0,000000000e+00
      142000000    1,453399565e-02   -2,933533629e-03   -7,671476603e-01   -2,366049886e-01    0,000000000e+00    0,000000000e+00    0,000000000e+00    0,000000000e+00
      156000000    1,550156064e-02   -1,488885377e-02   -7,712060213e-01    2,218090892e-01    0,000000000e+00    0,000000000e+00    0,000000000e+00    0,000000000e+00
      170000000    1,669335365e-02   -2,252289467e-02   -5,180708766e-01    6,045289040e-01    0,000000000e+00    0,000000000e+00    0,000000000e+00    0,000000000e+00
      184000000    2,103294432e-02   -3,706520051e-02   -1,015058830e-01    7,865139246e-01    0,000000000e+00    0,000000000e+00    0,000000000e+00    0,000000000e+00
      198000000    1,299317181e-02   -6,247690693e-02    3,434595466e-01    7,124837041e-01    0,000000000e+00    0,000000000e+00    0,000000000e+00    0,000000000e+00
      212000000   -1,865905710e-02   -8,130955696e-02    6,780805588e-01    4,097676873e-01    0,000000000e+00    0,000000000e+00    0,000000000e+00    0,000000000e+00
      226000000   -6,172649562e-02   -6,919702888e-02    7,958297133e-01   -3,049501032e-02    0,000000000e+00    0,000000000e+00    0,000000000e+00    0,000000000e+00
      240000000   -8,257799596e-02   -2,566211484e-02    6,459546685e-01   -4,667203128e-01    0,000000000e+00    0,000000000e+00    0,000000000e+00    0,000000000e+00
      254000000   -6,353056431e-02    1,725767367e-02    2,759372294e-01   -7,435471416e-01    0,000000000e+00    0,000000000e+00    0,000000000e+00    0,000000000e+00
      268000000   -2,390497178e-02    2,885832824e-02   -1,782159805e-01   -7,647885084e-01    0,000000000e+00    0,000000000e+00    0,000000000e+00    0,000000000e+00
      282000000    4,102099687e-03    1,192539372e-02   -5,618960857e-01   -5,357312560e-01    0,000000000e+00    0,000000000e+00    0,000000000e+00    0,000000000e+00
      296000000    9,696186520e-03   -7,783125620e-03   -7,596421838e-01   -1,397484094e-01    0,000000000e+00    0,000000000e+00    0,000000000e+00    0,000000000e+00
      310000000    1,087576151e-02   -1,614667475e-02   -7,127550840e-01    2,988288701e-01    0,000000000e+00    0,000000000e+00    0,000000000e+00    0,000000000e+00
      324000000    1,973011345e-02   -2,655575424e-02   -4,273476899e-01    6,377503276e-01    0,000000000e+00    0,000000000e+00    0,000000000e+00    0,000000000e+00
      338000000    2,570451237e-02   -5,199267715e-02   -8,422092535e-03    7,611422539e-01    0,000000000e+00    0,000000000e+00    0,000000000e+00    0,000000000e+00
      352000000    7,464829832e-03   -8,504074812e-02    4,062653780e-01    6,393930316e-01    0,000000000e+00    0,000000000e+00    0,000000000e+00    0,000000000e+00
      366000000   -3,458117321e-02   -9,533040971e-02    6,901080012e-01    3,113082349e-01    0,000000000e+00    0,000000000e+00    0,000000000e+00    0,000000000e+00
      380000000   -7,070866972e-02   -7,113736868e-02    7,477436066e-01   -1,265315413e-01    0,000000000e+00    0,000000000e+00    0,000000000e+00    0,000000000e+00
      394000000   -7,241042703e-02   -3,211900592e-02    5,464864373e-01   -5,222200751e-01    0,000000000e+00    0,000000000e+00    0,000000000e+00    0,000000000e+00
      408000000   -4,655757546e-02   -1,609743014e-02    1,601802409e-01   -7,344201803e-01    0,000000000e+00    0,000000000e+00    0,000000000e+00    0,000000000e+00
      422000000   -2,832408249e-02   -3,206446394e-02   -2,669403851e-01   -6,950392127e-01    0,000000000e+00    0,000000000e+00    0,000000000e+00    0,000000000e+00
      436000000   -4,040809348e-02   -5,184897035e-02   -6,033068895e-01   -4,313952625e-01    0,000000000e+00    0,000000000e+00    0,000000000e+00    0,000000000e+00
      450000000   -6,721904129e-02   -4,378435388e-02   -7,403593063e-01   -2,127100714e-02    0,000000000e+00    0,000000000e+00    0,000000000e+00    0,000000000e+00
      464000000   -7,365098596e-02   -1,178099215e-02   -6,187183261e-01    3,972968459e-01    0,000000000e+00    0,000000000e+00    0,000000000e+00    0,000000000e+00
      478000000   -4,773955420e-02    1,178744994e-02   -2,819591761e-01    6,682481170e-01    0,000000000e+00    0,000000000e+00    0,000000000e+00    0,000000000e+00
      492000000   -1,549932826e-02    5,693803076e-03    1,380696595e-01    7,012965083e-01    0,000000000e+00    0,000000000e+00    0,000000000e+00    0,000000000e+00
      506000000   -2,186628291e-03   -1,585447788e-02    4,987665713e-01    5,029323697e-01    0,000000000e+00    0,000000000e+00    0,000000000e+00    0,000000000e+00
      520000000   -5,195573904e-03   -3,139207885e-02    6,865210533e-01    1,410978884e-01    0,000000000e+00    0,000000000e+00    0,000000000e+00    0,000000000e+00
      534000000   -3,846063511e-03   -3,802905604e-02    6,430924535e-01   -2,621507943e-01    0,000000000e+00    0,000000000e+00    0,000000000e+00    0,000000000e+00
      548000000    5,839937832e-03   -5,390051752e-02    3,808047771e-01   -5,673742294e-01    0,000000000e+00    0,000000000e+00    0,000000000e+00    0,000000000e+00
      562000000    3,600561060e-03   -8,928260207e-02    2,693285700e-03   -6,725536585e-01    0,000000000e+00    0,000000000e+00    0,000000000e+00    0,000000000e+00
      576000000   -3,451639414e-02   -1,245989650e-01   -3,691858053e-01   -5,577194095e-01    0,000000000e+00    0,000000000e+00    0,000000000e+00    0,000000000e+00
      590000000   -9,649781883e-02   -1,230872944e-01   -6,228334308e-01   -2,646267712e-01    0,000000000e+00    0,000000000e+00    0,000000000e+00    0,000000000e+00
      604000000   -1,394850910e-01   -7,194487751e-02   -6,650604606e-01    1,377986372e-01    0,000000000e+00    0,000000000e+00    0,000000000e+00    0,000000000e+00
      618000000   -1,294627637e-01   -8,741309866e-03   -4,646099508e-01    4,949868023e-01    0,000000000e+00    0,000000000e+00    0,000000000e+00    0,000000000e+00
      632000000   -8,430075645e-02    1,706722751e-02   -9,941313416e-02    6,642645597e-01    0,000000000e+00    0,000000000e+00    0,000000000e+00    0,000000000e+00
      646000000   -5,167541653e-02    5,597349955e-04    2,877178192e-01    5,961237550e-01    0,000000000e+00    0,000000000e+00    0,000000000e+00    0,000000000e+00
      660000000   -5,333570018e-02   -2,198355086e-02    5,683511496e-01    3,224952221e-01    0,000000000e+00    0,000000000e+00    0,000000000e+00    0,000000000e+00
      674000000   -7,070004195e-02   -1,714921184e-02    6,433466077e-01   -6,521769613e-02    0,000000000e+00    0,000000000e+00    0,000000000e+00    0,000000000e+00
      688000000   -6,906522065e-02    8,884464391e-03    4,714499414e-01   -4,285913706e-01    0,000000000e+00    0,000000000e+00    0,000000000e+00    0,000000000e+00
      702000000   -3,843810409e-02    2,658966742e-02    1,214198843e-01   -6,155402660e-01    0,000000000e+00    0,000000000e+00    0,000000000e+00    0,000000000e+00
      716000000    2,264247509e-03    1,738117822e-02   -2,650071383e-01   -5,471034050e-01    0,000000000e+00    0,000000000e+00    0,000000000e+00    0,000000000e+00
      730000000    3,632444888e-02   -1,062633656e-02   -5,287435651e-01   -2,688832283e-01    0,000000000e+00    0,000000000e+00    0,000000000e+00    0,000000000e+00
      744000000    6,536816806e-02   -6,201653183e-02   -5,642302036e-01    1,067343727e-01    0,000000000e+00    0,000000000e+00    0,000000000e+00    0,000000000e+00
      758000000    6,602933258e-02   -1,529189944e-01   -3,629448116e-01    4,107944667e-01    0,000000000e+00    0,000000000e+00    0,000000000e+00    0,000000000e+00
      772000000   -1,241006609e-02   -2,624525428e-01   -3,527296707e-02    5,156560540e-01    0,000000000e+00    0,000000000e+00    0,000000000e+00    0,000000000e+00
      786000000   -2,071461678e-01   -3,030416369e-01    2,748641372e-01    3,950541317e-01    0,000000000e+00    0,000000000e+00    0,000000000e+00    0,000000000e+00
      800000000   -4,257714450e-01   -1,295437813e-01    4,170463681e-01    9,838623554e-02    0,000000000e+00    0,000000000e+00    0,000000000e+00    0,000000000e+00
      814000000   -3,903236091e-01    2,220402360e-01    2,816109061e-01   -1,734705418e-01    0,000000000e+00    0,000000000e+00    0,000000000e+00    0,000000000e+00
      828000000   -4,933007434e-02    3,679979146e-01    5,530132726e-02   -1,888075918e-01    0,000000000e+00    0,000000000e+00    0,000000000e+00    0,000000000e+00
      842000000    2,353821546e-01    1,859735250e-01   -1,660335995e-02   -6,992715597e-02    0,000000000e+00    0,000000000e+00    0,000000000e+00    0,000000000e+00
      856000000    2,802115977e-01   -1,244923249e-01    4,516433552e-02   -1,289808005e-02    0,000000000e+00    0,000000000e+00    0,000000000e+00    0,000000000e+00
      870000000    7,454393804e-02   -3,764202595e-01    1,134957224e-01   -9,148315340e-02    0,000000000e+00    0,000000000e+00    0,000000000e+00    0,000000000e+00
      884000000   -2,955660224e-01   -3,634521365e-01    2,864321135e-02   -2,461500168e-01    0,000000000e+00    0,000000000e+00    0,000000000e+00    0,000000000e+00
      898000000   -4,713933468e-01    8,980922401e-03   -2,224456817e-01   -2,279907316e-01    0,000000000e+00    0,000000000e+00    0,000000000e+00    0,000000000e+00
      912000000   -2,257039100e-01    2,944782972e-01   -3,358628750e-01    6,672924757e-02    0,000000000e+00    0,000000000e+00    0,000000000e+00    0,000000000e+00
      926000000    6,580250710e-02    2,624993622e-01   -2,189942151e-01    2,642394602e-01    0,000000000e+00    0,000000000e+00    0,000000000e+00    0,000000000e+00
      940000000    2,151254565e-01    8,143876493e-02   -3,587496653e-02    3,295778930e-01    0,000000000e+00    0,000000000e+00    0,000000000e+00    0,000000000e+00
      954000000    2,204416245e-01   -1,276554167e-01    1,311931759e-01    3,083304167e-01    0,000000000e+00    0,000000000e+00    0,000000000e+00    0,000000000e+00
      968000000    1,154868677e-01   -3,019482791e-01    2,727344036e-01    2,182182372e-01    0,000000000e+00    0,000000000e+00    0,000000000e+00    0,000000000e+00
      982000000   -8,413851261e-02   -3,876183927e-01    3,656685948e-01    6,594032794e-02    0,000000000e+00    0,000000000e+00    0,000000000e+00    0,000000000e+00
      996000000   -3,205521703e-01   -3,305721283e-01    3,677860796e-01   -1,453332156e-01    0,000000000e+00    0,000000000e+00    0,000000000e+00    0,000000000e+00
     1010000000   -4,629927278e-01   -1,149811670e-01    2,216495872e-01   -3,407848179e-01    0,000000000e+00    0,000000000e+00    0,000000000e+00    0,000000000e+00
     1024000000   -4,174192250e-01    1,521971673e-01   -3,270397708e-02   -3,918629587e-01    0,000000000e+00    0,000000000e+00    0,000000000e+00    0,000000000e+00
     1038000000   -2,214777619e-01    2,911446095e-01   -2,461921871e-01   -2,620623708e-01    0,000000000e+00    0,000000000e+00    0,000000000e+00    0,000000000e+00
     1052000000   -6,526088808e-03    2,813969254e-01   -3,180079460e-01   -4,739475250e-02    0,000000000e+00    0,000000000e+00    0,000000000e+00    0,000000000e+00
     1066000000    1,357577890e-01    1,662824303e-01   -2,594050467e-01    1,442371160e-01    0,000000000e+00    0,000000000e+00    0,000000000e+00    0,000000000e+00
     1080000000    1,969098151e-01   -1,453520614e-03   -1,196980625e-01    2,647999823e-01    0,000000000e+00    0,000000000e+00    0,000000000e+00    0,000000000e+00
     1094000000    1,513114274e-01   -1,763610840e-01    6,729151309e-02    3,064119518e-01    0,000000000e+00    0,000000000e+00    0,000000000e+00    0,000000000e+00
     1108000000   -1,033664565e-03   -3,014637828e-01    2,768984139e-01    2,457776070e-01    0,000000000e+00    0,000000000e+00    0,000000000e+00    0,000000000e+00
     1122000000   -2,441910505e-01   -2,661474049e-01    4,703009129e-01    1,041865069e-02    0,000000000e+00    0,000000000e+00    0,000000000e+00    0,000000000e+00
     1136000000   -3,208363056e-01    3,154969215e-02    4,005861282e-01   -3,926705420e-01    0,000000000e+00    0,000000000e+00    0,000000000e+00    0,000000000e+00
     1150000000   -4,247977957e-02    1,491825134e-01    2,982132370e-03   -5,384695530e-01    0,000000000e+00    0,000000000e+00    0,000000000e+00    0,000000000e+00
     1164000000    1,214587241e-01   -6,156440824e-02   -2,783340514e-01   -3,789031804e-01    0,000000000e+00    0,000000000e+00    0,000000000e+00    0,000000000e+00
     1178000000    1,835911907e-02   -3,029886186e-01   -3,699176013e-01   -1,512178779e-01    0,000000000e+00    0,000000000e+00    0,000000000e+00    0,000000000e+00
     1192000000   -2,662387490e-01   -3,740883470e-01   -3,216228783e-01    5,872673914e-02    0,000000000e+00    0,000000000e+00    0,000000000e+00    0,000000000e+00
     1206000000   -5,185509920e-01   -1,616537124e-01   -1,616601944e-01    1,777146906e-01    0,000000000e+00    0,000000000e+00    0,000000000e+00    0,000000000e+00
     1220000000   -5,046569705e-01    1,737617254e-01    2,974888310e-03    1,589066833e-01    0,000000000e+00    0,000000000e+00    0,000000000e+00    0,000000000e+00
     1234000000   -2,847842276e-01    3,689788282e-01    6,776753068e-02    6,673475355e-02    0,000000000e+00    0,000000000e+00    0,000000000e+00    0,000000000e+00
     1248000000   -4,283447564e-02    3,634357154e-01    5,745592341e-02   -7,152091246e-03    0,000000000e+00    0,000000000e+00    0,000000000e+00    0,000000000e+00
     1262000000    1,256162226e-01    2,579657435e-01    1,736800559e-02   -1,984122582e-02    0,000000000e+00    0,000000000e+00    0,000000000e+00    0,000000000e+00
     1276000000    2,145072222e-01    9,625659138e-02   -1,109550823e-03    4,587244708e-03    0,000000000e+00    0,000000000e+00    0,000000000e+00    0,000000000e+00
     1290000000    2,249225676e-01   -7,717380673e-02    2,222957648e-02    5,284714326e-02    0,000000000e+00    0,000000000e+00    0,000000000e+00    0,000000000e+00
     1304000000    1,546119153e-01   -2,419248521e-01    1,328035891e-01    7,447113842e-02    0,000000000e+00    0,000000000e+00    0,000000000e+00    0,000000000e+00
     1318000000    3,562430665e-02   -3,316932917e-01    1,316165477e-01   -1,608597189e-01    0,000000000e+00    0,000000000e+00    0,000000000e+00    0,000000000e+00
     1332000000   -1,285753846e-01   -4,388025999e-01   -4,156157002e-02   -4,347457364e-02    0,000000000e+00    0,000000000e+00    0,000000000e+00    0,000000000e+00
     1346000000   -3,923242986e-01   -4,059587717e-01    3,421191499e-02    6,738492101e-02    0,000000000e+00    0,000000000e+00    0,000000000e+00    0,000000000e+00
     1360000000   -6,131148934e-01   -1,876992583e-01    1,349555999e-01    6,111310795e-02    0,000000000e+00    0,000000000e+00    0,000000000e+00    0,000000000e+00
     1374000000   -6,367709637e-01    1,333170682e-01    1,999134868e-01    2,098655514e-02    0,000000000e+00    0,000000000e+00    0,000000000e+00    0,000000000e+00
     1388000000   -4,647947848e-01    3,650307655e-01    2,182925344e-01   -6,023446470e-02    0,000000000e+00    0,000000000e+00    0,000000000e+00    0,000000000e+00
     1402000000   -2,327823043e-01    4,604905248e-01    1,922440529e-01   -8,638836443e-02    0,000000000e+00    0,000000000e+00    0,000000000e+00    0,000000000e+00
     1416000000   -2,504931018e-02    4,104432166e-01    1,742365956e-01   -1,070134714e-01    0,000000000e+00    0,000000000e+00    0,000000000e+00    0,000000000e+00
     1430000000    1,256226152e-01    3,025405705e-01    1,907818764e-01   -1,246833429e-01    0,000000000e+00    0,000000000e+00    0,000000000e+00    0,000000000e+00
     1444000000    2,090583742e-01    1,477606148e-01    1,626176834e-01   -1,046733558e-01    0,000000000e+00    0,000000000e+00    0,000000000e+00    0,000000000e+00
     1458000000    2,329074144e-01   -1,996484958e-02    1,494332999e-01   -8,000672609e-02    0,000000000e+00    0,000000000e+00    0,000000000e+00    0,000000000e+00
     1472000000    1,936923265e-01   -1,958968341e-01    1,479590982e-01   -2,844794095e-02    0,000000000e+00    0,000000000e+00    0,000000000e+00    0,000000000e+00
     1486000000    6,331527978e-02   -3,682143986e-01    1,759639978e-01    4,116975516e-02    0,000000000e+00    0,000000000e+00    0,000000000e+00    0,000000000e+00
     1500000000   -1,782232225e-01   -4,948211014e-01    2,361790836e-01    1,018865407e-01    0,000000000e+00    0,000000000e+00    0,000000000e+00    0,000000000e+00
