! NanoVNA-App
! Date: 2025-09-25 15:32:40
! Start: 100MHz Stop: 1,5GHz Points: 101
! S-Parameter data: F S11 S21 S12 S22
# Hz S RI R 50
!     Frequency           S11_Real           S11_Imag           S21_Real           S21_Imag           S12_Real           S12_Imag           S22_Real           S22_Imag
      100000000   -2,887263149e-02   -4,177337047e-03    3,741352260e-01   -7,218351364e-01    0,000000000e+00    0,000000000e+00    0,000000000e+00    0,000000000e+00
      114000000   -1,654365100e-02    1,151566207e-02   -8,909991384e-02   -8,054853082e-01    0,000000000e+00    0,000000000e+00    0,000000000e+00    0,000000000e+00
      128000000    3,494704142e-03    1,057774667e-02   -5,146295428e-01   -6,204067469e-01    0,000000000e+00    0,000000000e+00    0,000000000e+00    0,000000000e+00
      142000000    1,454688702e-02   -2,948047128e-03   -7,670848370e-01   -2,367088944e-01    0,000000000e+00    0,000000000e+00    0,000000000e+00    0,000000000e+00
      156000000    1,444662642e-02   -1,493992284e-02   -7,647954226e-01    2,181420624e-01    0,000000000e+00    0,000000000e+00    0,000000000e+00    0,000000000e+00
      170000000    1,669703610e-02   -2,256945893e-02   -5,181749463e-01    6,050786972e-01    0,000000000e+00    0,000000000e+00    0,000000000e+00    0,000000000e+00
      184000000    2,096372843e-02   -3,705916554e-02   -1,014559567e-01    7,861204147e-01    0,000000000e+00    0,000000000e+00    0,000000000e+00    0,000000000e+00
      198000000    1,304362714e-02   -6,249654293e-02    3,432045877e-01    7,124422789e-01    0,000000000e+00    0,000000000e+00    0,000000000e+00    0,000000000e+00
      212000000   -1,871257275e-02   -8,125606924e-02    6,779401302e-01    4,099311233e-01    0,000000000e+00    0,000000000e+00    0,000000000e+00    0,000000000e+00
      226000000   -6,172267348e-02   -6,920996308e-02    7,958828807e-01   -3,058573045e-02    0,000000000e+00    0,000000000e+00    0,000000000e+00    0,000000000e+00
      240000000   -8,262518793e-02   -2,564294823e-02    6,460186839e-01   -4,671654701e-01    0,000000000e+00    0,000000000e+00    0,000000000e+00    0,000000000e+00
      254000000   -6,353919953e-02    1,722727157e-02    2,762008607e-01   -7,432959080e-01    0,000000000e+00    0,000000000e+00    0,000000000e+00    0,000000000e+00
      268000000   -2,386558987e-02    2,888443694e-02   -1,782172918e-01   -7,645487785e-01    0,000000000e+00    0,000000000e+00    0,000000000e+00    0,000000000e+00
      282000000    4,195370711e-03    1,191854943e-02   -5,621490479e-01   -5,358928442e-01    0,000000000e+00    0,000000000e+00    0,000000000e+00    0,000000000e+00
      296000000    9,789728560e-03   -7,778235711e-03   -7,598996758e-01   -1,394837201e-01    0,000000000e+00    0,000000000e+00    0,000000000e+00    0,000000000e+00
      310000000    1,114555169e-02   -1,623105071e-02   -7,116452456e-01    2,974220216e-01    0,000000000e+00    0,000000000e+00    0,000000000e+00    0,000000000e+00
      324000000    1,955436543e-02   -2,656390890e-02   -4,283530414e-01    6,388582587e-01    0,000000000e+00    0,000000000e+00    0,000000000e+00    0,000000000e+00
      338000000    2,535085566e-02   -5,192855373e-02   -8,264837787e-03    7,598494887e-01    0,000000000e+00    0,000000000e+00    0,000000000e+00    0,000000000e+00
      352000000    7,386554964e-03   -8,463326842e-02    4,069082737e-01    6,394299269e-01    0,000000000e+00    0,000000000e+00    0,000000000e+00    0,000000000e+00
      366000000   -3,472407535e-02   -9,547893703e-02    6,909894347e-01    3,109830320e-01    0,000000000e+00    0,000000000e+00    0,000000000e+00    0,000000000e+00
      380000000   -7,069223374e-02   -7,124795020e-02    7,475652695e-01   -1,263230592e-01    0,000000000e+00    0,000000000e+00    0,000000000e+00    0,000000000e+00
      394000000   -7,275944203e-02   -3,265047818e-02    5,459666848e-01   -5,221548676e-01    0,000000000e+00    0,000000000e+00    0,000000000e+00    0,000000000e+00
      408000000   -4,625561461e-02   -1,601951011e-02    1,595606357e-01   -7,326878905e-01    0,000000000e+00    0,000000000e+00    0,000000000e+00    0,000000000e+00
      422000000   -2,832448855e-02   -3,205403313e-02   -2,667395473e-01   -6,948025823e-01    0,000000000e+00    0,000000000e+00    0,000000000e+00    0,000000000e+00
      436000000   -4,054304212e-02   -5,192006752e-02   -6,042391062e-01   -4,321497977e-01    0,000000000e+00    0,000000000e+00    0,000000000e+00    0,000000000e+00
      450000000   -6,755839288e-02   -4,384929314e-02   -7,405643463e-01   -2,134397998e-02    0,000000000e+00    0,000000000e+00    0,000000000e+00    0,000000000e+00
      464000000   -7,311911881e-02   -1,161057316e-02   -6,189620495e-01    3,974858522e-01    0,000000000e+00    0,000000000e+00    0,000000000e+00    0,000000000e+00
      478000000   -4,786099866e-02    1,145840529e-02   -2,822954655e-01    6,675735712e-01    0,000000000e+00    0,000000000e+00    0,000000000e+00    0,000000000e+00
      492000000   -1,571539044e-02    5,928051658e-03    1,377668977e-01    7,003247142e-01    0,000000000e+00    0,000000000e+00    0,000000000e+00    0,000000000e+00
      506000000   -2,581378678e-03   -1,565351151e-02    4,982989430e-01    5,025182962e-01    0,000000000e+00    0,000000000e+00    0,000000000e+00    0,000000000e+00
      520000000   -4,603655543e-03   -3,158892319e-02    6,895734668e-01    1,421770155e-01    0,000000000e+00    0,000000000e+00    0,000000000e+00    0,000000000e+00
      534000000   -4,214341752e-03   -3,832107037e-02    6,433154345e-01   -2,630193532e-01    0,000000000e+00    0,000000000e+00    0,000000000e+00    0,000000000e+00
      548000000    5,913157482e-03   -5,415550619e-02    3,812190890e-01   -5,677546859e-01    0,000000000e+00    0,000000000e+00    0,000000000e+00    0,000000000e+00
      562000000    2,895921236e-03   -8,931607008e-02    1,943176612e-03   -6,720710397e-01    0,000000000e+00    0,000000000e+00    0,000000000e+00    0,000000000e+00
      576000000   -3,345315531e-02   -1,240679845e-01   -3,689707518e-01   -5,574752688e-01    0,000000000e+00    0,000000000e+00    0,000000000e+00    0,000000000e+00
      590000000   -9,626369923e-02   -1,227056161e-01   -6,227242351e-01   -2,630859613e-01    0,000000000e+00    0,000000000e+00    0,000000000e+00    0,000000000e+00
      604000000   -1,398585588e-01   -7,191089541e-02   -6,655201316e-01    1,377151608e-01    0,000000000e+00    0,000000000e+00    0,000000000e+00    0,000000000e+00
      618000000   -1,294398010e-01   -9,267175570e-03   -4,648484588e-01    4,951396883e-01    0,000000000e+00    0,000000000e+00    0,000000000e+00    0,000000000e+00
      632000000   -8,455225080e-02    1,694112830e-02   -9,905015677e-02    6,641879082e-01    0,000000000e+00    0,000000000e+00    0,000000000e+00    0,000000000e+00
      646000000   -5,077873170e-02    6,984457723e-04    2,873490155e-01    5,953696966e-01    0,000000000e+00    0,000000000e+00    0,000000000e+00    0,000000000e+00
      660000000   -5,340081081e-02   -2,183805592e-02    5,682576895e-01    3,227394521e-01    0,000000000e+00    0,000000000e+00    0,000000000e+00    0,000000000e+00
      674000000   -6,965260953e-02   -1,790657267e-02    6,431050301e-01   -6,549265236e-02    0,000000000e+00    0,000000000e+00    0,000000000e+00    0,000000000e+00
      688000000   -6,904628128e-02    8,484018035e-03    4,710621238e-01   -4,276774228e-01    0,000000000e+00    0,000000000e+00    0,000000000e+00    0,000000000e+00
      702000000   -3,743626922e-02    2,684348635e-02    1,200171337e-01   -6,075224876e-01    0,000000000e+00    0,000000000e+00    0,000000000e+00    0,000000000e+00
      716000000    2,428774023e-03    1,864561439e-02   -2,653700411e-01   -5,464076400e-01    0,000000000e+00    0,000000000e+00    0,000000000e+00    0,000000000e+00
      730000000    3,720898554e-02   -1,161607262e-02   -5,286537409e-01   -2,695381343e-01    0,000000000e+00    0,000000000e+00    0,000000000e+00    0,000000000e+00
      744000000    6,563688815e-02   -6,246732175e-02   -5,648621917e-01    1,064236611e-01    0,000000000e+00    0,000000000e+00    0,000000000e+00    0,000000000e+00
      758000000    6,603422761e-02   -1,521416008e-01   -3,633232713e-01    4,109946489e-01    0,000000000e+00    0,000000000e+00    0,000000000e+00    0,000000000e+00
      772000000   -1,252254099e-02   -2,631823421e-01   -3,486357257e-02    5,151730180e-01    0,000000000e+00    0,000000000e+00    0,000000000e+00    0,000000000e+00
      786000000   -2,070225328e-01   -3,022976220e-01    2,742795944e-01    3,952181935e-01    0,000000000e+00    0,000000000e+00    0,000000000e+00    0,000000000e+00
      800000000   -4,267498553e-01   -1,303562224e-01    4,179808795e-01    9,913786501e-02    0,000000000e+00    0,000000000e+00    0,000000000e+00    0,000000000e+00
      814000000   -3,901721239e-01    2,208033055e-01    2,820411325e-01   -1,727256477e-01    0,000000000e+00    0,000000000e+00    0,000000000e+00    0,000000000e+00
      828000000   -4,917024076e-02    3,676627278e-01    5,500529334e-02   -1,892236024e-01    0,000000000e+00    0,000000000e+00    0,000000000e+00    0,000000000e+00
      842000000    2,349197567e-01    1,859523803e-01   -1,715336740e-02   -7,042328268e-02    0,000000000e+00    0,000000000e+00    0,000000000e+00    0,000000000e+00
      856000000    2,803852260e-01   -1,246411279e-01    4,508337379e-02   -1,313076261e-02    0,000000000e+00    0,000000000e+00    0,000000000e+00    0,000000000e+00
      870000000    7,493802905e-02   -3,769606352e-01    1,134901792e-01   -9,154590964e-02    0,000000000e+00    0,000000000e+00    0,000000000e+00    0,000000000e+00
      884000000   -2,966074347e-01   -3,619714379e-01    2,820204198e-02   -2,453473061e-01    0,000000000e+00    0,000000000e+00    0,000000000e+00    0,000000000e+00
      898000000   -4,730302393e-01    8,481675759e-03   -2,216918916e-01   -2,281489074e-01    0,000000000e+00    0,000000000e+00    0,000000000e+00    0,000000000e+00
      912000000   -2,257541418e-01    2,945641875e-01   -3,548212945e-01    6,652748585e-02    0,000000000e+00    0,000000000e+00    0,000000000e+00    0,000000000e+00
      926000000    6,593533605e-02    2,636472285e-01   -2,177431136e-01    2,638837397e-01    0,000000000e+00    0,000000000e+00    0,000000000e+00    0,000000000e+00
      940000000    2,161919773e-01    7,877252251e-02   -3,656762093e-02    3,288587332e-01    0,000000000e+00    0,000000000e+00    0,000000000e+00    0,000000000e+00
      954000000    2,262872756e-01   -1,290195882e-01    1,310151219e-01    3,063937128e-01    0,000000000e+00    0,000000000e+00    0,000000000e+00    0,000000000e+00
      968000000    1,177006960e-01   -2,993901372e-01    2,709471583e-01    2,193827927e-01    0,000000000e+00    0,000000000e+00    0,000000000e+00    0,000000000e+00
      982000000   -8,453668654e-02   -3,858173490e-01    3,655734956e-01    6,646846980e-02    0,000000000e+00    0,000000000e+00    0,000000000e+00    0,000000000e+00
      996000000   -3,197236955e-01   -3,288666904e-01    3,686684072e-01   -1,442540735e-01    0,000000000e+00    0,000000000e+00    0,000000000e+00    0,000000000e+00
     1010000000   -4,629253745e-01   -1,145970598e-01    2,234333307e-01   -3,401565850e-01    0,000000000e+00    0,000000000e+00    0,000000000e+00    0,000000000e+00
     1024000000   -4,128313363e-01    1,464915127e-01   -3,384007886e-02   -3,915920556e-01    0,000000000e+00    0,000000000e+00    0,000000000e+00    0,000000000e+00
     1038000000   -2,151687443e-01    2,902833521e-01   -2,469269633e-01   -2,615167201e-01    0,000000000e+00    0,000000000e+00    0,000000000e+00    0,000000000e+00
     1052000000   -1,111737546e-02    2,767863572e-01   -3,151909709e-01   -4,418879002e-02    0,000000000e+00    0,000000000e+00    0,000000000e+00    0,000000000e+00
     1066000000    1,364139915e-01    1,621177942e-01   -2,592500448e-01    1,431939900e-01    0,000000000e+00    0,000000000e+00    0,000000000e+00    0,000000000e+00
     1080000000    1,943486482e-01   -2,587219235e-03   -1,178269610e-01    2,635324597e-01    0,000000000e+00    0,000000000e+00    0,000000000e+00    0,000000000e+00
     1094000000    1,570467800e-01   -1,742092967e-01    6,448382884e-02    3,044370413e-01    0,000000000e+00    0,000000000e+00    0,000000000e+00    0,000000000e+00
     1108000000   -3,188096744e-04   -3,085335791e-01    2,765918970e-01    2,447940856e-01    0,000000000e+00    0,000000000e+00    0,000000000e+00    0,000000000e+00
     1122000000   -2,450508177e-01   -2,645698190e-01    4,727922976e-01    1,413485780e-02    0,000000000e+00    0,000000000e+00    0,000000000e+00    0,000000000e+00
     1136000000   -3,148075342e-01    3,588350117e-02    3,982451856e-01   -3,933926821e-01    0,000000000e+00    0,000000000e+00    0,000000000e+00    0,000000000e+00
     1150000000   -3,897723928e-02    1,478137821e-01    4,138434771e-03   -5,403684974e-01    0,000000000e+00    0,000000000e+00    0,000000000e+00    0,000000000e+00
     1164000000    1,203960031e-01   -6,247957423e-02   -2,798145413e-01   -3,785141110e-01    0,000000000e+00    0,000000000e+00    0,000000000e+00    0,000000000e+00
     1178000000    1,677162759e-02   -3,029992878e-01   -3,664187789e-01   -1,505132616e-01    0,000000000e+00    0,000000000e+00    0,000000000e+00    0,000000000e+00
     1192000000   -2,675456703e-01   -3,668059111e-01   -3,205611110e-01    6,141006574e-02    0,000000000e+00    0,000000000e+00    0,000000000e+00    0,000000000e+00
     1206000000   -5,231846571e-01   -1,575778425e-01   -1,680717170e-01    1,803346723e-01    0,000000000e+00    0,000000000e+00    0,000000000e+00    0,000000000e+00
     1220000000   -5,145891905e-01    1,725773811e-01   -2,905101050e-03    1,523528397e-01    0,000000000e+00    0,000000000e+00    0,000000000e+00    0,000000000e+00
     1234000000   -2,865973413e-01    3,699577451e-01    7,028996199e-02    6,000711024e-02    0,000000000e+00    0,000000000e+00    0,000000000e+00    0,000000000e+00
     1248000000   -4,010474682e-02    3,625837266e-01    6,119246036e-02   -1,015345100e-02    0,000000000e+00    0,000000000e+00    0,000000000e+00    0,000000000e+00
     1262000000    1,230123937e-01    2,544148564e-01    1,617561840e-02   -2,440971695e-02    0,000000000e+00    0,000000000e+00    0,000000000e+00    0,000000000e+00
     1276000000    2,100110650e-01    9,779474139e-02   -1,123734051e-03    7,859416655e-04    0,000000000e+00    0,000000000e+00    0,000000000e+00    0,000000000e+00
     1290000000    2,213286757e-01   -7,228024304e-02    1,788973249e-02    4,940325767e-02    0,000000000e+00    0,000000000e+00    0,000000000e+00    0,000000000e+00
     1304000000    1,569420546e-01   -2,418053448e-01    1,280944347e-01    6,951594353e-02    0,000000000e+00    0,000000000e+00    0,000000000e+00    0,000000000e+00
     1318000000    3,155761585e-02   -3,367695510e-01    1,306754947e-01   -1,668037623e-01    0,000000000e+00    0,000000000e+00    0,000000000e+00    0,000000000e+00
     1332000000   -1,268284023e-01   -4,367002547e-01   -4,519206285e-02   -4,872207344e-02    0,000000000e+00    0,000000000e+00    0,000000000e+00    0,000000000e+00
     1346000000   -3,923237622e-01   -4,075050354e-01    1,533866115e-02    6,952928007e-02    0,000000000e+00    0,000000000e+00    0,000000000e+00    0,000000000e+00
     1360000000   -6,107895374e-01   -1,936068237e-01    1,332317293e-01    7,032840699e-02    0,000000000e+00    0,000000000e+00    0,000000000e+00    0,000000000e+00
     1374000000   -6,360416412e-01    1,350241303e-01    1,996471733e-01    1,015928295e-02    0,000000000e+00    0,000000000e+00    0,000000000e+00    0,000000000e+00
     1388000000   -4,587906599e-01    3,686461747e-01    2,172465175e-01   -6,322894990e-02    0,000000000e+00    0,000000000e+00    0,000000000e+00    0,000000000e+00
     1402000000   -2,317454964e-01    4,558286369e-01    1,943283826e-01   -9,154008329e-02    0,000000000e+00    0,000000000e+00    0,000000000e+00    0,000000000e+00
     1416000000   -2,513033152e-02    4,128934443e-01    1,668021083e-01   -1,038154066e-01    0,000000000e+00    0,000000000e+00    0,000000000e+00    0,000000000e+00
     1430000000    1,146902665e-01    3,012596071e-01    1,597436965e-01   -9,021344781e-02    0,000000000e+00    0,000000000e+00    0,000000000e+00    0,000000000e+00
     1444000000    2,112021148e-01    1,508870274e-01    1,569577754e-01   -1,023020223e-01    0,000000000e+00    0,000000000e+00    0,000000000e+00    0,000000000e+00
     1458000000    2,293769270e-01   -1,556241326e-02    1,339039057e-01   -7,139182836e-02    0,000000000e+00    0,000000000e+00    0,000000000e+00    0,000000000e+00
     1472000000    1,948051453e-01   -2,021485567e-01    1,373288631e-01   -3,369073197e-02    0,000000000e+00    0,000000000e+00    0,000000000e+00    0,000000000e+00
     1486000000    5,903235823e-02   -3,785103559e-01    1,654780209e-01    2,979077585e-02    0,000000000e+00    0,000000000e+00    0,000000000e+00    0,000000000e+00
     1500000000   -1,658638120e-01   -4,989340603e-01    2,534692883e-01    9,784650058e-02    0,000000000e+00    0,000000000e+00    0,000000000e+00    0,000000000e+00
