! NanoVNA-App
! Date: 2025-09-25 15:34:54
! Start: 100MHz Stop: 1,5GHz Points: 101
! S-Parameter data: F S11 S21 S12 S22
# Hz S RI R 50
!     Frequency           S11_Real           S11_Imag           S21_Real           S21_Imag           S12_Real           S12_Imag           S22_Real           S22_Imag
      100000000   -2,884031460e-02   -4,168837331e-03    3,740939796e-01   -7,217156291e-01    0,000000000e+00    0,000000000e+00    0,000000000e+00    0,000000000e+00
      114000000   -1,646408252e-02    1,151575521e-02   -8,907503635e-02   -8,056089282e-01    0,000000000e+00    0,000000000e+00    0,000000000e+00    0,000000000e+00
      128000000    3,486821428e-03    1,055249199e-02   -5,145943165e-01   -6,205686927e-01    0,000000000e+00    0,000000000e+00    0,000000000e+00    0,000000000e+00
      142000000    1,456931420e-02   -2,971478505e-03   -7,672744393e-01   -2,366539836e-01    0,000000000e+00    0,000000000e+00    0,000000000e+00    0,000000000e+00
      156000000    1,610988379e-02   -1,439169981e-02   -7,722978592e-01    2,246824354e-01    0,000000000e+00    0,000000000e+00    0,000000000e+00    0,000000000e+00
      170000000    1,668877713e-02   -2,258487232e-02   -5,180474520e-01    6,047617197e-01    0,000000000e+00    0,000000000e+00    0,000000000e+00    0,000000000e+00
      184000000    2,102840133e-02   -3,712460399e-02   -1,016446203e-01    7,861853838e-01    0,000000000e+00    0,000000000e+00    0,000000000e+00    0,000000000e+00
      198000000    1,305921748e-02   -6,244622171e-02    3,431371152e-01    7,122935653e-01    0,000000000e+00    0,000000000e+00    0,000000000e+00    0,000000000e+00
      212000000   -1,864470728e-02   -8,132573962e-02    6,781772971e-01    4,099918902e-01    0,000000000e+00    0,000000000e+00    0,000000000e+00    0,000000000e+00
      226000000   -6,163276359e-02   -6,924986839e-02    7,957186103e-01   -3,053773381e-02    0,000000000e+00    0,000000000e+00    0,000000000e+00    0,000000000e+00
      240000000   -8,262413740e-02   -2,562443353e-02    6,462346911e-01   -4,673271477e-01    0,000000000e+00    0,000000000e+00    0,000000000e+00    0,000000000e+00
      254000000   -6,346087158e-02    1,726046018e-02    2,759809494e-01   -7,433632612e-01    0,000000000e+00    0,000000000e+00    0,000000000e+00    0,000000000e+00
      268000000   -2,391599678e-02    2,889296412e-02   -1,783120781e-01   -7,644099593e-01    0,000000000e+00    0,000000000e+00    0,000000000e+00    0,000000000e+00
      282000000    4,251194652e-03    1,201571058e-02   -5,619389415e-01   -5,354320407e-01    0,000000000e+00    0,000000000e+00    0,000000000e+00    0,000000000e+00
      296000000    9,664888494e-03   -7,804502733e-03   -7,599980831e-01   -1,396093220e-01    0,000000000e+00    0,000000000e+00    0,000000000e+00    0,000000000e+00
      310000000    1,108143851e-02   -1,634469442e-02   -7,128058076e-01    2,976418734e-01    0,000000000e+00    0,000000000e+00    0,000000000e+00    0,000000000e+00
      324000000    1,960508339e-02   -2,642061561e-02   -4,266120195e-01    6,382539868e-01    0,000000000e+00    0,000000000e+00    0,000000000e+00    0,000000000e+00
      338000000    2,559912391e-02   -5,215832219e-02   -9,082461707e-03    7,602679133e-01    0,000000000e+00    0,000000000e+00    0,000000000e+00    0,000000000e+00
      352000000    7,534062956e-03   -8,486982435e-02    4,060302079e-01    6,389546394e-01    0,000000000e+00    0,000000000e+00    0,000000000e+00    0,000000000e+00
      366000000   -3,483824059e-02   -9,523123503e-02    6,903418303e-01    3,117795885e-01    0,000000000e+00    0,000000000e+00    0,000000000e+00    0,000000000e+00
      380000000   -7,069740444e-02   -7,107845694e-02    7,479431033e-01   -1,259363890e-01    0,000000000e+00    0,000000000e+00    0,000000000e+00    0,000000000e+00
      394000000   -7,270395011e-02   -3,243751079e-02    5,458377600e-01   -5,213542581e-01    0,000000000e+00    0,000000000e+00    0,000000000e+00    0,000000000e+00
      408000000   -4,637013003e-02   -1,612166502e-02    1,606730968e-01   -7,332706451e-01    0,000000000e+00    0,000000000e+00    0,000000000e+00    0,000000000e+00
      422000000   -2,808918990e-02   -3,213332593e-02   -2,671285272e-01   -6,949588060e-01    0,000000000e+00    0,000000000e+00    0,000000000e+00    0,000000000e+00
      436000000   -4,044262692e-02   -5,193643272e-02   -6,036266088e-01   -4,319488406e-01    0,000000000e+00    0,000000000e+00    0,000000000e+00    0,000000000e+00
      450000000   -6,744740903e-02   -4,369267449e-02   -7,403008938e-01   -2,103910036e-02    0,000000000e+00    0,000000000e+00    0,000000000e+00    0,000000000e+00
      464000000   -7,363283634e-02   -1,161997858e-02   -6,187496781e-01    3,979588449e-01    0,000000000e+00    0,000000000e+00    0,000000000e+00    0,000000000e+00
      478000000   -4,742348939e-02    1,185524277e-02   -2,821027935e-01    6,680249572e-01    0,000000000e+00    0,000000000e+00    0,000000000e+00    0,000000000e+00
      492000000   -1,565617137e-02    6,106787827e-03    1,376040876e-01    7,016071677e-01    0,000000000e+00    0,000000000e+00    0,000000000e+00    0,000000000e+00
      506000000   -2,772263484e-03   -1,540092658e-02    4,986165166e-01    5,034589767e-01    0,000000000e+00    0,000000000e+00    0,000000000e+00    0,000000000e+00
      520000000   -5,118725821e-03   -3,156766295e-02    6,888450384e-01    1,414646357e-01    0,000000000e+00    0,000000000e+00    0,000000000e+00    0,000000000e+00
      534000000   -3,822183236e-03   -3,817871585e-02    6,431167722e-01   -2,628862858e-01    0,000000000e+00    0,000000000e+00    0,000000000e+00    0,000000000e+00
      548000000    6,206094753e-03   -5,377948657e-02    3,816114664e-01   -5,669951439e-01    0,000000000e+00    0,000000000e+00    0,000000000e+00    0,000000000e+00
      562000000    2,943168161e-03   -8,963567764e-02    2,863604110e-03   -6,725454926e-01    0,000000000e+00    0,000000000e+00    0,000000000e+00    0,000000000e+00
      576000000   -3,410981596e-02   -1,248933524e-01   -3,690968454e-01   -5,573920608e-01    0,000000000e+00    0,000000000e+00    0,000000000e+00    0,000000000e+00
      590000000   -9,660281986e-02   -1,227759644e-01   -6,201351285e-01   -2,629572153e-01    0,000000000e+00    0,000000000e+00    0,000000000e+00    0,000000000e+00
      604000000   -1,392804384e-01   -7,186454535e-02   -6,651685834e-01    1,376554817e-01    0,000000000e+00    0,000000000e+00    0,000000000e+00    0,000000000e+00
      618000000   -1,298698634e-01   -8,860111237e-03   -4,643741250e-01    4,948204756e-01    0,000000000e+00    0,000000000e+00    0,000000000e+00    0,000000000e+00
      632000000   -8,349285275e-02    1,701670513e-02   -9,903223813e-02    6,633659601e-01    0,000000000e+00    0,000000000e+00    0,000000000e+00    0,000000000e+00
      646000000   -5,123355612e-02    1,872570283e-05    2,879032195e-01    5,952358246e-01    0,000000000e+00    0,000000000e+00    0,000000000e+00    0,000000000e+00
      660000000   -5,291906744e-02   -2,223271132e-02    5,677623749e-01    3,234184682e-01    0,000000000e+00    0,000000000e+00    0,000000000e+00    0,000000000e+00
      674000000   -7,073423266e-02   -1,724421978e-02    6,431460381e-01   -6,556050479e-02    0,000000000e+00    0,000000000e+00    0,000000000e+00    0,000000000e+00
      688000000   -6,793984771e-02    9,150229394e-03    4,712149799e-01   -4,279796779e-01    0,000000000e+00    0,000000000e+00    0,000000000e+00    0,000000000e+00
      702000000   -3,812554851e-02    2,560784668e-02    1,245485470e-01   -6,068179607e-01    0,000000000e+00    0,000000000e+00    0,000000000e+00    0,000000000e+00
      716000000    2,435984556e-03    1,732389443e-02   -2,648470402e-01   -5,471116900e-01    0,000000000e+00    0,000000000e+00    0,000000000e+00    0,000000000e+00
      730000000    3,630498797e-02   -1,124119759e-02   -5,284621716e-01   -2,689489424e-01    0,000000000e+00    0,000000000e+00    0,000000000e+00    0,000000000e+00
      744000000    6,487828493e-02   -6,286101043e-02   -5,639625192e-01    1,065831855e-01    0,000000000e+00    0,000000000e+00    0,000000000e+00    0,000000000e+00
      758000000    6,672544032e-02   -1,527801305e-01   -3,631510139e-01    4,108462632e-01    0,000000000e+00    0,000000000e+00    0,000000000e+00    0,000000000e+00
      772000000   -1,335199736e-02   -2,619496584e-01   -3,429106995e-02    5,144698024e-01    0,000000000e+00    0,000000000e+00    0,000000000e+00    0,000000000e+00
      786000000   -2,067959905e-01   -3,028209805e-01    2,744131386e-01    3,953359425e-01    0,000000000e+00    0,000000000e+00    0,000000000e+00    0,000000000e+00
      800000000   -4,248734713e-01   -1,297114491e-01    4,167590141e-01    9,909605235e-02    0,000000000e+00    0,000000000e+00    0,000000000e+00    0,000000000e+00
      814000000   -3,893067241e-01    2,219100147e-01    2,823424637e-01   -1,733153611e-01    0,000000000e+00    0,000000000e+00    0,000000000e+00    0,000000000e+00
      828000000   -4,983397201e-02    3,686533868e-01    5,544776469e-02   -1,893597692e-01    0,000000000e+00    0,000000000e+00    0,000000000e+00    0,000000000e+00
      842000000    2,346519083e-01    1,863645464e-01   -1,791319996e-02   -7,111696154e-02    0,000000000e+00    0,000000000e+00    0,000000000e+00    0,000000000e+00
      856000000    2,803928256e-01   -1,241803765e-01    4,519145563e-02   -1,262220833e-02    0,000000000e+00    0,000000000e+00    0,000000000e+00    0,000000000e+00
      870000000    7,511551678e-02   -3,770298660e-01    1,134524494e-01   -9,136169404e-02    0,000000000e+00    0,000000000e+00    0,000000000e+00    0,000000000e+00
      884000000   -2,959401011e-01   -3,617959023e-01    2,805760317e-02   -2,451709360e-01    0,000000000e+00    0,000000000e+00    0,000000000e+00    0,000000000e+00
      898000000   -4,717824459e-01    7,957000285e-03   -2,220009267e-01   -2,283455580e-01    0,000000000e+00    0,000000000e+00    0,000000000e+00    0,000000000e+00
      912000000   -2,262026668e-01    2,943522930e-01   -3,527841568e-01    7,343258709e-02    0,000000000e+00    0,000000000e+00    0,000000000e+00    0,000000000e+00
      926000000    6,547855586e-02    2,624013126e-01   -2,184571177e-01    2,650051415e-01    0,000000000e+00    0,000000000e+00    0,000000000e+00    0,000000000e+00
      940000000    2,165898681e-01    8,154582977e-02   -3,640271723e-02    3,304763436e-01    0,000000000e+00    0,000000000e+00    0,000000000e+00    0,000000000e+00
      954000000    2,230340391e-01   -1,255938560e-01    1,317334473e-01    3,076798916e-01    0,000000000e+00    0,000000000e+00    0,000000000e+00    0,000000000e+00
      968000000    1,166488454e-01   -3,005310297e-01    2,708837390e-01    2,175031006e-01    0,000000000e+00    0,000000000e+00    0,000000000e+00    0,000000000e+00
      982000000   -7,962818444e-02   -3,874992728e-01    3,660328984e-01    6,751368940e-02    0,000000000e+00    0,000000000e+00    0,000000000e+00    0,000000000e+00
      996000000   -3,145425320e-01   -3,274713755e-01    3,688211441e-01   -1,462996453e-01    0,000000000e+00    0,000000000e+00    0,000000000e+00    0,000000000e+00
     1010000000   -4,637992084e-01   -1,133332029e-01    2,214376479e-01   -3,411749005e-01    0,000000000e+00    0,000000000e+00    0,000000000e+00    0,000000000e+00
     1024000000   -4,146617055e-01    1,535404474e-01   -3,207512945e-02   -3,937040269e-01    0,000000000e+00    0,000000000e+00    0,000000000e+00    0,000000000e+00
     1038000000   -2,211371213e-01    2,944231033e-01   -2,479825467e-01   -2,606487274e-01    0,000000000e+00    0,000000000e+00    0,000000000e+00    0,000000000e+00
     1052000000   -5,941492971e-03    2,784709334e-01   -3,190437555e-01   -4,761157930e-02    0,000000000e+00    0,000000000e+00    0,000000000e+00    0,000000000e+00
     1066000000    1,395174414e-01    1,640505493e-01   -2,613794208e-01    1,413151026e-01    0,000000000e+00    0,000000000e+00    0,000000000e+00    0,000000000e+00
     1080000000    1,922782958e-01   -3,384033684e-03   -1,202205494e-01    2,648848593e-01    0,000000000e+00    0,000000000e+00    0,000000000e+00    0,000000000e+00
     1094000000    1,521016955e-01   -1,725332886e-01    6,649329513e-02    3,052410483e-01    0,000000000e+00    0,000000000e+00    0,000000000e+00    0,000000000e+00
     1108000000    1,117168460e-03   -3,040599227e-01    2,762579918e-01    2,466270924e-01    0,000000000e+00    0,000000000e+00    0,000000000e+00    0,000000000e+00
     1122000000   -2,482397258e-01   -2,613176107e-01    4,725917280e-01    1,246856898e-02    0,000000000e+00    0,000000000e+00    0,000000000e+00    0,000000000e+00
     1136000000   -3,222626448e-01    3,465116024e-02    4,015893638e-01   -3,906638324e-01    0,000000000e+00    0,000000000e+00    0,000000000e+00    0,000000000e+00
     1150000000   -4,374030232e-02    1,487208605e-01    8,615327068e-03   -5,426271558e-01    0,000000000e+00    0,000000000e+00    0,000000000e+00    0,000000000e+00
     1164000000    1,217906624e-01   -6,018786505e-02   -2,776747942e-01   -3,796263933e-01    0,000000000e+00    0,000000000e+00    0,000000000e+00    0,000000000e+00
     1178000000    1,897938922e-02   -3,041172624e-01   -3,670968413e-01   -1,528543830e-01    0,000000000e+00    0,000000000e+00    0,000000000e+00    0,000000000e+00
     1192000000   -2,686534226e-01   -3,698427379e-01   -3,214874566e-01    5,933176726e-02    0,000000000e+00    0,000000000e+00    0,000000000e+00    0,000000000e+00
     1206000000   -5,185270309e-01   -1,636004448e-01   -1,635062397e-01    1,750928015e-01    0,000000000e+00    0,000000000e+00    0,000000000e+00    0,000000000e+00
     1220000000   -5,076836348e-01    1,729453355e-01    3,081158269e-03    1,592032313e-01    0,000000000e+00    0,000000000e+00    0,000000000e+00    0,000000000e+00
     1234000000   -2,840024829e-01    3,667282760e-01    7,107807696e-02    6,450854242e-02    0,000000000e+00    0,000000000e+00    0,000000000e+00    0,000000000e+00
     1248000000   -4,350001737e-02    3,679819405e-01    6,159027666e-02   -3,871112131e-03    0,000000000e+00    0,000000000e+00    0,000000000e+00    0,000000000e+00
     1262000000    1,223460063e-01    2,621968687e-01    1,668326557e-02   -2,023646981e-02    0,000000000e+00    0,000000000e+00    0,000000000e+00    0,000000000e+00
     1276000000    2,075294107e-01    1,016985998e-01   -5,198234692e-03    5,732264370e-03    0,000000000e+00    0,000000000e+00    0,000000000e+00    0,000000000e+00
     1290000000    2,268447429e-01   -7,176128775e-02    2,288357541e-02    5,366505682e-02    0,000000000e+00    0,000000000e+00    0,000000000e+00    0,000000000e+00
     1304000000    1,553097814e-01   -2,442499250e-01    1,289052069e-01    6,041173264e-02    0,000000000e+00    0,000000000e+00    0,000000000e+00    0,000000000e+00
     1318000000    3,662723303e-02   -3,389036655e-01    1,289157867e-01   -1,715271622e-01    0,000000000e+00    0,000000000e+00    0,000000000e+00    0,000000000e+00
     1332000000   -1,273416430e-01   -4,420109689e-01   -4,304289445e-02   -4,804699868e-02    0,000000000e+00    0,000000000e+00    0,000000000e+00    0,000000000e+00
     1346000000   -4,038537145e-01   -4,043436050e-01    2,307692170e-02    6,657920778e-02    0,000000000e+00    0,000000000e+00    0,000000000e+00    0,000000000e+00
     1360000000   -6,082767844e-01   -1,840182245e-01    1,333099157e-01    7,986013591e-02    0,000000000e+00    0,000000000e+00    0,000000000e+00    0,000000000e+00
     1374000000   -6,298414469e-01    1,189782917e-01    2,101977319e-01    6,586465170e-04    0,000000000e+00    0,000000000e+00    0,000000000e+00    0,000000000e+00
     1388000000   -4,725176096e-01    3,667772710e-01    2,006670237e-01   -6,784296036e-02    0,000000000e+00    0,000000000e+00    0,000000000e+00    0,000000000e+00
     1402000000   -2,311024517e-01    4,643333256e-01    1,869805306e-01   -8,338791877e-02    0,000000000e+00    0,000000000e+00    0,000000000e+00    0,000000000e+00
     1416000000   -2,980320342e-02    4,111735821e-01    1,765366495e-01   -1,140489355e-01    0,000000000e+00    0,000000000e+00    0,000000000e+00    0,000000000e+00
     1430000000    1,239935979e-01    2,960537374e-01    1,543874443e-01   -1,375681311e-01    0,000000000e+00    0,000000000e+00    0,000000000e+00    0,000000000e+00
     1444000000    2,102530897e-01    1,482636034e-01    1,516506374e-01   -1,063839868e-01    0,000000000e+00    0,000000000e+00    0,000000000e+00    0,000000000e+00
     1458000000    2,353522927e-01   -2,191173472e-02    1,565233469e-01   -7,371397316e-02    0,000000000e+00    0,000000000e+00    0,000000000e+00    0,000000000e+00
     1472000000    1,934259534e-01   -2,066077441e-01    1,411220878e-01   -3,836761788e-02    0,000000000e+00    0,000000000e+00    0,000000000e+00    0,000000000e+00
     1486000000    5,902516097e-02   -3,770189583e-01    1,645436436e-01    3,551974893e-02    0,000000000e+00    0,000000000e+00    0,000000000e+00    0,000000000e+00
     1500000000   -1,647879481e-01   -4,851385057e-01    2,478337139e-01    9,485888481e-02    0,000000000e+00    0,000000000e+00    0,000000000e+00    0,000000000e+00
