! NanoVNA-App
! Date: 2025-09-25 15:36:01
! Start: 100MHz Stop: 1,5GHz Points: 101
! S-Parameter data: F S11 S21 S12 S22
# Hz S RI R 50
!     Frequency           S11_Real           S11_Imag           S21_Real           S21_Imag           S12_Real           S12_Imag           S22_Real           S22_Imag
      100000000   -2,882842533e-02   -4,160617013e-03    3,740852773e-01   -7,217909098e-01    0,000000000e+00    0,000000000e+00    0,000000000e+00    0,000000000e+00
      114000000   -1,646756381e-02    1,152133103e-02   -8,918955177e-02   -8,054568172e-01    0,000000000e+00    0,000000000e+00    0,000000000e+00    0,000000000e+00
      128000000    3,448927309e-03    1,051133871e-02   -5,146833658e-01   -6,205195189e-01    0,000000000e+00    0,000000000e+00    0,000000000e+00    0,000000000e+00
      142000000    1,457460597e-02   -2,972121816e-03   -7,671504021e-01   -2,365799099e-01    0,000000000e+00    0,000000000e+00    0,000000000e+00    0,000000000e+00
      156000000    1,478267275e-02   -1,477661915e-02   -7,659505606e-01    2,214473337e-01    0,000000000e+00    0,000000000e+00    0,000000000e+00    0,000000000e+00
      170000000    1,671754941e-02   -2,261473797e-02   -5,182117224e-01    6,047136188e-01    0,000000000e+00    0,000000000e+00    0,000000000e+00    0,000000000e+00
      184000000    2,102302574e-02   -3,703328595e-02   -1,014086083e-01    7,862554193e-01    0,000000000e+00    0,000000000e+00    0,000000000e+00    0,000000000e+00
      198000000    1,311081089e-02   -6,248904020e-02    3,430760801e-01    7,121523023e-01    0,000000000e+00    0,000000000e+00    0,000000000e+00    0,000000000e+00
      212000000   -1,865300536e-02   -8,129249513e-02    6,780604124e-01    4,098128676e-01    0,000000000e+00    0,000000000e+00    0,000000000e+00    0,000000000e+00
      226000000   -6,170207262e-02   -6,922873855e-02    7,958109975e-01   -3,060699441e-02    0,000000000e+00    0,000000000e+00    0,000000000e+00    0,000000000e+00
      240000000   -8,260061592e-02   -2,565468848e-02    6,461189985e-01   -4,670293927e-01    0,000000000e+00    0,000000000e+00    0,000000000e+00    0,000000000e+00
      254000000   -6,349971145e-02    1,726013608e-02    2,760338485e-01   -7,434293032e-01    0,000000000e+00    0,000000000e+00    0,000000000e+00    0,000000000e+00
      268000000   -2,384899370e-02    2,895512059e-02   -1,782649606e-01   -7,642189860e-01    0,000000000e+00    0,000000000e+00    0,000000000e+00    0,000000000e+00
      282000000    4,284645896e-03    1,191786677e-02   -5,620195866e-01   -5,358690023e-01    0,000000000e+00    0,000000000e+00    0,000000000e+00    0,000000000e+00
      296000000    9,786672890e-03   -7,762234192e-03   -7,597228885e-01   -1,395028532e-01    0,000000000e+00    0,000000000e+00    0,000000000e+00    0,000000000e+00
      310000000    1,126791630e-02   -1,624323055e-02   -7,122267485e-01    2,976460755e-01    0,000000000e+00    0,000000000e+00    0,000000000e+00    0,000000000e+00
      324000000    1,979977451e-02   -2,660357021e-02   -4,273664355e-01    6,372187734e-01    0,000000000e+00    0,000000000e+00    0,000000000e+00    0,000000000e+00
      338000000    2,569863386e-02   -5,180479586e-02   -1,022845972e-02    7,627925873e-01    0,000000000e+00    0,000000000e+00    0,000000000e+00    0,000000000e+00
      352000000    7,535368670e-03   -8,460886776e-02    4,069822431e-01    6,397478580e-01    0,000000000e+00    0,000000000e+00    0,000000000e+00    0,000000000e+00
      366000000   -3,453693539e-02   -9,522015601e-02    6,904358268e-01    3,115385771e-01    0,000000000e+00    0,000000000e+00    0,000000000e+00    0,000000000e+00
      380000000   -7,077088207e-02   -7,097397000e-02    7,475796342e-01   -1,254713088e-01    0,000000000e+00    0,000000000e+00    0,000000000e+00    0,000000000e+00
      394000000   -7,244725525e-02   -3,250271827e-02    5,475434065e-01   -5,219634771e-01    0,000000000e+00    0,000000000e+00    0,000000000e+00    0,000000000e+00
      408000000   -4,624588788e-02   -1,620235853e-02    1,608988345e-01   -7,318634987e-01    0,000000000e+00    0,000000000e+00    0,000000000e+00    0,000000000e+00
      422000000   -2,815715969e-02   -3,205987811e-02   -2,671566010e-01   -6,947008371e-01    0,000000000e+00    0,000000000e+00    0,000000000e+00    0,000000000e+00
      436000000   -4,058175534e-02   -5,156031996e-02   -6,039667130e-01   -4,317340851e-01    0,000000000e+00    0,000000000e+00    0,000000000e+00    0,000000000e+00
      450000000   -6,772954762e-02   -4,379970580e-02   -7,404352427e-01   -2,112816274e-02    0,000000000e+00    0,000000000e+00    0,000000000e+00    0,000000000e+00
      464000000   -7,358732820e-02   -1,168273110e-02   -6,185740232e-01    3,974557221e-01    0,000000000e+00    0,000000000e+00    0,000000000e+00    0,000000000e+00
      478000000   -4,765382037e-02    1,149125956e-02   -2,822717428e-01    6,678373218e-01    0,000000000e+00    0,000000000e+00    0,000000000e+00    0,000000000e+00
      492000000   -1,565138251e-02    6,182619371e-03    1,378191411e-01    7,015118599e-01    0,000000000e+00    0,000000000e+00    0,000000000e+00    0,000000000e+00
      506000000   -2,345693298e-03   -1,595391706e-02    4,989563823e-01    5,021913648e-01    0,000000000e+00    0,000000000e+00    0,000000000e+00    0,000000000e+00
      520000000   -5,151418503e-03   -3,160410002e-02    6,885696054e-01    1,393892318e-01    0,000000000e+00    0,000000000e+00    0,000000000e+00    0,000000000e+00
      534000000   -3,732565325e-03   -3,847070038e-02    6,438848972e-01   -2,626043558e-01    0,000000000e+00    0,000000000e+00    0,000000000e+00    0,000000000e+00
      548000000    5,898551084e-03   -5,368065834e-02    3,809861839e-01   -5,675117970e-01    0,000000000e+00    0,000000000e+00    0,000000000e+00    0,000000000e+00
      562000000    2,764416859e-03   -8,934964240e-02    2,497076523e-03   -6,717421412e-01    0,000000000e+00    0,000000000e+00    0,000000000e+00    0,000000000e+00
      576000000   -3,385050967e-02   -1,242336780e-01   -3,688887954e-01   -5,573862195e-01    0,000000000e+00    0,000000000e+00    0,000000000e+00    0,000000000e+00
      590000000   -9,648285061e-02   -1,226708591e-01   -6,226868629e-01   -2,629762888e-01    0,000000000e+00    0,000000000e+00    0,000000000e+00    0,000000000e+00
      604000000   -1,392572969e-01   -7,152588665e-02   -6,647588015e-01    1,383215487e-01    0,000000000e+00    0,000000000e+00    0,000000000e+00    0,000000000e+00
      618000000   -1,296992749e-01   -8,730020374e-03   -4,643346667e-01    4,946609437e-01    0,000000000e+00    0,000000000e+00    0,000000000e+00    0,000000000e+00
      632000000   -8,377654850e-02    1,636978984e-02   -9,891361743e-02    6,640753746e-01    0,000000000e+00    0,000000000e+00    0,000000000e+00    0,000000000e+00
      646000000   -5,071856827e-02    6,973222480e-04    2,873730361e-01    5,955802798e-01    0,000000000e+00    0,000000000e+00    0,000000000e+00    0,000000000e+00
      660000000   -5,340576172e-02   -2,198943309e-02    5,673791170e-01    3,235961199e-01    0,000000000e+00    0,000000000e+00    0,000000000e+00    0,000000000e+00
      674000000   -7,012718171e-02   -1,706901938e-02    6,430343986e-01   -6,560211629e-02    0,000000000e+00    0,000000000e+00    0,000000000e+00    0,000000000e+00
      688000000   -6,804514676e-02    8,481298573e-03    4,712001979e-01   -4,277715385e-01    0,000000000e+00    0,000000000e+00    0,000000000e+00    0,000000000e+00
      702000000   -3,834070638e-02    2,630308457e-02    1,206267178e-01   -6,147700548e-01    0,000000000e+00    0,000000000e+00    0,000000000e+00    0,000000000e+00
      716000000    2,546957694e-03    1,853393205e-02   -2,645765841e-01   -5,482212901e-01    0,000000000e+00    0,000000000e+00    0,000000000e+00    0,000000000e+00
      730000000    3,700815141e-02   -1,168185379e-02   -5,283549428e-01   -2,688188255e-01    0,000000000e+00    0,000000000e+00    0,000000000e+00    0,000000000e+00
      744000000    6,496877968e-02   -6,241831183e-02   -5,645346642e-01    1,061577424e-01    0,000000000e+00    0,000000000e+00    0,000000000e+00    0,000000000e+00
      758000000    6,680942327e-02   -1,517853886e-01   -3,632730842e-01    4,099216163e-01    0,000000000e+00    0,000000000e+00    0,000000000e+00    0,000000000e+00
      772000000   -1,228366233e-02   -2,630562782e-01   -3,439880908e-02    5,156217217e-01    0,000000000e+00    0,000000000e+00    0,000000000e+00    0,000000000e+00
      786000000   -2,061380148e-01   -3,031034172e-01    2,741259634e-01    3,953056037e-01    0,000000000e+00    0,000000000e+00    0,000000000e+00    0,000000000e+00
      800000000   -4,264817238e-01   -1,303978860e-01    4,176446497e-01    9,879098088e-02    0,000000000e+00    0,000000000e+00    0,000000000e+00    0,000000000e+00
      814000000   -3,891400099e-01    2,213782519e-01    2,823813558e-01   -1,730959862e-01    0,000000000e+00    0,000000000e+00    0,000000000e+00    0,000000000e+00
      828000000   -4,991240427e-02    3,677139580e-01    5,501581356e-02   -1,892097294e-01    0,000000000e+00    0,000000000e+00    0,000000000e+00    0,000000000e+00
      842000000    2,343696356e-01    1,858746856e-01   -1,743300259e-02   -7,097581774e-02    0,000000000e+00    0,000000000e+00    0,000000000e+00    0,000000000e+00
      856000000    2,806211114e-01   -1,242632940e-01    4,540136084e-02   -1,313182805e-02    0,000000000e+00    0,000000000e+00    0,000000000e+00    0,000000000e+00
      870000000    7,476007193e-02   -3,765603006e-01    1,133430153e-01   -9,102009237e-02    0,000000000e+00    0,000000000e+00    0,000000000e+00    0,000000000e+00
      884000000   -2,961884439e-01   -3,615950346e-01    2,769463696e-02   -2,459609658e-01    0,000000000e+00    0,000000000e+00    0,000000000e+00    0,000000000e+00
      898000000   -4,725120366e-01    8,171608672e-03   -2,217674851e-01   -2,273389995e-01    0,000000000e+00    0,000000000e+00    0,000000000e+00    0,000000000e+00
      912000000   -2,253143340e-01    2,934923172e-01   -3,538596332e-01    7,338085026e-02    0,000000000e+00    0,000000000e+00    0,000000000e+00    0,000000000e+00
      926000000    6,710316986e-02    2,625197470e-01   -2,181004286e-01    2,629726231e-01    0,000000000e+00    0,000000000e+00    0,000000000e+00    0,000000000e+00
      940000000    2,168669254e-01    8,182056993e-02   -3,707950562e-02    3,301109076e-01    0,000000000e+00    0,000000000e+00    0,000000000e+00    0,000000000e+00
      954000000    2,219707072e-01   -1,260369122e-01    1,306933016e-01    3,071449995e-01    0,000000000e+00    0,000000000e+00    0,000000000e+00    0,000000000e+00
      968000000    1,184375435e-01   -2,990225852e-01    2,713576853e-01    2,195237428e-01    0,000000000e+00    0,000000000e+00    0,000000000e+00    0,000000000e+00
      982000000   -8,137529343e-02   -3,862023354e-01    3,674237430e-01    6,424525380e-02    0,000000000e+00    0,000000000e+00    0,000000000e+00    0,000000000e+00
      996000000   -3,200618625e-01   -3,291910589e-01    3,691745698e-01   -1,464536041e-01    0,000000000e+00    0,000000000e+00    0,000000000e+00    0,000000000e+00
     1010000000   -4,641186595e-01   -1,128209978e-01    2,215950489e-01   -3,414535522e-01    0,000000000e+00    0,000000000e+00    0,000000000e+00    0,000000000e+00
     1024000000   -4,120258093e-01    1,484584510e-01   -3,518453613e-02   -3,951256573e-01    0,000000000e+00    0,000000000e+00    0,000000000e+00    0,000000000e+00
     1038000000   -2,153768390e-01    2,924980223e-01   -2,478809506e-01   -2,626095712e-01    0,000000000e+00    0,000000000e+00    0,000000000e+00    0,000000000e+00
     1052000000   -6,765720434e-03    2,767115533e-01   -3,175665140e-01   -4,721634090e-02    0,000000000e+00    0,000000000e+00    0,000000000e+00    0,000000000e+00
     1066000000    1,392434984e-01    1,618167460e-01   -2,589124143e-01    1,453498304e-01    0,000000000e+00    0,000000000e+00    0,000000000e+00    0,000000000e+00
     1080000000    1,976788491e-01    2,818780195e-04   -1,194324642e-01    2,622889280e-01    0,000000000e+00    0,000000000e+00    0,000000000e+00    0,000000000e+00
     1094000000    1,533212960e-01   -1,758095622e-01    6,133464724e-02    3,051676750e-01    0,000000000e+00    0,000000000e+00    0,000000000e+00    0,000000000e+00
     1108000000   -4,966996610e-03   -3,032701910e-01    2,777189910e-01    2,456482202e-01    0,000000000e+00    0,000000000e+00    0,000000000e+00    0,000000000e+00
     1122000000   -2,470827252e-01   -2,608180642e-01    4,694662690e-01    1,360877044e-02    0,000000000e+00    0,000000000e+00    0,000000000e+00    0,000000000e+00
     1136000000   -3,182830215e-01    3,738612682e-02    3,974651992e-01   -3,915266693e-01    0,000000000e+00    0,000000000e+00    0,000000000e+00    0,000000000e+00
     1150000000   -4,122490808e-02    1,545284688e-01    4,559506662e-03   -5,417305827e-01    0,000000000e+00    0,000000000e+00    0,000000000e+00    0,000000000e+00
     1164000000    1,266541332e-01   -6,391449273e-02   -2,756564319e-01   -3,776598573e-01    0,000000000e+00    0,000000000e+00    0,000000000e+00    0,000000000e+00
     1178000000    1,587788016e-02   -3,085862398e-01   -3,681717515e-01   -1,541162431e-01    0,000000000e+00    0,000000000e+00    0,000000000e+00    0,000000000e+00
     1192000000   -2,668310106e-01   -3,716193736e-01   -3,201123774e-01    5,580907688e-02    0,000000000e+00    0,000000000e+00    0,000000000e+00    0,000000000e+00
     1206000000   -5,191657543e-01   -1,549178213e-01   -1,677483469e-01    1,818347424e-01    0,000000000e+00    0,000000000e+00    0,000000000e+00    0,000000000e+00
     1220000000   -5,082005858e-01    1,701711714e-01    2,841538284e-03    1,538210362e-01    0,000000000e+00    0,000000000e+00    0,000000000e+00    0,000000000e+00
     1234000000   -2,882001400e-01    3,685859442e-01    6,901726872e-02    6,442795694e-02    0,000000000e+00    0,000000000e+00    0,000000000e+00    0,000000000e+00
     1248000000   -4,209045693e-02    3,664331436e-01    5,687510967e-02   -1,591524109e-03    0,000000000e+00    0,000000000e+00    0,000000000e+00    0,000000000e+00
     1262000000    1,223638952e-01    2,517715096e-01    1,297352556e-02   -2,424135245e-02    0,000000000e+00    0,000000000e+00    0,000000000e+00    0,000000000e+00
     1276000000    2,128902525e-01    1,024172753e-01   -1,380609232e-03    4,856950603e-03    0,000000000e+00    0,000000000e+00    0,000000000e+00    0,000000000e+00
     1290000000    2,239276767e-01   -7,682906836e-02    1,840055361e-02    4,779623076e-02    0,000000000e+00    0,000000000e+00    0,000000000e+00    0,000000000e+00
     1304000000    1,503809690e-01   -2,430350631e-01    1,307214648e-01    6,518221647e-02    0,000000000e+00    0,000000000e+00    0,000000000e+00    0,000000000e+00
     1318000000    4,007855803e-02   -3,368126750e-01    1,305255443e-01   -1,676404178e-01    0,000000000e+00    0,000000000e+00    0,000000000e+00    0,000000000e+00
     1332000000   -1,233532280e-01   -4,386820197e-01   -3,717939556e-02   -4,646980017e-02    0,000000000e+00    0,000000000e+00    0,000000000e+00    0,000000000e+00
     1346000000   -3,967659175e-01   -4,100718498e-01    1,787447371e-02    6,876657158e-02    0,000000000e+00    0,000000000e+00    0,000000000e+00    0,000000000e+00
     1360000000   -6,073209047e-01   -2,002685219e-01    1,329033524e-01    6,883984059e-02    0,000000000e+00    0,000000000e+00    0,000000000e+00    0,000000000e+00
     1374000000   -6,255068779e-01    1,250224560e-01    2,075708359e-01    9,730132297e-05    0,000000000e+00    0,000000000e+00    0,000000000e+00    0,000000000e+00
     1388000000   -4,600632191e-01    3,738442063e-01    2,156742811e-01   -5,828319490e-02    0,000000000e+00    0,000000000e+00    0,000000000e+00    0,000000000e+00
     1402000000   -2,306831777e-01    4,555922747e-01    1,861191541e-01   -9,494772553e-02    0,000000000e+00    0,000000000e+00    0,000000000e+00    0,000000000e+00
     1416000000   -2,249247022e-02    4,090879858e-01    1,765545160e-01   -1,078284457e-01    0,000000000e+00    0,000000000e+00    0,000000000e+00    0,000000000e+00
     1430000000    1,272610575e-01    2,951459289e-01    1,590556949e-01   -9,564033151e-02    0,000000000e+00    0,000000000e+00    0,000000000e+00    0,000000000e+00
     1444000000    2,053927332e-01    1,467802376e-01    1,480329782e-01   -1,056355685e-01    0,000000000e+00    0,000000000e+00    0,000000000e+00    0,000000000e+00
     1458000000    2,280041277e-01   -2,027396113e-02    1,369692981e-01   -6,978011876e-02    0,000000000e+00    0,000000000e+00    0,000000000e+00    0,000000000e+00
     1472000000    1,936838329e-01   -2,030464560e-01    1,540461779e-01   -2,520637214e-02    0,000000000e+00    0,000000000e+00    0,000000000e+00    0,000000000e+00
     1486000000    6,438300759e-02   -3,789178133e-01    1,709429175e-01    2,668734640e-02    0,000000000e+00    0,000000000e+00    0,000000000e+00    0,000000000e+00
     1500000000   -1,789228469e-01   -4,933737218e-01    2,350152284e-01    1,018345430e-01    0,000000000e+00    0,000000000e+00    0,000000000e+00    0,000000000e+00
