! NanoVNA-App
! Date: 2025-09-25 15:30:37
! Start: 100MHz Stop: 1,5GHz Points: 101
! S-Parameter data: F S11 S21 S12 S22
# Hz S RI R 50
!     Frequency           S11_Real           S11_Imag           S21_Real           S21_Imag           S12_Real           S12_Imag           S22_Real           S22_Imag
      100000000   -2,887335606e-02   -4,186165985e-03    3,741029501e-01   -7,218161821e-01    0,000000000e+00    0,000000000e+00    0,000000000e+00    0,000000000e+00
      114000000   -1,650444418e-02    1,151558384e-02   -8,906660229e-02   -8,055229783e-01    0,000000000e+00    0,000000000e+00    0,000000000e+00    0,000000000e+00
      128000000    3,445777111e-03    1,054442301e-02   -5,144309402e-01   -6,204130054e-01    0,000000000e+00    0,000000000e+00    0,000000000e+00    0,000000000e+00
      142000000    1,453728974e-02   -2,935569501e-03   -7,669023871e-01   -2,365403920e-01    0,000000000e+00    0,000000000e+00    0,000000000e+00    0,000000000e+00
      156000000    1,440684218e-02   -1,475799177e-02   -7,644904256e-01    2,201600373e-01    0,000000000e+00    0,000000000e+00    0,000000000e+00    0,000000000e+00
      170000000    1,672406681e-02   -2,258400433e-02   -5,181863904e-01    6,048348546e-01    0,000000000e+00    0,000000000e+00    0,000000000e+00    0,000000000e+00
      184000000    2,103043348e-02   -3,707139939e-02   -1,012715697e-01    7,860455513e-01    0,000000000e+00    0,000000000e+00    0,000000000e+00    0,000000000e+00
      198000000    1,298194658e-02   -6,243939325e-02    3,436665237e-01    7,124525905e-01    0,000000000e+00    0,000000000e+00    0,000000000e+00    0,000000000e+00
      212000000   -1,867716014e-02   -8,127626777e-02    6,781759858e-01    4,098171592e-01    0,000000000e+00    0,000000000e+00    0,000000000e+00    0,000000000e+00
      226000000   -6,170825660e-02   -6,921505183e-02    7,958183885e-01   -3,060616925e-02    0,000000000e+00    0,000000000e+00    0,000000000e+00    0,000000000e+00
      240000000   -8,261492103e-02   -2,561379038e-02    6,461088061e-01   -4,670274854e-01    0,000000000e+00    0,000000000e+00    0,000000000e+00    0,000000000e+00
      254000000   -6,351343542e-02    1,724239066e-02    2,758729458e-01   -7,433519363e-01    0,000000000e+00    0,000000000e+00    0,000000000e+00    0,000000000e+00
      268000000   -2,383894660e-02    2,889030799e-02   -1,780556589e-01   -7,637799382e-01    0,000000000e+00    0,000000000e+00    0,000000000e+00    0,000000000e+00
      282000000    4,085252061e-03    1,201327704e-02   -5,622412562e-01   -5,355592370e-01    0,000000000e+00    0,000000000e+00    0,000000000e+00    0,000000000e+00
      296000000    9,708232246e-03   -7,836938836e-03   -7,597463131e-01   -1,394591331e-01    0,000000000e+00    0,000000000e+00    0,000000000e+00    0,000000000e+00
      310000000    1,107360329e-02   -1,639407873e-02   -7,127799392e-01    2,980432212e-01    0,000000000e+00    0,000000000e+00    0,000000000e+00    0,000000000e+00
      324000000    1,954316534e-02   -2,652657591e-02   -4,267680347e-01    6,382722259e-01    0,000000000e+00    0,000000000e+00    0,000000000e+00    0,000000000e+00
      338000000    2,548075654e-02   -5,211609602e-02   -9,191384539e-03    7,642683983e-01    0,000000000e+00    0,000000000e+00    0,000000000e+00    0,000000000e+00
      352000000    7,229533978e-03   -8,465928584e-02    4,062719047e-01    6,396204233e-01    0,000000000e+00    0,000000000e+00    0,000000000e+00    0,000000000e+00
      366000000   -3,472602740e-02   -9,556630254e-02    6,906069517e-01    3,120747805e-01    0,000000000e+00    0,000000000e+00    0,000000000e+00    0,000000000e+00
      380000000   -7,052513957e-02   -7,101479918e-02    7,476817966e-01   -1,252863258e-01    0,000000000e+00    0,000000000e+00    0,000000000e+00    0,000000000e+00
      394000000   -7,254938036e-02   -3,248821199e-02    5,474055409e-01   -5,225253701e-01    0,000000000e+00    0,000000000e+00    0,000000000e+00    0,000000000e+00
      408000000   -4,644292966e-02   -1,621734351e-02    1,608574539e-01   -7,337844372e-01    0,000000000e+00    0,000000000e+00    0,000000000e+00    0,000000000e+00
      422000000   -2,826114371e-02   -3,236348927e-02   -2,676858306e-01   -6,957925558e-01    0,000000000e+00    0,000000000e+00    0,000000000e+00    0,000000000e+00
      436000000   -4,087598622e-02   -5,164899677e-02   -6,043264866e-01   -4,321354628e-01    0,000000000e+00    0,000000000e+00    0,000000000e+00    0,000000000e+00
      450000000   -6,717691571e-02   -4,371384159e-02   -7,403107882e-01   -2,104879357e-02    0,000000000e+00    0,000000000e+00    0,000000000e+00    0,000000000e+00
      464000000   -7,325744629e-02   -1,111634914e-02   -6,186719537e-01    3,974052668e-01    0,000000000e+00    0,000000000e+00    0,000000000e+00    0,000000000e+00
      478000000   -4,779412597e-02    1,165670529e-02   -2,823427022e-01    6,678655148e-01    0,000000000e+00    0,000000000e+00    0,000000000e+00    0,000000000e+00
      492000000   -1,614263654e-02    6,139621139e-03    1,378934681e-01    7,022311687e-01    0,000000000e+00    0,000000000e+00    0,000000000e+00    0,000000000e+00
      506000000   -2,591423923e-03   -1,589289866e-02    4,984309673e-01    5,024065971e-01    0,000000000e+00    0,000000000e+00    0,000000000e+00    0,000000000e+00
      520000000   -5,000106525e-03   -3,161412477e-02    6,877554059e-01    1,406155229e-01    0,000000000e+00    0,000000000e+00    0,000000000e+00    0,000000000e+00
      534000000   -3,793166252e-03   -3,817735612e-02    6,437260509e-01   -2,625319958e-01    0,000000000e+00    0,000000000e+00    0,000000000e+00    0,000000000e+00
      548000000    5,967542995e-03   -5,409549549e-02    3,816116154e-01   -5,666640997e-01    0,000000000e+00    0,000000000e+00    0,000000000e+00    0,000000000e+00
      562000000    2,989860484e-03   -8,935505897e-02    2,939337865e-03   -6,725597978e-01    0,000000000e+00    0,000000000e+00    0,000000000e+00    0,000000000e+00
      576000000   -3,440429643e-02   -1,243150085e-01   -3,699471951e-01   -5,572083592e-01    0,000000000e+00    0,000000000e+00    0,000000000e+00    0,000000000e+00
      590000000   -9,644132107e-02   -1,225890294e-01   -6,226860881e-01   -2,640433311e-01    0,000000000e+00    0,000000000e+00    0,000000000e+00    0,000000000e+00
      604000000   -1,395426244e-01   -7,211861014e-02   -6,650812030e-01    1,379100233e-01    0,000000000e+00    0,000000000e+00    0,000000000e+00    0,000000000e+00
      618000000   -1,292726099e-01   -9,316982701e-03   -4,640469849e-01    4,931007028e-01    0,000000000e+00    0,000000000e+00    0,000000000e+00    0,000000000e+00
      632000000   -8,442304283e-02    1,641015336e-02   -9,839514643e-02    6,640945673e-01    0,000000000e+00    0,000000000e+00    0,000000000e+00    0,000000000e+00
      646000000   -5,145748332e-02    7,581005921e-04    2,872033119e-01    5,955358148e-01    0,000000000e+00    0,000000000e+00    0,000000000e+00    0,000000000e+00
      660000000   -5,368728936e-02   -2,210399881e-02    5,670565367e-01    3,227124214e-01    0,000000000e+00    0,000000000e+00    0,000000000e+00    0,000000000e+00
      674000000   -7,077959180e-02   -1,800769381e-02    6,430138946e-01   -6,572760642e-02    0,000000000e+00    0,000000000e+00    0,000000000e+00    0,000000000e+00
      688000000   -6,838586926e-02    9,600307792e-03    4,713108838e-01   -4,286774695e-01    0,000000000e+00    0,000000000e+00    0,000000000e+00    0,000000000e+00
      702000000   -3,717250377e-02    2,616243809e-02    1,240934879e-01   -6,158940196e-01    0,000000000e+00    0,000000000e+00    0,000000000e+00    0,000000000e+00
      716000000    3,026277991e-03    1,783061400e-02   -2,652584016e-01   -5,461211801e-01    0,000000000e+00    0,000000000e+00    0,000000000e+00    0,000000000e+00
      730000000    3,714272007e-02   -1,058762986e-02   -5,281483531e-01   -2,686902583e-01    0,000000000e+00    0,000000000e+00    0,000000000e+00    0,000000000e+00
      744000000    6,581740081e-02   -6,283798814e-02   -5,642720461e-01    1,065231189e-01    0,000000000e+00    0,000000000e+00    0,000000000e+00    0,000000000e+00
      758000000    6,598144025e-02   -1,525527239e-01   -3,629521430e-01    4,099210799e-01    0,000000000e+00    0,000000000e+00    0,000000000e+00    0,000000000e+00
      772000000   -1,275659632e-02   -2,622597218e-01   -3,417089581e-02    5,157315731e-01    0,000000000e+00    0,000000000e+00    0,000000000e+00    0,000000000e+00
      786000000   -2,073267400e-01   -3,029599786e-01    2,747583985e-01    3,951168954e-01    0,000000000e+00    0,000000000e+00    0,000000000e+00    0,000000000e+00
      800000000   -4,251857400e-01   -1,294737160e-01    4,173443615e-01    9,919679165e-02    0,000000000e+00    0,000000000e+00    0,000000000e+00    0,000000000e+00
      814000000   -3,899171352e-01    2,209065706e-01    2,819907367e-01   -1,737650931e-01    0,000000000e+00    0,000000000e+00    0,000000000e+00    0,000000000e+00
      828000000   -4,902923107e-02    3,673559427e-01    5,530828610e-02   -1,882259995e-01    0,000000000e+00    0,000000000e+00    0,000000000e+00    0,000000000e+00
      842000000    2,353382409e-01    1,860098541e-01   -1,712271944e-02   -7,031246275e-02    0,000000000e+00    0,000000000e+00    0,000000000e+00    0,000000000e+00
      856000000    2,804149091e-01   -1,245076135e-01    4,553069547e-02   -1,317642909e-02    0,000000000e+00    0,000000000e+00    0,000000000e+00    0,000000000e+00
      870000000    7,452708483e-02   -3,762126863e-01    1,136005521e-01   -9,085880965e-02    0,000000000e+00    0,000000000e+00    0,000000000e+00    0,000000000e+00
      884000000   -2,948679030e-01   -3,616996706e-01    2,829962224e-02   -2,457095683e-01    0,000000000e+00    0,000000000e+00    0,000000000e+00    0,000000000e+00
      898000000   -4,717736244e-01    9,606110863e-03   -2,224284112e-01   -2,281698585e-01    0,000000000e+00    0,000000000e+00    0,000000000e+00    0,000000000e+00
      912000000   -2,265028208e-01    2,958785295e-01   -3,378227055e-01    7,262489200e-02    0,000000000e+00    0,000000000e+00    0,000000000e+00    0,000000000e+00
      926000000    6,718517840e-02    2,625230253e-01   -2,162199765e-01    2,640676200e-01    0,000000000e+00    0,000000000e+00    0,000000000e+00    0,000000000e+00
      940000000    2,138135135e-01    8,100522310e-02   -3,706816211e-02    3,307544291e-01    0,000000000e+00    0,000000000e+00    0,000000000e+00    0,000000000e+00
      954000000    2,242549807e-01   -1,270746738e-01    1,303713918e-01    3,050950766e-01    0,000000000e+00    0,000000000e+00    0,000000000e+00    0,000000000e+00
      968000000    1,155392826e-01   -2,977877855e-01    2,708220482e-01    2,179642171e-01    0,000000000e+00    0,000000000e+00    0,000000000e+00    0,000000000e+00
      982000000   -8,282466978e-02   -3,883258402e-01    3,661969006e-01    6,545779109e-02    0,000000000e+00    0,000000000e+00    0,000000000e+00    0,000000000e+00
      996000000   -3,171858788e-01   -3,273851573e-01    3,697645366e-01   -1,457404643e-01    0,000000000e+00    0,000000000e+00    0,000000000e+00    0,000000000e+00
     1010000000   -4,653832912e-01   -1,107321084e-01    2,234664559e-01   -3,418491781e-01    0,000000000e+00    0,000000000e+00    0,000000000e+00    0,000000000e+00
     1024000000   -4,169490337e-01    1,479961723e-01   -3,422049060e-02   -3,917502761e-01    0,000000000e+00    0,000000000e+00    0,000000000e+00    0,000000000e+00
     1038000000   -2,186185867e-01    2,880736589e-01   -2,471891046e-01   -2,609686852e-01    0,000000000e+00    0,000000000e+00    0,000000000e+00    0,000000000e+00
     1052000000   -5,579282995e-03    2,753397524e-01   -3,177854121e-01   -4,607323185e-02    0,000000000e+00    0,000000000e+00    0,000000000e+00    0,000000000e+00
     1066000000    1,388370544e-01    1,644930243e-01   -2,595743835e-01    1,421180218e-01    0,000000000e+00    0,000000000e+00    0,000000000e+00    0,000000000e+00
     1080000000    1,936960369e-01    1,535472577e-03   -1,190545037e-01    2,629630566e-01    0,000000000e+00    0,000000000e+00    0,000000000e+00    0,000000000e+00
     1094000000    1,507973373e-01   -1,728425324e-01    6,507583708e-02    3,049662411e-01    0,000000000e+00    0,000000000e+00    0,000000000e+00    0,000000000e+00
     1108000000   -3,446904244e-03   -3,068484366e-01    2,785474956e-01    2,454556078e-01    0,000000000e+00    0,000000000e+00    0,000000000e+00    0,000000000e+00
     1122000000   -2,495038509e-01   -2,605092824e-01    4,711636603e-01    1,332539413e-02    0,000000000e+00    0,000000000e+00    0,000000000e+00    0,000000000e+00
     1136000000   -3,150057495e-01    3,027120419e-02    4,037366211e-01   -3,876806200e-01    0,000000000e+00    0,000000000e+00    0,000000000e+00    0,000000000e+00
     1150000000   -3,978301212e-02    1,556174308e-01    5,238765851e-03   -5,414313078e-01    0,000000000e+00    0,000000000e+00    0,000000000e+00    0,000000000e+00
     1164000000    1,226732805e-01   -5,979497731e-02   -2,766494155e-01   -3,782408237e-01    0,000000000e+00    0,000000000e+00    0,000000000e+00    0,000000000e+00
     1178000000    1,461184397e-02   -3,049414158e-01   -3,699831367e-01   -1,529607326e-01    0,000000000e+00    0,000000000e+00    0,000000000e+00    0,000000000e+00
     1192000000   -2,675758600e-01   -3,721818626e-01   -3,241675794e-01    5,711406097e-02    0,000000000e+00    0,000000000e+00    0,000000000e+00    0,000000000e+00
     1206000000   -5,177776217e-01   -1,642955244e-01   -1,629768014e-01    1,787058711e-01    0,000000000e+00    0,000000000e+00    0,000000000e+00    0,000000000e+00
     1220000000   -5,038482547e-01    1,727444977e-01    3,815998323e-03    1,592326164e-01    0,000000000e+00    0,000000000e+00    0,000000000e+00    0,000000000e+00
     1234000000   -2,867023051e-01    3,590299189e-01    7,001513988e-02    6,045423821e-02    0,000000000e+00    0,000000000e+00    0,000000000e+00    0,000000000e+00
     1248000000   -4,411141202e-02    3,585194647e-01    5,721293390e-02   -7,475573104e-03    0,000000000e+00    0,000000000e+00    0,000000000e+00    0,000000000e+00
     1262000000    1,218399405e-01    2,572518289e-01    1,631742902e-02   -2,092155069e-02    0,000000000e+00    0,000000000e+00    0,000000000e+00    0,000000000e+00
     1276000000    2,145829052e-01    1,028797179e-01   -1,448815572e-03    2,621619496e-03    0,000000000e+00    0,000000000e+00    0,000000000e+00    0,000000000e+00
     1290000000    2,244776785e-01   -7,095378637e-02    1,949326321e-02    5,601625517e-02    0,000000000e+00    0,000000000e+00    0,000000000e+00    0,000000000e+00
     1304000000    1,572403014e-01   -2,422938943e-01    1,345545352e-01    6,648354977e-02    0,000000000e+00    0,000000000e+00    0,000000000e+00    0,000000000e+00
     1318000000    3,656623885e-02   -3,324816823e-01    1,348342448e-01   -1,665851176e-01    0,000000000e+00    0,000000000e+00    0,000000000e+00    0,000000000e+00
     1332000000   -1,279024631e-01   -4,403763711e-01   -3,951770067e-02   -5,498190224e-02    0,000000000e+00    0,000000000e+00    0,000000000e+00    0,000000000e+00
     1346000000   -4,023912549e-01   -4,085007012e-01    1,645934582e-02    6,596599519e-02    0,000000000e+00    0,000000000e+00    0,000000000e+00    0,000000000e+00
     1360000000   -6,115267873e-01   -1,925825924e-01    1,310562044e-01    6,561557949e-02    0,000000000e+00    0,000000000e+00    0,000000000e+00    0,000000000e+00
     1374000000   -6,281809211e-01    1,249186471e-01    1,991958469e-01   -2,520455979e-03    0,000000000e+00    0,000000000e+00    0,000000000e+00    0,000000000e+00
     1388000000   -4,690116942e-01    3,673711419e-01    2,023357451e-01   -6,526011974e-02    0,000000000e+00    0,000000000e+00    0,000000000e+00    0,000000000e+00
     1402000000   -2,411731929e-01    4,539181590e-01    1,798612028e-01   -1,019536704e-01    0,000000000e+00    0,000000000e+00    0,000000000e+00    0,000000000e+00
     1416000000   -2,489129268e-02    4,161680043e-01    1,733508855e-01   -9,239044785e-02    0,000000000e+00    0,000000000e+00    0,000000000e+00    0,000000000e+00
     1430000000    1,232557073e-01    3,008159697e-01    1,542562395e-01   -1,314389706e-01    0,000000000e+00    0,000000000e+00    0,000000000e+00    0,000000000e+00
     1444000000    2,082923949e-01    1,521880329e-01    1,569757164e-01   -9,490632266e-02    0,000000000e+00    0,000000000e+00    0,000000000e+00    0,000000000e+00
     1458000000    2,408641130e-01   -2,127378248e-02    1,539095491e-01   -7,515896857e-02    0,000000000e+00    0,000000000e+00    0,000000000e+00    0,000000000e+00
     1472000000    1,923787296e-01   -2,007876337e-01    1,419404596e-01   -3,513664380e-02    0,000000000e+00    0,000000000e+00    0,000000000e+00    0,000000000e+00
     1486000000    5,744911730e-02   -3,731216490e-01    1,629974991e-01    3,603176400e-02    0,000000000e+00    0,000000000e+00    0,000000000e+00    0,000000000e+00
     1500000000   -1,734554768e-01   -4,985590577e-01    2,526295185e-01    7,634431869e-02    0,000000000e+00    0,000000000e+00    0,000000000e+00    0,000000000e+00
