! NanoVNA-App
! Date: 2025-09-25 15:35:58
! Start: 100MHz Stop: 1,5GHz Points: 101
! S-Parameter data: F S11 S21 S12 S22
# Hz S RI R 50
!     Frequency           S11_Real           S11_Imag           S21_Real           S21_Imag           S12_Real           S12_Imag           S22_Real           S22_Imag
      100000000   -2,883568779e-02   -4,167852923e-03    3,740771413e-01   -7,217544913e-01    0,000000000e+00    0,000000000e+00    0,000000000e+00    0,000000000e+00
      114000000   -1,649116166e-02    1,149971038e-02   -8,913166076e-02   -8,054334521e-01    0,000000000e+00    0,000000000e+00    0,000000000e+00    0,000000000e+00
      128000000    3,496350022e-03    1,059264690e-02   -5,145284534e-01   -6,205007434e-01    0,000000000e+00    0,000000000e+00    0,000000000e+00    0,000000000e+00
      142000000    1,457244996e-02   -2,966370899e-03   -7,672573328e-01   -2,366340607e-01    0,000000000e+00    0,000000000e+00    0,000000000e+00    0,000000000e+00
      156000000    1,586845890e-02   -1,468000561e-02   -7,722559571e-01    2,235040963e-01    0,000000000e+00    0,000000000e+00    0,000000000e+00    0,000000000e+00
      170000000    1,675135083e-02   -2,254448645e-02   -5,182402134e-01    6,049005389e-01    0,000000000e+00    0,000000000e+00    0,000000000e+00    0,000000000e+00
      184000000    2,105520666e-02   -3,707801178e-02   -1,014461145e-01    7,862195373e-01    0,000000000e+00    0,000000000e+00    0,000000000e+00    0,000000000e+00
      198000000    1,302072220e-02   -6,247957423e-02    3,433592916e-01    7,124575973e-01    0,000000000e+00    0,000000000e+00    0,000000000e+00    0,000000000e+00
      212000000   -1,863371208e-02   -8,130867034e-02    6,782064438e-01    4,098341167e-01    0,000000000e+00    0,000000000e+00    0,000000000e+00    0,000000000e+00
      226000000   -6,166819111e-02   -6,915892661e-02    7,958092093e-01   -3,061578423e-02    0,000000000e+00    0,000000000e+00    0,000000000e+00    0,000000000e+00
      240000000   -8,258519322e-02   -2,564163692e-02    6,459561586e-01   -4,670008719e-01    0,000000000e+00    0,000000000e+00    0,000000000e+00    0,000000000e+00
      254000000   -6,345304102e-02    1,726685278e-02    2,758970857e-01   -7,434859872e-01    0,000000000e+00    0,000000000e+00    0,000000000e+00    0,000000000e+00
      268000000   -2,386759594e-02    2,888443135e-02   -1,783784926e-01   -7,645605803e-01    0,000000000e+00    0,000000000e+00    0,000000000e+00    0,000000000e+00
      282000000    4,213726148e-03    1,197506022e-02   -5,618699789e-01   -5,355068445e-01    0,000000000e+00    0,000000000e+00    0,000000000e+00    0,000000000e+00
      296000000    9,698118083e-03   -7,941657677e-03   -7,595804930e-01   -1,395069212e-01    0,000000000e+00    0,000000000e+00    0,000000000e+00    0,000000000e+00
      310000000    1,121306978e-02   -1,621090434e-02   -7,111417055e-01    2,981972396e-01    0,000000000e+00    0,000000000e+00    0,000000000e+00    0,000000000e+00
      324000000    1,979334839e-02   -2,660788037e-02   -4,275382459e-01    6,373839378e-01    0,000000000e+00    0,000000000e+00    0,000000000e+00    0,000000000e+00
      338000000    2,559195645e-02   -5,203431845e-02   -1,050447673e-02    7,607074380e-01    0,000000000e+00    0,000000000e+00    0,000000000e+00    0,000000000e+00
      352000000    7,488536183e-03   -8,507764339e-02    4,069356620e-01    6,387792230e-01    0,000000000e+00    0,000000000e+00    0,000000000e+00    0,000000000e+00
      366000000   -3,462913632e-02   -9,537351876e-02    6,903924942e-01    3,111926019e-01    0,000000000e+00    0,000000000e+00    0,000000000e+00    0,000000000e+00
      380000000   -7,078354806e-02   -7,113398612e-02    7,477716208e-01   -1,262818277e-01    0,000000000e+00    0,000000000e+00    0,000000000e+00    0,000000000e+00
      394000000   -7,250314951e-02   -3,229431063e-02    5,459460616e-01   -5,220500231e-01    0,000000000e+00    0,000000000e+00    0,000000000e+00    0,000000000e+00
      408000000   -4,646002129e-02   -1,629099436e-02    1,614681482e-01   -7,330527306e-01    0,000000000e+00    0,000000000e+00    0,000000000e+00    0,000000000e+00
      422000000   -2,845898084e-02   -3,196408227e-02   -2,680259645e-01   -6,949916482e-01    0,000000000e+00    0,000000000e+00    0,000000000e+00    0,000000000e+00
      436000000   -4,086392745e-02   -5,176068470e-02   -6,041382551e-01   -4,317337275e-01    0,000000000e+00    0,000000000e+00    0,000000000e+00    0,000000000e+00
      450000000   -6,771242619e-02   -4,399415478e-02   -7,408710718e-01   -2,105921879e-02    0,000000000e+00    0,000000000e+00    0,000000000e+00    0,000000000e+00
      464000000   -7,369139045e-02   -1,194110792e-02   -6,184915900e-01    3,977767229e-01    0,000000000e+00    0,000000000e+00    0,000000000e+00    0,000000000e+00
      478000000   -4,778687656e-02    1,163621433e-02   -2,818609476e-01    6,673927903e-01    0,000000000e+00    0,000000000e+00    0,000000000e+00    0,000000000e+00
      492000000   -1,551161427e-02    5,885702092e-03    1,378601342e-01    7,017343640e-01    0,000000000e+00    0,000000000e+00    0,000000000e+00    0,000000000e+00
      506000000   -2,909508534e-03   -1,598834246e-02    4,980057180e-01    5,021715164e-01    0,000000000e+00    0,000000000e+00    0,000000000e+00    0,000000000e+00
      520000000   -5,236871541e-03   -3,154067323e-02    6,887208223e-01    1,412995309e-01    0,000000000e+00    0,000000000e+00    0,000000000e+00    0,000000000e+00
      534000000   -3,862153739e-03   -3,802156448e-02    6,436794996e-01   -2,621170282e-01    0,000000000e+00    0,000000000e+00    0,000000000e+00    0,000000000e+00
      548000000    5,887237843e-03   -5,394447222e-02    3,807130456e-01   -5,670486093e-01    0,000000000e+00    0,000000000e+00    0,000000000e+00    0,000000000e+00
      562000000    3,275520168e-03   -8,941265941e-02    2,949704183e-03   -6,725460887e-01    0,000000000e+00    0,000000000e+00    0,000000000e+00    0,000000000e+00
      576000000   -3,420941904e-02   -1,247351095e-01   -3,701323569e-01   -5,582014322e-01    0,000000000e+00    0,000000000e+00    0,000000000e+00    0,000000000e+00
      590000000   -9,636218101e-02   -1,224825382e-01   -6,219980717e-01   -2,651744485e-01    0,000000000e+00    0,000000000e+00    0,000000000e+00    0,000000000e+00
      604000000   -1,395414174e-01   -7,164525241e-02   -6,652801633e-01    1,380161941e-01    0,000000000e+00    0,000000000e+00    0,000000000e+00    0,000000000e+00
      618000000   -1,290270984e-01   -9,044926614e-03   -4,641236067e-01    4,943549931e-01    0,000000000e+00    0,000000000e+00    0,000000000e+00    0,000000000e+00
      632000000   -8,354287595e-02    1,697459817e-02   -9,880727530e-02    6,643077731e-01    0,000000000e+00    0,000000000e+00    0,000000000e+00    0,000000000e+00
      646000000   -5,072851107e-02    1,444470836e-04    2,875711024e-01    5,947232246e-01    0,000000000e+00    0,000000000e+00    0,000000000e+00    0,000000000e+00
      660000000   -5,273975059e-02   -2,168318070e-02    5,679298043e-01    3,220908940e-01    0,000000000e+00    0,000000000e+00    0,000000000e+00    0,000000000e+00
      674000000   -7,027596235e-02   -1,706491038e-02    6,432180405e-01   -6,552661210e-02    0,000000000e+00    0,000000000e+00    0,000000000e+00    0,000000000e+00
      688000000   -6,768816710e-02    8,310468867e-03    4,704046249e-01   -4,278179109e-01    0,000000000e+00    0,000000000e+00    0,000000000e+00    0,000000000e+00
      702000000   -3,714118153e-02    2,702577412e-02    1,159170493e-01   -6,152167320e-01    0,000000000e+00    0,000000000e+00    0,000000000e+00    0,000000000e+00
      716000000    2,913822886e-03    1,796279103e-02   -2,649787068e-01   -5,461283922e-01    0,000000000e+00    0,000000000e+00    0,000000000e+00    0,000000000e+00
      730000000    3,697818145e-02   -1,060471870e-02   -5,287135839e-01   -2,689231336e-01    0,000000000e+00    0,000000000e+00    0,000000000e+00    0,000000000e+00
      744000000    6,524717063e-02   -6,294935197e-02   -5,644898415e-01    1,067132652e-01    0,000000000e+00    0,000000000e+00    0,000000000e+00    0,000000000e+00
      758000000    6,565347314e-02   -1,519816965e-01   -3,637955785e-01    4,103614688e-01    0,000000000e+00    0,000000000e+00    0,000000000e+00    0,000000000e+00
      772000000   -1,243972871e-02   -2,619093359e-01   -3,488571569e-02    5,154817104e-01    0,000000000e+00    0,000000000e+00    0,000000000e+00    0,000000000e+00
      786000000   -2,068130970e-01   -3,023952246e-01    2,747256160e-01    3,953936696e-01    0,000000000e+00    0,000000000e+00    0,000000000e+00    0,000000000e+00
      800000000   -4,252284467e-01   -1,311080456e-01    4,171958566e-01    9,887675196e-02    0,000000000e+00    0,000000000e+00    0,000000000e+00    0,000000000e+00
      814000000   -3,884860873e-01    2,213880271e-01    2,828632295e-01   -1,730496734e-01    0,000000000e+00    0,000000000e+00    0,000000000e+00    0,000000000e+00
      828000000   -4,994288087e-02    3,681572378e-01    5,466803536e-02   -1,892495900e-01    0,000000000e+00    0,000000000e+00    0,000000000e+00    0,000000000e+00
      842000000    2,348706424e-01    1,860517412e-01   -1,733490638e-02   -7,061329484e-02    0,000000000e+00    0,000000000e+00    0,000000000e+00    0,000000000e+00
      856000000    2,806281745e-01   -1,244156808e-01    4,557481408e-02   -1,335681975e-02    0,000000000e+00    0,000000000e+00    0,000000000e+00    0,000000000e+00
      870000000    7,550143450e-02   -3,766126335e-01    1,136319637e-01   -9,144082665e-02    0,000000000e+00    0,000000000e+00    0,000000000e+00    0,000000000e+00
      884000000   -2,958028913e-01   -3,605130315e-01    2,815474384e-02   -2,452417016e-01    0,000000000e+00    0,000000000e+00    0,000000000e+00    0,000000000e+00
      898000000   -4,714148343e-01    8,967634290e-03   -2,210044265e-01   -2,274509817e-01    0,000000000e+00    0,000000000e+00    0,000000000e+00    0,000000000e+00
      912000000   -2,267458737e-01    2,940585017e-01   -3,542224467e-01    6,482773274e-02    0,000000000e+00    0,000000000e+00    0,000000000e+00    0,000000000e+00
      926000000    6,630187482e-02    2,651261687e-01   -2,169256955e-01    2,645080090e-01    0,000000000e+00    0,000000000e+00    0,000000000e+00    0,000000000e+00
      940000000    2,177471519e-01    7,852148265e-02   -3,478916362e-02    3,303575218e-01    0,000000000e+00    0,000000000e+00    0,000000000e+00    0,000000000e+00
      954000000    2,217799723e-01   -1,283461004e-01    1,303894073e-01    3,057676852e-01    0,000000000e+00    0,000000000e+00    0,000000000e+00    0,000000000e+00
      968000000    1,141616851e-01   -3,012209535e-01    2,699882090e-01    2,190149724e-01    0,000000000e+00    0,000000000e+00    0,000000000e+00    0,000000000e+00
      982000000   -7,897337526e-02   -3,874251246e-01    3,659236729e-01    6,510956585e-02    0,000000000e+00    0,000000000e+00    0,000000000e+00    0,000000000e+00
      996000000   -3,189733028e-01   -3,313060701e-01    3,693376184e-01   -1,463181376e-01    0,000000000e+00    0,000000000e+00    0,000000000e+00    0,000000000e+00
     1010000000   -4,639796317e-01   -1,141528115e-01    2,215691805e-01   -3,418980539e-01    0,000000000e+00    0,000000000e+00    0,000000000e+00    0,000000000e+00
     1024000000   -4,110398293e-01    1,475627124e-01   -3,263093531e-02   -3,921769559e-01    0,000000000e+00    0,000000000e+00    0,000000000e+00    0,000000000e+00
     1038000000   -2,154210210e-01    2,953957021e-01   -2,485841513e-01   -2,623171508e-01    0,000000000e+00    0,000000000e+00    0,000000000e+00    0,000000000e+00
     1052000000   -6,143861450e-03    2,749160230e-01   -3,183395565e-01   -4,417420551e-02    0,000000000e+00    0,000000000e+00    0,000000000e+00    0,000000000e+00
     1066000000    1,380943209e-01    1,633585542e-01   -2,578052580e-01    1,422942132e-01    0,000000000e+00    0,000000000e+00    0,000000000e+00    0,000000000e+00
     1080000000    1,918706596e-01   -2,105804626e-03   -1,186500713e-01    2,635281980e-01    0,000000000e+00    0,000000000e+00    0,000000000e+00    0,000000000e+00
     1094000000    1,544384211e-01   -1,713602096e-01    6,331705302e-02    3,037259281e-01    0,000000000e+00    0,000000000e+00    0,000000000e+00    0,000000000e+00
     1108000000    4,662184510e-04   -3,079920709e-01    2,771613598e-01    2,472090423e-01    0,000000000e+00    0,000000000e+00    0,000000000e+00    0,000000000e+00
     1122000000   -2,458570302e-01   -2,638146579e-01    4,706846476e-01    1,185878925e-02    0,000000000e+00    0,000000000e+00    0,000000000e+00    0,000000000e+00
     1136000000   -3,144500256e-01    3,368837759e-02    3,979095817e-01   -3,918828964e-01    0,000000000e+00    0,000000000e+00    0,000000000e+00    0,000000000e+00
     1150000000   -4,012077302e-02    1,488783360e-01    3,824017709e-03   -5,459682345e-01    0,000000000e+00    0,000000000e+00    0,000000000e+00    0,000000000e+00
     1164000000    1,215007976e-01   -6,057377160e-02   -2,785693705e-01   -3,759259284e-01    0,000000000e+00    0,000000000e+00    0,000000000e+00    0,000000000e+00
     1178000000    1,918208785e-02   -3,033550084e-01   -3,698388040e-01   -1,511044204e-01    0,000000000e+00    0,000000000e+00    0,000000000e+00    0,000000000e+00
     1192000000   -2,643745542e-01   -3,731455505e-01   -3,219915032e-01    5,417389050e-02    0,000000000e+00    0,000000000e+00    0,000000000e+00    0,000000000e+00
     1206000000   -5,187740326e-01   -1,603189111e-01   -1,677383184e-01    1,836801171e-01    0,000000000e+00    0,000000000e+00    0,000000000e+00    0,000000000e+00
     1220000000   -5,066129565e-01    1,786599010e-01    1,361615025e-03    1,569817215e-01    0,000000000e+00    0,000000000e+00    0,000000000e+00    0,000000000e+00
     1234000000   -2,852702439e-01    3,593622148e-01    6,800855696e-02    5,688336119e-02    0,000000000e+00    0,000000000e+00    0,000000000e+00    0,000000000e+00
     1248000000   -4,954235256e-02    3,682913780e-01    5,240071192e-02   -4,411872942e-03    0,000000000e+00    0,000000000e+00    0,000000000e+00    0,000000000e+00
     1262000000    1,199913025e-01    2,526633143e-01    1,569940522e-02   -2,047127485e-02    0,000000000e+00    0,000000000e+00    0,000000000e+00    0,000000000e+00
     1276000000    2,074270844e-01    9,864097834e-02    5,347130354e-04    2,178899245e-03    0,000000000e+00    0,000000000e+00    0,000000000e+00    0,000000000e+00
     1290000000    2,221762389e-01   -7,292614877e-02    1,730489731e-02    5,008252710e-02    0,000000000e+00    0,000000000e+00    0,000000000e+00    0,000000000e+00
     1304000000    1,531546414e-01   -2,426366806e-01    1,298102885e-01    6,567271799e-02    0,000000000e+00    0,000000000e+00    0,000000000e+00    0,000000000e+00
     1318000000    3,561177850e-02   -3,398697376e-01    1,256493181e-01   -1,626461148e-01    0,000000000e+00    0,000000000e+00    0,000000000e+00    0,000000000e+00
     1332000000   -1,310524940e-01   -4,410490990e-01   -3,278100118e-02   -5,180532858e-02    0,000000000e+00    0,000000000e+00    0,000000000e+00    0,000000000e+00
     1346000000   -4,033035636e-01   -4,095260501e-01    1,643119380e-02    7,030856609e-02    0,000000000e+00    0,000000000e+00    0,000000000e+00    0,000000000e+00
     1360000000   -6,107622385e-01   -1,919506192e-01    1,422552913e-01    6,492270529e-02    0,000000000e+00    0,000000000e+00    0,000000000e+00    0,000000000e+00
     1374000000   -6,269606352e-01    1,247311532e-01    2,014431804e-01    1,286964631e-03    0,000000000e+00    0,000000000e+00    0,000000000e+00    0,000000000e+00
     1388000000   -4,744119048e-01    3,702244461e-01    2,051817179e-01   -7,124397159e-02    0,000000000e+00    0,000000000e+00    0,000000000e+00    0,000000000e+00
     1402000000   -2,311131954e-01    4,585445225e-01    1,871862859e-01   -9,642938524e-02    0,000000000e+00    0,000000000e+00    0,000000000e+00    0,000000000e+00
     1416000000   -2,598167583e-02    4,110110998e-01    1,728119850e-01   -1,077359989e-01    0,000000000e+00    0,000000000e+00    0,000000000e+00    0,000000000e+00
     1430000000    1,166580394e-01    3,057767153e-01    1,633843035e-01   -1,022827476e-01    0,000000000e+00    0,000000000e+00    0,000000000e+00    0,000000000e+00
     1444000000    2,051138282e-01    1,528796852e-01    1,566513628e-01   -8,580236137e-02    0,000000000e+00    0,000000000e+00    0,000000000e+00    0,000000000e+00
     1458000000    2,333589494e-01   -2,201678045e-02    1,362736970e-01   -8,263265342e-02    0,000000000e+00    0,000000000e+00    0,000000000e+00    0,000000000e+00
     1472000000    1,895457804e-01   -2,006223053e-01    1,398458928e-01   -1,772106253e-02    0,000000000e+00    0,000000000e+00    0,000000000e+00    0,000000000e+00
     1486000000    5,473930016e-02   -3,744222522e-01    1,639100760e-01    3,765074536e-02    0,000000000e+00    0,000000000e+00    0,000000000e+00    0,000000000e+00
     1500000000   -1,734971255e-01   -4,936544001e-01    2,557222247e-01    9,844280779e-02    0,000000000e+00    0,000000000e+00    0,000000000e+00    0,000000000e+00
