! NanoVNA-App
! Date: 2025-09-25 15:32:13
! Start: 100MHz Stop: 1,5GHz Points: 101
! S-Parameter data: F S11 S21 S12 S22
# Hz S RI R 50
!     Frequency           S11_Real           S11_Imag           S21_Real           S21_Imag           S12_Real           S12_Imag           S22_Real           S22_Imag
      100000000   -2,887424454e-02   -4,176942166e-03    3,741461337e-01   -7,217884064e-01    0,000000000e+00    0,000000000e+00    0,000000000e+00    0,000000000e+00
      114000000   -1,650775224e-02    1,152336132e-02   -8,907594532e-02   -8,052942753e-01    0,000000000e+00    0,000000000e+00    0,000000000e+00    0,000000000e+00
      128000000    3,497032681e-03    1,054608542e-02   -5,144719481e-01   -6,206228733e-01    0,000000000e+00    0,000000000e+00    0,000000000e+00    0,000000000e+00
      142000000    1,454449166e-02   -2,934693359e-03   -7,670775652e-01   -2,364358753e-01    0,000000000e+00    0,000000000e+00    0,000000000e+00    0,000000000e+00
      156000000    1,542413235e-02   -1,497147884e-02   -7,713819146e-01    2,219011933e-01    0,000000000e+00    0,000000000e+00    0,000000000e+00    0,000000000e+00
      170000000    1,666983590e-02   -2,257639170e-02   -5,180378556e-01    6,046572328e-01    0,000000000e+00    0,000000000e+00    0,000000000e+00    0,000000000e+00
      184000000    2,100733854e-02   -3,706675023e-02   -1,014920920e-01    7,861810327e-01    0,000000000e+00    0,000000000e+00    0,000000000e+00    0,000000000e+00
      198000000    1,299141534e-02   -6,242740527e-02    3,434775770e-01    7,124834657e-01    0,000000000e+00    0,000000000e+00    0,000000000e+00    0,000000000e+00
      212000000   -1,865392923e-02   -8,128703386e-02    6,782018542e-01    4,098941088e-01    0,000000000e+00    0,000000000e+00    0,000000000e+00    0,000000000e+00
      226000000   -6,169961020e-02   -6,920608878e-02    7,958814502e-01   -3,048407286e-02    0,000000000e+00    0,000000000e+00    0,000000000e+00    0,000000000e+00
      240000000   -8,261503279e-02   -2,565106936e-02    6,460642219e-01   -4,669449627e-01    0,000000000e+00    0,000000000e+00    0,000000000e+00    0,000000000e+00
      254000000   -6,351424754e-02    1,724184491e-02    2,760868371e-01   -7,434213161e-01    0,000000000e+00    0,000000000e+00    0,000000000e+00    0,000000000e+00
      268000000   -2,386317961e-02    2,895348333e-02   -1,784602851e-01   -7,642104030e-01    0,000000000e+00    0,000000000e+00    0,000000000e+00    0,000000000e+00
      282000000    4,173498135e-03    1,200323924e-02   -5,619900823e-01   -5,355693698e-01    0,000000000e+00    0,000000000e+00    0,000000000e+00    0,000000000e+00
      296000000    9,780912660e-03   -7,917111740e-03   -7,596080303e-01   -1,395267993e-01    0,000000000e+00    0,000000000e+00    0,000000000e+00    0,000000000e+00
      310000000    1,086610835e-02   -1,614674367e-02   -7,116304040e-01    2,981448770e-01    0,000000000e+00    0,000000000e+00    0,000000000e+00    0,000000000e+00
      324000000    1,957713254e-02   -2,643799596e-02   -4,276148379e-01    6,377851367e-01    0,000000000e+00    0,000000000e+00    0,000000000e+00    0,000000000e+00
      338000000    2,560372651e-02   -5,192970484e-02   -6,588111166e-03    7,605032325e-01    0,000000000e+00    0,000000000e+00    0,000000000e+00    0,000000000e+00
      352000000    7,182907313e-03   -8,482023329e-02    4,074241221e-01    6,396063566e-01    0,000000000e+00    0,000000000e+00    0,000000000e+00    0,000000000e+00
      366000000   -3,485016897e-02   -9,570185840e-02    6,903591752e-01    3,107649088e-01    0,000000000e+00    0,000000000e+00    0,000000000e+00    0,000000000e+00
      380000000   -7,079546154e-02   -7,149498910e-02    7,477024794e-01   -1,261846870e-01    0,000000000e+00    0,000000000e+00    0,000000000e+00    0,000000000e+00
      394000000   -7,235119492e-02   -3,235550597e-02    5,460410714e-01   -5,222906470e-01    0,000000000e+00    0,000000000e+00    0,000000000e+00    0,000000000e+00
      408000000   -4,654510319e-02   -1,610340737e-02    1,618935764e-01   -7,325035334e-01    0,000000000e+00    0,000000000e+00    0,000000000e+00    0,000000000e+00
      422000000   -2,827510983e-02   -3,211303800e-02   -2,672545016e-01   -6,947038174e-01    0,000000000e+00    0,000000000e+00    0,000000000e+00    0,000000000e+00
      436000000   -4,049845785e-02   -5,195904151e-02   -6,042117476e-01   -4,322643280e-01    0,000000000e+00    0,000000000e+00    0,000000000e+00    0,000000000e+00
      450000000   -6,748481095e-02   -4,396777600e-02   -7,404719591e-01   -2,146745659e-02    0,000000000e+00    0,000000000e+00    0,000000000e+00    0,000000000e+00
      464000000   -7,318998128e-02   -1,180201955e-02   -6,189888120e-01    3,975065351e-01    0,000000000e+00    0,000000000e+00    0,000000000e+00    0,000000000e+00
      478000000   -4,797937348e-02    1,183643378e-02   -2,826578021e-01    6,678993106e-01    0,000000000e+00    0,000000000e+00    0,000000000e+00    0,000000000e+00
      492000000   -1,596353389e-02    5,816121586e-03    1,370402277e-01    7,020944357e-01    0,000000000e+00    0,000000000e+00    0,000000000e+00    0,000000000e+00
      506000000   -2,660023049e-03   -1,593968272e-02    4,985271096e-01    5,022830367e-01    0,000000000e+00    0,000000000e+00    0,000000000e+00    0,000000000e+00
      520000000   -4,923066124e-03   -3,175724670e-02    6,898481250e-01    1,418102682e-01    0,000000000e+00    0,000000000e+00    0,000000000e+00    0,000000000e+00
      534000000   -3,893343499e-03   -3,824174777e-02    6,438118219e-01   -2,630142868e-01    0,000000000e+00    0,000000000e+00    0,000000000e+00    0,000000000e+00
      548000000    6,539924536e-03   -5,396731943e-02    3,815120459e-01   -5,666177869e-01    0,000000000e+00    0,000000000e+00    0,000000000e+00    0,000000000e+00
      562000000    3,017073264e-03   -8,938397467e-02    1,649659476e-03   -6,724604368e-01    0,000000000e+00    0,000000000e+00    0,000000000e+00    0,000000000e+00
      576000000   -3,415869921e-02   -1,240509823e-01   -3,689241707e-01   -5,574018955e-01    0,000000000e+00    0,000000000e+00    0,000000000e+00    0,000000000e+00
      590000000   -9,608684480e-02   -1,226942986e-01   -6,220068932e-01   -2,649344206e-01    0,000000000e+00    0,000000000e+00    0,000000000e+00    0,000000000e+00
      604000000   -1,393589228e-01   -7,208673656e-02   -6,653829813e-01    1,380530149e-01    0,000000000e+00    0,000000000e+00    0,000000000e+00    0,000000000e+00
      618000000   -1,294836998e-01   -8,830892853e-03   -4,638616145e-01    4,949034750e-01    0,000000000e+00    0,000000000e+00    0,000000000e+00    0,000000000e+00
      632000000   -8,368706703e-02    1,619675010e-02   -9,862729907e-02    6,634020209e-01    0,000000000e+00    0,000000000e+00    0,000000000e+00    0,000000000e+00
      646000000   -5,147719383e-02    7,113047759e-04    2,873589098e-01    5,949335098e-01    0,000000000e+00    0,000000000e+00    0,000000000e+00    0,000000000e+00
      660000000   -5,354909599e-02   -2,160556614e-02    5,670794845e-01    3,230204284e-01    0,000000000e+00    0,000000000e+00    0,000000000e+00    0,000000000e+00
      674000000   -7,078929991e-02   -1,791580208e-02    6,434248090e-01   -6,561767310e-02    0,000000000e+00    0,000000000e+00    0,000000000e+00    0,000000000e+00
      688000000   -6,785994023e-02    9,335482493e-03    4,715204239e-01   -4,282757938e-01    0,000000000e+00    0,000000000e+00    0,000000000e+00    0,000000000e+00
      702000000   -3,696021810e-02    2,620705962e-02    1,161877289e-01   -6,112713218e-01    0,000000000e+00    0,000000000e+00    0,000000000e+00    0,000000000e+00
      716000000    2,674132353e-03    1,726552844e-02   -2,645353675e-01   -5,466721654e-01    0,000000000e+00    0,000000000e+00    0,000000000e+00    0,000000000e+00
      730000000    3,636716679e-02   -1,085198857e-02   -5,284673572e-01   -2,688405514e-01    0,000000000e+00    0,000000000e+00    0,000000000e+00    0,000000000e+00
      744000000    6,452514231e-02   -6,260034442e-02   -5,643361211e-01    1,064125299e-01    0,000000000e+00    0,000000000e+00    0,000000000e+00    0,000000000e+00
      758000000    6,627323478e-02   -1,528731287e-01   -3,631182909e-01    4,111443460e-01    0,000000000e+00    0,000000000e+00    0,000000000e+00    0,000000000e+00
      772000000   -1,268490218e-02   -2,628505528e-01   -3,476363420e-02    5,152485371e-01    0,000000000e+00    0,000000000e+00    0,000000000e+00    0,000000000e+00
      786000000   -2,060482800e-01   -3,025797009e-01    2,744697034e-01    3,959844112e-01    0,000000000e+00    0,000000000e+00    0,000000000e+00    0,000000000e+00
      800000000   -4,262219369e-01   -1,307324469e-01    4,171185493e-01    9,872580320e-02    0,000000000e+00    0,000000000e+00    0,000000000e+00    0,000000000e+00
      814000000   -3,901384175e-01    2,209417224e-01    2,822011113e-01   -1,728090644e-01    0,000000000e+00    0,000000000e+00    0,000000000e+00    0,000000000e+00
      828000000   -4,903107882e-02    3,682266474e-01    5,563975498e-02   -1,887895167e-01    0,000000000e+00    0,000000000e+00    0,000000000e+00    0,000000000e+00
      842000000    2,352700680e-01    1,859776527e-01   -1,710416935e-02   -7,081180811e-02    0,000000000e+00    0,000000000e+00    0,000000000e+00    0,000000000e+00
      856000000    2,807332575e-01   -1,242935359e-01    4,548389465e-02   -1,349495351e-02    0,000000000e+00    0,000000000e+00    0,000000000e+00    0,000000000e+00
      870000000    7,489154488e-02   -3,762643039e-01    1,138020754e-01   -9,140142053e-02    0,000000000e+00    0,000000000e+00    0,000000000e+00    0,000000000e+00
      884000000   -2,962527573e-01   -3,615446389e-01    2,836747281e-02   -2,455565482e-01    0,000000000e+00    0,000000000e+00    0,000000000e+00    0,000000000e+00
      898000000   -4,716318250e-01    8,230232634e-03   -2,215600461e-01   -2,281673700e-01    0,000000000e+00    0,000000000e+00    0,000000000e+00    0,000000000e+00
      912000000   -2,271315157e-01    2,942884266e-01   -3,395527303e-01    7,613270730e-02    0,000000000e+00    0,000000000e+00    0,000000000e+00    0,000000000e+00
      926000000    6,713102758e-02    2,644681931e-01   -2,154433727e-01    2,654848993e-01    0,000000000e+00    0,000000000e+00    0,000000000e+00    0,000000000e+00
      940000000    2,146626413e-01    8,144779503e-02   -3,679873422e-02    3,290781379e-01    0,000000000e+00    0,000000000e+00    0,000000000e+00    0,000000000e+00
      954000000    2,216452062e-01   -1,277042478e-01    1,311759353e-01    3,057901263e-01    0,000000000e+00    0,000000000e+00    0,000000000e+00    0,000000000e+00
      968000000    1,169980913e-01   -2,978825569e-01    2,711110413e-01    2,178437561e-01    0,000000000e+00    0,000000000e+00    0,000000000e+00    0,000000000e+00
      982000000   -8,064368367e-02   -3,895124495e-01    3,656847477e-01    6,524638087e-02    0,000000000e+00    0,000000000e+00    0,000000000e+00    0,000000000e+00
      996000000   -3,193301558e-01   -3,288234770e-01    3,687021434e-01   -1,452739388e-01    0,000000000e+00    0,000000000e+00    0,000000000e+00    0,000000000e+00
     1010000000   -4,664629102e-01   -1,132291332e-01    2,226783037e-01   -3,406866491e-01    0,000000000e+00    0,000000000e+00    0,000000000e+00    0,000000000e+00
     1024000000   -4,149380922e-01    1,463776380e-01   -3,402286768e-02   -3,945938051e-01    0,000000000e+00    0,000000000e+00    0,000000000e+00    0,000000000e+00
     1038000000   -2,152346969e-01    2,898669839e-01   -2,482543141e-01   -2,606509924e-01    0,000000000e+00    0,000000000e+00    0,000000000e+00    0,000000000e+00
     1052000000   -1,012101863e-02    2,794404030e-01   -3,180274367e-01   -4,635121673e-02    0,000000000e+00    0,000000000e+00    0,000000000e+00    0,000000000e+00
     1066000000    1,370424926e-01    1,662019342e-01   -2,578906715e-01    1,423698813e-01    0,000000000e+00    0,000000000e+00    0,000000000e+00    0,000000000e+00
     1080000000    1,959429234e-01   -2,485732315e-03   -1,188065410e-01    2,624092698e-01    0,000000000e+00    0,000000000e+00    0,000000000e+00    0,000000000e+00
     1094000000    1,506924480e-01   -1,746561527e-01    6,519120932e-02    3,057323992e-01    0,000000000e+00    0,000000000e+00    0,000000000e+00    0,000000000e+00
     1108000000    1,715331106e-03   -3,041752577e-01    2,769901454e-01    2,454864979e-01    0,000000000e+00    0,000000000e+00    0,000000000e+00    0,000000000e+00
     1122000000   -2,501838505e-01   -2,594904900e-01    4,727849960e-01    1,348477602e-02    0,000000000e+00    0,000000000e+00    0,000000000e+00    0,000000000e+00
     1136000000   -3,195360005e-01    3,721449524e-02    3,986050189e-01   -3,960059285e-01    0,000000000e+00    0,000000000e+00    0,000000000e+00    0,000000000e+00
     1150000000   -4,114587232e-02    1,535931528e-01    2,198528033e-03   -5,404663086e-01    0,000000000e+00    0,000000000e+00    0,000000000e+00    0,000000000e+00
     1164000000    1,257689744e-01   -6,484477222e-02   -2,770493925e-01   -3,794664145e-01    0,000000000e+00    0,000000000e+00    0,000000000e+00    0,000000000e+00
     1178000000    1,627405174e-02   -3,040580750e-01   -3,696050942e-01   -1,514077485e-01    0,000000000e+00    0,000000000e+00    0,000000000e+00    0,000000000e+00
     1192000000   -2,681441903e-01   -3,748593926e-01   -3,256607950e-01    5,528953671e-02    0,000000000e+00    0,000000000e+00    0,000000000e+00    0,000000000e+00
     1206000000   -5,233967900e-01   -1,607212424e-01   -1,668633819e-01    1,811671555e-01    0,000000000e+00    0,000000000e+00    0,000000000e+00    0,000000000e+00
     1220000000   -5,052262545e-01    1,701961458e-01    2,492360538e-03    1,584431380e-01    0,000000000e+00    0,000000000e+00    0,000000000e+00    0,000000000e+00
     1234000000   -2,906087637e-01    3,623916805e-01    7,119768113e-02    5,912801251e-02    0,000000000e+00    0,000000000e+00    0,000000000e+00    0,000000000e+00
     1248000000   -3,894497082e-02    3,690254688e-01    5,581247807e-02   -7,511648815e-03    0,000000000e+00    0,000000000e+00    0,000000000e+00    0,000000000e+00
     1262000000    1,265322715e-01    2,523894310e-01    1,949268393e-02   -2,552045137e-02    0,000000000e+00    0,000000000e+00    0,000000000e+00    0,000000000e+00
     1276000000    2,101630867e-01    9,899666905e-02   -3,865407547e-03    6,192698143e-03    0,000000000e+00    0,000000000e+00    0,000000000e+00    0,000000000e+00
     1290000000    2,243173718e-01   -7,631024718e-02    1,991130598e-02    4,752666503e-02    0,000000000e+00    0,000000000e+00    0,000000000e+00    0,000000000e+00
     1304000000    1,570532471e-01   -2,419518679e-01    1,338672936e-01    6,787919253e-02    0,000000000e+00    0,000000000e+00    0,000000000e+00    0,000000000e+00
     1318000000    3,731841594e-02   -3,347564936e-01    1,314916909e-01   -1,653554142e-01    0,000000000e+00    0,000000000e+00    0,000000000e+00    0,000000000e+00
     1332000000   -1,268389970e-01   -4,450692534e-01   -4,163062572e-02   -4,571814463e-02    0,000000000e+00    0,000000000e+00    0,000000000e+00    0,000000000e+00
     1346000000   -3,984010816e-01   -4,063370228e-01    1,774930581e-02    7,228773087e-02    0,000000000e+00    0,000000000e+00    0,000000000e+00    0,000000000e+00
     1360000000   -6,161112189e-01   -1,949775517e-01    1,304534227e-01    7,745145261e-02    0,000000000e+00    0,000000000e+00    0,000000000e+00    0,000000000e+00
     1374000000   -6,276909113e-01    1,326620579e-01    2,111694813e-01    8,849721402e-03    0,000000000e+00    0,000000000e+00    0,000000000e+00    0,000000000e+00
     1388000000   -4,603723288e-01    3,680563867e-01    2,202114612e-01   -7,625597715e-02    0,000000000e+00    0,000000000e+00    0,000000000e+00    0,000000000e+00
     1402000000   -2,300028950e-01    4,552877247e-01    1,911822557e-01   -8,724743128e-02    0,000000000e+00    0,000000000e+00    0,000000000e+00    0,000000000e+00
     1416000000   -2,650906891e-02    4,102248549e-01    1,701721549e-01   -1,074034274e-01    0,000000000e+00    0,000000000e+00    0,000000000e+00    0,000000000e+00
     1430000000    1,211692542e-01    3,022954166e-01    1,569262296e-01   -9,727037698e-02    0,000000000e+00    0,000000000e+00    0,000000000e+00    0,000000000e+00
     1444000000    2,058664560e-01    1,467339694e-01    1,572240591e-01   -1,022167504e-01    0,000000000e+00    0,000000000e+00    0,000000000e+00    0,000000000e+00
     1458000000    2,363190204e-01   -2,289806865e-02    1,493158191e-01   -7,483514398e-02    0,000000000e+00    0,000000000e+00    0,000000000e+00    0,000000000e+00
     1472000000    1,903188080e-01   -2,018099278e-01    1,491519064e-01   -2,969656140e-02    0,000000000e+00    0,000000000e+00    0,000000000e+00    0,000000000e+00
     1486000000    6,650742888e-02   -3,648214936e-01    1,650051028e-01    4,699768499e-02    0,000000000e+00    0,000000000e+00    0,000000000e+00    0,000000000e+00
     1500000000   -1,709174067e-01   -4,900474250e-01    2,580378354e-01    9,802650660e-02    0,000000000e+00    0,000000000e+00    0,000000000e+00    0,000000000e+00
