! NanoVNA-App
! Date: 2025-09-25 15:36:02
! Start: 100MHz Stop: 1,5GHz Points: 101
! S-Parameter data: F S11 S21 S12 S22
# Hz S RI R 50
!     Frequency           S11_Real           S11_Imag           S21_Real           S21_Imag           S12_Real           S12_Imag           S22_Real           S22_Imag
      100000000   -2,882014029e-02   -4,175175913e-03    3,740838766e-01   -7,217668891e-01    0,000000000e+00    0,000000000e+00    0,000000000e+00    0,000000000e+00
      114000000   -1,645911485e-02    1,151735429e-02   -8,898373693e-02   -8,052772880e-01    0,000000000e+00    0,000000000e+00    0,000000000e+00    0,000000000e+00
      128000000    3,532142844e-03    1,054537948e-02   -5,143565536e-01   -6,204702854e-01    0,000000000e+00    0,000000000e+00    0,000000000e+00    0,000000000e+00
      142000000    1,458745915e-02   -2,980846912e-03   -7,669321895e-01   -2,364803553e-01    0,000000000e+00    0,000000000e+00    0,000000000e+00    0,000000000e+00
      156000000    1,570891030e-02   -1,449382119e-02   -7,688677907e-01    2,236004919e-01    0,000000000e+00    0,000000000e+00    0,000000000e+00    0,000000000e+00
      170000000    1,673553884e-02   -2,252930775e-02   -5,182883739e-01    6,046464443e-01    0,000000000e+00    0,000000000e+00    0,000000000e+00    0,000000000e+00
      184000000    2,105580457e-02   -3,702393919e-02   -1,013564989e-01    7,861373425e-01    0,000000000e+00    0,000000000e+00    0,000000000e+00    0,000000000e+00
      198000000    1,301810984e-02   -6,246670336e-02    3,431204855e-01    7,121696472e-01    0,000000000e+00    0,000000000e+00    0,000000000e+00    0,000000000e+00
      212000000   -1,863932051e-02   -8,132142574e-02    6,779747605e-01    4,098195732e-01    0,000000000e+00    0,000000000e+00    0,000000000e+00    0,000000000e+00
      226000000   -6,163747609e-02   -6,916401535e-02    7,957826853e-01   -3,067747317e-02    0,000000000e+00    0,000000000e+00    0,000000000e+00    0,000000000e+00
      240000000   -8,255975693e-02   -2,560577728e-02    6,462824345e-01   -4,670768976e-01    0,000000000e+00    0,000000000e+00    0,000000000e+00    0,000000000e+00
      254000000   -6,345629692e-02    1,722888090e-02    2,758441865e-01   -7,434740067e-01    0,000000000e+00    0,000000000e+00    0,000000000e+00    0,000000000e+00
      268000000   -2,379510179e-02    2,895635925e-02   -1,785982847e-01   -7,644128799e-01    0,000000000e+00    0,000000000e+00    0,000000000e+00    0,000000000e+00
      282000000    4,216066096e-03    1,197479106e-02   -5,620213747e-01   -5,356569290e-01    0,000000000e+00    0,000000000e+00    0,000000000e+00    0,000000000e+00
      296000000    9,718527086e-03   -7,805018686e-03   -7,597240210e-01   -1,396135837e-01    0,000000000e+00    0,000000000e+00    0,000000000e+00    0,000000000e+00
      310000000    1,132330764e-02   -1,626450010e-02   -7,135423422e-01    2,984684408e-01    0,000000000e+00    0,000000000e+00    0,000000000e+00    0,000000000e+00
      324000000    1,978914067e-02   -2,648858353e-02   -4,276774824e-01    6,366019845e-01    0,000000000e+00    0,000000000e+00    0,000000000e+00    0,000000000e+00
      338000000    2,567284368e-02   -5,217440799e-02   -7,619280368e-03    7,649666667e-01    0,000000000e+00    0,000000000e+00    0,000000000e+00    0,000000000e+00
      352000000    7,308808621e-03   -8,463087678e-02    4,065966010e-01    6,397140622e-01    0,000000000e+00    0,000000000e+00    0,000000000e+00    0,000000000e+00
      366000000   -3,472014889e-02   -9,532306343e-02    6,908075809e-01    3,114994168e-01    0,000000000e+00    0,000000000e+00    0,000000000e+00    0,000000000e+00
      380000000   -7,106588036e-02   -7,116752118e-02    7,470639348e-01   -1,261744201e-01    0,000000000e+00    0,000000000e+00    0,000000000e+00    0,000000000e+00
      394000000   -7,220829278e-02   -3,250401840e-02    5,467161536e-01   -5,227223039e-01    0,000000000e+00    0,000000000e+00    0,000000000e+00    0,000000000e+00
      408000000   -4,668057337e-02   -1,624893211e-02    1,612544954e-01   -7,318186760e-01    0,000000000e+00    0,000000000e+00    0,000000000e+00    0,000000000e+00
      422000000   -2,818311192e-02   -3,204207867e-02   -2,672834396e-01   -6,948286295e-01    0,000000000e+00    0,000000000e+00    0,000000000e+00    0,000000000e+00
      436000000   -4,055204242e-02   -5,187161267e-02   -6,039888859e-01   -4,311763644e-01    0,000000000e+00    0,000000000e+00    0,000000000e+00    0,000000000e+00
      450000000   -6,738761067e-02   -4,362895340e-02   -7,406408787e-01   -2,136555873e-02    0,000000000e+00    0,000000000e+00    0,000000000e+00    0,000000000e+00
      464000000   -7,356361300e-02   -1,155912038e-02   -6,186399460e-01    3,975163698e-01    0,000000000e+00    0,000000000e+00    0,000000000e+00    0,000000000e+00
      478000000   -4,739464447e-02    1,191349607e-02   -2,823357284e-01    6,673499942e-01    0,000000000e+00    0,000000000e+00    0,000000000e+00    0,000000000e+00
      492000000   -1,547444798e-02    6,201946642e-03    1,375495493e-01    7,017167807e-01    0,000000000e+00    0,000000000e+00    0,000000000e+00    0,000000000e+00
      506000000   -2,432096284e-03   -1,605146192e-02    4,986414611e-01    5,024117827e-01    0,000000000e+00    0,000000000e+00    0,000000000e+00    0,000000000e+00
      520000000   -5,208852701e-03   -3,166014329e-02    6,879181266e-01    1,401535273e-01    0,000000000e+00    0,000000000e+00    0,000000000e+00    0,000000000e+00
      534000000   -3,900337964e-03   -3,850962222e-02    6,436470151e-01   -2,628657520e-01    0,000000000e+00    0,000000000e+00    0,000000000e+00    0,000000000e+00
      548000000    5,940374453e-03   -5,360770971e-02    3,813916743e-01   -5,665338039e-01    0,000000000e+00    0,000000000e+00    0,000000000e+00    0,000000000e+00
      562000000    2,849997487e-03   -8,928296715e-02    1,986558549e-03   -6,723732948e-01    0,000000000e+00    0,000000000e+00    0,000000000e+00    0,000000000e+00
      576000000   -3,379005194e-02   -1,239188910e-01   -3,691224754e-01   -5,569549203e-01    0,000000000e+00    0,000000000e+00    0,000000000e+00    0,000000000e+00
      590000000   -9,636700898e-02   -1,225602180e-01   -6,225441694e-01   -2,647424042e-01    0,000000000e+00    0,000000000e+00    0,000000000e+00    0,000000000e+00
      604000000   -1,394000798e-01   -7,201894373e-02   -6,648664474e-01    1,376039982e-01    0,000000000e+00    0,000000000e+00    0,000000000e+00    0,000000000e+00
      618000000   -1,297887713e-01   -8,840134367e-03   -4,645374119e-01    4,946542680e-01    0,000000000e+00    0,000000000e+00    0,000000000e+00    0,000000000e+00
      632000000   -8,338020742e-02    1,694103703e-02   -9,772033989e-02    6,640576720e-01    0,000000000e+00    0,000000000e+00    0,000000000e+00    0,000000000e+00
      646000000   -5,119881779e-02    1,578478077e-05    2,872177064e-01    5,954789519e-01    0,000000000e+00    0,000000000e+00    0,000000000e+00    0,000000000e+00
      660000000   -5,301239714e-02   -2,211007290e-02    5,684127808e-01    3,232568204e-01    0,000000000e+00    0,000000000e+00    0,000000000e+00    0,000000000e+00
      674000000   -6,953003258e-02   -1,771806926e-02    6,432843804e-01   -6,511437893e-02    0,000000000e+00    0,000000000e+00    0,000000000e+00    0,000000000e+00
      688000000   -6,804902852e-02    9,421435185e-03    4,715993404e-01   -4,285657108e-01    0,000000000e+00    0,000000000e+00    0,000000000e+00    0,000000000e+00
      702000000   -3,763578832e-02    2,632588707e-02    1,184024140e-01   -6,146622896e-01    0,000000000e+00    0,000000000e+00    0,000000000e+00    0,000000000e+00
      716000000    3,112195758e-03    1,803305186e-02   -2,650732994e-01   -5,472115278e-01    0,000000000e+00    0,000000000e+00    0,000000000e+00    0,000000000e+00
      730000000    3,715649620e-02   -1,056799386e-02   -5,284708738e-01   -2,685447931e-01    0,000000000e+00    0,000000000e+00    0,000000000e+00    0,000000000e+00
      744000000    6,542830914e-02   -6,291052699e-02   -5,642375946e-01    1,063880250e-01    0,000000000e+00    0,000000000e+00    0,000000000e+00    0,000000000e+00
      758000000    6,590981036e-02   -1,526396573e-01   -3,637090027e-01    4,103517830e-01    0,000000000e+00    0,000000000e+00    0,000000000e+00    0,000000000e+00
      772000000   -1,215279102e-02   -2,633836269e-01   -3,486416489e-02    5,155913830e-01    0,000000000e+00    0,000000000e+00    0,000000000e+00    0,000000000e+00
      786000000   -2,061025351e-01   -3,034290671e-01    2,744154632e-01    3,954914212e-01    0,000000000e+00    0,000000000e+00    0,000000000e+00    0,000000000e+00
      800000000   -4,260570109e-01   -1,298306584e-01    4,171120226e-01    9,857571125e-02    0,000000000e+00    0,000000000e+00    0,000000000e+00    0,000000000e+00
      814000000   -3,899588287e-01    2,203168869e-01    2,821008563e-01   -1,730048358e-01    0,000000000e+00    0,000000000e+00    0,000000000e+00    0,000000000e+00
      828000000   -4,914308339e-02    3,681564331e-01    5,547101051e-02   -1,890655458e-01    0,000000000e+00    0,000000000e+00    0,000000000e+00    0,000000000e+00
      842000000    2,345054597e-01    1,859066486e-01   -1,710037142e-02   -7,065141201e-02    0,000000000e+00    0,000000000e+00    0,000000000e+00    0,000000000e+00
      856000000    2,813179493e-01   -1,246561110e-01    4,490923509e-02   -1,311645471e-02    0,000000000e+00    0,000000000e+00    0,000000000e+00    0,000000000e+00
      870000000    7,496068627e-02   -3,762495518e-01    1,134141460e-01   -9,060395509e-02    0,000000000e+00    0,000000000e+00    0,000000000e+00    0,000000000e+00
      884000000   -2,953916490e-01   -3,616660535e-01    2,956649475e-02   -2,459110767e-01    0,000000000e+00    0,000000000e+00    0,000000000e+00    0,000000000e+00
      898000000   -4,720774889e-01    8,407081477e-03   -2,216997296e-01   -2,280241996e-01    0,000000000e+00    0,000000000e+00    0,000000000e+00    0,000000000e+00
      912000000   -2,261701524e-01    2,941932082e-01   -3,366937339e-01    6,772895157e-02    0,000000000e+00    0,000000000e+00    0,000000000e+00    0,000000000e+00
      926000000    6,678300351e-02    2,642303109e-01   -2,174014896e-01    2,656282783e-01    0,000000000e+00    0,000000000e+00    0,000000000e+00    0,000000000e+00
      940000000    2,161506712e-01    8,106157184e-02   -3,628797084e-02    3,313556314e-01    0,000000000e+00    0,000000000e+00    0,000000000e+00    0,000000000e+00
      954000000    2,257445753e-01   -1,282065511e-01    1,311977208e-01    3,054946363e-01    0,000000000e+00    0,000000000e+00    0,000000000e+00    0,000000000e+00
      968000000    1,163767278e-01   -2,976468503e-01    2,701620162e-01    2,181583345e-01    0,000000000e+00    0,000000000e+00    0,000000000e+00    0,000000000e+00
      982000000   -8,399198949e-02   -3,872860074e-01    3,650664985e-01    6,414557248e-02    0,000000000e+00    0,000000000e+00    0,000000000e+00    0,000000000e+00
      996000000   -3,140141368e-01   -3,281990290e-01    3,682243526e-01   -1,446340829e-01    0,000000000e+00    0,000000000e+00    0,000000000e+00    0,000000000e+00
     1010000000   -4,634402990e-01   -1,075683385e-01    2,243628055e-01   -3,426239491e-01    0,000000000e+00    0,000000000e+00    0,000000000e+00    0,000000000e+00
     1024000000   -4,120430052e-01    1,462747455e-01   -3,556150571e-02   -3,922036588e-01    0,000000000e+00    0,000000000e+00    0,000000000e+00    0,000000000e+00
     1038000000   -2,218762487e-01    2,924702764e-01   -2,456892431e-01   -2,591971755e-01    0,000000000e+00    0,000000000e+00    0,000000000e+00    0,000000000e+00
     1052000000   -4,611322656e-03    2,803682089e-01   -3,177173436e-01   -4,571156204e-02    0,000000000e+00    0,000000000e+00    0,000000000e+00    0,000000000e+00
     1066000000    1,354595870e-01    1,664926708e-01   -2,574441731e-01    1,442532241e-01    0,000000000e+00    0,000000000e+00    0,000000000e+00    0,000000000e+00
     1080000000    1,973636299e-01   -1,792457420e-03   -1,181959882e-01    2,638166845e-01    0,000000000e+00    0,000000000e+00    0,000000000e+00    0,000000000e+00
     1094000000    1,532204151e-01   -1,768521667e-01    6,557236612e-02    3,068584800e-01    0,000000000e+00    0,000000000e+00    0,000000000e+00    0,000000000e+00
     1108000000    2,221110335e-04   -3,081714809e-01    2,788696885e-01    2,458420247e-01    0,000000000e+00    0,000000000e+00    0,000000000e+00    0,000000000e+00
     1122000000   -2,521420717e-01   -2,635022104e-01    4,728939533e-01    1,151962951e-02    0,000000000e+00    0,000000000e+00    0,000000000e+00    0,000000000e+00
     1136000000   -3,147955239e-01    3,479114175e-02    3,995608687e-01   -3,912966549e-01    0,000000000e+00    0,000000000e+00    0,000000000e+00    0,000000000e+00
     1150000000   -4,333667830e-02    1,541307867e-01    5,536844488e-03   -5,427469611e-01    0,000000000e+00    0,000000000e+00    0,000000000e+00    0,000000000e+00
     1164000000    1,208491325e-01   -6,325175613e-02   -2,768850327e-01   -3,791800141e-01    0,000000000e+00    0,000000000e+00    0,000000000e+00    0,000000000e+00
     1178000000    1,469747722e-02   -3,057611287e-01   -3,715633154e-01   -1,550538689e-01    0,000000000e+00    0,000000000e+00    0,000000000e+00    0,000000000e+00
     1192000000   -2,646718323e-01   -3,742576241e-01   -3,215740025e-01    5,610879883e-02    0,000000000e+00    0,000000000e+00    0,000000000e+00    0,000000000e+00
     1206000000   -5,164995193e-01   -1,620502770e-01   -1,676944345e-01    1,824084669e-01    0,000000000e+00    0,000000000e+00    0,000000000e+00    0,000000000e+00
     1220000000   -5,127851963e-01    1,745357960e-01   -9,845147142e-04    1,585903317e-01    0,000000000e+00    0,000000000e+00    0,000000000e+00    0,000000000e+00
     1234000000   -2,839347720e-01    3,696134388e-01    6,520531327e-02    6,244170666e-02    0,000000000e+00    0,000000000e+00    0,000000000e+00    0,000000000e+00
     1248000000   -4,162860662e-02    3,626073897e-01    5,659005046e-02   -8,339885622e-03    0,000000000e+00    0,000000000e+00    0,000000000e+00    0,000000000e+00
     1262000000    1,212908626e-01    2,534278929e-01    1,633380912e-02   -2,360439487e-02    0,000000000e+00    0,000000000e+00    0,000000000e+00    0,000000000e+00
     1276000000    2,118773460e-01    9,784068912e-02   -2,840432338e-03    4,440851975e-03    0,000000000e+00    0,000000000e+00    0,000000000e+00    0,000000000e+00
     1290000000    2,213231921e-01   -7,448446006e-02    1,667144895e-02    5,106123909e-02    0,000000000e+00    0,000000000e+00    0,000000000e+00    0,000000000e+00
     1304000000    1,549474299e-01   -2,420382202e-01    1,323447824e-01    6,569631398e-02    0,000000000e+00    0,000000000e+00    0,000000000e+00    0,000000000e+00
     1318000000    3,564422578e-02   -3,332850337e-01    1,304883510e-01   -1,619709134e-01    0,000000000e+00    0,000000000e+00    0,000000000e+00    0,000000000e+00
     1332000000   -1,285160482e-01   -4,383614361e-01   -5,773886293e-02   -4,132030904e-02    0,000000000e+00    0,000000000e+00    0,000000000e+00    0,000000000e+00
     1346000000   -3,927966654e-01   -4,084866345e-01    2,510245144e-02    7,387470454e-02    0,000000000e+00    0,000000000e+00    0,000000000e+00    0,000000000e+00
     1360000000   -6,087399721e-01   -1,933945864e-01    1,362205297e-01    6,841387600e-02    0,000000000e+00    0,000000000e+00    0,000000000e+00    0,000000000e+00
     1374000000   -6,287128925e-01    1,197367981e-01    2,032991946e-01   -4,196306691e-03    0,000000000e+00    0,000000000e+00    0,000000000e+00    0,000000000e+00
     1388000000   -4,653250575e-01    3,683536649e-01    2,162343860e-01   -6,733077019e-02    0,000000000e+00    0,000000000e+00    0,000000000e+00    0,000000000e+00
     1402000000   -2,293082029e-01    4,467082322e-01    1,884570122e-01   -9,949467331e-02    0,000000000e+00    0,000000000e+00    0,000000000e+00    0,000000000e+00
     1416000000   -2,379317954e-02    4,155811071e-01    1,700872928e-01   -9,920736402e-02    0,000000000e+00    0,000000000e+00    0,000000000e+00    0,000000000e+00
     1430000000    1,262331754e-01    2,993839681e-01    1,576942950e-01   -1,190494671e-01    0,000000000e+00    0,000000000e+00    0,000000000e+00    0,000000000e+00
     1444000000    2,082736939e-01    1,539988369e-01    1,582728773e-01   -8,812388033e-02    0,000000000e+00    0,000000000e+00    0,000000000e+00    0,000000000e+00
     1458000000    2,341979444e-01   -1,966608316e-02    1,442957371e-01   -6,923812628e-02    0,000000000e+00    0,000000000e+00    0,000000000e+00    0,000000000e+00
     1472000000    1,881526262e-01   -2,025504112e-01    1,342854351e-01   -4,088669270e-02    0,000000000e+00    0,000000000e+00    0,000000000e+00    0,000000000e+00
     1486000000    6,538018584e-02   -3,767157495e-01    1,719811410e-01    2,669611201e-02    0,000000000e+00    0,000000000e+00    0,000000000e+00    0,000000000e+00
     1500000000   -1,811127663e-01   -4,984638691e-01    2,403096855e-01    9,365358204e-02    0,000000000e+00    0,000000000e+00    0,000000000e+00    0,000000000e+00
