! NanoVNA-App
! Date: 2025-09-25 15:35:42
! Start: 100MHz Stop: 1,5GHz Points: 101
! S-Parameter data: F S11 S21 S12 S22
# Hz S RI R 50
!     Frequency           S11_Real           S11_Imag           S21_Real           S21_Imag           S12_Real           S12_Imag           S22_Real           S22_Imag
      100000000   -2,883286774e-02   -4,171838053e-03    3,740809560e-01   -7,217361927e-01    0,000000000e+00    0,000000000e+00    0,000000000e+00    0,000000000e+00
      114000000   -1,648711599e-02    1,148538664e-02   -8,915849030e-02   -8,054714203e-01    0,000000000e+00    0,000000000e+00    0,000000000e+00    0,000000000e+00
      128000000    3,544572741e-03    1,054758579e-02   -5,146991611e-01   -6,205246449e-01    0,000000000e+00    0,000000000e+00    0,000000000e+00    0,000000000e+00
      142000000    1,456768345e-02   -2,945329528e-03   -7,671248913e-01   -2,364877462e-01    0,000000000e+00    0,000000000e+00    0,000000000e+00    0,000000000e+00
      156000000    1,431914419e-02   -1,492011733e-02   -7,638270259e-01    2,187819779e-01    0,000000000e+00    0,000000000e+00    0,000000000e+00    0,000000000e+00
      170000000    1,668853313e-02   -2,259090729e-02   -5,182090998e-01    6,046694517e-01    0,000000000e+00    0,000000000e+00    0,000000000e+00    0,000000000e+00
      184000000    2,102799900e-02   -3,706809133e-02   -1,012963280e-01    7,865650654e-01    0,000000000e+00    0,000000000e+00    0,000000000e+00    0,000000000e+00
      198000000    1,300651021e-02   -6,242660806e-02    3,434118330e-01    7,124053240e-01    0,000000000e+00    0,000000000e+00    0,000000000e+00    0,000000000e+00
      212000000   -1,863493957e-02   -8,129201829e-02    6,781563759e-01    4,100000560e-01    0,000000000e+00    0,000000000e+00    0,000000000e+00    0,000000000e+00
      226000000   -6,167143956e-02   -6,925904751e-02    7,957494259e-01   -3,055875190e-02    0,000000000e+00    0,000000000e+00    0,000000000e+00    0,000000000e+00
      240000000   -8,254211396e-02   -2,564601600e-02    6,459937096e-01   -4,672835469e-01    0,000000000e+00    0,000000000e+00    0,000000000e+00    0,000000000e+00
      254000000   -6,346780807e-02    1,724530570e-02    2,758646607e-01   -7,432982326e-01    0,000000000e+00    0,000000000e+00    0,000000000e+00    0,000000000e+00
      268000000   -2,383906581e-02    2,889969945e-02   -1,782000959e-01   -7,645481825e-01    0,000000000e+00    0,000000000e+00    0,000000000e+00    0,000000000e+00
      282000000    4,213339649e-03    1,197986957e-02   -5,620322824e-01   -5,360227227e-01    0,000000000e+00    0,000000000e+00    0,000000000e+00    0,000000000e+00
      296000000    9,871107526e-03   -7,896207273e-03   -7,596682310e-01   -1,396247447e-01    0,000000000e+00    0,000000000e+00    0,000000000e+00    0,000000000e+00
      310000000    1,127852313e-02   -1,627618447e-02   -7,132243514e-01    2,980462015e-01    0,000000000e+00    0,000000000e+00    0,000000000e+00    0,000000000e+00
      324000000    1,952427998e-02   -2,643907256e-02   -4,276538491e-01    6,383554935e-01    0,000000000e+00    0,000000000e+00    0,000000000e+00    0,000000000e+00
      338000000    2,561563067e-02   -5,213849247e-02   -8,720179088e-03    7,638974190e-01    0,000000000e+00    0,000000000e+00    0,000000000e+00    0,000000000e+00
      352000000    7,829847746e-03   -8,476241678e-02    4,072187841e-01    6,388475299e-01    0,000000000e+00    0,000000000e+00    0,000000000e+00    0,000000000e+00
      366000000   -3,459633514e-02   -9,538097680e-02    6,905675530e-01    3,107016087e-01    0,000000000e+00    0,000000000e+00    0,000000000e+00    0,000000000e+00
      380000000   -7,090649754e-02   -7,132186741e-02    7,473718524e-01   -1,260529160e-01    0,000000000e+00    0,000000000e+00    0,000000000e+00    0,000000000e+00
      394000000   -7,273220271e-02   -3,231142834e-02    5,466268659e-01   -5,216432214e-01    0,000000000e+00    0,000000000e+00    0,000000000e+00    0,000000000e+00
      408000000   -4,646633193e-02   -1,630356349e-02    1,609429121e-01   -7,320077419e-01    0,000000000e+00    0,000000000e+00    0,000000000e+00    0,000000000e+00
      422000000   -2,832731046e-02   -3,200793266e-02   -2,677462995e-01   -6,946502924e-01    0,000000000e+00    0,000000000e+00    0,000000000e+00    0,000000000e+00
      436000000   -4,090249166e-02   -5,190354213e-02   -6,037020683e-01   -4,320672452e-01    0,000000000e+00    0,000000000e+00    0,000000000e+00    0,000000000e+00
      450000000   -6,735870987e-02   -4,387505725e-02   -7,402599454e-01   -2,091363445e-02    0,000000000e+00    0,000000000e+00    0,000000000e+00    0,000000000e+00
      464000000   -7,367670536e-02   -1,180582680e-02   -6,186616421e-01    3,971832991e-01    0,000000000e+00    0,000000000e+00    0,000000000e+00    0,000000000e+00
      478000000   -4,795242101e-02    1,181117445e-02   -2,830538154e-01    6,667497158e-01    0,000000000e+00    0,000000000e+00    0,000000000e+00    0,000000000e+00
      492000000   -1,581014320e-02    5,723074079e-03    1,377449334e-01    7,011702657e-01    0,000000000e+00    0,000000000e+00    0,000000000e+00    0,000000000e+00
      506000000   -2,648485824e-03   -1,585534029e-02    4,984281957e-01    5,028856397e-01    0,000000000e+00    0,000000000e+00    0,000000000e+00    0,000000000e+00
      520000000   -5,040512420e-03   -3,155224025e-02    6,863524914e-01    1,423859000e-01    0,000000000e+00    0,000000000e+00    0,000000000e+00    0,000000000e+00
      534000000   -3,980081994e-03   -3,827424347e-02    6,436044574e-01   -2,628154755e-01    0,000000000e+00    0,000000000e+00    0,000000000e+00    0,000000000e+00
      548000000    5,801511463e-03   -5,368638039e-02    3,811669648e-01   -5,665850639e-01    0,000000000e+00    0,000000000e+00    0,000000000e+00    0,000000000e+00
      562000000    3,002111334e-03   -8,932803571e-02    1,986276591e-03   -6,720963120e-01    0,000000000e+00    0,000000000e+00    0,000000000e+00    0,000000000e+00
      576000000   -3,450290486e-02   -1,245121807e-01   -3,691467643e-01   -5,578420162e-01    0,000000000e+00    0,000000000e+00    0,000000000e+00    0,000000000e+00
      590000000   -9,602873772e-02   -1,227057576e-01   -6,202828884e-01   -2,646734715e-01    0,000000000e+00    0,000000000e+00    0,000000000e+00    0,000000000e+00
      604000000   -1,393664032e-01   -7,154638320e-02   -6,648334265e-01    1,380357444e-01    0,000000000e+00    0,000000000e+00    0,000000000e+00    0,000000000e+00
      618000000   -1,294765025e-01   -9,420677088e-03   -4,643925428e-01    4,945370853e-01    0,000000000e+00    0,000000000e+00    0,000000000e+00    0,000000000e+00
      632000000   -8,435972780e-02    1,705622114e-02   -9,875270724e-02    6,641253233e-01    0,000000000e+00    0,000000000e+00    0,000000000e+00    0,000000000e+00
      646000000   -5,159536377e-02    1,058759517e-03    2,874531448e-01    5,958983898e-01    0,000000000e+00    0,000000000e+00    0,000000000e+00    0,000000000e+00
      660000000   -5,259504169e-02   -2,149775811e-02    5,672172308e-01    3,230731189e-01    0,000000000e+00    0,000000000e+00    0,000000000e+00    0,000000000e+00
      674000000   -7,040237635e-02   -1,836809888e-02    6,428271532e-01   -6,546834111e-02    0,000000000e+00    0,000000000e+00    0,000000000e+00    0,000000000e+00
      688000000   -6,813436002e-02    8,417605422e-03    4,718472958e-01   -4,282784164e-01    0,000000000e+00    0,000000000e+00    0,000000000e+00    0,000000000e+00
      702000000   -3,643942997e-02    2,638658322e-02    1,179084778e-01   -6,074313521e-01    0,000000000e+00    0,000000000e+00    0,000000000e+00    0,000000000e+00
      716000000    1,801181003e-03    1,791013777e-02   -2,645892799e-01   -5,461996794e-01    0,000000000e+00    0,000000000e+00    0,000000000e+00    0,000000000e+00
      730000000    3,740416840e-02   -1,037141215e-02   -5,288911462e-01   -2,691684663e-01    0,000000000e+00    0,000000000e+00    0,000000000e+00    0,000000000e+00
      744000000    6,481579691e-02   -6,303693354e-02   -5,638843775e-01    1,063589454e-01    0,000000000e+00    0,000000000e+00    0,000000000e+00    0,000000000e+00
      758000000    6,664544344e-02   -1,528686881e-01   -3,635973334e-01    4,112074673e-01    0,000000000e+00    0,000000000e+00    0,000000000e+00    0,000000000e+00
      772000000   -1,327459421e-02   -2,622019947e-01   -3,455577418e-02    5,154491663e-01    0,000000000e+00    0,000000000e+00    0,000000000e+00    0,000000000e+00
      786000000   -2,061618567e-01   -3,025529981e-01    2,745553553e-01    3,951062560e-01    0,000000000e+00    0,000000000e+00    0,000000000e+00    0,000000000e+00
      800000000   -4,249536991e-01   -1,293711662e-01    4,172595143e-01    9,908914566e-02    0,000000000e+00    0,000000000e+00    0,000000000e+00    0,000000000e+00
      814000000   -3,899730444e-01    2,204857916e-01    2,821935713e-01   -1,733619273e-01    0,000000000e+00    0,000000000e+00    0,000000000e+00    0,000000000e+00
      828000000   -4,942559823e-02    3,691949546e-01    5,479321256e-02   -1,892477125e-01    0,000000000e+00    0,000000000e+00    0,000000000e+00    0,000000000e+00
      842000000    2,346475422e-01    1,864214689e-01   -1,716312394e-02   -7,074154913e-02    0,000000000e+00    0,000000000e+00    0,000000000e+00    0,000000000e+00
      856000000    2,808481455e-01   -1,242186651e-01    4,538879544e-02   -1,314735133e-02    0,000000000e+00    0,000000000e+00    0,000000000e+00    0,000000000e+00
      870000000    7,533708960e-02   -3,765996099e-01    1,140035465e-01   -9,020560980e-02    0,000000000e+00    0,000000000e+00    0,000000000e+00    0,000000000e+00
      884000000   -2,966226339e-01   -3,620345294e-01    2,807624452e-02   -2,455370724e-01    0,000000000e+00    0,000000000e+00    0,000000000e+00    0,000000000e+00
      898000000   -4,723177254e-01    8,334023878e-03   -2,220000029e-01   -2,280990481e-01    0,000000000e+00    0,000000000e+00    0,000000000e+00    0,000000000e+00
      912000000   -2,266611308e-01    2,945972979e-01   -3,512538671e-01    6,136862189e-02    0,000000000e+00    0,000000000e+00    0,000000000e+00    0,000000000e+00
      926000000    6,778405607e-02    2,628458142e-01   -2,155968249e-01    2,621705830e-01    0,000000000e+00    0,000000000e+00    0,000000000e+00    0,000000000e+00
      940000000    2,141980380e-01    7,957644761e-02   -3,606570140e-02    3,289581835e-01    0,000000000e+00    0,000000000e+00    0,000000000e+00    0,000000000e+00
      954000000    2,224587351e-01   -1,297043115e-01    1,311194301e-01    3,074423075e-01    0,000000000e+00    0,000000000e+00    0,000000000e+00    0,000000000e+00
      968000000    1,135568693e-01   -3,006385863e-01    2,716212869e-01    2,173171192e-01    0,000000000e+00    0,000000000e+00    0,000000000e+00    0,000000000e+00
      982000000   -8,552783728e-02   -3,870823383e-01    3,673097193e-01    6,414996088e-02    0,000000000e+00    0,000000000e+00    0,000000000e+00    0,000000000e+00
      996000000   -3,149190247e-01   -3,317704499e-01    3,684904575e-01   -1,453907639e-01    0,000000000e+00    0,000000000e+00    0,000000000e+00    0,000000000e+00
     1010000000   -4,619913399e-01   -1,124028414e-01    2,217601538e-01   -3,404207528e-01    0,000000000e+00    0,000000000e+00    0,000000000e+00    0,000000000e+00
     1024000000   -4,162702858e-01    1,500234306e-01   -3,348334506e-02   -3,922789991e-01    0,000000000e+00    0,000000000e+00    0,000000000e+00    0,000000000e+00
     1038000000   -2,170355916e-01    2,931388319e-01   -2,464061230e-01   -2,613870502e-01    0,000000000e+00    0,000000000e+00    0,000000000e+00    0,000000000e+00
     1052000000   -6,574691273e-03    2,753198445e-01   -3,195942044e-01   -4,492687806e-02    0,000000000e+00    0,000000000e+00    0,000000000e+00    0,000000000e+00
     1066000000    1,377340108e-01    1,622328013e-01   -2,584965527e-01    1,424471438e-01    0,000000000e+00    0,000000000e+00    0,000000000e+00    0,000000000e+00
     1080000000    1,943748295e-01   -2,480390482e-03   -1,195293963e-01    2,618994415e-01    0,000000000e+00    0,000000000e+00    0,000000000e+00    0,000000000e+00
     1094000000    1,524666697e-01   -1,728352904e-01    6,471381336e-02    3,047176003e-01    0,000000000e+00    0,000000000e+00    0,000000000e+00    0,000000000e+00
     1108000000    1,270420034e-03   -3,032399416e-01    2,751598060e-01    2,468912452e-01    0,000000000e+00    0,000000000e+00    0,000000000e+00    0,000000000e+00
     1122000000   -2,498933077e-01   -2,675203979e-01    4,703227878e-01    1,154947188e-02    0,000000000e+00    0,000000000e+00    0,000000000e+00    0,000000000e+00
     1136000000   -3,178562522e-01    2,829043940e-02    3,975570202e-01   -3,886734545e-01    0,000000000e+00    0,000000000e+00    0,000000000e+00    0,000000000e+00
     1150000000   -3,646064177e-02    1,497891694e-01    4,783977754e-03   -5,450710058e-01    0,000000000e+00    0,000000000e+00    0,000000000e+00    0,000000000e+00
     1164000000    1,254679263e-01   -6,247358769e-02   -2,774127424e-01   -3,792086840e-01    0,000000000e+00    0,000000000e+00    0,000000000e+00    0,000000000e+00
     1178000000    1,730005257e-02   -3,073135316e-01   -3,683145940e-01   -1,501627415e-01    0,000000000e+00    0,000000000e+00    0,000000000e+00    0,000000000e+00
     1192000000   -2,665496767e-01   -3,695397079e-01   -3,227134645e-01    5,726419762e-02    0,000000000e+00    0,000000000e+00    0,000000000e+00    0,000000000e+00
     1206000000   -5,221463442e-01   -1,586689502e-01   -1,674590558e-01    1,815110147e-01    0,000000000e+00    0,000000000e+00    0,000000000e+00    0,000000000e+00
     1220000000   -5,140377283e-01    1,696088165e-01    1,571754809e-03    1,574256271e-01    0,000000000e+00    0,000000000e+00    0,000000000e+00    0,000000000e+00
     1234000000   -2,881141603e-01    3,576306403e-01    6,637267768e-02    6,302043796e-02    0,000000000e+00    0,000000000e+00    0,000000000e+00    0,000000000e+00
     1248000000   -4,765457660e-02    3,678071797e-01    5,733568594e-02   -3,116901033e-03    0,000000000e+00    0,000000000e+00    0,000000000e+00    0,000000000e+00
     1262000000    1,237724870e-01    2,527551949e-01    1,671806164e-02   -2,391173132e-02    0,000000000e+00    0,000000000e+00    0,000000000e+00    0,000000000e+00
     1276000000    2,098937482e-01    1,031042337e-01   -5,155066960e-03    7,437754888e-03    0,000000000e+00    0,000000000e+00    0,000000000e+00    0,000000000e+00
     1290000000    2,221942097e-01   -7,511473447e-02    1,736668870e-02    4,932086170e-02    0,000000000e+00    0,000000000e+00    0,000000000e+00    0,000000000e+00
     1304000000    1,563130170e-01   -2,380081266e-01    1,298834234e-01    7,005655020e-02    0,000000000e+00    0,000000000e+00    0,000000000e+00    0,000000000e+00
     1318000000    3,307042271e-02   -3,389718235e-01    1,270256341e-01   -1,646129787e-01    0,000000000e+00    0,000000000e+00    0,000000000e+00    0,000000000e+00
     1332000000   -1,301918179e-01   -4,375537336e-01   -4,240388796e-02   -4,387868196e-02    0,000000000e+00    0,000000000e+00    0,000000000e+00    0,000000000e+00
     1346000000   -3,968270421e-01   -4,076375663e-01    1,781541854e-02    7,917957753e-02    0,000000000e+00    0,000000000e+00    0,000000000e+00    0,000000000e+00
     1360000000   -6,122131944e-01   -1,950028092e-01    1,323392689e-01    6,391154975e-02    0,000000000e+00    0,000000000e+00    0,000000000e+00    0,000000000e+00
     1374000000   -6,333608031e-01    1,184097528e-01    2,045499980e-01   -4,876912106e-03    0,000000000e+00    0,000000000e+00    0,000000000e+00    0,000000000e+00
     1388000000   -4,656758308e-01    3,656578064e-01    2,202096283e-01   -6,555730850e-02    0,000000000e+00    0,000000000e+00    0,000000000e+00    0,000000000e+00
     1402000000   -2,301369160e-01    4,617722034e-01    1,923542619e-01   -9,085800499e-02    0,000000000e+00    0,000000000e+00    0,000000000e+00    0,000000000e+00
     1416000000   -2,787423693e-02    4,185683429e-01    1,718247682e-01   -9,513710439e-02    0,000000000e+00    0,000000000e+00    0,000000000e+00    0,000000000e+00
     1430000000    1,307139695e-01    3,071212769e-01    1,610886455e-01   -1,109675840e-01    0,000000000e+00    0,000000000e+00    0,000000000e+00    0,000000000e+00
     1444000000    2,089147419e-01    1,501539499e-01    1,604296416e-01   -1,040237993e-01    0,000000000e+00    0,000000000e+00    0,000000000e+00    0,000000000e+00
     1458000000    2,378034741e-01   -1,518897433e-02    1,458825171e-01   -6,366262585e-02    0,000000000e+00    0,000000000e+00    0,000000000e+00    0,000000000e+00
     1472000000    1,947727203e-01   -1,992334723e-01    1,500371844e-01   -3,507939726e-02    0,000000000e+00    0,000000000e+00    0,000000000e+00    0,000000000e+00
     1486000000    5,662243441e-02   -3,735034466e-01    1,631508321e-01    3,257086128e-02    0,000000000e+00    0,000000000e+00    0,000000000e+00    0,000000000e+00
     1500000000   -1,689322591e-01   -4,889113307e-01    2,408965826e-01    1,070310175e-01    0,000000000e+00    0,000000000e+00    0,000000000e+00    0,000000000e+00
