! NanoVNA-App
! Date: 2025-09-25 15:36:25
! Start: 100MHz Stop: 1,5GHz Points: 101
! S-Parameter data: F S11 S21 S12 S22
# Hz S RI R 50
!     Frequency           S11_Real           S11_Imag           S21_Real           S21_Imag           S12_Real           S12_Imag           S22_Real           S22_Imag
      100000000   -2,882974781e-02   -4,172880668e-03    3,741007149e-01   -7,217410207e-01    0,000000000e+00    0,000000000e+00    0,000000000e+00    0,000000000e+00
      114000000   -1,647328027e-02    1,152070332e-02   -8,903348446e-02   -8,055558801e-01    0,000000000e+00    0,000000000e+00    0,000000000e+00    0,000000000e+00
      128000000    3,516719211e-03    1,054597460e-02   -5,146028399e-01   -6,204895973e-01    0,000000000e+00    0,000000000e+00    0,000000000e+00    0,000000000e+00
      142000000    1,459020283e-02   -2,950424328e-03   -7,671852112e-01   -2,365870327e-01    0,000000000e+00    0,000000000e+00    0,000000000e+00    0,000000000e+00
      156000000    1,440978423e-02   -1,481665950e-02   -7,639082670e-01    2,189094126e-01    0,000000000e+00    0,000000000e+00    0,000000000e+00    0,000000000e+00
      170000000    1,674334146e-02   -2,251404896e-02   -5,181409121e-01    6,047182083e-01    0,000000000e+00    0,000000000e+00    0,000000000e+00    0,000000000e+00
      184000000    2,105486020e-02   -3,701873869e-02   -1,016077846e-01    7,862983942e-01    0,000000000e+00    0,000000000e+00    0,000000000e+00    0,000000000e+00
      198000000    1,301150769e-02   -6,245274469e-02    3,431808352e-01    7,123633027e-01    0,000000000e+00    0,000000000e+00    0,000000000e+00    0,000000000e+00
      212000000   -1,865090802e-02   -8,131279051e-02    6,781836748e-01    4,101100862e-01    0,000000000e+00    0,000000000e+00    0,000000000e+00    0,000000000e+00
      226000000   -6,171596423e-02   -6,923048943e-02    7,958258986e-01   -3,063666075e-02    0,000000000e+00    0,000000000e+00    0,000000000e+00    0,000000000e+00
      240000000   -8,260390908e-02   -2,565962076e-02    6,460532546e-01   -4,670563936e-01    0,000000000e+00    0,000000000e+00    0,000000000e+00    0,000000000e+00
      254000000   -6,348921359e-02    1,719635352e-02    2,759461999e-01   -7,434731722e-01    0,000000000e+00    0,000000000e+00    0,000000000e+00    0,000000000e+00
      268000000   -2,389715426e-02    2,889055945e-02   -1,780205220e-01   -7,644744515e-01    0,000000000e+00    0,000000000e+00    0,000000000e+00    0,000000000e+00
      282000000    4,263837822e-03    1,190873701e-02   -5,620605350e-01   -5,356521606e-01    0,000000000e+00    0,000000000e+00    0,000000000e+00    0,000000000e+00
      296000000    9,642546065e-03   -7,887376472e-03   -7,598143220e-01   -1,396119893e-01    0,000000000e+00    0,000000000e+00    0,000000000e+00    0,000000000e+00
      310000000    1,113183051e-02   -1,622799411e-02   -7,121191025e-01    2,978519201e-01    0,000000000e+00    0,000000000e+00    0,000000000e+00    0,000000000e+00
      324000000    1,974374615e-02   -2,668404952e-02   -4,271548092e-01    6,383477449e-01    0,000000000e+00    0,000000000e+00    0,000000000e+00    0,000000000e+00
      338000000    2,538755350e-02   -5,187190324e-02   -8,200661279e-03    7,604798079e-01    0,000000000e+00    0,000000000e+00    0,000000000e+00    0,000000000e+00
      352000000    7,219262421e-03   -8,468572050e-02    4,059532285e-01    6,387681365e-01    0,000000000e+00    0,000000000e+00    0,000000000e+00    0,000000000e+00
      366000000   -3,480186313e-02   -9,565707296e-02    6,909897327e-01    3,111314774e-01    0,000000000e+00    0,000000000e+00    0,000000000e+00    0,000000000e+00
      380000000   -7,059391588e-02   -7,113914192e-02    7,478401661e-01   -1,258981377e-01    0,000000000e+00    0,000000000e+00    0,000000000e+00    0,000000000e+00
      394000000   -7,265570760e-02   -3,237710893e-02    5,467203856e-01   -5,216115713e-01    0,000000000e+00    0,000000000e+00    0,000000000e+00    0,000000000e+00
      408000000   -4,645954072e-02   -1,619582810e-02    1,615013629e-01   -7,326403260e-01    0,000000000e+00    0,000000000e+00    0,000000000e+00    0,000000000e+00
      422000000   -2,827687562e-02   -3,223807737e-02   -2,675850093e-01   -6,958006620e-01    0,000000000e+00    0,000000000e+00    0,000000000e+00    0,000000000e+00
      436000000   -4,043070972e-02   -5,219638720e-02   -6,045693755e-01   -4,323216975e-01    0,000000000e+00    0,000000000e+00    0,000000000e+00    0,000000000e+00
      450000000   -6,743288785e-02   -4,412074760e-02   -7,407717705e-01   -2,149981074e-02    0,000000000e+00    0,000000000e+00    0,000000000e+00    0,000000000e+00
      464000000   -7,326657325e-02   -1,161853597e-02   -6,182954907e-01    3,977128267e-01    0,000000000e+00    0,000000000e+00    0,000000000e+00    0,000000000e+00
      478000000   -4,781424627e-02    1,165211108e-02   -2,832669318e-01    6,678872705e-01    0,000000000e+00    0,000000000e+00    0,000000000e+00    0,000000000e+00
      492000000   -1,572440006e-02    5,757345352e-03    1,382524520e-01    7,017404437e-01    0,000000000e+00    0,000000000e+00    0,000000000e+00    0,000000000e+00
      506000000   -2,554197796e-03   -1,600041054e-02    4,984091520e-01    5,025547743e-01    0,000000000e+00    0,000000000e+00    0,000000000e+00    0,000000000e+00
      520000000   -4,991636146e-03   -3,118244000e-02    6,888083816e-01    1,414948553e-01    0,000000000e+00    0,000000000e+00    0,000000000e+00    0,000000000e+00
      534000000   -4,100825172e-03   -3,832249343e-02    6,433824301e-01   -2,630217075e-01    0,000000000e+00    0,000000000e+00    0,000000000e+00    0,000000000e+00
      548000000    6,173897535e-03   -5,368623510e-02    3,819061518e-01   -5,666673779e-01    0,000000000e+00    0,000000000e+00    0,000000000e+00    0,000000000e+00
      562000000    2,937191632e-03   -8,894944191e-02    1,422573114e-03   -6,718746424e-01    0,000000000e+00    0,000000000e+00    0,000000000e+00    0,000000000e+00
      576000000   -3,391353786e-02   -1,241537035e-01   -3,696335852e-01   -5,573951006e-01    0,000000000e+00    0,000000000e+00    0,000000000e+00    0,000000000e+00
      590000000   -9,646072239e-02   -1,227217689e-01   -6,199303865e-01   -2,624494433e-01    0,000000000e+00    0,000000000e+00    0,000000000e+00    0,000000000e+00
      604000000   -1,394259483e-01   -7,199999690e-02   -6,653196216e-01    1,379421502e-01    0,000000000e+00    0,000000000e+00    0,000000000e+00    0,000000000e+00
      618000000   -1,297557205e-01   -8,654715493e-03   -4,642903209e-01    4,954683781e-01    0,000000000e+00    0,000000000e+00    0,000000000e+00    0,000000000e+00
      632000000   -8,450916409e-02    1,698393747e-02   -9,908042848e-02    6,636866927e-01    0,000000000e+00    0,000000000e+00    0,000000000e+00    0,000000000e+00
      646000000   -5,151665583e-02    7,197416853e-04    2,867306471e-01    5,952057242e-01    0,000000000e+00    0,000000000e+00    0,000000000e+00    0,000000000e+00
      660000000   -5,298599973e-02   -2,123156376e-02    5,678146482e-01    3,229480684e-01    0,000000000e+00    0,000000000e+00    0,000000000e+00    0,000000000e+00
      674000000   -7,016203552e-02   -1,841420680e-02    6,429405808e-01   -6,548023969e-02    0,000000000e+00    0,000000000e+00    0,000000000e+00    0,000000000e+00
      688000000   -6,867710501e-02    9,531996213e-03    4,718854725e-01   -4,284414947e-01    0,000000000e+00    0,000000000e+00    0,000000000e+00    0,000000000e+00
      702000000   -3,759541363e-02    2,705931291e-02    1,164978594e-01   -6,073535681e-01    0,000000000e+00    0,000000000e+00    0,000000000e+00    0,000000000e+00
      716000000    1,705618459e-03    1,749757305e-02   -2,644361556e-01   -5,466855168e-01    0,000000000e+00    0,000000000e+00    0,000000000e+00    0,000000000e+00
      730000000    3,682820126e-02   -1,038538292e-02   -5,283938646e-01   -2,684617341e-01    0,000000000e+00    0,000000000e+00    0,000000000e+00    0,000000000e+00
      744000000    6,570544839e-02   -6,279888004e-02   -5,644949675e-01    1,066118479e-01    0,000000000e+00    0,000000000e+00    0,000000000e+00    0,000000000e+00
      758000000    6,714326888e-02   -1,518686563e-01   -3,633699715e-01    4,099689722e-01    0,000000000e+00    0,000000000e+00    0,000000000e+00    0,000000000e+00
      772000000   -1,300823502e-02   -2,622486651e-01   -3,492620960e-02    5,147154927e-01    0,000000000e+00    0,000000000e+00    0,000000000e+00    0,000000000e+00
      786000000   -2,063734680e-01   -3,025316298e-01    2,747511864e-01    3,959569335e-01    0,000000000e+00    0,000000000e+00    0,000000000e+00    0,000000000e+00
      800000000   -4,263010621e-01   -1,304973364e-01    4,177332819e-01    9,951005131e-02    0,000000000e+00    0,000000000e+00    0,000000000e+00    0,000000000e+00
      814000000   -3,896623850e-01    2,222501487e-01    2,824869454e-01   -1,730585396e-01    0,000000000e+00    0,000000000e+00    0,000000000e+00    0,000000000e+00
      828000000   -4,977800325e-02    3,676653504e-01    5,618108064e-02   -1,893124878e-01    0,000000000e+00    0,000000000e+00    0,000000000e+00    0,000000000e+00
      842000000    2,345034033e-01    1,860758513e-01   -1,671248116e-02   -7,071512192e-02    0,000000000e+00    0,000000000e+00    0,000000000e+00    0,000000000e+00
      856000000    2,803976834e-01   -1,245466694e-01    4,482159391e-02   -1,329881977e-02    0,000000000e+00    0,000000000e+00    0,000000000e+00    0,000000000e+00
      870000000    7,501867414e-02   -3,756214380e-01    1,136284247e-01   -9,132358432e-02    0,000000000e+00    0,000000000e+00    0,000000000e+00    0,000000000e+00
      884000000   -2,956629097e-01   -3,616263270e-01    2,761947550e-02   -2,457938045e-01    0,000000000e+00    0,000000000e+00    0,000000000e+00    0,000000000e+00
      898000000   -4,724126458e-01    8,189922199e-03   -2,220420539e-01   -2,273366302e-01    0,000000000e+00    0,000000000e+00    0,000000000e+00    0,000000000e+00
      912000000   -2,247909009e-01    2,952362895e-01   -3,431695998e-01    7,665830106e-02    0,000000000e+00    0,000000000e+00    0,000000000e+00    0,000000000e+00
      926000000    6,763920188e-02    2,629852891e-01   -2,153270543e-01    2,628346682e-01    0,000000000e+00    0,000000000e+00    0,000000000e+00    0,000000000e+00
      940000000    2,143260241e-01    8,210879564e-02   -3,676022589e-02    3,295823336e-01    0,000000000e+00    0,000000000e+00    0,000000000e+00    0,000000000e+00
      954000000    2,242078185e-01   -1,286269128e-01    1,306350678e-01    3,068673909e-01    0,000000000e+00    0,000000000e+00    0,000000000e+00    0,000000000e+00
      968000000    1,163740307e-01   -2,980240583e-01    2,709731758e-01    2,186862677e-01    0,000000000e+00    0,000000000e+00    0,000000000e+00    0,000000000e+00
      982000000   -8,427320421e-02   -3,857219219e-01    3,648800552e-01    6,421571225e-02    0,000000000e+00    0,000000000e+00    0,000000000e+00    0,000000000e+00
      996000000   -3,159238100e-01   -3,326394856e-01    3,685311377e-01   -1,450032592e-01    0,000000000e+00    0,000000000e+00    0,000000000e+00    0,000000000e+00
     1010000000   -4,594738483e-01   -1,115760654e-01    2,249593735e-01   -3,410936594e-01    0,000000000e+00    0,000000000e+00    0,000000000e+00    0,000000000e+00
     1024000000   -4,180452228e-01    1,480670124e-01   -3,423386067e-02   -3,928317726e-01    0,000000000e+00    0,000000000e+00    0,000000000e+00    0,000000000e+00
     1038000000   -2,163695693e-01    2,888451219e-01   -2,470043302e-01   -2,637766600e-01    0,000000000e+00    0,000000000e+00    0,000000000e+00    0,000000000e+00
     1052000000   -6,831275299e-03    2,766302228e-01   -3,178930879e-01   -4,705823958e-02    0,000000000e+00    0,000000000e+00    0,000000000e+00    0,000000000e+00
     1066000000    1,395979226e-01    1,626979113e-01   -2,578867972e-01    1,422132999e-01    0,000000000e+00    0,000000000e+00    0,000000000e+00    0,000000000e+00
     1080000000    1,919085234e-01   -2,720827702e-03   -1,193358079e-01    2,632335424e-01    0,000000000e+00    0,000000000e+00    0,000000000e+00    0,000000000e+00
     1094000000    1,544476300e-01   -1,770111769e-01    6,371358037e-02    3,052362502e-01    0,000000000e+00    0,000000000e+00    0,000000000e+00    0,000000000e+00
     1108000000   -4,446388266e-05   -3,042953014e-01    2,759005427e-01    2,456423640e-01    0,000000000e+00    0,000000000e+00    0,000000000e+00    0,000000000e+00
     1122000000   -2,488150746e-01   -2,677870989e-01    4,727211893e-01    1,204894576e-02    0,000000000e+00    0,000000000e+00    0,000000000e+00    0,000000000e+00
     1136000000   -3,218411505e-01    3,456626832e-02    3,974663317e-01   -3,907272220e-01    0,000000000e+00    0,000000000e+00    0,000000000e+00    0,000000000e+00
     1150000000   -4,098456725e-02    1,484478712e-01    6,272109691e-03   -5,416572690e-01    0,000000000e+00    0,000000000e+00    0,000000000e+00    0,000000000e+00
     1164000000    1,245047301e-01   -6,388293952e-02   -2,737289965e-01   -3,799366951e-01    0,000000000e+00    0,000000000e+00    0,000000000e+00    0,000000000e+00
     1178000000    2,003233694e-02   -3,041767180e-01   -3,671005666e-01   -1,506384164e-01    0,000000000e+00    0,000000000e+00    0,000000000e+00    0,000000000e+00
     1192000000   -2,681440711e-01   -3,691427708e-01   -3,218332529e-01    5,959031731e-02    0,000000000e+00    0,000000000e+00    0,000000000e+00    0,000000000e+00
     1206000000   -5,227637887e-01   -1,576390415e-01   -1,676261872e-01    1,817342043e-01    0,000000000e+00    0,000000000e+00    0,000000000e+00    0,000000000e+00
     1220000000   -5,041227341e-01    1,803367287e-01    1,649711397e-03    1,581555456e-01    0,000000000e+00    0,000000000e+00    0,000000000e+00    0,000000000e+00
     1234000000   -2,849613726e-01    3,678560257e-01    6,939410418e-02    6,472995132e-02    0,000000000e+00    0,000000000e+00    0,000000000e+00    0,000000000e+00
     1248000000   -5,021085218e-02    3,697341979e-01    5,333856866e-02   -4,304951522e-03    0,000000000e+00    0,000000000e+00    0,000000000e+00    0,000000000e+00
     1262000000    1,269417107e-01    2,555228770e-01    2,106582373e-02   -1,940018684e-02    0,000000000e+00    0,000000000e+00    0,000000000e+00    0,000000000e+00
     1276000000    2,123854756e-01    9,655514359e-02   -5,701771472e-03    4,021198489e-03    0,000000000e+00    0,000000000e+00    0,000000000e+00    0,000000000e+00
     1290000000    2,254217565e-01   -7,527050376e-02    1,896595769e-02    4,874199256e-02    0,000000000e+00    0,000000000e+00    0,000000000e+00    0,000000000e+00
     1304000000    1,577259302e-01   -2,395034730e-01    1,337666512e-01    7,011888921e-02    0,000000000e+00    0,000000000e+00    0,000000000e+00    0,000000000e+00
     1318000000    3,647255152e-02   -3,395360112e-01    1,281002015e-01   -1,668942422e-01    0,000000000e+00    0,000000000e+00    0,000000000e+00    0,000000000e+00
     1332000000   -1,293434203e-01   -4,382082522e-01   -4,434852302e-02   -4,468410090e-02    0,000000000e+00    0,000000000e+00    0,000000000e+00    0,000000000e+00
     1346000000   -4,043990076e-01   -4,131770730e-01    1,827958040e-02    6,204722822e-02    0,000000000e+00    0,000000000e+00    0,000000000e+00    0,000000000e+00
     1360000000   -6,122839451e-01   -1,822233200e-01    1,368480921e-01    7,889076322e-02    0,000000000e+00    0,000000000e+00    0,000000000e+00    0,000000000e+00
     1374000000   -6,209545135e-01    1,293398589e-01    2,062577307e-01    7,995759137e-03    0,000000000e+00    0,000000000e+00    0,000000000e+00    0,000000000e+00
     1388000000   -4,701592028e-01    3,685039878e-01    2,055420578e-01   -6,842871010e-02    0,000000000e+00    0,000000000e+00    0,000000000e+00    0,000000000e+00
     1402000000   -2,364147156e-01    4,505448937e-01    1,909288317e-01   -1,077146232e-01    0,000000000e+00    0,000000000e+00    0,000000000e+00    0,000000000e+00
     1416000000   -3,025178984e-02    4,115433395e-01    1,690563709e-01   -1,032327190e-01    0,000000000e+00    0,000000000e+00    0,000000000e+00    0,000000000e+00
     1430000000    1,285792738e-01    3,002123237e-01    1,695993096e-01   -1,328657269e-01    0,000000000e+00    0,000000000e+00    0,000000000e+00    0,000000000e+00
     1444000000    2,054642439e-01    1,512414217e-01    1,498311311e-01   -9,618787467e-02    0,000000000e+00    0,000000000e+00    0,000000000e+00    0,000000000e+00
     1458000000    2,317433357e-01   -1,743149012e-02    1,406483948e-01   -6,803686172e-02    0,000000000e+00    0,000000000e+00    0,000000000e+00    0,000000000e+00
     1472000000    1,919417232e-01   -2,020286918e-01    1,472954601e-01   -1,965424232e-02    0,000000000e+00    0,000000000e+00    0,000000000e+00    0,000000000e+00
     1486000000    6,105006486e-02   -3,782678843e-01    1,835811734e-01    2,380758338e-02    0,000000000e+00    0,000000000e+00    0,000000000e+00    0,000000000e+00
     1500000000   -1,712938398e-01   -4,882489145e-01    2,383512557e-01    7,793293893e-02    0,000000000e+00    0,000000000e+00    0,000000000e+00    0,000000000e+00
