! NanoVNA-App
! Date: 2025-09-25 15:35:11
! Start: 100MHz Stop: 1,5GHz Points: 101
! S-Parameter data: F S11 S21 S12 S22
# Hz S RI R 50
!     Frequency           S11_Real           S11_Imag           S21_Real           S21_Imag           S12_Real           S12_Imag           S22_Real           S22_Imag
      100000000   -2,884603664e-02   -4,174853209e-03    3,741024733e-01   -7,217514515e-01    0,000000000e+00    0,000000000e+00    0,000000000e+00    0,000000000e+00
      114000000   -1,650922745e-02    1,152847987e-02   -8,909546584e-02   -8,055027723e-01    0,000000000e+00    0,000000000e+00    0,000000000e+00    0,000000000e+00
      128000000    3,503833897e-03    1,047511399e-02   -5,147345066e-01   -6,205902696e-01    0,000000000e+00    0,000000000e+00    0,000000000e+00    0,000000000e+00
      142000000    1,457453426e-02   -2,968399320e-03   -7,669788003e-01   -2,365505248e-01    0,000000000e+00    0,000000000e+00    0,000000000e+00    0,000000000e+00
      156000000    1,590058580e-02   -1,436446980e-02   -7,698126435e-01    2,242275625e-01    0,000000000e+00    0,000000000e+00    0,000000000e+00    0,000000000e+00
      170000000    1,671834663e-02   -2,253451757e-02   -5,181900263e-01    6,047396660e-01    0,000000000e+00    0,000000000e+00    0,000000000e+00    0,000000000e+00
      184000000    2,097792923e-02   -3,710680827e-02   -1,015224606e-01    7,859980464e-01    0,000000000e+00    0,000000000e+00    0,000000000e+00    0,000000000e+00
      198000000    1,301974338e-02   -6,249930710e-02    3,434481919e-01    7,125551701e-01    0,000000000e+00    0,000000000e+00    0,000000000e+00    0,000000000e+00
      212000000   -1,865611412e-02   -8,126357198e-02    6,780103445e-01    4,099509716e-01    0,000000000e+00    0,000000000e+00    0,000000000e+00    0,000000000e+00
      226000000   -6,167676300e-02   -6,915540993e-02    7,958449721e-01   -3,055380471e-02    0,000000000e+00    0,000000000e+00    0,000000000e+00    0,000000000e+00
      240000000   -8,258587867e-02   -2,559085749e-02    6,462262273e-01   -4,671826065e-01    0,000000000e+00    0,000000000e+00    0,000000000e+00    0,000000000e+00
      254000000   -6,349225342e-02    1,723164506e-02    2,760246992e-01   -7,433238029e-01    0,000000000e+00    0,000000000e+00    0,000000000e+00    0,000000000e+00
      268000000   -2,390012331e-02    2,883952297e-02   -1,780471355e-01   -7,642792463e-01    0,000000000e+00    0,000000000e+00    0,000000000e+00    0,000000000e+00
      282000000    4,254325759e-03    1,191856060e-02   -5,619118810e-01   -5,356552005e-01    0,000000000e+00    0,000000000e+00    0,000000000e+00    0,000000000e+00
      296000000    9,618183598e-03   -7,872906514e-03   -7,597603202e-01   -1,396941841e-01    0,000000000e+00    0,000000000e+00    0,000000000e+00    0,000000000e+00
      310000000    1,112218853e-02   -1,638323441e-02   -7,132449746e-01    2,987526953e-01    0,000000000e+00    0,000000000e+00    0,000000000e+00    0,000000000e+00
      324000000    1,974514127e-02   -2,655567788e-02   -4,277765453e-01    6,366273761e-01    0,000000000e+00    0,000000000e+00    0,000000000e+00    0,000000000e+00
      338000000    2,575438842e-02   -5,220730603e-02   -9,758687578e-03    7,612967491e-01    0,000000000e+00    0,000000000e+00    0,000000000e+00    0,000000000e+00
      352000000    7,278723177e-03   -8,452603966e-02    4,065966010e-01    6,400374174e-01    0,000000000e+00    0,000000000e+00    0,000000000e+00    0,000000000e+00
      366000000   -3,475036845e-02   -9,546791017e-02    6,899832487e-01    3,115626574e-01    0,000000000e+00    0,000000000e+00    0,000000000e+00    0,000000000e+00
      380000000   -7,102657109e-02   -7,099795341e-02    7,476807833e-01   -1,258140057e-01    0,000000000e+00    0,000000000e+00    0,000000000e+00    0,000000000e+00
      394000000   -7,269114256e-02   -3,233789280e-02    5,466691256e-01   -5,227528214e-01    0,000000000e+00    0,000000000e+00    0,000000000e+00    0,000000000e+00
      408000000   -4,643142968e-02   -1,595123485e-02    1,612529755e-01   -7,324722409e-01    0,000000000e+00    0,000000000e+00    0,000000000e+00    0,000000000e+00
      422000000   -2,846505307e-02   -3,202580288e-02   -2,671125233e-01   -6,945614815e-01    0,000000000e+00    0,000000000e+00    0,000000000e+00    0,000000000e+00
      436000000   -4,047583044e-02   -5,192663521e-02   -6,037196517e-01   -4,325911105e-01    0,000000000e+00    0,000000000e+00    0,000000000e+00    0,000000000e+00
      450000000   -6,736730039e-02   -4,371733963e-02   -7,402361631e-01   -2,151594125e-02    0,000000000e+00    0,000000000e+00    0,000000000e+00    0,000000000e+00
      464000000   -7,328470051e-02   -1,175313815e-02   -6,184005141e-01    3,979036510e-01    0,000000000e+00    0,000000000e+00    0,000000000e+00    0,000000000e+00
      478000000   -4,740973562e-02    1,159812231e-02   -2,824419737e-01    6,674010754e-01    0,000000000e+00    0,000000000e+00    0,000000000e+00    0,000000000e+00
      492000000   -1,595569402e-02    5,913863424e-03    1,372665763e-01    7,012051940e-01    0,000000000e+00    0,000000000e+00    0,000000000e+00    0,000000000e+00
      506000000   -2,776255133e-03   -1,539628021e-02    4,987194538e-01    5,030327439e-01    0,000000000e+00    0,000000000e+00    0,000000000e+00    0,000000000e+00
      520000000   -4,823240917e-03   -3,142044321e-02    6,883315444e-01    1,424926817e-01    0,000000000e+00    0,000000000e+00    0,000000000e+00    0,000000000e+00
      534000000   -3,998195753e-03   -3,815828636e-02    6,438688040e-01   -2,627647519e-01    0,000000000e+00    0,000000000e+00    0,000000000e+00    0,000000000e+00
      548000000    5,662090611e-03   -5,400160700e-02    3,808883727e-01   -5,672730207e-01    0,000000000e+00    0,000000000e+00    0,000000000e+00    0,000000000e+00
      562000000    3,122919472e-03   -8,943336457e-02    3,007177263e-03   -6,724640727e-01    0,000000000e+00    0,000000000e+00    0,000000000e+00    0,000000000e+00
      576000000   -3,423003107e-02   -1,241432652e-01   -3,687824905e-01   -5,577837825e-01    0,000000000e+00    0,000000000e+00    0,000000000e+00    0,000000000e+00
      590000000   -9,636812657e-02   -1,228311956e-01   -6,199067831e-01   -2,645676732e-01    0,000000000e+00    0,000000000e+00    0,000000000e+00    0,000000000e+00
      604000000   -1,397116631e-01   -7,154998183e-02   -6,655154824e-01    1,378931850e-01    0,000000000e+00    0,000000000e+00    0,000000000e+00    0,000000000e+00
      618000000   -1,292320043e-01   -9,309063666e-03   -4,636146128e-01    4,951752126e-01    0,000000000e+00    0,000000000e+00    0,000000000e+00    0,000000000e+00
      632000000   -8,466406912e-02    1,672428846e-02   -9,876444936e-02    6,638193727e-01    0,000000000e+00    0,000000000e+00    0,000000000e+00    0,000000000e+00
      646000000   -5,054114386e-02    7,672461797e-04    2,877967060e-01    5,953214765e-01    0,000000000e+00    0,000000000e+00    0,000000000e+00    0,000000000e+00
      660000000   -5,332827941e-02   -2,133745514e-02    5,674822927e-01    3,223282099e-01    0,000000000e+00    0,000000000e+00    0,000000000e+00    0,000000000e+00
      674000000   -6,980579346e-02   -1,819500886e-02    6,429024339e-01   -6,531484425e-02    0,000000000e+00    0,000000000e+00    0,000000000e+00    0,000000000e+00
      688000000   -6,907971203e-02    8,820744231e-03    4,713023007e-01   -4,285444021e-01    0,000000000e+00    0,000000000e+00    0,000000000e+00    0,000000000e+00
      702000000   -3,815270588e-02    2,551057935e-02    1,203017682e-01   -6,080529690e-01    0,000000000e+00    0,000000000e+00    0,000000000e+00    0,000000000e+00
      716000000    2,328764414e-03    1,707521081e-02   -2,653875947e-01   -5,469315052e-01    0,000000000e+00    0,000000000e+00    0,000000000e+00    0,000000000e+00
      730000000    3,623418510e-02   -1,127349213e-02   -5,280856490e-01   -2,691064179e-01    0,000000000e+00    0,000000000e+00    0,000000000e+00    0,000000000e+00
      744000000    6,513871998e-02   -6,200962514e-02   -5,640882254e-01    1,060707048e-01    0,000000000e+00    0,000000000e+00    0,000000000e+00    0,000000000e+00
      758000000    6,684616208e-02   -1,525531262e-01   -3,637419641e-01    4,102507830e-01    0,000000000e+00    0,000000000e+00    0,000000000e+00    0,000000000e+00
      772000000   -1,239092182e-02   -2,620127797e-01   -3,446143866e-02    5,152071714e-01    0,000000000e+00    0,000000000e+00    0,000000000e+00    0,000000000e+00
      786000000   -2,065352052e-01   -3,022786379e-01    2,745666206e-01    3,952662647e-01    0,000000000e+00    0,000000000e+00    0,000000000e+00    0,000000000e+00
      800000000   -4,258200228e-01   -1,308382154e-01    4,172710180e-01    9,954077005e-02    0,000000000e+00    0,000000000e+00    0,000000000e+00    0,000000000e+00
      814000000   -3,898891211e-01    2,222878337e-01    2,826688290e-01   -1,733192056e-01    0,000000000e+00    0,000000000e+00    0,000000000e+00    0,000000000e+00
      828000000   -4,923757166e-02    3,680381179e-01    5,467221886e-02   -1,893281043e-01    0,000000000e+00    0,000000000e+00    0,000000000e+00    0,000000000e+00
      842000000    2,349439859e-01    1,858961731e-01   -1,742607355e-02   -7,097735256e-02    0,000000000e+00    0,000000000e+00    0,000000000e+00    0,000000000e+00
      856000000    2,803756297e-01   -1,242966652e-01    4,549969733e-02   -1,308740769e-02    0,000000000e+00    0,000000000e+00    0,000000000e+00    0,000000000e+00
      870000000    7,528273761e-02   -3,763209581e-01    1,140413955e-01   -9,093655646e-02    0,000000000e+00    0,000000000e+00    0,000000000e+00    0,000000000e+00
      884000000   -2,951989770e-01   -3,619005978e-01    2,943032980e-02   -2,452254891e-01    0,000000000e+00    0,000000000e+00    0,000000000e+00    0,000000000e+00
      898000000   -4,725247920e-01    8,173354901e-03   -2,218375504e-01   -2,285297364e-01    0,000000000e+00    0,000000000e+00    0,000000000e+00    0,000000000e+00
      912000000   -2,242890298e-01    2,946469486e-01   -3,447119296e-01    5,971615389e-02    0,000000000e+00    0,000000000e+00    0,000000000e+00    0,000000000e+00
      926000000    6,780935079e-02    2,628475130e-01   -2,156102508e-01    2,646791935e-01    0,000000000e+00    0,000000000e+00    0,000000000e+00    0,000000000e+00
      940000000    2,180647403e-01    8,045070618e-02   -3,553376719e-02    3,293635547e-01    0,000000000e+00    0,000000000e+00    0,000000000e+00    0,000000000e+00
      954000000    2,212070227e-01   -1,295867562e-01    1,307112724e-01    3,058177531e-01    0,000000000e+00    0,000000000e+00    0,000000000e+00    0,000000000e+00
      968000000    1,164749190e-01   -3,023671806e-01    2,710992098e-01    2,197526097e-01    0,000000000e+00    0,000000000e+00    0,000000000e+00    0,000000000e+00
      982000000   -8,130992204e-02   -3,872513473e-01    3,670872152e-01    6,533716619e-02    0,000000000e+00    0,000000000e+00    0,000000000e+00    0,000000000e+00
      996000000   -3,174927533e-01   -3,324355781e-01    3,687295616e-01   -1,460060924e-01    0,000000000e+00    0,000000000e+00    0,000000000e+00    0,000000000e+00
     1010000000   -4,601177573e-01   -1,115134656e-01    2,222913951e-01   -3,412309587e-01    0,000000000e+00    0,000000000e+00    0,000000000e+00    0,000000000e+00
     1024000000   -4,182283878e-01    1,485334486e-01   -3,340571746e-02   -3,916681707e-01    0,000000000e+00    0,000000000e+00    0,000000000e+00    0,000000000e+00
     1038000000   -2,166895270e-01    2,944177389e-01   -2,481926531e-01   -2,607842684e-01    0,000000000e+00    0,000000000e+00    0,000000000e+00    0,000000000e+00
     1052000000   -8,713306859e-03    2,817297280e-01   -3,182103634e-01   -4,625164345e-02    0,000000000e+00    0,000000000e+00    0,000000000e+00    0,000000000e+00
     1066000000    1,334465295e-01    1,645503938e-01   -2,561995685e-01    1,434247792e-01    0,000000000e+00    0,000000000e+00    0,000000000e+00    0,000000000e+00
     1080000000    1,953328848e-01    1,663173549e-03   -1,209370196e-01    2,615886927e-01    0,000000000e+00    0,000000000e+00    0,000000000e+00    0,000000000e+00
     1094000000    1,545187384e-01   -1,792087108e-01    6,316883117e-02    3,060888052e-01    0,000000000e+00    0,000000000e+00    0,000000000e+00    0,000000000e+00
     1108000000   -1,675304666e-04   -3,070991337e-01    2,745329142e-01    2,469679713e-01    0,000000000e+00    0,000000000e+00    0,000000000e+00    0,000000000e+00
     1122000000   -2,455924302e-01   -2,635776997e-01    4,701086879e-01    1,422297582e-02    0,000000000e+00    0,000000000e+00    0,000000000e+00    0,000000000e+00
     1136000000   -3,145529628e-01    3,445378691e-02    4,010518491e-01   -3,956762850e-01    0,000000000e+00    0,000000000e+00    0,000000000e+00    0,000000000e+00
     1150000000   -3,849430382e-02    1,487982571e-01    5,940244999e-03   -5,427410007e-01    0,000000000e+00    0,000000000e+00    0,000000000e+00    0,000000000e+00
     1164000000    1,209249794e-01   -6,244647503e-02   -2,791490257e-01   -3,787357211e-01    0,000000000e+00    0,000000000e+00    0,000000000e+00    0,000000000e+00
     1178000000    1,904879883e-02   -3,051973879e-01   -3,683393598e-01   -1,541199982e-01    0,000000000e+00    0,000000000e+00    0,000000000e+00    0,000000000e+00
     1192000000   -2,661018968e-01   -3,731301129e-01   -3,219814003e-01    5,632670596e-02    0,000000000e+00    0,000000000e+00    0,000000000e+00    0,000000000e+00
     1206000000   -5,276556611e-01   -1,608369350e-01   -1,674139202e-01    1,813496351e-01    0,000000000e+00    0,000000000e+00    0,000000000e+00    0,000000000e+00
     1220000000   -5,055290461e-01    1,746399999e-01    4,691476468e-03    1,606691182e-01    0,000000000e+00    0,000000000e+00    0,000000000e+00    0,000000000e+00
     1234000000   -2,851518691e-01    3,693256378e-01    7,159780711e-02    6,279535592e-02    0,000000000e+00    0,000000000e+00    0,000000000e+00    0,000000000e+00
     1248000000   -4,926679656e-02    3,653002977e-01    5,105071515e-02   -9,081806988e-03    0,000000000e+00    0,000000000e+00    0,000000000e+00    0,000000000e+00
     1262000000    1,254908890e-01    2,597185969e-01    1,731768437e-02   -1,860713772e-02    0,000000000e+00    0,000000000e+00    0,000000000e+00    0,000000000e+00
     1276000000    2,118181139e-01    9,621359408e-02   -7,436532178e-04    5,726009607e-03    0,000000000e+00    0,000000000e+00    0,000000000e+00    0,000000000e+00
     1290000000    2,215112150e-01   -7,556863874e-02    1,447169669e-02    4,977214336e-02    0,000000000e+00    0,000000000e+00    0,000000000e+00    0,000000000e+00
     1304000000    1,554260999e-01   -2,421691716e-01    1,324409693e-01    6,760864705e-02    0,000000000e+00    0,000000000e+00    0,000000000e+00    0,000000000e+00
     1318000000    3,344672918e-02   -3,339936733e-01    1,267648488e-01   -1,623837203e-01    0,000000000e+00    0,000000000e+00    0,000000000e+00    0,000000000e+00
     1332000000   -1,312476397e-01   -4,392786622e-01   -4,099127278e-02   -4,652888700e-02    0,000000000e+00    0,000000000e+00    0,000000000e+00    0,000000000e+00
     1346000000   -3,967520297e-01   -4,020258784e-01    2,656992339e-02    7,640515268e-02    0,000000000e+00    0,000000000e+00    0,000000000e+00    0,000000000e+00
     1360000000   -6,114617586e-01   -1,899192929e-01    1,381332725e-01    6,838922948e-02    0,000000000e+00    0,000000000e+00    0,000000000e+00    0,000000000e+00
     1374000000   -6,375662684e-01    1,253501624e-01    1,948361695e-01   -6,649140269e-03    0,000000000e+00    0,000000000e+00    0,000000000e+00    0,000000000e+00
     1388000000   -4,660791755e-01    3,691969812e-01    2,007592320e-01   -6,195725128e-02    0,000000000e+00    0,000000000e+00    0,000000000e+00    0,000000000e+00
     1402000000   -2,343247831e-01    4,472405016e-01    1,833323538e-01   -1,063383147e-01    0,000000000e+00    0,000000000e+00    0,000000000e+00    0,000000000e+00
     1416000000   -2,689617313e-02    4,139969945e-01    1,718014628e-01   -9,647542238e-02    0,000000000e+00    0,000000000e+00    0,000000000e+00    0,000000000e+00
     1430000000    1,243537292e-01    2,923059762e-01    1,444305331e-01   -9,162018448e-02    0,000000000e+00    0,000000000e+00    0,000000000e+00    0,000000000e+00
     1444000000    2,068549842e-01    1,514600515e-01    1,583672464e-01   -9,101672471e-02    0,000000000e+00    0,000000000e+00    0,000000000e+00    0,000000000e+00
     1458000000    2,366461903e-01   -2,261924557e-02    1,492370963e-01   -7,865188271e-02    0,000000000e+00    0,000000000e+00    0,000000000e+00    0,000000000e+00
     1472000000    1,896386147e-01   -2,035957426e-01    1,434150785e-01   -3,173118085e-02    0,000000000e+00    0,000000000e+00    0,000000000e+00    0,000000000e+00
     1486000000    6,142394617e-02   -3,704447150e-01    1,660413295e-01    4,619354010e-02    0,000000000e+00    0,000000000e+00    0,000000000e+00    0,000000000e+00
     1500000000   -1,812903434e-01   -4,933020473e-01    2,372034192e-01    9,141955525e-02    0,000000000e+00    0,000000000e+00    0,000000000e+00    0,000000000e+00
