! NanoVNA-App
! Date: 2025-09-25 15:35:25
! Start: 100MHz Stop: 1,5GHz Points: 101
! S-Parameter data: F S11 S21 S12 S22
# Hz S RI R 50
!     Frequency           S11_Real           S11_Imag           S21_Real           S21_Imag           S12_Real           S12_Imag           S22_Real           S22_Imag
      100000000   -2,884276770e-02   -4,164897837e-03    3,740814924e-01   -7,217329144e-01    0,000000000e+00    0,000000000e+00    0,000000000e+00    0,000000000e+00
      114000000   -1,649462990e-02    1,150602102e-02   -8,915163577e-02   -8,055173755e-01    0,000000000e+00    0,000000000e+00    0,000000000e+00    0,000000000e+00
      128000000    3,548657754e-03    1,054025069e-02   -5,144939423e-01   -6,203390956e-01    0,000000000e+00    0,000000000e+00    0,000000000e+00    0,000000000e+00
      142000000    1,459263079e-02   -2,969059162e-03   -7,671853900e-01   -2,365894169e-01    0,000000000e+00    0,000000000e+00    0,000000000e+00    0,000000000e+00
      156000000    1,594422013e-02   -1,445006113e-02   -7,698017359e-01    2,242354155e-01    0,000000000e+00    0,000000000e+00    0,000000000e+00    0,000000000e+00
      170000000    1,671197452e-02   -2,253202163e-02   -5,182238221e-01    6,048210263e-01    0,000000000e+00    0,000000000e+00    0,000000000e+00    0,000000000e+00
      184000000    2,103960700e-02   -3,705023602e-02   -1,013477147e-01    7,859614491e-01    0,000000000e+00    0,000000000e+00    0,000000000e+00    0,000000000e+00
      198000000    1,301523019e-02   -6,245875731e-02    3,433969319e-01    7,125357985e-01    0,000000000e+00    0,000000000e+00    0,000000000e+00    0,000000000e+00
      212000000   -1,867332123e-02   -8,123675734e-02    6,779054403e-01    4,100261033e-01    0,000000000e+00    0,000000000e+00    0,000000000e+00    0,000000000e+00
      226000000   -6,173118204e-02   -6,922160089e-02    7,957688570e-01   -3,058428317e-02    0,000000000e+00    0,000000000e+00    0,000000000e+00    0,000000000e+00
      240000000   -8,253893256e-02   -2,562267520e-02    6,459594965e-01   -4,671793580e-01    0,000000000e+00    0,000000000e+00    0,000000000e+00    0,000000000e+00
      254000000   -6,350582838e-02    1,723976806e-02    2,760268450e-01   -7,432835102e-01    0,000000000e+00    0,000000000e+00    0,000000000e+00    0,000000000e+00
      268000000   -2,378842607e-02    2,885682322e-02   -1,776936054e-01   -7,639772892e-01    0,000000000e+00    0,000000000e+00    0,000000000e+00    0,000000000e+00
      282000000    4,199729301e-03    1,198573317e-02   -5,615018010e-01   -5,359460115e-01    0,000000000e+00    0,000000000e+00    0,000000000e+00    0,000000000e+00
      296000000    9,816283360e-03   -7,849143818e-03   -7,598497272e-01   -1,397163123e-01    0,000000000e+00    0,000000000e+00    0,000000000e+00    0,000000000e+00
      310000000    1,109176874e-02   -1,620844379e-02   -7,121874094e-01    2,975373864e-01    0,000000000e+00    0,000000000e+00    0,000000000e+00    0,000000000e+00
      324000000    1,963179931e-02   -2,633564547e-02   -4,270543456e-01    6,378704906e-01    0,000000000e+00    0,000000000e+00    0,000000000e+00    0,000000000e+00
      338000000    2,537536621e-02   -5,198974907e-02   -9,331402369e-03    7,603904009e-01    0,000000000e+00    0,000000000e+00    0,000000000e+00    0,000000000e+00
      352000000    7,333824877e-03   -8,496639132e-02    4,069727361e-01    6,390255690e-01    0,000000000e+00    0,000000000e+00    0,000000000e+00    0,000000000e+00
      366000000   -3,501689434e-02   -9,546212852e-02    6,902730465e-01    3,111677468e-01    0,000000000e+00    0,000000000e+00    0,000000000e+00    0,000000000e+00
      380000000   -7,073453814e-02   -7,123541832e-02    7,473568320e-01   -1,264258027e-01    0,000000000e+00    0,000000000e+00    0,000000000e+00    0,000000000e+00
      394000000   -7,254557312e-02   -3,212560713e-02    5,470206141e-01   -5,215502381e-01    0,000000000e+00    0,000000000e+00    0,000000000e+00    0,000000000e+00
      408000000   -4,626186937e-02   -1,632149704e-02    1,619461924e-01   -7,317761183e-01    0,000000000e+00    0,000000000e+00    0,000000000e+00    0,000000000e+00
      422000000   -2,813088708e-02   -3,194271028e-02   -2,659263909e-01   -6,951166987e-01    0,000000000e+00    0,000000000e+00    0,000000000e+00    0,000000000e+00
      436000000   -4,037892818e-02   -5,184899643e-02   -6,041250825e-01   -4,319512546e-01    0,000000000e+00    0,000000000e+00    0,000000000e+00    0,000000000e+00
      450000000   -6,736740470e-02   -4,368069768e-02   -7,407674193e-01   -2,103300020e-02    0,000000000e+00    0,000000000e+00    0,000000000e+00    0,000000000e+00
      464000000   -7,351608574e-02   -1,166976988e-02   -6,192194223e-01    3,972106874e-01    0,000000000e+00    0,000000000e+00    0,000000000e+00    0,000000000e+00
      478000000   -4,758870229e-02    1,213562861e-02   -2,828658819e-01    6,674488783e-01    0,000000000e+00    0,000000000e+00    0,000000000e+00    0,000000000e+00
      492000000   -1,557074580e-02    6,332931574e-03    1,377803236e-01    7,007442117e-01    0,000000000e+00    0,000000000e+00    0,000000000e+00    0,000000000e+00
      506000000   -2,630563453e-03   -1,556035411e-02    4,984588921e-01    5,029973388e-01    0,000000000e+00    0,000000000e+00    0,000000000e+00    0,000000000e+00
      520000000   -4,900355358e-03   -3,132183477e-02    6,884432435e-01    1,409917325e-01    0,000000000e+00    0,000000000e+00    0,000000000e+00    0,000000000e+00
      534000000   -3,463732079e-03   -3,826123103e-02    6,441212296e-01   -2,622823417e-01    0,000000000e+00    0,000000000e+00    0,000000000e+00    0,000000000e+00
      548000000    6,026781164e-03   -5,413619801e-02    3,814530969e-01   -5,674331188e-01    0,000000000e+00    0,000000000e+00    0,000000000e+00    0,000000000e+00
      562000000    3,010509070e-03   -8,944389224e-02    3,323949175e-03   -6,725443006e-01    0,000000000e+00    0,000000000e+00    0,000000000e+00    0,000000000e+00
      576000000   -3,384117410e-02   -1,244426593e-01   -3,692646027e-01   -5,581004024e-01    0,000000000e+00    0,000000000e+00    0,000000000e+00    0,000000000e+00
      590000000   -9,661759436e-02   -1,228188351e-01   -6,202042699e-01   -2,623149157e-01    0,000000000e+00    0,000000000e+00    0,000000000e+00    0,000000000e+00
      604000000   -1,395088285e-01   -7,160469145e-02   -6,653266549e-01    1,383702755e-01    0,000000000e+00    0,000000000e+00    0,000000000e+00    0,000000000e+00
      618000000   -1,289465129e-01   -9,187333286e-03   -4,643824697e-01    4,948331714e-01    0,000000000e+00    0,000000000e+00    0,000000000e+00    0,000000000e+00
      632000000   -8,446057886e-02    1,657740027e-02   -9,970790148e-02    6,633646488e-01    0,000000000e+00    0,000000000e+00    0,000000000e+00    0,000000000e+00
      646000000   -5,092585459e-02   -4,549421283e-05    2,875588536e-01    5,960090160e-01    0,000000000e+00    0,000000000e+00    0,000000000e+00    0,000000000e+00
      660000000   -5,258888751e-02   -2,199985459e-02    5,669165850e-01    3,225997984e-01    0,000000000e+00    0,000000000e+00    0,000000000e+00    0,000000000e+00
      674000000   -7,068888843e-02   -1,812030561e-02    6,431925893e-01   -6,554111838e-02    0,000000000e+00    0,000000000e+00    0,000000000e+00    0,000000000e+00
      688000000   -6,843652576e-02    9,451637976e-03    4,707478285e-01   -4,283877909e-01    0,000000000e+00    0,000000000e+00    0,000000000e+00    0,000000000e+00
      702000000   -3,657307103e-02    2,647896670e-02    1,176969111e-01   -6,083556414e-01    0,000000000e+00    0,000000000e+00    0,000000000e+00    0,000000000e+00
      716000000    2,703903243e-03    1,811226085e-02   -2,651315629e-01   -5,455680490e-01    0,000000000e+00    0,000000000e+00    0,000000000e+00    0,000000000e+00
      730000000    3,672051430e-02   -1,163909957e-02   -5,282164216e-01   -2,688960731e-01    0,000000000e+00    0,000000000e+00    0,000000000e+00    0,000000000e+00
      744000000    6,556530297e-02   -6,278117746e-02   -5,641462207e-01    1,064716503e-01    0,000000000e+00    0,000000000e+00    0,000000000e+00    0,000000000e+00
      758000000    6,784977019e-02   -1,519247293e-01   -3,631639183e-01    4,100464880e-01    0,000000000e+00    0,000000000e+00    0,000000000e+00    0,000000000e+00
      772000000   -1,241386309e-02   -2,623346448e-01   -3,389035165e-02    5,149241686e-01    0,000000000e+00    0,000000000e+00    0,000000000e+00    0,000000000e+00
      786000000   -2,070057690e-01   -3,020884991e-01    2,752902806e-01    3,949340582e-01    0,000000000e+00    0,000000000e+00    0,000000000e+00    0,000000000e+00
      800000000   -4,263808727e-01   -1,300219148e-01    4,173732102e-01    9,881266952e-02    0,000000000e+00    0,000000000e+00    0,000000000e+00    0,000000000e+00
      814000000   -3,887398541e-01    2,210733145e-01    2,817191482e-01   -1,733075976e-01    0,000000000e+00    0,000000000e+00    0,000000000e+00    0,000000000e+00
      828000000   -4,972914234e-02    3,680035472e-01    5,538257211e-02   -1,893195510e-01    0,000000000e+00    0,000000000e+00    0,000000000e+00    0,000000000e+00
      842000000    2,347714752e-01    1,861196756e-01   -1,774987020e-02   -7,072488219e-02    0,000000000e+00    0,000000000e+00    0,000000000e+00    0,000000000e+00
      856000000    2,808649540e-01   -1,244939566e-01    4,518565536e-02   -1,345586870e-02    0,000000000e+00    0,000000000e+00    0,000000000e+00    0,000000000e+00
      870000000    7,587406039e-02   -3,762919605e-01    1,140735522e-01   -9,112050384e-02    0,000000000e+00    0,000000000e+00    0,000000000e+00    0,000000000e+00
      884000000   -2,951934934e-01   -3,614631593e-01    2,895323187e-02   -2,455148548e-01    0,000000000e+00    0,000000000e+00    0,000000000e+00    0,000000000e+00
      898000000   -4,724512398e-01    9,383467026e-03   -2,214552760e-01   -2,271906286e-01    0,000000000e+00    0,000000000e+00    0,000000000e+00    0,000000000e+00
      912000000   -2,256427556e-01    2,941389680e-01   -3,380058408e-01    7,411897182e-02    0,000000000e+00    0,000000000e+00    0,000000000e+00    0,000000000e+00
      926000000    6,744988263e-02    2,616211772e-01   -2,187696397e-01    2,625727654e-01    0,000000000e+00    0,000000000e+00    0,000000000e+00    0,000000000e+00
      940000000    2,172184736e-01    7,951834798e-02   -3,349871188e-02    3,293807507e-01    0,000000000e+00    0,000000000e+00    0,000000000e+00    0,000000000e+00
      954000000    2,201371789e-01   -1,285066754e-01    1,309532672e-01    3,066332638e-01    0,000000000e+00    0,000000000e+00    0,000000000e+00    0,000000000e+00
      968000000    1,178122982e-01   -2,987405062e-01    2,721638680e-01    2,194516361e-01    0,000000000e+00    0,000000000e+00    0,000000000e+00    0,000000000e+00
      982000000   -8,262710273e-02   -3,852978051e-01    3,662987053e-01    6,575462222e-02    0,000000000e+00    0,000000000e+00    0,000000000e+00    0,000000000e+00
      996000000   -3,138236701e-01   -3,299451470e-01    3,699833155e-01   -1,457949132e-01    0,000000000e+00    0,000000000e+00    0,000000000e+00    0,000000000e+00
     1010000000   -4,601920843e-01   -1,077146977e-01    2,231292129e-01   -3,411344290e-01    0,000000000e+00    0,000000000e+00    0,000000000e+00    0,000000000e+00
     1024000000   -4,127774239e-01    1,453569680e-01   -3,160404786e-02   -3,932679892e-01    0,000000000e+00    0,000000000e+00    0,000000000e+00    0,000000000e+00
     1038000000   -2,150915712e-01    2,884351909e-01   -2,474715710e-01   -2,592334747e-01    0,000000000e+00    0,000000000e+00    0,000000000e+00    0,000000000e+00
     1052000000   -6,161569152e-03    2,796411514e-01   -3,189890981e-01   -4,613525420e-02    0,000000000e+00    0,000000000e+00    0,000000000e+00    0,000000000e+00
     1066000000    1,346387416e-01    1,615713537e-01   -2,601906657e-01    1,473789066e-01    0,000000000e+00    0,000000000e+00    0,000000000e+00    0,000000000e+00
     1080000000    1,932422668e-01   -3,392858431e-03   -1,202135831e-01    2,633620501e-01    0,000000000e+00    0,000000000e+00    0,000000000e+00    0,000000000e+00
     1094000000    1,535766125e-01   -1,730172187e-01    6,407259405e-02    3,036945760e-01    0,000000000e+00    0,000000000e+00    0,000000000e+00    0,000000000e+00
     1108000000   -4,163437523e-03   -3,032907546e-01    2,773550153e-01    2,459972650e-01    0,000000000e+00    0,000000000e+00    0,000000000e+00    0,000000000e+00
     1122000000   -2,455427796e-01   -2,617291808e-01    4,720382392e-01    1,179724094e-02    0,000000000e+00    0,000000000e+00    0,000000000e+00    0,000000000e+00
     1136000000   -3,179717660e-01    3,623074666e-02    3,963466883e-01   -3,925452530e-01    0,000000000e+00    0,000000000e+00    0,000000000e+00    0,000000000e+00
     1150000000   -3,903708979e-02    1,554945409e-01    4,562756978e-03   -5,433410406e-01    0,000000000e+00    0,000000000e+00    0,000000000e+00    0,000000000e+00
     1164000000    1,255596429e-01   -6,602393836e-02   -2,792340219e-01   -3,784680665e-01    0,000000000e+00    0,000000000e+00    0,000000000e+00    0,000000000e+00
     1178000000    1,664154604e-02   -3,064160347e-01   -3,705841303e-01   -1,499728560e-01    0,000000000e+00    0,000000000e+00    0,000000000e+00    0,000000000e+00
     1192000000   -2,653469443e-01   -3,692453802e-01   -3,236700296e-01    5,902688950e-02    0,000000000e+00    0,000000000e+00    0,000000000e+00    0,000000000e+00
     1206000000   -5,221857429e-01   -1,582709700e-01   -1,649756432e-01    1,824398637e-01    0,000000000e+00    0,000000000e+00    0,000000000e+00    0,000000000e+00
     1220000000   -5,134168267e-01    1,730924696e-01   -3,323562210e-03    1,623823196e-01    0,000000000e+00    0,000000000e+00    0,000000000e+00    0,000000000e+00
     1234000000   -2,844529152e-01    3,704561293e-01    6,934190542e-02    6,852600724e-02    0,000000000e+00    0,000000000e+00    0,000000000e+00    0,000000000e+00
     1248000000   -4,913101718e-02    3,678820431e-01    5,582536012e-02   -3,775837598e-03    0,000000000e+00    0,000000000e+00    0,000000000e+00    0,000000000e+00
     1262000000    1,204487830e-01    2,538322806e-01    1,548872236e-02   -2,329690568e-02    0,000000000e+00    0,000000000e+00    0,000000000e+00    0,000000000e+00
     1276000000    2,095928937e-01    9,760116041e-02   -7,171608973e-03    6,604225840e-03    0,000000000e+00    0,000000000e+00    0,000000000e+00    0,000000000e+00
     1290000000    2,253167480e-01   -7,361664623e-02    1,928671822e-02    5,567818135e-02    0,000000000e+00    0,000000000e+00    0,000000000e+00    0,000000000e+00
     1304000000    1,527770162e-01   -2,422515303e-01    1,301556081e-01    6,761928648e-02    0,000000000e+00    0,000000000e+00    0,000000000e+00    0,000000000e+00
     1318000000    3,664957732e-02   -3,333707750e-01    1,346776485e-01   -1,606085002e-01    0,000000000e+00    0,000000000e+00    0,000000000e+00    0,000000000e+00
     1332000000   -1,315299422e-01   -4,338138402e-01   -4,993693531e-02   -4,557948187e-02    0,000000000e+00    0,000000000e+00    0,000000000e+00    0,000000000e+00
     1346000000   -4,013844728e-01   -4,098823071e-01    1,527557336e-02    6,832396984e-02    0,000000000e+00    0,000000000e+00    0,000000000e+00    0,000000000e+00
     1360000000   -6,120517254e-01   -1,901531816e-01    1,280820221e-01    6,456748396e-02    0,000000000e+00    0,000000000e+00    0,000000000e+00    0,000000000e+00
     1374000000   -6,341025829e-01    1,355053931e-01    1,980145723e-01    9,946892038e-03    0,000000000e+00    0,000000000e+00    0,000000000e+00    0,000000000e+00
     1388000000   -4,614267349e-01    3,653228581e-01    2,150117606e-01   -6,584440172e-02    0,000000000e+00    0,000000000e+00    0,000000000e+00    0,000000000e+00
     1402000000   -2,287116647e-01    4,551117420e-01    1,906655729e-01   -9,339488298e-02    0,000000000e+00    0,000000000e+00    0,000000000e+00    0,000000000e+00
     1416000000   -2,425595187e-02    4,163967967e-01    1,749780476e-01   -1,008099243e-01    0,000000000e+00    0,000000000e+00    0,000000000e+00    0,000000000e+00
     1430000000    1,230135560e-01    3,004859090e-01    1,623322815e-01   -1,008710489e-01    0,000000000e+00    0,000000000e+00    0,000000000e+00    0,000000000e+00
     1444000000    2,084397823e-01    1,520332694e-01    1,573135257e-01   -9,452383220e-02    0,000000000e+00    0,000000000e+00    0,000000000e+00    0,000000000e+00
     1458000000    2,299910784e-01   -1,780461334e-02    1,372563392e-01   -6,920485944e-02    0,000000000e+00    0,000000000e+00    0,000000000e+00    0,000000000e+00
     1472000000    1,893614680e-01   -2,009788007e-01    1,329197288e-01   -3,804185241e-02    0,000000000e+00    0,000000000e+00    0,000000000e+00    0,000000000e+00
     1486000000    6,174905598e-02   -3,805970252e-01    1,777923405e-01    2,397470176e-02    0,000000000e+00    0,000000000e+00    0,000000000e+00    0,000000000e+00
     1500000000   -1,747022867e-01   -5,003101826e-01    2,339452803e-01    8,899375796e-02    0,000000000e+00    0,000000000e+00    0,000000000e+00    0,000000000e+00
