! NanoVNA-App
! Date: 2025-09-25 15:37:31
! Start: 100MHz Stop: 1,5GHz Points: 101
! S-Parameter data: F S11 S21 S12 S22
# Hz S RI R 50
!     Frequency           S11_Real           S11_Imag           S21_Real           S21_Imag           S12_Real           S12_Imag           S22_Real           S22_Imag
      100000000   -2,883520722e-02   -4,158511292e-03    3,740915656e-01   -7,217556238e-01    0,000000000e+00    0,000000000e+00    0,000000000e+00    0,000000000e+00
      114000000   -1,644604281e-02    1,150994282e-02   -8,914789557e-02   -8,055680394e-01    0,000000000e+00    0,000000000e+00    0,000000000e+00    0,000000000e+00
      128000000    3,486754838e-03    1,051304210e-02   -5,145964622e-01   -6,204438210e-01    0,000000000e+00    0,000000000e+00    0,000000000e+00    0,000000000e+00
      142000000    1,461047307e-02   -2,954142634e-03   -7,671664953e-01   -2,366006076e-01    0,000000000e+00    0,000000000e+00    0,000000000e+00    0,000000000e+00
      156000000    1,519648079e-02   -1,502737124e-02   -7,692141533e-01    2,197139561e-01    0,000000000e+00    0,000000000e+00    0,000000000e+00    0,000000000e+00
      170000000    1,671596430e-02   -2,261268534e-02   -5,183134675e-01    6,044867635e-01    0,000000000e+00    0,000000000e+00    0,000000000e+00    0,000000000e+00
      184000000    2,104421332e-02   -3,706000745e-02   -1,014520526e-01    7,860494852e-01    0,000000000e+00    0,000000000e+00    0,000000000e+00    0,000000000e+00
      198000000    1,307415962e-02   -6,243024766e-02    3,433617651e-01    7,122651935e-01    0,000000000e+00    0,000000000e+00    0,000000000e+00    0,000000000e+00
      212000000   -1,860215701e-02   -8,131429553e-02    6,781442165e-01    4,101022184e-01    0,000000000e+00    0,000000000e+00    0,000000000e+00    0,000000000e+00
      226000000   -6,162299961e-02   -6,921218336e-02    7,957378626e-01   -3,058324382e-02    0,000000000e+00    0,000000000e+00    0,000000000e+00    0,000000000e+00
      240000000   -8,253555745e-02   -2,559856512e-02    6,461559534e-01   -4,673085213e-01    0,000000000e+00    0,000000000e+00    0,000000000e+00    0,000000000e+00
      254000000   -6,346321851e-02    1,726672612e-02    2,761234343e-01   -7,435833216e-01    0,000000000e+00    0,000000000e+00    0,000000000e+00    0,000000000e+00
      268000000   -2,382258512e-02    2,883762680e-02   -1,779129803e-01   -7,644184828e-01    0,000000000e+00    0,000000000e+00    0,000000000e+00    0,000000000e+00
      282000000    4,200181924e-03    1,197004970e-02   -5,618808866e-01   -5,356600285e-01    0,000000000e+00    0,000000000e+00    0,000000000e+00    0,000000000e+00
      296000000    9,761197492e-03   -7,857909426e-03   -7,596015930e-01   -1,395538896e-01    0,000000000e+00    0,000000000e+00    0,000000000e+00    0,000000000e+00
      310000000    1,091750246e-02   -1,616789401e-02   -7,128317356e-01    2,992175817e-01    0,000000000e+00    0,000000000e+00    0,000000000e+00    0,000000000e+00
      324000000    1,976792328e-02   -2,673909999e-02   -4,264893532e-01    6,382392049e-01    0,000000000e+00    0,000000000e+00    0,000000000e+00    0,000000000e+00
      338000000    2,585462667e-02   -5,220764503e-02   -9,589590132e-03    7,628381848e-01    0,000000000e+00    0,000000000e+00    0,000000000e+00    0,000000000e+00
      352000000    7,557009812e-03   -8,475697041e-02    4,066697657e-01    6,391211748e-01    0,000000000e+00    0,000000000e+00    0,000000000e+00    0,000000000e+00
      366000000   -3,448524326e-02   -9,547199309e-02    6,912505031e-01    3,113744855e-01    0,000000000e+00    0,000000000e+00    0,000000000e+00    0,000000000e+00
      380000000   -7,071209699e-02   -7,102460414e-02    7,476094961e-01   -1,255182624e-01    0,000000000e+00    0,000000000e+00    0,000000000e+00    0,000000000e+00
      394000000   -7,269279659e-02   -3,231075779e-02    5,461396575e-01   -5,225577950e-01    0,000000000e+00    0,000000000e+00    0,000000000e+00    0,000000000e+00
      408000000   -4,660464078e-02   -1,635917649e-02    1,618425697e-01   -7,326845527e-01    0,000000000e+00    0,000000000e+00    0,000000000e+00    0,000000000e+00
      422000000   -2,827792987e-02   -3,192614764e-02   -2,677377164e-01   -6,940827966e-01    0,000000000e+00    0,000000000e+00    0,000000000e+00    0,000000000e+00
      436000000   -4,032878950e-02   -5,180953071e-02   -6,039624810e-01   -4,318538010e-01    0,000000000e+00    0,000000000e+00    0,000000000e+00    0,000000000e+00
      450000000   -6,739258021e-02   -4,395819828e-02   -7,405574918e-01   -2,157189511e-02    0,000000000e+00    0,000000000e+00    0,000000000e+00    0,000000000e+00
      464000000   -7,331947237e-02   -1,165537816e-02   -6,180739403e-01    3,977472186e-01    0,000000000e+00    0,000000000e+00    0,000000000e+00    0,000000000e+00
      478000000   -4,781708121e-02    1,161083765e-02   -2,825289965e-01    6,680340767e-01    0,000000000e+00    0,000000000e+00    0,000000000e+00    0,000000000e+00
      492000000   -1,546350308e-02    6,228445563e-03    1,376643926e-01    7,022820115e-01    0,000000000e+00    0,000000000e+00    0,000000000e+00    0,000000000e+00
      506000000   -2,718650969e-03   -1,565192267e-02    4,978715777e-01    5,024561882e-01    0,000000000e+00    0,000000000e+00    0,000000000e+00    0,000000000e+00
      520000000   -4,843931179e-03   -3,165108711e-02    6,880612373e-01    1,416528374e-01    0,000000000e+00    0,000000000e+00    0,000000000e+00    0,000000000e+00
      534000000   -3,831999144e-03   -3,816772252e-02    6,439566016e-01   -2,624871135e-01    0,000000000e+00    0,000000000e+00    0,000000000e+00    0,000000000e+00
      548000000    6,101962645e-03   -5,393938720e-02    3,807970583e-01   -5,667939186e-01    0,000000000e+00    0,000000000e+00    0,000000000e+00    0,000000000e+00
      562000000    2,916763769e-03   -8,899979293e-02    2,188876504e-03   -6,729531884e-01    0,000000000e+00    0,000000000e+00    0,000000000e+00    0,000000000e+00
      576000000   -3,452280536e-02   -1,244527623e-01   -3,693814874e-01   -5,584515333e-01    0,000000000e+00    0,000000000e+00    0,000000000e+00    0,000000000e+00
      590000000   -9,622124583e-02   -1,225670353e-01   -6,207568645e-01   -2,622301280e-01    0,000000000e+00    0,000000000e+00    0,000000000e+00    0,000000000e+00
      604000000   -1,397678107e-01   -7,151794434e-02   -6,652789116e-01    1,383718103e-01    0,000000000e+00    0,000000000e+00    0,000000000e+00    0,000000000e+00
      618000000   -1,297891736e-01   -8,747278713e-03   -4,639997780e-01    4,945863187e-01    0,000000000e+00    0,000000000e+00    0,000000000e+00    0,000000000e+00
      632000000   -8,346854895e-02    1,686615683e-02   -9,860175103e-02    6,638607979e-01    0,000000000e+00    0,000000000e+00    0,000000000e+00    0,000000000e+00
      646000000   -5,070343241e-02    1,216465258e-03    2,877445519e-01    5,943417549e-01    0,000000000e+00    0,000000000e+00    0,000000000e+00    0,000000000e+00
      660000000   -5,326229334e-02   -2,120489068e-02    5,676932931e-01    3,221532702e-01    0,000000000e+00    0,000000000e+00    0,000000000e+00    0,000000000e+00
      674000000   -7,062152028e-02   -1,788125187e-02    6,429812908e-01   -6,546811759e-02    0,000000000e+00    0,000000000e+00    0,000000000e+00    0,000000000e+00
      688000000   -6,877592206e-02    8,310097270e-03    4,718786180e-01   -4,278952479e-01    0,000000000e+00    0,000000000e+00    0,000000000e+00    0,000000000e+00
      702000000   -3,690658137e-02    2,605103515e-02    1,180798262e-01   -6,123192906e-01    0,000000000e+00    0,000000000e+00    0,000000000e+00    0,000000000e+00
      716000000    1,647349214e-03    1,756073907e-02   -2,639060020e-01   -5,465545058e-01    0,000000000e+00    0,000000000e+00    0,000000000e+00    0,000000000e+00
      730000000    3,648465872e-02   -1,044286974e-02   -5,282663107e-01   -2,692394853e-01    0,000000000e+00    0,000000000e+00    0,000000000e+00    0,000000000e+00
      744000000    6,574491411e-02   -6,235317886e-02   -5,644623041e-01    1,065139771e-01    0,000000000e+00    0,000000000e+00    0,000000000e+00    0,000000000e+00
      758000000    6,668507308e-02   -1,518535465e-01   -3,635180295e-01    4,101934433e-01    0,000000000e+00    0,000000000e+00    0,000000000e+00    0,000000000e+00
      772000000   -1,246977691e-02   -2,631876171e-01   -3,441333026e-02    5,156267881e-01    0,000000000e+00    0,000000000e+00    0,000000000e+00    0,000000000e+00
      786000000   -2,068342119e-01   -3,028615415e-01    2,744030952e-01    3,951717615e-01    0,000000000e+00    0,000000000e+00    0,000000000e+00    0,000000000e+00
      800000000   -4,252078235e-01   -1,294266880e-01    4,166592658e-01    9,981669486e-02    0,000000000e+00    0,000000000e+00    0,000000000e+00    0,000000000e+00
      814000000   -3,894458115e-01    2,209319919e-01    2,823063731e-01   -1,731837392e-01    0,000000000e+00    0,000000000e+00    0,000000000e+00    0,000000000e+00
      828000000   -4,918695614e-02    3,687518537e-01    5,486837029e-02   -1,890396029e-01    0,000000000e+00    0,000000000e+00    0,000000000e+00    0,000000000e+00
      842000000    2,349814028e-01    1,863443702e-01   -1,712963916e-02   -7,132481039e-02    0,000000000e+00    0,000000000e+00    0,000000000e+00    0,000000000e+00
      856000000    2,809959352e-01   -1,242937893e-01    4,514362663e-02   -1,280622277e-02    0,000000000e+00    0,000000000e+00    0,000000000e+00    0,000000000e+00
      870000000    7,536388189e-02   -3,763914108e-01    1,137697324e-01   -9,127532691e-02    0,000000000e+00    0,000000000e+00    0,000000000e+00    0,000000000e+00
      884000000   -2,952281535e-01   -3,627826273e-01    2,836561017e-02   -2,458078712e-01    0,000000000e+00    0,000000000e+00    0,000000000e+00    0,000000000e+00
      898000000   -4,727269411e-01    8,262435906e-03   -2,222299725e-01   -2,278976142e-01    0,000000000e+00    0,000000000e+00    0,000000000e+00    0,000000000e+00
      912000000   -2,255867422e-01    2,940231860e-01   -3,514973521e-01    7,572822273e-02    0,000000000e+00    0,000000000e+00    0,000000000e+00    0,000000000e+00
      926000000    6,784044206e-02    2,640549541e-01   -2,162803710e-01    2,660783529e-01    0,000000000e+00    0,000000000e+00    0,000000000e+00    0,000000000e+00
      940000000    2,147054374e-01    7,817801833e-02   -3,564097360e-02    3,273877800e-01    0,000000000e+00    0,000000000e+00    0,000000000e+00    0,000000000e+00
      954000000    2,214874923e-01   -1,254530549e-01    1,316254288e-01    3,086189628e-01    0,000000000e+00    0,000000000e+00    0,000000000e+00    0,000000000e+00
      968000000    1,149542630e-01   -3,008208573e-01    2,700209320e-01    2,179517895e-01    0,000000000e+00    0,000000000e+00    0,000000000e+00    0,000000000e+00
      982000000   -8,293531835e-02   -3,860092759e-01    3,669746816e-01    6,444071978e-02    0,000000000e+00    0,000000000e+00    0,000000000e+00    0,000000000e+00
      996000000   -3,192247152e-01   -3,290090859e-01    3,677351475e-01   -1,454714686e-01    0,000000000e+00    0,000000000e+00    0,000000000e+00    0,000000000e+00
     1010000000   -4,612900913e-01   -1,086163521e-01    2,235390544e-01   -3,416682184e-01    0,000000000e+00    0,000000000e+00    0,000000000e+00    0,000000000e+00
     1024000000   -4,153331816e-01    1,535151750e-01   -3,417505696e-02   -3,925470710e-01    0,000000000e+00    0,000000000e+00    0,000000000e+00    0,000000000e+00
     1038000000   -2,129439563e-01    2,915203869e-01   -2,478798330e-01   -2,605649829e-01    0,000000000e+00    0,000000000e+00    0,000000000e+00    0,000000000e+00
     1052000000   -1,022140682e-02    2,780465782e-01   -3,170886040e-01   -4,776941985e-02    0,000000000e+00    0,000000000e+00    0,000000000e+00    0,000000000e+00
     1066000000    1,360107809e-01    1,655026078e-01   -2,582809627e-01    1,446463019e-01    0,000000000e+00    0,000000000e+00    0,000000000e+00    0,000000000e+00
     1080000000    1,917010546e-01    5,379873328e-04   -1,191657409e-01    2,620902061e-01    0,000000000e+00    0,000000000e+00    0,000000000e+00    0,000000000e+00
     1094000000    1,525321305e-01   -1,761709601e-01    6,518732756e-02    3,042743504e-01    0,000000000e+00    0,000000000e+00    0,000000000e+00    0,000000000e+00
     1108000000   -3,135854146e-03   -3,080353439e-01    2,765842676e-01    2,474849671e-01    0,000000000e+00    0,000000000e+00    0,000000000e+00    0,000000000e+00
     1122000000   -2,511952221e-01   -2,624130249e-01    4,722635448e-01    1,180258673e-02    0,000000000e+00    0,000000000e+00    0,000000000e+00    0,000000000e+00
     1136000000   -3,139359653e-01    3,160146251e-02    3,968002498e-01   -3,930881321e-01    0,000000000e+00    0,000000000e+00    0,000000000e+00    0,000000000e+00
     1150000000   -3,807602450e-02    1,553287953e-01    3,142712172e-03   -5,403571129e-01    0,000000000e+00    0,000000000e+00    0,000000000e+00    0,000000000e+00
     1164000000    1,273414046e-01   -6,352581829e-02   -2,756196558e-01   -3,786658645e-01    0,000000000e+00    0,000000000e+00    0,000000000e+00    0,000000000e+00
     1178000000    1,324780472e-02   -3,070166707e-01   -3,679811358e-01   -1,510830224e-01    0,000000000e+00    0,000000000e+00    0,000000000e+00    0,000000000e+00
     1192000000   -2,688895762e-01   -3,684324622e-01   -3,230479658e-01    5,675305054e-02    0,000000000e+00    0,000000000e+00    0,000000000e+00    0,000000000e+00
     1206000000   -5,179125667e-01   -1,659856141e-01   -1,664407551e-01    1,792043746e-01    0,000000000e+00    0,000000000e+00    0,000000000e+00    0,000000000e+00
     1220000000   -5,040751696e-01    1,749003381e-01    1,122513786e-03    1,620760411e-01    0,000000000e+00    0,000000000e+00    0,000000000e+00    0,000000000e+00
     1234000000   -2,816872895e-01    3,640251458e-01    6,972377002e-02    5,792716146e-02    0,000000000e+00    0,000000000e+00    0,000000000e+00    0,000000000e+00
     1248000000   -4,909273982e-02    3,669193387e-01    5,461741984e-02   -1,115228795e-02    0,000000000e+00    0,000000000e+00    0,000000000e+00    0,000000000e+00
     1262000000    1,230869889e-01    2,595997751e-01    2,046715654e-02   -1,908361167e-02    0,000000000e+00    0,000000000e+00    0,000000000e+00    0,000000000e+00
     1276000000    2,137941420e-01    9,781470895e-02   -8,082185523e-04    1,213627518e-03    0,000000000e+00    0,000000000e+00    0,000000000e+00    0,000000000e+00
     1290000000    2,220146656e-01   -7,574598491e-02    1,570651494e-02    5,046873912e-02    0,000000000e+00    0,000000000e+00    0,000000000e+00    0,000000000e+00
     1304000000    1,548887789e-01   -2,423371524e-01    1,316099912e-01    7,282219082e-02    0,000000000e+00    0,000000000e+00    0,000000000e+00    0,000000000e+00
     1318000000    3,674437478e-02   -3,359228075e-01    1,281207651e-01   -1,672033221e-01    0,000000000e+00    0,000000000e+00    0,000000000e+00    0,000000000e+00
     1332000000   -1,329976320e-01   -4,396351576e-01   -5,182183534e-02   -4,788792878e-02    0,000000000e+00    0,000000000e+00    0,000000000e+00    0,000000000e+00
     1346000000   -3,961042464e-01   -4,040904939e-01    2,385598794e-02    7,817945629e-02    0,000000000e+00    0,000000000e+00    0,000000000e+00    0,000000000e+00
     1360000000   -6,040100455e-01   -1,994277388e-01    1,408694834e-01    6,646372378e-02    0,000000000e+00    0,000000000e+00    0,000000000e+00    0,000000000e+00
     1374000000   -6,347017884e-01    1,281634420e-01    2,094260156e-01    4,561484326e-03    0,000000000e+00    0,000000000e+00    0,000000000e+00    0,000000000e+00
     1388000000   -4,621044993e-01    3,656205535e-01    2,158636749e-01   -7,641857862e-02    0,000000000e+00    0,000000000e+00    0,000000000e+00    0,000000000e+00
     1402000000   -2,309324294e-01    4,557829201e-01    1,910646260e-01   -9,554838389e-02    0,000000000e+00    0,000000000e+00    0,000000000e+00    0,000000000e+00
     1416000000   -2,484337613e-02    4,137487710e-01    1,777544320e-01   -1,018671021e-01    0,000000000e+00    0,000000000e+00    0,000000000e+00    0,000000000e+00
     1430000000    1,171691716e-01    2,975203097e-01    1,413488835e-01   -1,213578880e-01    0,000000000e+00    0,000000000e+00    0,000000000e+00    0,000000000e+00
     1444000000    2,036073208e-01    1,529744416e-01    1,527943611e-01   -8,982814103e-02    0,000000000e+00    0,000000000e+00    0,000000000e+00    0,000000000e+00
     1458000000    2,312117517e-01   -1,764663309e-02    1,412117779e-01   -7,538009435e-02    0,000000000e+00    0,000000000e+00    0,000000000e+00    0,000000000e+00
     1472000000    1,919007003e-01   -2,024237663e-01    1,454004347e-01   -3,611198068e-02    0,000000000e+00    0,000000000e+00    0,000000000e+00    0,000000000e+00
     1486000000    6,639584154e-02   -3,729382753e-01    1,812645942e-01    2,808582038e-02    0,000000000e+00    0,000000000e+00    0,000000000e+00    0,000000000e+00
     1500000000   -1,787189692e-01   -4,976137578e-01    2,423866391e-01    8,229170740e-02    0,000000000e+00    0,000000000e+00    0,000000000e+00    0,000000000e+00
