! NanoVNA-App
! Date: 2025-09-25 15:34:57
! Start: 100MHz Stop: 1,5GHz Points: 101
! S-Parameter data: F S11 S21 S12 S22
# Hz S RI R 50
!     Frequency           S11_Real           S11_Imag           S21_Real           S21_Imag           S12_Real           S12_Imag           S22_Real           S22_Imag
      100000000   -2,883798070e-02   -4,183523823e-03    3,740997910e-01   -7,217968702e-01    0,000000000e+00    0,000000000e+00    0,000000000e+00    0,000000000e+00
      114000000   -1,648089848e-02    1,151647512e-02   -8,920936286e-02   -8,055011034e-01    0,000000000e+00    0,000000000e+00    0,000000000e+00    0,000000000e+00
      128000000    3,483682638e-03    1,056418475e-02   -5,144372582e-01   -6,204566956e-01    0,000000000e+00    0,000000000e+00    0,000000000e+00    0,000000000e+00
      142000000    1,458523888e-02   -2,962285886e-03   -7,670997381e-01   -2,366901636e-01    0,000000000e+00    0,000000000e+00    0,000000000e+00    0,000000000e+00
      156000000    1,578388549e-02   -1,465195976e-02   -7,722538710e-01    2,233980894e-01    0,000000000e+00    0,000000000e+00    0,000000000e+00    0,000000000e+00
      170000000    1,673102193e-02   -2,257544547e-02   -5,180336833e-01    6,047443748e-01    0,000000000e+00    0,000000000e+00    0,000000000e+00    0,000000000e+00
      184000000    2,095254138e-02   -3,710405156e-02   -1,016518250e-01    7,864707112e-01    0,000000000e+00    0,000000000e+00    0,000000000e+00    0,000000000e+00
      198000000    1,304448396e-02   -6,246459484e-02    3,434490561e-01    7,122373581e-01    0,000000000e+00    0,000000000e+00    0,000000000e+00    0,000000000e+00
      212000000   -1,864345372e-02   -8,131509274e-02    6,781792641e-01    4,100784659e-01    0,000000000e+00    0,000000000e+00    0,000000000e+00    0,000000000e+00
      226000000   -6,167628616e-02   -6,924471259e-02    7,957597971e-01   -3,052525409e-02    0,000000000e+00    0,000000000e+00    0,000000000e+00    0,000000000e+00
      240000000   -8,254656196e-02   -2,563888580e-02    6,460903883e-01   -4,673048854e-01    0,000000000e+00    0,000000000e+00    0,000000000e+00    0,000000000e+00
      254000000   -6,348013878e-02    1,725180633e-02    2,763314247e-01   -7,434023619e-01    0,000000000e+00    0,000000000e+00    0,000000000e+00    0,000000000e+00
      268000000   -2,382749133e-02    2,887934074e-02   -1,784143895e-01   -7,642485499e-01    0,000000000e+00    0,000000000e+00    0,000000000e+00    0,000000000e+00
      282000000    4,189458210e-03    1,196619589e-02   -5,618371964e-01   -5,356371403e-01    0,000000000e+00    0,000000000e+00    0,000000000e+00    0,000000000e+00
      296000000    9,736976586e-03   -7,749075070e-03   -7,598528862e-01   -1,396626830e-01    0,000000000e+00    0,000000000e+00    0,000000000e+00    0,000000000e+00
      310000000    1,103404444e-02   -1,630958356e-02   -7,123062611e-01    2,994701266e-01    0,000000000e+00    0,000000000e+00    0,000000000e+00    0,000000000e+00
      324000000    1,972419769e-02   -2,644865587e-02   -4,272560179e-01    6,369215250e-01    0,000000000e+00    0,000000000e+00    0,000000000e+00    0,000000000e+00
      338000000    2,558254637e-02   -5,179648846e-02   -7,467514370e-03    7,608301640e-01    0,000000000e+00    0,000000000e+00    0,000000000e+00    0,000000000e+00
      352000000    7,295928430e-03   -8,466082811e-02    4,067851603e-01    6,388312578e-01    0,000000000e+00    0,000000000e+00    0,000000000e+00    0,000000000e+00
      366000000   -3,482020646e-02   -9,546273202e-02    6,902719736e-01    3,110494316e-01    0,000000000e+00    0,000000000e+00    0,000000000e+00    0,000000000e+00
      380000000   -7,092297822e-02   -7,116281986e-02    7,479415536e-01   -1,256131083e-01    0,000000000e+00    0,000000000e+00    0,000000000e+00    0,000000000e+00
      394000000   -7,262191176e-02   -3,233330697e-02    5,462219119e-01   -5,225139856e-01    0,000000000e+00    0,000000000e+00    0,000000000e+00    0,000000000e+00
      408000000   -4,641278833e-02   -1,584503427e-02    1,597262025e-01   -7,321075797e-01    0,000000000e+00    0,000000000e+00    0,000000000e+00    0,000000000e+00
      422000000   -2,818952315e-02   -3,192264959e-02   -2,669369578e-01   -6,941339970e-01    0,000000000e+00    0,000000000e+00    0,000000000e+00    0,000000000e+00
      436000000   -4,044990614e-02   -5,190396309e-02   -6,038305163e-01   -4,321436882e-01    0,000000000e+00    0,000000000e+00    0,000000000e+00    0,000000000e+00
      450000000   -6,729581207e-02   -4,357685894e-02   -7,409085035e-01   -2,130942419e-02    0,000000000e+00    0,000000000e+00    0,000000000e+00    0,000000000e+00
      464000000   -7,354830950e-02   -1,142615266e-02   -6,191473603e-01    3,979337513e-01    0,000000000e+00    0,000000000e+00    0,000000000e+00    0,000000000e+00
      478000000   -4,782280326e-02    1,204024255e-02   -2,822510898e-01    6,676945090e-01    0,000000000e+00    0,000000000e+00    0,000000000e+00    0,000000000e+00
      492000000   -1,592685841e-02    6,024529226e-03    1,377096623e-01    7,014112473e-01    0,000000000e+00    0,000000000e+00    0,000000000e+00    0,000000000e+00
      506000000   -2,453361405e-03   -1,561977156e-02    4,985661209e-01    5,026681423e-01    0,000000000e+00    0,000000000e+00    0,000000000e+00    0,000000000e+00
      520000000   -4,970585462e-03   -3,151710704e-02    6,862270236e-01    1,426941007e-01    0,000000000e+00    0,000000000e+00    0,000000000e+00    0,000000000e+00
      534000000   -3,977097105e-03   -3,816628829e-02    6,436801553e-01   -2,627286613e-01    0,000000000e+00    0,000000000e+00    0,000000000e+00    0,000000000e+00
      548000000    6,002503447e-03   -5,419609323e-02    3,810907006e-01   -5,671924949e-01    0,000000000e+00    0,000000000e+00    0,000000000e+00    0,000000000e+00
      562000000    3,431234509e-03   -8,964386582e-02    2,062919782e-03   -6,718372107e-01    0,000000000e+00    0,000000000e+00    0,000000000e+00    0,000000000e+00
      576000000   -3,389452398e-02   -1,246569902e-01   -3,685888648e-01   -5,574662089e-01    0,000000000e+00    0,000000000e+00    0,000000000e+00    0,000000000e+00
      590000000   -9,606927633e-02   -1,226153150e-01   -6,221723557e-01   -2,639716268e-01    0,000000000e+00    0,000000000e+00    0,000000000e+00    0,000000000e+00
      604000000   -1,390459239e-01   -7,162960619e-02   -6,648756862e-01    1,381131858e-01    0,000000000e+00    0,000000000e+00    0,000000000e+00    0,000000000e+00
      618000000   -1,296992898e-01   -9,559622034e-03   -4,646010995e-01    4,948791564e-01    0,000000000e+00    0,000000000e+00    0,000000000e+00    0,000000000e+00
      632000000   -8,353371173e-02    1,666156948e-02   -9,848139435e-02    6,639941335e-01    0,000000000e+00    0,000000000e+00    0,000000000e+00    0,000000000e+00
      646000000   -5,124622583e-02   -2,953971853e-05    2,877986431e-01    5,941354632e-01    0,000000000e+00    0,000000000e+00    0,000000000e+00    0,000000000e+00
      660000000   -5,330710486e-02   -2,092045546e-02    5,678317547e-01    3,233824074e-01    0,000000000e+00    0,000000000e+00    0,000000000e+00    0,000000000e+00
      674000000   -6,972316653e-02   -1,785755530e-02    6,431695223e-01   -6,519813836e-02    0,000000000e+00    0,000000000e+00    0,000000000e+00    0,000000000e+00
      688000000   -6,772299111e-02    8,844056167e-03    4,710146785e-01   -4,284738302e-01    0,000000000e+00    0,000000000e+00    0,000000000e+00    0,000000000e+00
      702000000   -3,805053234e-02    2,644571848e-02    1,162080616e-01   -6,148442030e-01    0,000000000e+00    0,000000000e+00    0,000000000e+00    0,000000000e+00
      716000000    2,172483597e-03    1,857223548e-02   -2,648555040e-01   -5,471192598e-01    0,000000000e+00    0,000000000e+00    0,000000000e+00    0,000000000e+00
      730000000    3,626368195e-02   -1,108174119e-02   -5,283419490e-01   -2,689473033e-01    0,000000000e+00    0,000000000e+00    0,000000000e+00    0,000000000e+00
      744000000    6,493625045e-02   -6,307604909e-02   -5,640894175e-01    1,061098054e-01    0,000000000e+00    0,000000000e+00    0,000000000e+00    0,000000000e+00
      758000000    6,623689830e-02   -1,517314613e-01   -3,632227480e-01    4,096955955e-01    0,000000000e+00    0,000000000e+00    0,000000000e+00    0,000000000e+00
      772000000   -1,281462982e-02   -2,626702189e-01   -3,462632373e-02    5,164036155e-01    0,000000000e+00    0,000000000e+00    0,000000000e+00    0,000000000e+00
      786000000   -2,072363347e-01   -3,028052449e-01    2,744404674e-01    3,954543769e-01    0,000000000e+00    0,000000000e+00    0,000000000e+00    0,000000000e+00
      800000000   -4,250737727e-01   -1,305999607e-01    4,172431529e-01    9,879945964e-02    0,000000000e+00    0,000000000e+00    0,000000000e+00    0,000000000e+00
      814000000   -3,906148970e-01    2,213479578e-01    2,820528448e-01   -1,726433635e-01    0,000000000e+00    0,000000000e+00    0,000000000e+00    0,000000000e+00
      828000000   -4,896087572e-02    3,681419492e-01    5,530964956e-02   -1,890181899e-01    0,000000000e+00    0,000000000e+00    0,000000000e+00    0,000000000e+00
      842000000    2,352109104e-01    1,864527464e-01   -1,717621088e-02   -7,075190544e-02    0,000000000e+00    0,000000000e+00    0,000000000e+00    0,000000000e+00
      856000000    2,807520032e-01   -1,247141734e-01    4,535209388e-02   -1,330953743e-02    0,000000000e+00    0,000000000e+00    0,000000000e+00    0,000000000e+00
      870000000    7,498921454e-02   -3,770775199e-01    1,135096699e-01   -9,151636809e-02    0,000000000e+00    0,000000000e+00    0,000000000e+00    0,000000000e+00
      884000000   -2,955483198e-01   -3,617809415e-01    2,816089429e-02   -2,453923076e-01    0,000000000e+00    0,000000000e+00    0,000000000e+00    0,000000000e+00
      898000000   -4,727823734e-01    9,444202296e-03   -2,224734873e-01   -2,274479270e-01    0,000000000e+00    0,000000000e+00    0,000000000e+00    0,000000000e+00
      912000000   -2,263301164e-01    2,940665781e-01   -3,413200676e-01    7,698912919e-02    0,000000000e+00    0,000000000e+00    0,000000000e+00    0,000000000e+00
      926000000    6,615491211e-02    2,646243274e-01   -2,161827981e-01    2,662067115e-01    0,000000000e+00    0,000000000e+00    0,000000000e+00    0,000000000e+00
      940000000    2,147244662e-01    8,007042855e-02   -3,716148064e-02    3,293043971e-01    0,000000000e+00    0,000000000e+00    0,000000000e+00    0,000000000e+00
      954000000    2,239951342e-01   -1,250169724e-01    1,303585470e-01    3,079158962e-01    0,000000000e+00    0,000000000e+00    0,000000000e+00    0,000000000e+00
      968000000    1,143210083e-01   -2,978422642e-01    2,718529403e-01    2,195739597e-01    0,000000000e+00    0,000000000e+00    0,000000000e+00    0,000000000e+00
      982000000   -8,045690507e-02   -3,885372579e-01    3,677831292e-01    6,403872371e-02    0,000000000e+00    0,000000000e+00    0,000000000e+00    0,000000000e+00
      996000000   -3,176836073e-01   -3,326988518e-01    3,691156507e-01   -1,442029327e-01    0,000000000e+00    0,000000000e+00    0,000000000e+00    0,000000000e+00
     1010000000   -4,649626017e-01   -1,075053439e-01    2,234388888e-01   -3,418628275e-01    0,000000000e+00    0,000000000e+00    0,000000000e+00    0,000000000e+00
     1024000000   -4,094312191e-01    1,492682546e-01   -3,246841580e-02   -3,929509223e-01    0,000000000e+00    0,000000000e+00    0,000000000e+00    0,000000000e+00
     1038000000   -2,163238972e-01    2,947533727e-01   -2,467502356e-01   -2,612135410e-01    0,000000000e+00    0,000000000e+00    0,000000000e+00    0,000000000e+00
     1052000000   -9,286899120e-03    2,759324908e-01   -3,179663420e-01   -4,667195305e-02    0,000000000e+00    0,000000000e+00    0,000000000e+00    0,000000000e+00
     1066000000    1,353426129e-01    1,650694907e-01   -2,557448447e-01    1,417480111e-01    0,000000000e+00    0,000000000e+00    0,000000000e+00    0,000000000e+00
     1080000000    1,930915862e-01   -4,113195755e-04   -1,184109077e-01    2,640686631e-01    0,000000000e+00    0,000000000e+00    0,000000000e+00    0,000000000e+00
     1094000000    1,561414003e-01   -1,730907708e-01    6,532107294e-02    3,038689494e-01    0,000000000e+00    0,000000000e+00    0,000000000e+00    0,000000000e+00
     1108000000   -1,688115182e-03   -3,070801497e-01    2,763806581e-01    2,467433661e-01    0,000000000e+00    0,000000000e+00    0,000000000e+00    0,000000000e+00
     1122000000   -2,522008419e-01   -2,617341280e-01    4,731504023e-01    1,400313061e-02    0,000000000e+00    0,000000000e+00    0,000000000e+00    0,000000000e+00
     1136000000   -3,231669366e-01    3,431222215e-02    3,943904340e-01   -3,938044608e-01    0,000000000e+00    0,000000000e+00    0,000000000e+00    0,000000000e+00
     1150000000   -3,657348827e-02    1,545209438e-01    8,001238108e-03   -5,417433381e-01    0,000000000e+00    0,000000000e+00    0,000000000e+00    0,000000000e+00
     1164000000    1,250223219e-01   -5,928939581e-02   -2,787693143e-01   -3,811346292e-01    0,000000000e+00    0,000000000e+00    0,000000000e+00    0,000000000e+00
     1178000000    1,661721990e-02   -3,060591221e-01   -3,692187667e-01   -1,498131901e-01    0,000000000e+00    0,000000000e+00    0,000000000e+00    0,000000000e+00
     1192000000   -2,632566690e-01   -3,711258173e-01   -3,243584931e-01    5,906283110e-02    0,000000000e+00    0,000000000e+00    0,000000000e+00    0,000000000e+00
     1206000000   -5,220896602e-01   -1,561566442e-01   -1,663321704e-01    1,789526194e-01    0,000000000e+00    0,000000000e+00    0,000000000e+00    0,000000000e+00
     1220000000   -5,148294568e-01    1,777745187e-01    1,510123606e-03    1,581350863e-01    0,000000000e+00    0,000000000e+00    0,000000000e+00    0,000000000e+00
     1234000000   -2,886853516e-01    3,657226861e-01    6,589256227e-02    6,068272144e-02    0,000000000e+00    0,000000000e+00    0,000000000e+00    0,000000000e+00
     1248000000   -4,850241169e-02    3,619229496e-01    5,381284654e-02   -9,051480331e-03    0,000000000e+00    0,000000000e+00    0,000000000e+00    0,000000000e+00
     1262000000    1,197207645e-01    2,592605650e-01    1,657388173e-02   -1,677713729e-02    0,000000000e+00    0,000000000e+00    0,000000000e+00    0,000000000e+00
     1276000000    2,131123245e-01    1,023230106e-01   -2,132871654e-03    4,951240495e-03    0,000000000e+00    0,000000000e+00    0,000000000e+00    0,000000000e+00
     1290000000    2,240224481e-01   -7,652456313e-02    1,393826492e-02    4,841772094e-02    0,000000000e+00    0,000000000e+00    0,000000000e+00    0,000000000e+00
     1304000000    1,592871249e-01   -2,408181876e-01    1,323497146e-01    6,523929536e-02    0,000000000e+00    0,000000000e+00    0,000000000e+00    0,000000000e+00
     1318000000    3,274335340e-02   -3,344947994e-01    1,247052178e-01   -1,667712480e-01    0,000000000e+00    0,000000000e+00    0,000000000e+00    0,000000000e+00
     1332000000   -1,312277317e-01   -4,413807392e-01   -4,651287198e-02   -5,014915019e-02    0,000000000e+00    0,000000000e+00    0,000000000e+00    0,000000000e+00
     1346000000   -3,868976533e-01   -4,097822607e-01    2,996819839e-02    6,445594132e-02    0,000000000e+00    0,000000000e+00    0,000000000e+00    0,000000000e+00
     1360000000   -6,001079679e-01   -1,850823015e-01    1,447376609e-01    7,198972255e-02    0,000000000e+00    0,000000000e+00    0,000000000e+00    0,000000000e+00
     1374000000   -6,285831332e-01    1,345383823e-01    2,071290314e-01    1,407239679e-02    0,000000000e+00    0,000000000e+00    0,000000000e+00    0,000000000e+00
     1388000000   -4,736316800e-01    3,646930158e-01    2,059207559e-01   -6,796558946e-02    0,000000000e+00    0,000000000e+00    0,000000000e+00    0,000000000e+00
     1402000000   -2,383031696e-01    4,480164945e-01    1,850931793e-01   -1,018658057e-01    0,000000000e+00    0,000000000e+00    0,000000000e+00    0,000000000e+00
     1416000000   -3,001293354e-02    4,080454111e-01    1,711993814e-01   -1,032176241e-01    0,000000000e+00    0,000000000e+00    0,000000000e+00    0,000000000e+00
     1430000000    1,318118423e-01    2,970960140e-01    1,537143737e-01   -1,314116865e-01    0,000000000e+00    0,000000000e+00    0,000000000e+00    0,000000000e+00
     1444000000    2,128725946e-01    1,524467915e-01    1,594862193e-01   -8,911606669e-02    0,000000000e+00    0,000000000e+00    0,000000000e+00    0,000000000e+00
     1458000000    2,327522337e-01   -1,882728934e-02    1,478556991e-01   -7,624191791e-02    0,000000000e+00    0,000000000e+00    0,000000000e+00    0,000000000e+00
     1472000000    1,944370866e-01   -2,020387799e-01    1,469572186e-01   -4,326182976e-02    0,000000000e+00    0,000000000e+00    0,000000000e+00    0,000000000e+00
     1486000000    6,687179953e-02   -3,717477024e-01    1,812205613e-01    3,074619360e-02    0,000000000e+00    0,000000000e+00    0,000000000e+00    0,000000000e+00
     1500000000   -1,708445698e-01   -5,005725026e-01    2,470173240e-01    8,780321479e-02    0,000000000e+00    0,000000000e+00    0,000000000e+00    0,000000000e+00
