! NanoVNA-App
! Date: 2025-09-25 15:36:06
! Start: 100MHz Stop: 1,5GHz Points: 101
! S-Parameter data: F S11 S21 S12 S22
# Hz S RI R 50
!     Frequency           S11_Real           S11_Imag           S21_Real           S21_Imag           S12_Real           S12_Imag           S22_Real           S22_Imag
      100000000   -2,883849479e-02   -4,170587752e-03    3,741276562e-01   -7,218147516e-01    0,000000000e+00    0,000000000e+00    0,000000000e+00    0,000000000e+00
      114000000   -1,645895280e-02    1,151376404e-02   -8,914785832e-02   -8,055974245e-01    0,000000000e+00    0,000000000e+00    0,000000000e+00    0,000000000e+00
      128000000    3,517816309e-03    1,054500137e-02   -5,146092772e-01   -6,206324100e-01    0,000000000e+00    0,000000000e+00    0,000000000e+00    0,000000000e+00
      142000000    1,458791178e-02   -2,962947823e-03   -7,670789957e-01   -2,366246581e-01    0,000000000e+00    0,000000000e+00    0,000000000e+00    0,000000000e+00
      156000000    1,445177291e-02   -1,493902039e-02   -7,647626400e-01    2,181938291e-01    0,000000000e+00    0,000000000e+00    0,000000000e+00    0,000000000e+00
      170000000    1,673635095e-02   -2,251970768e-02   -5,180484653e-01    6,045476198e-01    0,000000000e+00    0,000000000e+00    0,000000000e+00    0,000000000e+00
      184000000    2,100241929e-02   -3,712644055e-02   -1,014413089e-01    7,860802412e-01    0,000000000e+00    0,000000000e+00    0,000000000e+00    0,000000000e+00
      198000000    1,305381116e-02   -6,250551343e-02    3,434671760e-01    7,122188807e-01    0,000000000e+00    0,000000000e+00    0,000000000e+00    0,000000000e+00
      212000000   -1,865256578e-02   -8,130631596e-02    6,779981256e-01    4,099963903e-01    0,000000000e+00    0,000000000e+00    0,000000000e+00    0,000000000e+00
      226000000   -6,167771295e-02   -6,917396933e-02    7,958259583e-01   -3,063817322e-02    0,000000000e+00    0,000000000e+00    0,000000000e+00    0,000000000e+00
      240000000   -8,258499950e-02   -2,558848448e-02    6,459180117e-01   -4,670090973e-01    0,000000000e+00    0,000000000e+00    0,000000000e+00    0,000000000e+00
      254000000   -6,346881390e-02    1,725831628e-02    2,760140300e-01   -7,432429194e-01    0,000000000e+00    0,000000000e+00    0,000000000e+00    0,000000000e+00
      268000000   -2,375876158e-02    2,893913724e-02   -1,781602502e-01   -7,641533613e-01    0,000000000e+00    0,000000000e+00    0,000000000e+00    0,000000000e+00
      282000000    4,181688186e-03    1,195768639e-02   -5,616004467e-01   -5,355228782e-01    0,000000000e+00    0,000000000e+00    0,000000000e+00    0,000000000e+00
      296000000    9,637915529e-03   -7,912377827e-03   -7,596892715e-01   -1,396221519e-01    0,000000000e+00    0,000000000e+00    0,000000000e+00    0,000000000e+00
      310000000    1,128841005e-02   -1,619386673e-02   -7,120620608e-01    2,974091172e-01    0,000000000e+00    0,000000000e+00    0,000000000e+00    0,000000000e+00
      324000000    1,970505901e-02   -2,666363865e-02   -4,263867438e-01    6,383286119e-01    0,000000000e+00    0,000000000e+00    0,000000000e+00    0,000000000e+00
      338000000    2,565138415e-02   -5,201477557e-02   -7,941392250e-03    7,595589757e-01    0,000000000e+00    0,000000000e+00    0,000000000e+00    0,000000000e+00
      352000000    7,351560984e-03   -8,484099060e-02    4,064093828e-01    6,396343708e-01    0,000000000e+00    0,000000000e+00    0,000000000e+00    0,000000000e+00
      366000000   -3,457238153e-02   -9,561116993e-02    6,906386614e-01    3,112902641e-01    0,000000000e+00    0,000000000e+00    0,000000000e+00    0,000000000e+00
      380000000   -7,098998129e-02   -7,113531977e-02    7,476544380e-01   -1,253931522e-01    0,000000000e+00    0,000000000e+00    0,000000000e+00    0,000000000e+00
      394000000   -7,246433944e-02   -3,247417510e-02    5,475188494e-01   -5,214315057e-01    0,000000000e+00    0,000000000e+00    0,000000000e+00    0,000000000e+00
      408000000   -4,654501379e-02   -1,632583886e-02    1,614950895e-01   -7,322042584e-01    0,000000000e+00    0,000000000e+00    0,000000000e+00    0,000000000e+00
      422000000   -2,814362384e-02   -3,187252581e-02   -2,670228183e-01   -6,949869394e-01    0,000000000e+00    0,000000000e+00    0,000000000e+00    0,000000000e+00
      436000000   -4,083227739e-02   -5,204387754e-02   -6,043750644e-01   -4,320051968e-01    0,000000000e+00    0,000000000e+00    0,000000000e+00    0,000000000e+00
      450000000   -6,739617884e-02   -4,412443563e-02   -7,407291532e-01   -2,141346224e-02    0,000000000e+00    0,000000000e+00    0,000000000e+00    0,000000000e+00
      464000000   -7,357916981e-02   -1,151338313e-02   -6,190280318e-01    3,983855844e-01    0,000000000e+00    0,000000000e+00    0,000000000e+00    0,000000000e+00
      478000000   -4,818603024e-02    1,167993806e-02   -2,819269896e-01    6,675019860e-01    0,000000000e+00    0,000000000e+00    0,000000000e+00    0,000000000e+00
      492000000   -1,574386656e-02    5,786899477e-03    1,375589073e-01    7,016555667e-01    0,000000000e+00    0,000000000e+00    0,000000000e+00    0,000000000e+00
      506000000   -2,552470192e-03   -1,561981719e-02    4,985464811e-01    5,026700497e-01    0,000000000e+00    0,000000000e+00    0,000000000e+00    0,000000000e+00
      520000000   -4,587410018e-03   -3,155587986e-02    6,895905137e-01    1,416676641e-01    0,000000000e+00    0,000000000e+00    0,000000000e+00    0,000000000e+00
      534000000   -4,202801269e-03   -3,835976869e-02    6,435828209e-01   -2,630192935e-01    0,000000000e+00    0,000000000e+00    0,000000000e+00    0,000000000e+00
      548000000    6,161513273e-03   -5,419388786e-02    3,816584647e-01   -5,684388280e-01    0,000000000e+00    0,000000000e+00    0,000000000e+00    0,000000000e+00
      562000000    3,269671462e-03   -8,944821358e-02    2,566971118e-03   -6,724460125e-01    0,000000000e+00    0,000000000e+00    0,000000000e+00    0,000000000e+00
      576000000   -3,413666040e-02   -1,240979284e-01   -3,699278831e-01   -5,570429564e-01    0,000000000e+00    0,000000000e+00    0,000000000e+00    0,000000000e+00
      590000000   -9,620777518e-02   -1,228563860e-01   -6,215280294e-01   -2,649529576e-01    0,000000000e+00    0,000000000e+00    0,000000000e+00    0,000000000e+00
      604000000   -1,395829916e-01   -7,162003964e-02   -6,649076343e-01    1,376875937e-01    0,000000000e+00    0,000000000e+00    0,000000000e+00    0,000000000e+00
      618000000   -1,299515665e-01   -8,902403526e-03   -4,647962749e-01    4,956907034e-01    0,000000000e+00    0,000000000e+00    0,000000000e+00    0,000000000e+00
      632000000   -8,361764252e-02    1,688184403e-02   -9,808069468e-02    6,637739539e-01    0,000000000e+00    0,000000000e+00    0,000000000e+00    0,000000000e+00
      646000000   -5,114038661e-02    1,587350853e-04    2,882177234e-01    5,959908962e-01    0,000000000e+00    0,000000000e+00    0,000000000e+00    0,000000000e+00
      660000000   -5,271678418e-02   -2,183401026e-02    5,678214431e-01    3,232339621e-01    0,000000000e+00    0,000000000e+00    0,000000000e+00    0,000000000e+00
      674000000   -7,075699419e-02   -1,791560836e-02    6,434240341e-01   -6,560962647e-02    0,000000000e+00    0,000000000e+00    0,000000000e+00    0,000000000e+00
      688000000   -6,847938895e-02    8,273722604e-03    4,715492725e-01   -4,286422133e-01    0,000000000e+00    0,000000000e+00    0,000000000e+00    0,000000000e+00
      702000000   -3,746885806e-02    2,742183767e-02    1,129646748e-01   -6,101891398e-01    0,000000000e+00    0,000000000e+00    0,000000000e+00    0,000000000e+00
      716000000    2,497531706e-03    1,738130860e-02   -2,648514211e-01   -5,462919474e-01    0,000000000e+00    0,000000000e+00    0,000000000e+00    0,000000000e+00
      730000000    3,624720126e-02   -1,079638582e-02   -5,286474824e-01   -2,687231004e-01    0,000000000e+00    0,000000000e+00    0,000000000e+00    0,000000000e+00
      744000000    6,497772783e-02   -6,291893870e-02   -5,644833446e-01    1,067253053e-01    0,000000000e+00    0,000000000e+00    0,000000000e+00    0,000000000e+00
      758000000    6,633365154e-02   -1,514055282e-01   -3,634002507e-01    4,106846452e-01    0,000000000e+00    0,000000000e+00    0,000000000e+00    0,000000000e+00
      772000000   -1,226657815e-02   -2,624986470e-01   -3,393074125e-02    5,157582760e-01    0,000000000e+00    0,000000000e+00    0,000000000e+00    0,000000000e+00
      786000000   -2,067263275e-01   -3,026340306e-01    2,746414542e-01    3,956602514e-01    0,000000000e+00    0,000000000e+00    0,000000000e+00    0,000000000e+00
      800000000   -4,262595177e-01   -1,298418790e-01    4,177818894e-01    9,882289916e-02    0,000000000e+00    0,000000000e+00    0,000000000e+00    0,000000000e+00
      814000000   -3,903952837e-01    2,206490487e-01    2,823634744e-01   -1,732879281e-01    0,000000000e+00    0,000000000e+00    0,000000000e+00    0,000000000e+00
      828000000   -4,873267189e-02    3,686183989e-01    5,505155027e-02   -1,889598966e-01    0,000000000e+00    0,000000000e+00    0,000000000e+00    0,000000000e+00
      842000000    2,354507595e-01    1,863030791e-01   -1,681812666e-02   -7,092056423e-02    0,000000000e+00    0,000000000e+00    0,000000000e+00    0,000000000e+00
      856000000    2,806467116e-01   -1,243655607e-01    4,487019032e-02   -1,318600308e-02    0,000000000e+00    0,000000000e+00    0,000000000e+00    0,000000000e+00
      870000000    7,539719343e-02   -3,767824471e-01    1,136679053e-01   -9,139171988e-02    0,000000000e+00    0,000000000e+00    0,000000000e+00    0,000000000e+00
      884000000   -2,959385812e-01   -3,623687923e-01    2,869897336e-02   -2,453419417e-01    0,000000000e+00    0,000000000e+00    0,000000000e+00    0,000000000e+00
      898000000   -4,726718366e-01    8,623155765e-03   -2,230043262e-01   -2,276601195e-01    0,000000000e+00    0,000000000e+00    0,000000000e+00    0,000000000e+00
      912000000   -2,256901711e-01    2,945036888e-01   -3,548686802e-01    6,892324984e-02    0,000000000e+00    0,000000000e+00    0,000000000e+00    0,000000000e+00
      926000000    6,678685546e-02    2,626738548e-01   -2,172161043e-01    2,625291646e-01    0,000000000e+00    0,000000000e+00    0,000000000e+00    0,000000000e+00
      940000000    2,155693173e-01    7,762111723e-02   -3,537327051e-02    3,293670714e-01    0,000000000e+00    0,000000000e+00    0,000000000e+00    0,000000000e+00
      954000000    2,212177068e-01   -1,273497045e-01    1,306712925e-01    3,064644337e-01    0,000000000e+00    0,000000000e+00    0,000000000e+00    0,000000000e+00
      968000000    1,166612804e-01   -2,981929481e-01    2,695485353e-01    2,192723155e-01    0,000000000e+00    0,000000000e+00    0,000000000e+00    0,000000000e+00
      982000000   -8,490864187e-02   -3,858526647e-01    3,658363223e-01    6,354384869e-02    0,000000000e+00    0,000000000e+00    0,000000000e+00    0,000000000e+00
      996000000   -3,132613897e-01   -3,289830387e-01    3,693582714e-01   -1,441252232e-01    0,000000000e+00    0,000000000e+00    0,000000000e+00    0,000000000e+00
     1010000000   -4,635407031e-01   -1,136902571e-01    2,235438526e-01   -3,413887918e-01    0,000000000e+00    0,000000000e+00    0,000000000e+00    0,000000000e+00
     1024000000   -4,128645957e-01    1,459794194e-01   -3,386913985e-02   -3,921771049e-01    0,000000000e+00    0,000000000e+00    0,000000000e+00    0,000000000e+00
     1038000000   -2,198442072e-01    2,951392829e-01   -2,471279055e-01   -2,602686584e-01    0,000000000e+00    0,000000000e+00    0,000000000e+00    0,000000000e+00
     1052000000   -6,317486055e-03    2,774638534e-01   -3,179975450e-01   -4,787516221e-02    0,000000000e+00    0,000000000e+00    0,000000000e+00    0,000000000e+00
     1066000000    1,391920149e-01    1,634792536e-01   -2,585310042e-01    1,433484256e-01    0,000000000e+00    0,000000000e+00    0,000000000e+00    0,000000000e+00
     1080000000    1,926460415e-01   -1,867054380e-03   -1,202833951e-01    2,642024457e-01    0,000000000e+00    0,000000000e+00    0,000000000e+00    0,000000000e+00
     1094000000    1,527231932e-01   -1,715602279e-01    6,277510524e-02    3,035904765e-01    0,000000000e+00    0,000000000e+00    0,000000000e+00    0,000000000e+00
     1108000000   -3,942834679e-03   -3,035736382e-01    2,780728340e-01    2,476632297e-01    0,000000000e+00    0,000000000e+00    0,000000000e+00    0,000000000e+00
     1122000000   -2,441318333e-01   -2,629685700e-01    4,707129300e-01    1,514163427e-02    0,000000000e+00    0,000000000e+00    0,000000000e+00    0,000000000e+00
     1136000000   -3,154258728e-01    3,494607657e-02    4,007009268e-01   -3,920849562e-01    0,000000000e+00    0,000000000e+00    0,000000000e+00    0,000000000e+00
     1150000000   -4,169448465e-02    1,493897438e-01    4,054273944e-03   -5,426471829e-01    0,000000000e+00    0,000000000e+00    0,000000000e+00    0,000000000e+00
     1164000000    1,259122640e-01   -6,041243300e-02   -2,757839561e-01   -3,781714737e-01    0,000000000e+00    0,000000000e+00    0,000000000e+00    0,000000000e+00
     1178000000    1,588587277e-02   -3,026431799e-01   -3,680719137e-01   -1,498592645e-01    0,000000000e+00    0,000000000e+00    0,000000000e+00    0,000000000e+00
     1192000000   -2,660588920e-01   -3,734140694e-01   -3,223349154e-01    5,577554554e-02    0,000000000e+00    0,000000000e+00    0,000000000e+00    0,000000000e+00
     1206000000   -5,200189948e-01   -1,644892693e-01   -1,630285084e-01    1,778436154e-01    0,000000000e+00    0,000000000e+00    0,000000000e+00    0,000000000e+00
     1220000000   -5,094996691e-01    1,717701405e-01   -6,691018352e-04    1,600113511e-01    0,000000000e+00    0,000000000e+00    0,000000000e+00    0,000000000e+00
     1234000000   -2,862251401e-01    3,598774374e-01    6,773142517e-02    5,977768078e-02    0,000000000e+00    0,000000000e+00    0,000000000e+00    0,000000000e+00
     1248000000   -4,651764780e-02    3,614470363e-01    5,435657129e-02   -9,578038007e-03    0,000000000e+00    0,000000000e+00    0,000000000e+00    0,000000000e+00
     1262000000    1,255150288e-01    2,521049678e-01    1,965450495e-02   -2,129413001e-02    0,000000000e+00    0,000000000e+00    0,000000000e+00    0,000000000e+00
     1276000000    2,088136375e-01    1,014761403e-01   -5,190429743e-03    6,082431879e-03    0,000000000e+00    0,000000000e+00    0,000000000e+00    0,000000000e+00
     1290000000    2,249155194e-01   -7,393836230e-02    2,218676917e-02    5,684065074e-02    0,000000000e+00    0,000000000e+00    0,000000000e+00    0,000000000e+00
     1304000000    1,542586386e-01   -2,391555756e-01    1,323381066e-01    7,133222371e-02    0,000000000e+00    0,000000000e+00    0,000000000e+00    0,000000000e+00
     1318000000    3,266264126e-02   -3,340075910e-01    1,227308512e-01   -1,644770056e-01    0,000000000e+00    0,000000000e+00    0,000000000e+00    0,000000000e+00
     1332000000   -1,274920553e-01   -4,382613599e-01   -3,860005364e-02   -4,567057639e-02    0,000000000e+00    0,000000000e+00    0,000000000e+00    0,000000000e+00
     1346000000   -3,945657015e-01   -4,104262292e-01    3,217794746e-02    7,709939033e-02    0,000000000e+00    0,000000000e+00    0,000000000e+00    0,000000000e+00
     1360000000   -6,020520926e-01   -1,813533604e-01    1,389565170e-01    7,279875875e-02    0,000000000e+00    0,000000000e+00    0,000000000e+00    0,000000000e+00
     1374000000   -6,328740716e-01    1,305297911e-01    2,068163604e-01    1,095357537e-02    0,000000000e+00    0,000000000e+00    0,000000000e+00    0,000000000e+00
     1388000000   -4,706097841e-01    3,633247912e-01    2,053867877e-01   -7,169647515e-02    0,000000000e+00    0,000000000e+00    0,000000000e+00    0,000000000e+00
     1402000000   -2,338188142e-01    4,502681494e-01    1,800884157e-01   -9,103844315e-02    0,000000000e+00    0,000000000e+00    0,000000000e+00    0,000000000e+00
     1416000000   -2,873486653e-02    4,147017002e-01    1,766005158e-01   -1,074277014e-01    0,000000000e+00    0,000000000e+00    0,000000000e+00    0,000000000e+00
     1430000000    1,255183518e-01    3,002649248e-01    1,743468344e-01   -1,112740189e-01    0,000000000e+00    0,000000000e+00    0,000000000e+00    0,000000000e+00
     1444000000    2,037550211e-01    1,476672143e-01    1,487185210e-01   -1,014387906e-01    0,000000000e+00    0,000000000e+00    0,000000000e+00    0,000000000e+00
     1458000000    2,341745198e-01   -1,981208846e-02    1,421512216e-01   -6,994879991e-02    0,000000000e+00    0,000000000e+00    0,000000000e+00    0,000000000e+00
     1472000000    1,918264329e-01   -2,048282921e-01    1,378960162e-01   -4,090826213e-02    0,000000000e+00    0,000000000e+00    0,000000000e+00    0,000000000e+00
     1486000000    6,640949100e-02   -3,713997900e-01    1,869800091e-01    2,414663322e-02    0,000000000e+00    0,000000000e+00    0,000000000e+00    0,000000000e+00
     1500000000   -1,775203496e-01   -4,989985228e-01    2,434888184e-01    8,430840820e-02    0,000000000e+00    0,000000000e+00    0,000000000e+00    0,000000000e+00
