! NanoVNA-App
! Date: 2025-09-25 15:34:52
! Start: 100MHz Stop: 1,5GHz Points: 101
! S-Parameter data: F S11 S21 S12 S22
# Hz S RI R 50
!     Frequency           S11_Real           S11_Imag           S21_Real           S21_Imag           S12_Real           S12_Imag           S22_Real           S22_Imag
      100000000   -2,882670984e-02   -4,177048337e-03    3,740887344e-01   -7,217776775e-01    0,000000000e+00    0,000000000e+00    0,000000000e+00    0,000000000e+00
      114000000   -1,647457294e-02    1,153814513e-02   -8,902313560e-02   -8,055567145e-01    0,000000000e+00    0,000000000e+00    0,000000000e+00    0,000000000e+00
      128000000    3,519707592e-03    1,053954475e-02   -5,146569610e-01   -6,206477880e-01    0,000000000e+00    0,000000000e+00    0,000000000e+00    0,000000000e+00
      142000000    1,457509771e-02   -2,966766013e-03   -7,671039104e-01   -2,364564389e-01    0,000000000e+00    0,000000000e+00    0,000000000e+00    0,000000000e+00
      156000000    1,580922492e-02   -1,477407571e-02   -7,722156644e-01    2,234236747e-01    0,000000000e+00    0,000000000e+00    0,000000000e+00    0,000000000e+00
      170000000    1,671265811e-02   -2,257834561e-02   -5,182371140e-01    6,046826243e-01    0,000000000e+00    0,000000000e+00    0,000000000e+00    0,000000000e+00
      184000000    2,102109790e-02   -3,712129593e-02   -1,013637781e-01    7,858994007e-01    0,000000000e+00    0,000000000e+00    0,000000000e+00    0,000000000e+00
      198000000    1,304533519e-02   -6,247771159e-02    3,432482481e-01    7,122630477e-01    0,000000000e+00    0,000000000e+00    0,000000000e+00    0,000000000e+00
      212000000   -1,862499677e-02   -8,128187805e-02    6,780169606e-01    4,100061059e-01    0,000000000e+00    0,000000000e+00    0,000000000e+00    0,000000000e+00
      226000000   -6,171216816e-02   -6,922138482e-02    7,959007621e-01   -3,048994765e-02    0,000000000e+00    0,000000000e+00    0,000000000e+00    0,000000000e+00
      240000000   -8,260985464e-02   -2,556801029e-02    6,461322904e-01   -4,671719968e-01    0,000000000e+00    0,000000000e+00    0,000000000e+00    0,000000000e+00
      254000000   -6,348806620e-02    1,724094711e-02    2,761671841e-01   -7,430087328e-01    0,000000000e+00    0,000000000e+00    0,000000000e+00    0,000000000e+00
      268000000   -2,375884727e-02    2,892110310e-02   -1,779078245e-01   -7,641143203e-01    0,000000000e+00    0,000000000e+00    0,000000000e+00    0,000000000e+00
      282000000    4,172789864e-03    1,197768282e-02   -5,618367791e-01   -5,355299115e-01    0,000000000e+00    0,000000000e+00    0,000000000e+00    0,000000000e+00
      296000000    9,640674107e-03   -7,817084901e-03   -7,597422600e-01   -1,397818774e-01    0,000000000e+00    0,000000000e+00    0,000000000e+00    0,000000000e+00
      310000000    1,115777250e-02   -1,629652642e-02   -7,122244239e-01    2,978085876e-01    0,000000000e+00    0,000000000e+00    0,000000000e+00    0,000000000e+00
      324000000    1,967815310e-02   -2,669153921e-02   -4,272905290e-01    6,383818388e-01    0,000000000e+00    0,000000000e+00    0,000000000e+00    0,000000000e+00
      338000000    2,604789846e-02   -5,211359635e-02   -9,004280902e-03    7,627612948e-01    0,000000000e+00    0,000000000e+00    0,000000000e+00    0,000000000e+00
      352000000    7,097020745e-03   -8,472257107e-02    4,056559801e-01    6,392838955e-01    0,000000000e+00    0,000000000e+00    0,000000000e+00    0,000000000e+00
      366000000   -3,492027149e-02   -9,575695544e-02    6,902726293e-01    3,104043007e-01    0,000000000e+00    0,000000000e+00    0,000000000e+00    0,000000000e+00
      380000000   -7,089094073e-02   -7,107004523e-02    7,475882173e-01   -1,257742196e-01    0,000000000e+00    0,000000000e+00    0,000000000e+00    0,000000000e+00
      394000000   -7,295589894e-02   -3,247898072e-02    5,457258821e-01   -5,229977965e-01    0,000000000e+00    0,000000000e+00    0,000000000e+00    0,000000000e+00
      408000000   -4,658949748e-02   -1,623772271e-02    1,610264331e-01   -7,316178083e-01    0,000000000e+00    0,000000000e+00    0,000000000e+00    0,000000000e+00
      422000000   -2,837960236e-02   -3,191377968e-02   -2,672390044e-01   -6,944193244e-01    0,000000000e+00    0,000000000e+00    0,000000000e+00    0,000000000e+00
      436000000   -4,057548195e-02   -5,158238858e-02   -6,040969491e-01   -4,314963520e-01    0,000000000e+00    0,000000000e+00    0,000000000e+00    0,000000000e+00
      450000000   -6,747265905e-02   -4,366891086e-02   -7,405395508e-01   -2,100596391e-02    0,000000000e+00    0,000000000e+00    0,000000000e+00    0,000000000e+00
      464000000   -7,341133803e-02   -1,189350337e-02   -6,183182597e-01    3,973448575e-01    0,000000000e+00    0,000000000e+00    0,000000000e+00    0,000000000e+00
      478000000   -4,784449935e-02    1,194961369e-02   -2,821245193e-01    6,678748131e-01    0,000000000e+00    0,000000000e+00    0,000000000e+00    0,000000000e+00
      492000000   -1,580686122e-02    5,692596082e-03    1,378547549e-01    7,016696334e-01    0,000000000e+00    0,000000000e+00    0,000000000e+00    0,000000000e+00
      506000000   -2,468263498e-03   -1,598800346e-02    4,986483455e-01    5,026786923e-01    0,000000000e+00    0,000000000e+00    0,000000000e+00    0,000000000e+00
      520000000   -4,862285219e-03   -3,168657050e-02    6,879637241e-01    1,405638158e-01    0,000000000e+00    0,000000000e+00    0,000000000e+00    0,000000000e+00
      534000000   -4,160667304e-03   -3,818766773e-02    6,433918476e-01   -2,625878155e-01    0,000000000e+00    0,000000000e+00    0,000000000e+00    0,000000000e+00
      548000000    6,078236271e-03   -5,384762585e-02    3,814694583e-01   -5,669586062e-01    0,000000000e+00    0,000000000e+00    0,000000000e+00    0,000000000e+00
      562000000    3,057010705e-03   -8,920940757e-02    2,080615144e-03   -6,722183228e-01    0,000000000e+00    0,000000000e+00    0,000000000e+00    0,000000000e+00
      576000000   -3,384099156e-02   -1,244503483e-01   -3,688271344e-01   -5,572609305e-01    0,000000000e+00    0,000000000e+00    0,000000000e+00    0,000000000e+00
      590000000   -9,637697786e-02   -1,226367354e-01   -6,214784980e-01   -2,651690543e-01    0,000000000e+00    0,000000000e+00    0,000000000e+00    0,000000000e+00
      604000000   -1,396986097e-01   -7,164922357e-02   -6,654496193e-01    1,382482499e-01    0,000000000e+00    0,000000000e+00    0,000000000e+00    0,000000000e+00
      618000000   -1,296602935e-01   -8,547753096e-03   -4,641086459e-01    4,945696294e-01    0,000000000e+00    0,000000000e+00    0,000000000e+00    0,000000000e+00
      632000000   -8,347447217e-02    1,646495424e-02   -9,895225614e-02    6,640632153e-01    0,000000000e+00    0,000000000e+00    0,000000000e+00    0,000000000e+00
      646000000   -5,141189322e-02    2,453004126e-04    2,879069149e-01    5,954865217e-01    0,000000000e+00    0,000000000e+00    0,000000000e+00    0,000000000e+00
      660000000   -5,320621282e-02   -2,194085158e-02    5,680728555e-01    3,234862685e-01    0,000000000e+00    0,000000000e+00    0,000000000e+00    0,000000000e+00
      674000000   -7,020498812e-02   -1,838786714e-02    6,429087520e-01   -6,556430459e-02    0,000000000e+00    0,000000000e+00    0,000000000e+00    0,000000000e+00
      688000000   -6,814954430e-02    8,296332322e-03    4,712497294e-01   -4,281459749e-01    0,000000000e+00    0,000000000e+00    0,000000000e+00    0,000000000e+00
      702000000   -3,719610348e-02    2,687403746e-02    1,164379045e-01   -6,129613519e-01    0,000000000e+00    0,000000000e+00    0,000000000e+00    0,000000000e+00
      716000000    1,721593784e-03    1,774923503e-02   -2,642203867e-01   -5,464374423e-01    0,000000000e+00    0,000000000e+00    0,000000000e+00    0,000000000e+00
      730000000    3,695521131e-02   -1,170672197e-02   -5,284090638e-01   -2,692942321e-01    0,000000000e+00    0,000000000e+00    0,000000000e+00    0,000000000e+00
      744000000    6,552448869e-02   -6,238645315e-02   -5,645685792e-01    1,064906716e-01    0,000000000e+00    0,000000000e+00    0,000000000e+00    0,000000000e+00
      758000000    6,657387316e-02   -1,515797973e-01   -3,633650839e-01    4,101466537e-01    0,000000000e+00    0,000000000e+00    0,000000000e+00    0,000000000e+00
      772000000   -1,246511191e-02   -2,622867227e-01   -3,439419344e-02    5,148176551e-01    0,000000000e+00    0,000000000e+00    0,000000000e+00    0,000000000e+00
      786000000   -2,056534886e-01   -3,032095134e-01    2,739141881e-01    3,959647715e-01    0,000000000e+00    0,000000000e+00    0,000000000e+00    0,000000000e+00
      800000000   -4,252722859e-01   -1,295900643e-01    4,172665477e-01    9,847559780e-02    0,000000000e+00    0,000000000e+00    0,000000000e+00    0,000000000e+00
      814000000   -3,896931708e-01    2,220215052e-01    2,820899785e-01   -1,731914133e-01    0,000000000e+00    0,000000000e+00    0,000000000e+00    0,000000000e+00
      828000000   -4,867568612e-02    3,679412007e-01    5,528135225e-02   -1,889036745e-01    0,000000000e+00    0,000000000e+00    0,000000000e+00    0,000000000e+00
      842000000    2,348662615e-01    1,859041601e-01   -1,713974401e-02   -7,084488869e-02    0,000000000e+00    0,000000000e+00    0,000000000e+00    0,000000000e+00
      856000000    2,806603312e-01   -1,246450171e-01    4,499074817e-02   -1,322546788e-02    0,000000000e+00    0,000000000e+00    0,000000000e+00    0,000000000e+00
      870000000    7,542391866e-02   -3,764872253e-01    1,137266234e-01   -9,125552326e-02    0,000000000e+00    0,000000000e+00    0,000000000e+00    0,000000000e+00
      884000000   -2,964497507e-01   -3,610540032e-01    2,820750885e-02   -2,454406023e-01    0,000000000e+00    0,000000000e+00    0,000000000e+00    0,000000000e+00
      898000000   -4,731986821e-01    8,595931344e-03   -2,221403271e-01   -2,274665534e-01    0,000000000e+00    0,000000000e+00    0,000000000e+00    0,000000000e+00
      912000000   -2,268382311e-01    2,938656807e-01   -3,437115848e-01    7,641931623e-02    0,000000000e+00    0,000000000e+00    0,000000000e+00    0,000000000e+00
      926000000    6,839653850e-02    2,630445659e-01   -2,142300904e-01    2,634560168e-01    0,000000000e+00    0,000000000e+00    0,000000000e+00    0,000000000e+00
      940000000    2,179356664e-01    8,031181991e-02   -3,635077551e-02    3,304485083e-01    0,000000000e+00    0,000000000e+00    0,000000000e+00    0,000000000e+00
      954000000    2,203908712e-01   -1,288153976e-01    1,318978071e-01    3,060389757e-01    0,000000000e+00    0,000000000e+00    0,000000000e+00    0,000000000e+00
      968000000    1,154730245e-01   -2,985643446e-01    2,692745030e-01    2,187796682e-01    0,000000000e+00    0,000000000e+00    0,000000000e+00    0,000000000e+00
      982000000   -8,455558866e-02   -3,869415522e-01    3,659863770e-01    6,614948064e-02    0,000000000e+00    0,000000000e+00    0,000000000e+00    0,000000000e+00
      996000000   -3,169559836e-01   -3,259314001e-01    3,679601848e-01   -1,454928219e-01    0,000000000e+00    0,000000000e+00    0,000000000e+00    0,000000000e+00
     1010000000   -4,605063796e-01   -1,122132018e-01    2,243576050e-01   -3,408618271e-01    0,000000000e+00    0,000000000e+00    0,000000000e+00    0,000000000e+00
     1024000000   -4,103028178e-01    1,498601288e-01   -3,401132673e-02   -3,930962086e-01    0,000000000e+00    0,000000000e+00    0,000000000e+00    0,000000000e+00
     1038000000   -2,148640603e-01    2,945670187e-01   -2,481656522e-01   -2,613296211e-01    0,000000000e+00    0,000000000e+00    0,000000000e+00    0,000000000e+00
     1052000000   -7,319398690e-03    2,763563395e-01   -3,192394376e-01   -4,701953381e-02    0,000000000e+00    0,000000000e+00    0,000000000e+00    0,000000000e+00
     1066000000    1,354688406e-01    1,629043221e-01   -2,551633120e-01    1,412020326e-01    0,000000000e+00    0,000000000e+00    0,000000000e+00    0,000000000e+00
     1080000000    1,957104355e-01    2,102967585e-03   -1,193942651e-01    2,631125748e-01    0,000000000e+00    0,000000000e+00    0,000000000e+00    0,000000000e+00
     1094000000    1,521669328e-01   -1,715959162e-01    6,289316714e-02    3,063718677e-01    0,000000000e+00    0,000000000e+00    0,000000000e+00    0,000000000e+00
     1108000000    6,178565091e-04   -3,038821220e-01    2,758735120e-01    2,468638420e-01    0,000000000e+00    0,000000000e+00    0,000000000e+00    0,000000000e+00
     1122000000   -2,458168864e-01   -2,599219084e-01    4,718707800e-01    1,191889588e-02    0,000000000e+00    0,000000000e+00    0,000000000e+00    0,000000000e+00
     1136000000   -3,206787407e-01    3,698271886e-02    3,990288079e-01   -3,915030956e-01    0,000000000e+00    0,000000000e+00    0,000000000e+00    0,000000000e+00
     1150000000   -3,610031307e-02    1,525164396e-01    5,816484801e-03   -5,417572260e-01    0,000000000e+00    0,000000000e+00    0,000000000e+00    0,000000000e+00
     1164000000    1,252006441e-01   -6,241355464e-02   -2,760903537e-01   -3,770765066e-01    0,000000000e+00    0,000000000e+00    0,000000000e+00    0,000000000e+00
     1178000000    1,787326112e-02   -3,030738235e-01   -3,707173467e-01   -1,505358368e-01    0,000000000e+00    0,000000000e+00    0,000000000e+00    0,000000000e+00
     1192000000   -2,664311528e-01   -3,686490655e-01   -3,236927390e-01    5,837852880e-02    0,000000000e+00    0,000000000e+00    0,000000000e+00    0,000000000e+00
     1206000000   -5,249279141e-01   -1,600067616e-01   -1,656982005e-01    1,824771613e-01    0,000000000e+00    0,000000000e+00    0,000000000e+00    0,000000000e+00
     1220000000   -5,068152547e-01    1,749991626e-01    6,232738961e-03    1,584140211e-01    0,000000000e+00    0,000000000e+00    0,000000000e+00    0,000000000e+00
     1234000000   -2,839590907e-01    3,566451967e-01    6,746784598e-02    6,226762384e-02    0,000000000e+00    0,000000000e+00    0,000000000e+00    0,000000000e+00
     1248000000   -4,132690281e-02    3,627708852e-01    6,221589446e-02   -8,150540292e-03    0,000000000e+00    0,000000000e+00    0,000000000e+00    0,000000000e+00
     1262000000    1,202911064e-01    2,575354576e-01    1,814829372e-02   -2,265834995e-02    0,000000000e+00    0,000000000e+00    0,000000000e+00    0,000000000e+00
     1276000000    2,093873024e-01    9,739910811e-02   -8,984404616e-03    3,464253386e-03    0,000000000e+00    0,000000000e+00    0,000000000e+00    0,000000000e+00
     1290000000    2,235413492e-01   -7,717014849e-02    2,029144764e-02    4,966555163e-02    0,000000000e+00    0,000000000e+00    0,000000000e+00    0,000000000e+00
     1304000000    1,538873315e-01   -2,401507050e-01    1,246626452e-01    6,651102006e-02    0,000000000e+00    0,000000000e+00    0,000000000e+00    0,000000000e+00
     1318000000    2,986095101e-02   -3,365173936e-01    1,266703457e-01   -1,672211289e-01    0,000000000e+00    0,000000000e+00    0,000000000e+00    0,000000000e+00
     1332000000   -1,294306219e-01   -4,417465627e-01   -4,686723277e-02   -5,172649026e-02    0,000000000e+00    0,000000000e+00    0,000000000e+00    0,000000000e+00
     1346000000   -3,942640424e-01   -4,101845324e-01    2,791098692e-02    6,165315583e-02    0,000000000e+00    0,000000000e+00    0,000000000e+00    0,000000000e+00
     1360000000   -6,099507213e-01   -1,879304200e-01    1,282168925e-01    6,986945122e-02    0,000000000e+00    0,000000000e+00    0,000000000e+00    0,000000000e+00
     1374000000   -6,368653178e-01    1,257661581e-01    2,015354931e-01    1,681172475e-02    0,000000000e+00    0,000000000e+00    0,000000000e+00    0,000000000e+00
     1388000000   -4,684874117e-01    3,696467876e-01    2,000202984e-01   -5,702271685e-02    0,000000000e+00    0,000000000e+00    0,000000000e+00    0,000000000e+00
     1402000000   -2,341381460e-01    4,595214427e-01    1,873291135e-01   -8,832206577e-02    0,000000000e+00    0,000000000e+00    0,000000000e+00    0,000000000e+00
     1416000000   -2,465770207e-02    4,107963741e-01    1,795007139e-01   -1,096182168e-01    0,000000000e+00    0,000000000e+00    0,000000000e+00    0,000000000e+00
     1430000000    1,213879436e-01    3,000251353e-01    1,646132320e-01   -1,052169874e-01    0,000000000e+00    0,000000000e+00    0,000000000e+00    0,000000000e+00
     1444000000    2,074638009e-01    1,473377943e-01    1,583823562e-01   -1,081768945e-01    0,000000000e+00    0,000000000e+00    0,000000000e+00    0,000000000e+00
     1458000000    2,362193614e-01   -1,886924915e-02    1,535236537e-01   -7,761949301e-02    0,000000000e+00    0,000000000e+00    0,000000000e+00    0,000000000e+00
     1472000000    1,954815835e-01   -2,054564208e-01    1,508960575e-01   -2,777392417e-02    0,000000000e+00    0,000000000e+00    0,000000000e+00    0,000000000e+00
     1486000000    6,241003424e-02   -3,812038004e-01    1,690328419e-01    2,690372057e-02    0,000000000e+00    0,000000000e+00    0,000000000e+00    0,000000000e+00
     1500000000   -1,757499427e-01   -4,827005267e-01    2,436294854e-01    1,061103120e-01    0,000000000e+00    0,000000000e+00    0,000000000e+00    0,000000000e+00
