! NanoVNA-App
! Date: 2025-09-25 15:35:31
! Start: 100MHz Stop: 1,5GHz Points: 101
! S-Parameter data: F S11 S21 S12 S22
# Hz S RI R 50
!     Frequency           S11_Real           S11_Imag           S21_Real           S21_Imag           S12_Real           S12_Imag           S22_Real           S22_Imag
      100000000   -2,884097397e-02   -4,180533346e-03    3,740741611e-01   -7,217195034e-01    0,000000000e+00    0,000000000e+00    0,000000000e+00    0,000000000e+00
      114000000   -1,645852067e-02    1,153213158e-02   -8,915972710e-02   -8,053391576e-01    0,000000000e+00    0,000000000e+00    0,000000000e+00    0,000000000e+00
      128000000    3,488955088e-03    1,055922732e-02   -5,147004128e-01   -6,205506325e-01    0,000000000e+00    0,000000000e+00    0,000000000e+00    0,000000000e+00
      142000000    1,457819343e-02   -2,967372304e-03   -7,670348883e-01   -2,365975380e-01    0,000000000e+00    0,000000000e+00    0,000000000e+00    0,000000000e+00
      156000000    1,479778718e-02   -1,474878192e-02   -7,658109665e-01    2,215307653e-01    0,000000000e+00    0,000000000e+00    0,000000000e+00    0,000000000e+00
      170000000    1,671032980e-02   -2,250302397e-02   -5,180389881e-01    6,045402884e-01    0,000000000e+00    0,000000000e+00    0,000000000e+00    0,000000000e+00
      184000000    2,100900188e-02   -3,704163805e-02   -1,015343443e-01    7,863960862e-01    0,000000000e+00    0,000000000e+00    0,000000000e+00    0,000000000e+00
      198000000    1,306741126e-02   -6,247606874e-02    3,432776034e-01    7,125032544e-01    0,000000000e+00    0,000000000e+00    0,000000000e+00    0,000000000e+00
      212000000   -1,865140162e-02   -8,127558231e-02    6,780306697e-01    4,101656973e-01    0,000000000e+00    0,000000000e+00    0,000000000e+00    0,000000000e+00
      226000000   -6,162291393e-02   -6,919932365e-02    7,957710624e-01   -3,061228059e-02    0,000000000e+00    0,000000000e+00    0,000000000e+00    0,000000000e+00
      240000000   -8,257737756e-02   -2,561456151e-02    6,460745335e-01   -4,668255150e-01    0,000000000e+00    0,000000000e+00    0,000000000e+00    0,000000000e+00
      254000000   -6,349919736e-02    1,725357212e-02    2,761784494e-01   -7,427775264e-01    0,000000000e+00    0,000000000e+00    0,000000000e+00    0,000000000e+00
      268000000   -2,378673293e-02    2,898323908e-02   -1,780774146e-01   -7,643859386e-01    0,000000000e+00    0,000000000e+00    0,000000000e+00    0,000000000e+00
      282000000    4,243775271e-03    1,189898793e-02   -5,617918968e-01   -5,352849960e-01    0,000000000e+00    0,000000000e+00    0,000000000e+00    0,000000000e+00
      296000000    9,828039445e-03   -7,794098463e-03   -7,598071098e-01   -1,396020055e-01    0,000000000e+00    0,000000000e+00    0,000000000e+00    0,000000000e+00
      310000000    1,124079060e-02   -1,637174189e-02   -7,135397196e-01    2,986748815e-01    0,000000000e+00    0,000000000e+00    0,000000000e+00    0,000000000e+00
      324000000    1,987422630e-02   -2,651786990e-02   -4,271716475e-01    6,388345361e-01    0,000000000e+00    0,000000000e+00    0,000000000e+00    0,000000000e+00
      338000000    2,541319095e-02   -5,231402069e-02   -6,894776132e-03    7,595959306e-01    0,000000000e+00    0,000000000e+00    0,000000000e+00    0,000000000e+00
      352000000    7,538915612e-03   -8,463072777e-02    4,067151546e-01    6,391802430e-01    0,000000000e+00    0,000000000e+00    0,000000000e+00    0,000000000e+00
      366000000   -3,470731527e-02   -9,559144825e-02    6,906886697e-01    3,108085990e-01    0,000000000e+00    0,000000000e+00    0,000000000e+00    0,000000000e+00
      380000000   -7,080338150e-02   -7,104064524e-02    7,474319935e-01   -1,253557652e-01    0,000000000e+00    0,000000000e+00    0,000000000e+00    0,000000000e+00
      394000000   -7,277428359e-02   -3,229456395e-02    5,462735891e-01   -5,218397379e-01    0,000000000e+00    0,000000000e+00    0,000000000e+00    0,000000000e+00
      408000000   -4,649775848e-02   -1,608189009e-02    1,603314430e-01   -7,333087325e-01    0,000000000e+00    0,000000000e+00    0,000000000e+00    0,000000000e+00
      422000000   -2,847173810e-02   -3,201099858e-02   -2,681595385e-01   -6,955232024e-01    0,000000000e+00    0,000000000e+00    0,000000000e+00    0,000000000e+00
      436000000   -4,068908095e-02   -5,204699934e-02   -6,043621898e-01   -4,323377609e-01    0,000000000e+00    0,000000000e+00    0,000000000e+00    0,000000000e+00
      450000000   -6,754142791e-02   -4,359469935e-02   -7,407632470e-01   -2,110426128e-02    0,000000000e+00    0,000000000e+00    0,000000000e+00    0,000000000e+00
      464000000   -7,347063720e-02   -1,169324201e-02   -6,192508936e-01    3,976999819e-01    0,000000000e+00    0,000000000e+00    0,000000000e+00    0,000000000e+00
      478000000   -4,798107594e-02    1,159059070e-02   -2,820636630e-01    6,673720479e-01    0,000000000e+00    0,000000000e+00    0,000000000e+00    0,000000000e+00
      492000000   -1,567471400e-02    6,285090931e-03    1,374484152e-01    7,019647360e-01    0,000000000e+00    0,000000000e+00    0,000000000e+00    0,000000000e+00
      506000000   -2,637191908e-03   -1,555157360e-02    4,984689653e-01    5,021672249e-01    0,000000000e+00    0,000000000e+00    0,000000000e+00    0,000000000e+00
      520000000   -5,193585996e-03   -3,185328469e-02    6,882118583e-01    1,399588287e-01    0,000000000e+00    0,000000000e+00    0,000000000e+00    0,000000000e+00
      534000000   -3,980345093e-03   -3,820454329e-02    6,433094144e-01   -2,625157833e-01    0,000000000e+00    0,000000000e+00    0,000000000e+00    0,000000000e+00
      548000000    6,219766568e-03   -5,384970084e-02    3,812929094e-01   -5,675103664e-01    0,000000000e+00    0,000000000e+00    0,000000000e+00    0,000000000e+00
      562000000    3,435788210e-03   -8,950048685e-02    2,444422105e-03   -6,721563935e-01    0,000000000e+00    0,000000000e+00    0,000000000e+00    0,000000000e+00
      576000000   -3,431137279e-02   -1,247021258e-01   -3,696053326e-01   -5,576204658e-01    0,000000000e+00    0,000000000e+00    0,000000000e+00    0,000000000e+00
      590000000   -9,622593224e-02   -1,227981225e-01   -6,196849942e-01   -2,641927302e-01    0,000000000e+00    0,000000000e+00    0,000000000e+00    0,000000000e+00
      604000000   -1,393845677e-01   -7,139293849e-02   -6,650534868e-01    1,383590400e-01    0,000000000e+00    0,000000000e+00    0,000000000e+00    0,000000000e+00
      618000000   -1,292452961e-01   -9,522932582e-03   -4,641904235e-01    4,937263727e-01    0,000000000e+00    0,000000000e+00    0,000000000e+00    0,000000000e+00
      632000000   -8,350706846e-02    1,652177982e-02   -9,958343208e-02    6,641869545e-01    0,000000000e+00    0,000000000e+00    0,000000000e+00    0,000000000e+00
      646000000   -5,069405958e-02    9,988604579e-04    2,876646519e-01    5,949088931e-01    0,000000000e+00    0,000000000e+00    0,000000000e+00    0,000000000e+00
      660000000   -5,337335169e-02   -2,084183320e-02    5,675076842e-01    3,230113983e-01    0,000000000e+00    0,000000000e+00    0,000000000e+00    0,000000000e+00
      674000000   -7,080642134e-02   -1,723977178e-02    6,427417994e-01   -6,572284549e-02    0,000000000e+00    0,000000000e+00    0,000000000e+00    0,000000000e+00
      688000000   -6,791653484e-02    9,074619040e-03    4,706782699e-01   -4,279021025e-01    0,000000000e+00    0,000000000e+00    0,000000000e+00    0,000000000e+00
      702000000   -3,813157976e-02    2,718627825e-02    1,204276010e-01   -6,155326366e-01    0,000000000e+00    0,000000000e+00    0,000000000e+00    0,000000000e+00
      716000000    1,834229217e-03    1,816756465e-02   -2,649109960e-01   -5,465152264e-01    0,000000000e+00    0,000000000e+00    0,000000000e+00    0,000000000e+00
      730000000    3,689484298e-02   -1,033477858e-02   -5,284273028e-01   -2,688841820e-01    0,000000000e+00    0,000000000e+00    0,000000000e+00    0,000000000e+00
      744000000    6,564559788e-02   -6,277295947e-02   -5,641811490e-01    1,065581515e-01    0,000000000e+00    0,000000000e+00    0,000000000e+00    0,000000000e+00
      758000000    6,578586251e-02   -1,527111381e-01   -3,635638058e-01    4,099304676e-01    0,000000000e+00    0,000000000e+00    0,000000000e+00    0,000000000e+00
      772000000   -1,255532354e-02   -2,630575597e-01   -3,568099812e-02    5,154569745e-01    0,000000000e+00    0,000000000e+00    0,000000000e+00    0,000000000e+00
      786000000   -2,057990879e-01   -3,032380939e-01    2,736050487e-01    3,960644901e-01    0,000000000e+00    0,000000000e+00    0,000000000e+00    0,000000000e+00
      800000000   -4,248348475e-01   -1,298904270e-01    4,171908498e-01    9,919724613e-02    0,000000000e+00    0,000000000e+00    0,000000000e+00    0,000000000e+00
      814000000   -3,887922466e-01    2,221902162e-01    2,822681069e-01   -1,732790321e-01    0,000000000e+00    0,000000000e+00    0,000000000e+00    0,000000000e+00
      828000000   -4,905415326e-02    3,689468503e-01    5,483273417e-02   -1,891945302e-01    0,000000000e+00    0,000000000e+00    0,000000000e+00    0,000000000e+00
      842000000    2,348846346e-01    1,858232468e-01   -1,718226820e-02   -7,114154100e-02    0,000000000e+00    0,000000000e+00    0,000000000e+00    0,000000000e+00
      856000000    2,809491158e-01   -1,240624785e-01    4,491156340e-02   -1,323240902e-02    0,000000000e+00    0,000000000e+00    0,000000000e+00    0,000000000e+00
      870000000    7,517130673e-02   -3,757480085e-01    1,136830226e-01   -9,088613838e-02    0,000000000e+00    0,000000000e+00    0,000000000e+00    0,000000000e+00
      884000000   -2,951781452e-01   -3,624323905e-01    2,832620405e-02   -2,458592802e-01    0,000000000e+00    0,000000000e+00    0,000000000e+00    0,000000000e+00
      898000000   -4,719178677e-01    9,576517157e-03   -2,221449465e-01   -2,273797691e-01    0,000000000e+00    0,000000000e+00    0,000000000e+00    0,000000000e+00
      912000000   -2,261679471e-01    2,930536568e-01   -3,547382057e-01    6,701432168e-02    0,000000000e+00    0,000000000e+00    0,000000000e+00    0,000000000e+00
      926000000    6,760067493e-02    2,650031447e-01   -2,142307162e-01    2,656194866e-01    0,000000000e+00    0,000000000e+00    0,000000000e+00    0,000000000e+00
      940000000    2,162385881e-01    8,186211437e-02   -3,555622324e-02    3,290181756e-01    0,000000000e+00    0,000000000e+00    0,000000000e+00    0,000000000e+00
      954000000    2,203763723e-01   -1,250277013e-01    1,310466379e-01    3,066077530e-01    0,000000000e+00    0,000000000e+00    0,000000000e+00    0,000000000e+00
      968000000    1,169281676e-01   -2,999871373e-01    2,717604041e-01    2,186783403e-01    0,000000000e+00    0,000000000e+00    0,000000000e+00    0,000000000e+00
      982000000   -8,200889081e-02   -3,853487670e-01    3,668585718e-01    6,454076618e-02    0,000000000e+00    0,000000000e+00    0,000000000e+00    0,000000000e+00
      996000000   -3,166160583e-01   -3,275662065e-01    3,696671128e-01   -1,459747255e-01    0,000000000e+00    0,000000000e+00    0,000000000e+00    0,000000000e+00
     1010000000   -4,597014785e-01   -1,128943041e-01    2,222277224e-01   -3,420483768e-01    0,000000000e+00    0,000000000e+00    0,000000000e+00    0,000000000e+00
     1024000000   -4,167147577e-01    1,498520374e-01   -3,403358161e-02   -3,940887451e-01    0,000000000e+00    0,000000000e+00    0,000000000e+00    0,000000000e+00
     1038000000   -2,158053368e-01    2,941718400e-01   -2,480519563e-01   -2,598137558e-01    0,000000000e+00    0,000000000e+00    0,000000000e+00    0,000000000e+00
     1052000000   -8,661396801e-03    2,820804715e-01   -3,190891147e-01   -4,764766991e-02    0,000000000e+00    0,000000000e+00    0,000000000e+00    0,000000000e+00
     1066000000    1,334458143e-01    1,633341312e-01   -2,551002502e-01    1,421982497e-01    0,000000000e+00    0,000000000e+00    0,000000000e+00    0,000000000e+00
     1080000000    1,913713515e-01   -3,280462697e-03   -1,194053143e-01    2,645780742e-01    0,000000000e+00    0,000000000e+00    0,000000000e+00    0,000000000e+00
     1094000000    1,540727317e-01   -1,777516156e-01    6,393371522e-02    3,058065176e-01    0,000000000e+00    0,000000000e+00    0,000000000e+00    0,000000000e+00
     1108000000    9,173784056e-04   -3,029782176e-01    2,744888961e-01    2,455158383e-01    0,000000000e+00    0,000000000e+00    0,000000000e+00    0,000000000e+00
     1122000000   -2,465886176e-01   -2,588454485e-01    4,717107415e-01    1,053857990e-02    0,000000000e+00    0,000000000e+00    0,000000000e+00    0,000000000e+00
     1136000000   -3,226236403e-01    3,419230506e-02    3,996120393e-01   -3,924729228e-01    0,000000000e+00    0,000000000e+00    0,000000000e+00    0,000000000e+00
     1150000000   -3,774734959e-02    1,533752382e-01    6,047601346e-03   -5,422417521e-01    0,000000000e+00    0,000000000e+00    0,000000000e+00    0,000000000e+00
     1164000000    1,236731485e-01   -5,946268514e-02   -2,780064940e-01   -3,769264817e-01    0,000000000e+00    0,000000000e+00    0,000000000e+00    0,000000000e+00
     1178000000    1,559217460e-02   -3,028675020e-01   -3,688828051e-01   -1,524851471e-01    0,000000000e+00    0,000000000e+00    0,000000000e+00    0,000000000e+00
     1192000000   -2,639749944e-01   -3,707481027e-01   -3,203816414e-01    5,563909933e-02    0,000000000e+00    0,000000000e+00    0,000000000e+00    0,000000000e+00
     1206000000   -5,221502781e-01   -1,629810035e-01   -1,646032780e-01    1,814393848e-01    0,000000000e+00    0,000000000e+00    0,000000000e+00    0,000000000e+00
     1220000000   -5,047241449e-01    1,725447178e-01    5,772355944e-04    1,582017541e-01    0,000000000e+00    0,000000000e+00    0,000000000e+00    0,000000000e+00
     1234000000   -2,824892402e-01    3,673219979e-01    7,047238946e-02    6,604249030e-02    0,000000000e+00    0,000000000e+00    0,000000000e+00    0,000000000e+00
     1248000000   -4,760621861e-02    3,627325892e-01    5,460973084e-02   -1,083426923e-02    0,000000000e+00    0,000000000e+00    0,000000000e+00    0,000000000e+00
     1262000000    1,216703877e-01    2,565415204e-01    1,477555465e-02   -2,163807675e-02    0,000000000e+00    0,000000000e+00    0,000000000e+00    0,000000000e+00
     1276000000    2,113914192e-01    9,833899885e-02   -3,984346054e-03   -1,550413319e-03    0,000000000e+00    0,000000000e+00    0,000000000e+00    0,000000000e+00
     1290000000    2,220001221e-01   -7,128945738e-02    1,893440075e-02    5,244331807e-02    0,000000000e+00    0,000000000e+00    0,000000000e+00    0,000000000e+00
     1304000000    1,544041187e-01   -2,405056208e-01    1,371565759e-01    6,853161752e-02    0,000000000e+00    0,000000000e+00    0,000000000e+00    0,000000000e+00
     1318000000    3,723985702e-02   -3,359127641e-01    1,323642284e-01   -1,587866247e-01    0,000000000e+00    0,000000000e+00    0,000000000e+00    0,000000000e+00
     1332000000   -1,320384890e-01   -4,332920015e-01   -4,731075466e-02   -4,016253725e-02    0,000000000e+00    0,000000000e+00    0,000000000e+00    0,000000000e+00
     1346000000   -3,889943063e-01   -4,054861963e-01    3,357553482e-02    6,699945778e-02    0,000000000e+00    0,000000000e+00    0,000000000e+00    0,000000000e+00
     1360000000   -6,028410792e-01   -1,871861368e-01    1,523576081e-01    7,595316321e-02    0,000000000e+00    0,000000000e+00    0,000000000e+00    0,000000000e+00
     1374000000   -6,319066882e-01    1,279937327e-01    2,098198533e-01    6,088264752e-03    0,000000000e+00    0,000000000e+00    0,000000000e+00    0,000000000e+00
     1388000000   -4,720271826e-01    3,692981601e-01    2,086042166e-01   -6,978514045e-02    0,000000000e+00    0,000000000e+00    0,000000000e+00    0,000000000e+00
     1402000000   -2,330081314e-01    4,593788981e-01    1,842406392e-01   -8,557015657e-02    0,000000000e+00    0,000000000e+00    0,000000000e+00    0,000000000e+00
     1416000000   -2,623408474e-02    4,162314832e-01    1,625669897e-01   -1,079214588e-01    0,000000000e+00    0,000000000e+00    0,000000000e+00    0,000000000e+00
     1430000000    1,188309714e-01    3,082704246e-01    1,716036499e-01   -9,237376601e-02    0,000000000e+00    0,000000000e+00    0,000000000e+00    0,000000000e+00
     1444000000    2,087382972e-01    1,505251527e-01    1,535212845e-01   -1,064750552e-01    0,000000000e+00    0,000000000e+00    0,000000000e+00    0,000000000e+00
     1458000000    2,377233654e-01   -2,231457271e-02    1,534426659e-01   -7,936014980e-02    0,000000000e+00    0,000000000e+00    0,000000000e+00    0,000000000e+00
     1472000000    1,936346292e-01   -2,011294216e-01    1,334832758e-01   -3,414774686e-02    0,000000000e+00    0,000000000e+00    0,000000000e+00    0,000000000e+00
     1486000000    6,307731569e-02   -3,698500991e-01    1,665599942e-01    4,396942630e-02    0,000000000e+00    0,000000000e+00    0,000000000e+00    0,000000000e+00
     1500000000   -1,769704372e-01   -4,993394315e-01    2,597571313e-01    9,510264546e-02    0,000000000e+00    0,000000000e+00    0,000000000e+00    0,000000000e+00
