! NanoVNA-App
! Date: 2025-09-25 15:34:47
! Start: 100MHz Stop: 1,5GHz Points: 101
! S-Parameter data: F S11 S21 S12 S22
# Hz S RI R 50
!     Frequency           S11_Real           S11_Imag           S21_Real           S21_Imag           S12_Real           S12_Imag           S22_Real           S22_Imag
      100000000   -2,883640863e-02   -4,171218257e-03    3,741128743e-01   -7,217274308e-01    0,000000000e+00    0,000000000e+00    0,000000000e+00    0,000000000e+00
      114000000   -1,648158394e-02    1,150837447e-02   -8,917781711e-02   -8,053055406e-01    0,000000000e+00    0,000000000e+00    0,000000000e+00    0,000000000e+00
      128000000    3,517478937e-03    1,056244597e-02   -5,145101547e-01   -6,202628613e-01    0,000000000e+00    0,000000000e+00    0,000000000e+00    0,000000000e+00
      142000000    1,457023062e-02   -2,965255873e-03   -7,671788335e-01   -2,366668433e-01    0,000000000e+00    0,000000000e+00    0,000000000e+00    0,000000000e+00
      156000000    1,591962203e-02   -1,442932896e-02   -7,699249387e-01    2,242144942e-01    0,000000000e+00    0,000000000e+00    0,000000000e+00    0,000000000e+00
      170000000    1,671015657e-02   -2,259271964e-02   -5,181757808e-01    6,047289371e-01    0,000000000e+00    0,000000000e+00    0,000000000e+00    0,000000000e+00
      184000000    2,102696151e-02   -3,708241880e-02   -1,015052050e-01    7,862529755e-01    0,000000000e+00    0,000000000e+00    0,000000000e+00    0,000000000e+00
      198000000    1,304477639e-02   -6,245404109e-02    3,432128429e-01    7,122594118e-01    0,000000000e+00    0,000000000e+00    0,000000000e+00    0,000000000e+00
      212000000   -1,861398295e-02   -8,134853095e-02    6,778913140e-01    4,099195004e-01    0,000000000e+00    0,000000000e+00    0,000000000e+00    0,000000000e+00
      226000000   -6,162159145e-02   -6,924896687e-02    7,957115173e-01   -3,056037799e-02    0,000000000e+00    0,000000000e+00    0,000000000e+00    0,000000000e+00
      240000000   -8,260384947e-02   -2,564442530e-02    6,463055015e-01   -4,670328498e-01    0,000000000e+00    0,000000000e+00    0,000000000e+00    0,000000000e+00
      254000000   -6,349343807e-02    1,723795943e-02    2,762347460e-01   -7,433609962e-01    0,000000000e+00    0,000000000e+00    0,000000000e+00    0,000000000e+00
      268000000   -2,382986061e-02    2,899166383e-02   -1,784174591e-01   -7,642017603e-01    0,000000000e+00    0,000000000e+00    0,000000000e+00    0,000000000e+00
      282000000    4,243412986e-03    1,191973779e-02   -5,618546605e-01   -5,356639028e-01    0,000000000e+00    0,000000000e+00    0,000000000e+00    0,000000000e+00
      296000000    9,789385833e-03   -7,847943343e-03   -7,598645687e-01   -1,395110637e-01    0,000000000e+00    0,000000000e+00    0,000000000e+00    0,000000000e+00
      310000000    1,133419294e-02   -1,618684642e-02   -7,115415335e-01    2,977373004e-01    0,000000000e+00    0,000000000e+00    0,000000000e+00    0,000000000e+00
      324000000    1,960029639e-02   -2,651172504e-02   -4,277365804e-01    6,375264525e-01    0,000000000e+00    0,000000000e+00    0,000000000e+00    0,000000000e+00
      338000000    2,527740225e-02   -5,203499272e-02   -6,875073072e-03    7,620329261e-01    0,000000000e+00    0,000000000e+00    0,000000000e+00    0,000000000e+00
      352000000    7,561511826e-03   -8,442512155e-02    4,056886137e-01    6,391419768e-01    0,000000000e+00    0,000000000e+00    0,000000000e+00    0,000000000e+00
      366000000   -3,466995806e-02   -9,532736987e-02    6,905696392e-01    3,115411997e-01    0,000000000e+00    0,000000000e+00    0,000000000e+00    0,000000000e+00
      380000000   -7,081262767e-02   -7,120827585e-02    7,479126453e-01   -1,256628335e-01    0,000000000e+00    0,000000000e+00    0,000000000e+00    0,000000000e+00
      394000000   -7,273435593e-02   -3,248044476e-02    5,452054143e-01   -5,212725997e-01    0,000000000e+00    0,000000000e+00    0,000000000e+00    0,000000000e+00
      408000000   -4,646115750e-02   -1,617633551e-02    1,610699743e-01   -7,319524288e-01    0,000000000e+00    0,000000000e+00    0,000000000e+00    0,000000000e+00
      422000000   -2,817630954e-02   -3,185899928e-02   -2,684802115e-01   -6,945558190e-01    0,000000000e+00    0,000000000e+00    0,000000000e+00    0,000000000e+00
      436000000   -4,074226692e-02   -5,188439041e-02   -6,036342978e-01   -4,322144687e-01    0,000000000e+00    0,000000000e+00    0,000000000e+00    0,000000000e+00
      450000000   -6,770201027e-02   -4,408411309e-02   -7,413117290e-01   -2,129410021e-02    0,000000000e+00    0,000000000e+00    0,000000000e+00    0,000000000e+00
      464000000   -7,355541736e-02   -1,185440272e-02   -6,188476682e-01    3,975635767e-01    0,000000000e+00    0,000000000e+00    0,000000000e+00    0,000000000e+00
      478000000   -4,749633744e-02    1,184969675e-02   -2,821226120e-01    6,674347520e-01    0,000000000e+00    0,000000000e+00    0,000000000e+00    0,000000000e+00
      492000000   -1,574827544e-02    6,186676677e-03    1,388690770e-01    7,018193007e-01    0,000000000e+00    0,000000000e+00    0,000000000e+00    0,000000000e+00
      506000000   -2,556484658e-03   -1,580702513e-02    4,982008040e-01    5,021978021e-01    0,000000000e+00    0,000000000e+00    0,000000000e+00    0,000000000e+00
      520000000   -4,862147383e-03   -3,163254261e-02    6,884511709e-01    1,420549452e-01    0,000000000e+00    0,000000000e+00    0,000000000e+00    0,000000000e+00
      534000000   -4,148446023e-03   -3,838355467e-02    6,436768770e-01   -2,631114423e-01    0,000000000e+00    0,000000000e+00    0,000000000e+00    0,000000000e+00
      548000000    6,085392553e-03   -5,423134938e-02    3,815439939e-01   -5,677043200e-01    0,000000000e+00    0,000000000e+00    0,000000000e+00    0,000000000e+00
      562000000    2,914382378e-03   -8,936727047e-02    1,876113936e-03   -6,721398830e-01    0,000000000e+00    0,000000000e+00    0,000000000e+00    0,000000000e+00
      576000000   -3,384879604e-02   -1,247621030e-01   -3,690266311e-01   -5,577413440e-01    0,000000000e+00    0,000000000e+00    0,000000000e+00    0,000000000e+00
      590000000   -9,655229747e-02   -1,228714138e-01   -6,227538586e-01   -2,646970749e-01    0,000000000e+00    0,000000000e+00    0,000000000e+00    0,000000000e+00
      604000000   -1,393107176e-01   -7,164815813e-02   -6,650334001e-01    1,381784827e-01    0,000000000e+00    0,000000000e+00    0,000000000e+00    0,000000000e+00
      618000000   -1,298091859e-01   -8,496709168e-03   -4,635890722e-01    4,944584966e-01    0,000000000e+00    0,000000000e+00    0,000000000e+00    0,000000000e+00
      632000000   -8,460039645e-02    1,695734262e-02   -9,837788343e-02    6,650984287e-01    0,000000000e+00    0,000000000e+00    0,000000000e+00    0,000000000e+00
      646000000   -5,131916329e-02    1,860099146e-04    2,876557410e-01    5,958570242e-01    0,000000000e+00    0,000000000e+00    0,000000000e+00    0,000000000e+00
      660000000   -5,257207528e-02   -2,210956812e-02    5,675351620e-01    3,223233819e-01    0,000000000e+00    0,000000000e+00    0,000000000e+00    0,000000000e+00
      674000000   -7,086450607e-02   -1,784580573e-02    6,429253817e-01   -6,545157731e-02    0,000000000e+00    0,000000000e+00    0,000000000e+00    0,000000000e+00
      688000000   -6,782782823e-02    9,336532094e-03    4,706128836e-01   -4,286463261e-01    0,000000000e+00    0,000000000e+00    0,000000000e+00    0,000000000e+00
      702000000   -3,771036863e-02    2,594733797e-02    1,169808283e-01   -6,110859513e-01    0,000000000e+00    0,000000000e+00    0,000000000e+00    0,000000000e+00
      716000000    2,750079846e-03    1,723803766e-02   -2,645548284e-01   -5,465414524e-01    0,000000000e+00    0,000000000e+00    0,000000000e+00    0,000000000e+00
      730000000    3,624950349e-02   -1,104081329e-02   -5,282869339e-01   -2,687831521e-01    0,000000000e+00    0,000000000e+00    0,000000000e+00    0,000000000e+00
      744000000    6,447896361e-02   -6,261125952e-02   -5,641457438e-01    1,064074114e-01    0,000000000e+00    0,000000000e+00    0,000000000e+00    0,000000000e+00
      758000000    6,641483307e-02   -1,525125653e-01   -3,630924821e-01    4,107012153e-01    0,000000000e+00    0,000000000e+00    0,000000000e+00    0,000000000e+00
      772000000   -1,297918800e-02   -2,623082995e-01   -3,392332047e-02    5,155570507e-01    0,000000000e+00    0,000000000e+00    0,000000000e+00    0,000000000e+00
      786000000   -2,060114443e-01   -3,026354909e-01    2,739802599e-01    3,954156637e-01    0,000000000e+00    0,000000000e+00    0,000000000e+00    0,000000000e+00
      800000000   -4,256398380e-01   -1,309076399e-01    4,168566763e-01    9,886689484e-02    0,000000000e+00    0,000000000e+00    0,000000000e+00    0,000000000e+00
      814000000   -3,893173933e-01    2,208288908e-01    2,828007340e-01   -1,730925888e-01    0,000000000e+00    0,000000000e+00    0,000000000e+00    0,000000000e+00
      828000000   -4,914258048e-02    3,677624464e-01    5,500386283e-02   -1,890823841e-01    0,000000000e+00    0,000000000e+00    0,000000000e+00    0,000000000e+00
      842000000    2,347644567e-01    1,858304143e-01   -1,712516695e-02   -7,047125697e-02    0,000000000e+00    0,000000000e+00    0,000000000e+00    0,000000000e+00
      856000000    2,807325125e-01   -1,242264882e-01    4,549679160e-02   -1,322018169e-02    0,000000000e+00    0,000000000e+00    0,000000000e+00    0,000000000e+00
      870000000    7,472673804e-02   -3,752988577e-01    1,133606136e-01   -9,082061052e-02    0,000000000e+00    0,000000000e+00    0,000000000e+00    0,000000000e+00
      884000000   -2,960744202e-01   -3,618106544e-01    2,854672074e-02   -2,453753203e-01    0,000000000e+00    0,000000000e+00    0,000000000e+00    0,000000000e+00
      898000000   -4,729733467e-01    8,407433517e-03   -2,224398255e-01   -2,277098149e-01    0,000000000e+00    0,000000000e+00    0,000000000e+00    0,000000000e+00
      912000000   -2,251150906e-01    2,943687737e-01   -3,496470451e-01    7,710154355e-02    0,000000000e+00    0,000000000e+00    0,000000000e+00    0,000000000e+00
      926000000    6,877866387e-02    2,641684115e-01   -2,153635472e-01    2,652826607e-01    0,000000000e+00    0,000000000e+00    0,000000000e+00    0,000000000e+00
      940000000    2,158628702e-01    8,167874813e-02   -3,648607060e-02    3,301354647e-01    0,000000000e+00    0,000000000e+00    0,000000000e+00    0,000000000e+00
      954000000    2,216327935e-01   -1,256946325e-01    1,309807003e-01    3,083819747e-01    0,000000000e+00    0,000000000e+00    0,000000000e+00    0,000000000e+00
      968000000    1,184786558e-01   -2,995035946e-01    2,713366151e-01    2,202854902e-01    0,000000000e+00    0,000000000e+00    0,000000000e+00    0,000000000e+00
      982000000   -8,324866742e-02   -3,899336755e-01    3,658412397e-01    6,525317580e-02    0,000000000e+00    0,000000000e+00    0,000000000e+00    0,000000000e+00
      996000000   -3,181646466e-01   -3,297369778e-01    3,686341941e-01   -1,462832838e-01    0,000000000e+00    0,000000000e+00    0,000000000e+00    0,000000000e+00
     1010000000   -4,651423693e-01   -1,077854186e-01    2,217798233e-01   -3,381681740e-01    0,000000000e+00    0,000000000e+00    0,000000000e+00    0,000000000e+00
     1024000000   -4,104930758e-01    1,479876041e-01   -3,394068778e-02   -3,925295174e-01    0,000000000e+00    0,000000000e+00    0,000000000e+00    0,000000000e+00
     1038000000   -2,132417560e-01    2,915555835e-01   -2,480296642e-01   -2,606379688e-01    0,000000000e+00    0,000000000e+00    0,000000000e+00    0,000000000e+00
     1052000000   -6,508693099e-03    2,822540998e-01   -3,175437748e-01   -4,606582224e-02    0,000000000e+00    0,000000000e+00    0,000000000e+00    0,000000000e+00
     1066000000    1,344099045e-01    1,646075100e-01   -2,593804598e-01    1,421818584e-01    0,000000000e+00    0,000000000e+00    0,000000000e+00    0,000000000e+00
     1080000000    1,979814917e-01    3,303954436e-04   -1,185623929e-01    2,639547586e-01    0,000000000e+00    0,000000000e+00    0,000000000e+00    0,000000000e+00
     1094000000    1,530757397e-01   -1,726139337e-01    6,395953149e-02    3,024548292e-01    0,000000000e+00    0,000000000e+00    0,000000000e+00    0,000000000e+00
     1108000000   -4,975807387e-03   -3,041045964e-01    2,780532241e-01    2,452223748e-01    0,000000000e+00    0,000000000e+00    0,000000000e+00    0,000000000e+00
     1122000000   -2,512890697e-01   -2,673556209e-01    4,710086286e-01    1,244129799e-02    0,000000000e+00    0,000000000e+00    0,000000000e+00    0,000000000e+00
     1136000000   -3,224131763e-01    3,475277498e-02    4,005886018e-01   -3,932678998e-01    0,000000000e+00    0,000000000e+00    0,000000000e+00    0,000000000e+00
     1150000000   -4,447538778e-02    1,489334553e-01    5,443730857e-03   -5,404543281e-01    0,000000000e+00    0,000000000e+00    0,000000000e+00    0,000000000e+00
     1164000000    1,228321418e-01   -6,131767109e-02   -2,783798277e-01   -3,774476349e-01    0,000000000e+00    0,000000000e+00    0,000000000e+00    0,000000000e+00
     1178000000    1,957932115e-02   -3,040211499e-01   -3,658586740e-01   -1,467890143e-01    0,000000000e+00    0,000000000e+00    0,000000000e+00    0,000000000e+00
     1192000000   -2,675720453e-01   -3,722793460e-01   -3,232635260e-01    5,490528047e-02    0,000000000e+00    0,000000000e+00    0,000000000e+00    0,000000000e+00
     1206000000   -5,216565132e-01   -1,571476310e-01   -1,605155915e-01    1,855555177e-01    0,000000000e+00    0,000000000e+00    0,000000000e+00    0,000000000e+00
     1220000000   -5,143781900e-01    1,767130196e-01   -1,822867082e-03    1,598245800e-01    0,000000000e+00    0,000000000e+00    0,000000000e+00    0,000000000e+00
     1234000000   -2,895481586e-01    3,609502316e-01    6,983506680e-02    6,223173067e-02    0,000000000e+00    0,000000000e+00    0,000000000e+00    0,000000000e+00
     1248000000   -4,244500399e-02    3,666527569e-01    5,482551083e-02    6,058113067e-04    0,000000000e+00    0,000000000e+00    0,000000000e+00    0,000000000e+00
     1262000000    1,256844848e-01    2,564443052e-01    2,188018151e-02   -2,056460641e-02    0,000000000e+00    0,000000000e+00    0,000000000e+00    0,000000000e+00
     1276000000    2,126263529e-01    9,964323789e-02   -2,878093626e-03    4,598214757e-03    0,000000000e+00    0,000000000e+00    0,000000000e+00    0,000000000e+00
     1290000000    2,245554030e-01   -7,229760289e-02    1,709103771e-02    5,342005193e-02    0,000000000e+00    0,000000000e+00    0,000000000e+00    0,000000000e+00
     1304000000    1,544459164e-01   -2,427170426e-01    1,262495518e-01    6,913305074e-02    0,000000000e+00    0,000000000e+00    0,000000000e+00    0,000000000e+00
     1318000000    3,532197326e-02   -3,383150399e-01    1,323390603e-01   -1,617593169e-01    0,000000000e+00    0,000000000e+00    0,000000000e+00    0,000000000e+00
     1332000000   -1,332542300e-01   -4,363975525e-01   -5,011918023e-02   -4,125635326e-02    0,000000000e+00    0,000000000e+00    0,000000000e+00    0,000000000e+00
     1346000000   -3,946586549e-01   -4,095061123e-01    3,010280244e-02    6,933218986e-02    0,000000000e+00    0,000000000e+00    0,000000000e+00    0,000000000e+00
     1360000000   -6,124352217e-01   -1,867147386e-01    1,355761290e-01    8,201428503e-02    0,000000000e+00    0,000000000e+00    0,000000000e+00    0,000000000e+00
     1374000000   -6,311642528e-01    1,208123341e-01    2,075590938e-01   -5,836431868e-03    0,000000000e+00    0,000000000e+00    0,000000000e+00    0,000000000e+00
     1388000000   -4,664350152e-01    3,725297749e-01    2,146542370e-01   -6,716918200e-02    0,000000000e+00    0,000000000e+00    0,000000000e+00    0,000000000e+00
     1402000000   -2,371946722e-01    4,485288560e-01    1,869960576e-01   -9,246065468e-02    0,000000000e+00    0,000000000e+00    0,000000000e+00    0,000000000e+00
     1416000000   -2,295149304e-02    4,101364911e-01    1,749145389e-01   -1,107332185e-01    0,000000000e+00    0,000000000e+00    0,000000000e+00    0,000000000e+00
     1430000000    1,233907789e-01    3,087381423e-01    1,828932017e-01   -8,750423044e-02    0,000000000e+00    0,000000000e+00    0,000000000e+00    0,000000000e+00
     1444000000    2,110122889e-01    1,485660523e-01    1,572561860e-01   -1,055386364e-01    0,000000000e+00    0,000000000e+00    0,000000000e+00    0,000000000e+00
     1458000000    2,403389513e-01   -2,188317105e-02    1,498546749e-01   -7,818300277e-02    0,000000000e+00    0,000000000e+00    0,000000000e+00    0,000000000e+00
     1472000000    1,926626563e-01   -2,079022378e-01    1,391544789e-01   -4,401076213e-02    0,000000000e+00    0,000000000e+00    0,000000000e+00    0,000000000e+00
     1486000000    6,528306752e-02   -3,761731088e-01    1,811817139e-01    3,961426020e-02    0,000000000e+00    0,000000000e+00    0,000000000e+00    0,000000000e+00
     1500000000   -1,728803515e-01   -4,944771230e-01    2,541584969e-01    1,021111831e-01    0,000000000e+00    0,000000000e+00    0,000000000e+00    0,000000000e+00
