! NanoVNA-App
! Date: 2025-09-25 15:36:13
! Start: 100MHz Stop: 1,5GHz Points: 101
! S-Parameter data: F S11 S21 S12 S22
# Hz S RI R 50
!     Frequency           S11_Real           S11_Imag           S21_Real           S21_Imag           S12_Real           S12_Imag           S22_Real           S22_Imag
      100000000   -2,884184010e-02   -4,178112373e-03    3,740698099e-01   -7,217382193e-01    0,000000000e+00    0,000000000e+00    0,000000000e+00    0,000000000e+00
      114000000   -1,648282073e-02    1,148755942e-02   -8,917904645e-02   -8,054454923e-01    0,000000000e+00    0,000000000e+00    0,000000000e+00    0,000000000e+00
      128000000    3,557255724e-03    1,053082384e-02   -5,145086050e-01   -6,204060912e-01    0,000000000e+00    0,000000000e+00    0,000000000e+00    0,000000000e+00
      142000000    1,457143482e-02   -2,980391029e-03   -7,671120167e-01   -2,367613316e-01    0,000000000e+00    0,000000000e+00    0,000000000e+00    0,000000000e+00
      156000000    1,567547955e-02   -1,448394917e-02   -7,689957619e-01    2,237203121e-01    0,000000000e+00    0,000000000e+00    0,000000000e+00    0,000000000e+00
      170000000    1,669312827e-02   -2,247527242e-02   -5,179644823e-01    6,046267748e-01    0,000000000e+00    0,000000000e+00    0,000000000e+00    0,000000000e+00
      184000000    2,102816291e-02   -3,705508262e-02   -1,011705548e-01    7,858518362e-01    0,000000000e+00    0,000000000e+00    0,000000000e+00    0,000000000e+00
      198000000    1,308223605e-02   -6,249991432e-02    3,431256413e-01    7,122197747e-01    0,000000000e+00    0,000000000e+00    0,000000000e+00    0,000000000e+00
      212000000   -1,863243058e-02   -8,131954819e-02    6,783477664e-01    4,101601839e-01    0,000000000e+00    0,000000000e+00    0,000000000e+00    0,000000000e+00
      226000000   -6,170293689e-02   -6,922713667e-02    7,957835197e-01   -3,054996394e-02    0,000000000e+00    0,000000000e+00    0,000000000e+00    0,000000000e+00
      240000000   -8,261578530e-02   -2,557328716e-02    6,461012959e-01   -4,671565592e-01    0,000000000e+00    0,000000000e+00    0,000000000e+00    0,000000000e+00
      254000000   -6,348309666e-02    1,724600606e-02    2,760840356e-01   -7,433594465e-01    0,000000000e+00    0,000000000e+00    0,000000000e+00    0,000000000e+00
      268000000   -2,383972518e-02    2,886947058e-02   -1,785202473e-01   -7,643809915e-01    0,000000000e+00    0,000000000e+00    0,000000000e+00    0,000000000e+00
      282000000    4,129163921e-03    1,189657487e-02   -5,620762110e-01   -5,357813239e-01    0,000000000e+00    0,000000000e+00    0,000000000e+00    0,000000000e+00
      296000000    9,754853323e-03   -7,917903364e-03   -7,597737312e-01   -1,395175904e-01    0,000000000e+00    0,000000000e+00    0,000000000e+00    0,000000000e+00
      310000000    1,118301973e-02   -1,613525301e-02   -7,138255239e-01    2,987523675e-01    0,000000000e+00    0,000000000e+00    0,000000000e+00    0,000000000e+00
      324000000    1,991131343e-02   -2,645939589e-02   -4,266385138e-01    6,382161379e-01    0,000000000e+00    0,000000000e+00    0,000000000e+00    0,000000000e+00
      338000000    2,587015554e-02   -5,224514753e-02   -8,098879829e-03    7,629524469e-01    0,000000000e+00    0,000000000e+00    0,000000000e+00    0,000000000e+00
      352000000    7,628410123e-03   -8,481422067e-02    4,068038166e-01    6,392996311e-01    0,000000000e+00    0,000000000e+00    0,000000000e+00    0,000000000e+00
      366000000   -3,483178839e-02   -9,556086361e-02    6,903005242e-01    3,114290237e-01    0,000000000e+00    0,000000000e+00    0,000000000e+00    0,000000000e+00
      380000000   -7,062064856e-02   -7,140149176e-02    7,476557493e-01   -1,262385994e-01    0,000000000e+00    0,000000000e+00    0,000000000e+00    0,000000000e+00
      394000000   -7,226090133e-02   -3,234609962e-02    5,463982224e-01   -5,229980946e-01    0,000000000e+00    0,000000000e+00    0,000000000e+00    0,000000000e+00
      408000000   -4,639828205e-02   -1,608072408e-02    1,608565301e-01   -7,323846817e-01    0,000000000e+00    0,000000000e+00    0,000000000e+00    0,000000000e+00
      422000000   -2,847132087e-02   -3,196953610e-02   -2,681547105e-01   -6,948395371e-01    0,000000000e+00    0,000000000e+00    0,000000000e+00    0,000000000e+00
      436000000   -4,056921974e-02   -5,176772922e-02   -6,037961841e-01   -4,317307472e-01    0,000000000e+00    0,000000000e+00    0,000000000e+00    0,000000000e+00
      450000000   -6,756173819e-02   -4,363401607e-02   -7,408335805e-01   -2,096369863e-02    0,000000000e+00    0,000000000e+00    0,000000000e+00    0,000000000e+00
      464000000   -7,348833978e-02   -1,140800677e-02   -6,181390882e-01    3,975852728e-01    0,000000000e+00    0,000000000e+00    0,000000000e+00    0,000000000e+00
      478000000   -4,761935025e-02    1,158855390e-02   -2,820566297e-01    6,675903201e-01    0,000000000e+00    0,000000000e+00    0,000000000e+00    0,000000000e+00
      492000000   -1,576123387e-02    5,924523342e-03    1,382136196e-01    7,023402452e-01    0,000000000e+00    0,000000000e+00    0,000000000e+00    0,000000000e+00
      506000000   -2,616542624e-03   -1,564389095e-02    4,981779456e-01    5,029130578e-01    0,000000000e+00    0,000000000e+00    0,000000000e+00    0,000000000e+00
      520000000   -5,367300007e-03   -3,139840439e-02    6,887365580e-01    1,406455487e-01    0,000000000e+00    0,000000000e+00    0,000000000e+00    0,000000000e+00
      534000000   -3,734457539e-03   -3,812671453e-02    6,443691254e-01   -2,625812888e-01    0,000000000e+00    0,000000000e+00    0,000000000e+00    0,000000000e+00
      548000000    6,016842090e-03   -5,394386128e-02    3,806618750e-01   -5,673347116e-01    0,000000000e+00    0,000000000e+00    0,000000000e+00    0,000000000e+00
      562000000    3,339334391e-03   -8,905030042e-02    1,884268713e-03   -6,719248891e-01    0,000000000e+00    0,000000000e+00    0,000000000e+00    0,000000000e+00
      576000000   -3,421004862e-02   -1,242079660e-01   -3,690746129e-01   -5,572052002e-01    0,000000000e+00    0,000000000e+00    0,000000000e+00    0,000000000e+00
      590000000   -9,607075900e-02   -1,226271689e-01   -6,210374832e-01   -2,618850172e-01    0,000000000e+00    0,000000000e+00    0,000000000e+00    0,000000000e+00
      604000000   -1,393403113e-01   -7,170315832e-02   -6,649087071e-01    1,379040629e-01    0,000000000e+00    0,000000000e+00    0,000000000e+00    0,000000000e+00
      618000000   -1,300004572e-01   -8,967111818e-03   -4,641525745e-01    4,942784011e-01    0,000000000e+00    0,000000000e+00    0,000000000e+00    0,000000000e+00
      632000000   -8,365836740e-02    1,705924422e-02   -9,918305278e-02    6,646904945e-01    0,000000000e+00    0,000000000e+00    0,000000000e+00    0,000000000e+00
      646000000   -5,084402859e-02    7,521444059e-05    2,867082953e-01    5,947328806e-01    0,000000000e+00    0,000000000e+00    0,000000000e+00    0,000000000e+00
      660000000   -5,357557908e-02   -2,123999596e-02    5,672137737e-01    3,231846988e-01    0,000000000e+00    0,000000000e+00    0,000000000e+00    0,000000000e+00
      674000000   -6,972784549e-02   -1,782861352e-02    6,431928277e-01   -6,547901779e-02    0,000000000e+00    0,000000000e+00    0,000000000e+00    0,000000000e+00
      688000000   -6,783172488e-02    8,824285120e-03    4,715383351e-01   -4,282149076e-01    0,000000000e+00    0,000000000e+00    0,000000000e+00    0,000000000e+00
      702000000   -3,754902631e-02    2,586410195e-02    1,178308278e-01   -6,111422777e-01    0,000000000e+00    0,000000000e+00    0,000000000e+00    0,000000000e+00
      716000000    2,089505550e-03    1,830830052e-02   -2,655177712e-01   -5,467873216e-01    0,000000000e+00    0,000000000e+00    0,000000000e+00    0,000000000e+00
      730000000    3,738855571e-02   -1,146600675e-02   -5,287237763e-01   -2,690713704e-01    0,000000000e+00    0,000000000e+00    0,000000000e+00    0,000000000e+00
      744000000    6,573975086e-02   -6,248734891e-02   -5,643324852e-01    1,067857072e-01    0,000000000e+00    0,000000000e+00    0,000000000e+00    0,000000000e+00
      758000000    6,686940789e-02   -1,520902961e-01   -3,635903597e-01    4,113020003e-01    0,000000000e+00    0,000000000e+00    0,000000000e+00    0,000000000e+00
      772000000   -1,268726587e-02   -2,622470260e-01   -3,525635973e-02    5,151798129e-01    0,000000000e+00    0,000000000e+00    0,000000000e+00    0,000000000e+00
      786000000   -2,066860646e-01   -3,019499779e-01    2,748942375e-01    3,955098391e-01    0,000000000e+00    0,000000000e+00    0,000000000e+00    0,000000000e+00
      800000000   -4,262895584e-01   -1,302594244e-01    4,183393717e-01    9,899729490e-02    0,000000000e+00    0,000000000e+00    0,000000000e+00    0,000000000e+00
      814000000   -3,903114200e-01    2,215049267e-01    2,823435664e-01   -1,734344959e-01    0,000000000e+00    0,000000000e+00    0,000000000e+00    0,000000000e+00
      828000000   -4,940385744e-02    3,680782020e-01    5,503408983e-02   -1,894308776e-01    0,000000000e+00    0,000000000e+00    0,000000000e+00    0,000000000e+00
      842000000    2,349631190e-01    1,863016635e-01   -1,715686917e-02   -7,105247676e-02    0,000000000e+00    0,000000000e+00    0,000000000e+00    0,000000000e+00
      856000000    2,807660103e-01   -1,243422702e-01    4,526606947e-02   -1,342143212e-02    0,000000000e+00    0,000000000e+00    0,000000000e+00    0,000000000e+00
      870000000    7,435917109e-02   -3,762512803e-01    1,131039187e-01   -9,106492996e-02    0,000000000e+00    0,000000000e+00    0,000000000e+00    0,000000000e+00
      884000000   -2,957032621e-01   -3,614780009e-01    2,838710696e-02   -2,455561608e-01    0,000000000e+00    0,000000000e+00    0,000000000e+00    0,000000000e+00
      898000000   -4,722101986e-01    9,132192470e-03   -2,224399000e-01   -2,268314213e-01    0,000000000e+00    0,000000000e+00    0,000000000e+00    0,000000000e+00
      912000000   -2,251971215e-01    2,946949601e-01   -3,417416513e-01    7,687740028e-02    0,000000000e+00    0,000000000e+00    0,000000000e+00    0,000000000e+00
      926000000    6,717824936e-02    2,642495334e-01   -2,141033560e-01    2,658790648e-01    0,000000000e+00    0,000000000e+00    0,000000000e+00    0,000000000e+00
      940000000    2,145972252e-01    8,089320362e-02   -3,697837517e-02    3,293980360e-01    0,000000000e+00    0,000000000e+00    0,000000000e+00    0,000000000e+00
      954000000    2,203310430e-01   -1,269207448e-01    1,304109246e-01    3,062145114e-01    0,000000000e+00    0,000000000e+00    0,000000000e+00    0,000000000e+00
      968000000    1,150975972e-01   -3,034898341e-01    2,708014846e-01    2,178933918e-01    0,000000000e+00    0,000000000e+00    0,000000000e+00    0,000000000e+00
      982000000   -8,009605855e-02   -3,902281523e-01    3,668378294e-01    6,531226635e-02    0,000000000e+00    0,000000000e+00    0,000000000e+00    0,000000000e+00
      996000000   -3,180596828e-01   -3,286384642e-01    3,691546321e-01   -1,465183645e-01    0,000000000e+00    0,000000000e+00    0,000000000e+00    0,000000000e+00
     1010000000   -4,656600356e-01   -1,121110469e-01    2,238965034e-01   -3,415731788e-01    0,000000000e+00    0,000000000e+00    0,000000000e+00    0,000000000e+00
     1024000000   -4,155088961e-01    1,451516896e-01   -3,303403407e-02   -3,922041655e-01    0,000000000e+00    0,000000000e+00    0,000000000e+00    0,000000000e+00
     1038000000   -2,187576890e-01    2,945871055e-01   -2,485934347e-01   -2,616329789e-01    0,000000000e+00    0,000000000e+00    0,000000000e+00    0,000000000e+00
     1052000000   -4,803039134e-03    2,773974538e-01   -3,182767928e-01   -4,484252259e-02    0,000000000e+00    0,000000000e+00    0,000000000e+00    0,000000000e+00
     1066000000    1,391554922e-01    1,644985825e-01   -2,560128272e-01    1,442242414e-01    0,000000000e+00    0,000000000e+00    0,000000000e+00    0,000000000e+00
     1080000000    1,951678544e-01    1,094971783e-03   -1,176753715e-01    2,631121874e-01    0,000000000e+00    0,000000000e+00    0,000000000e+00    0,000000000e+00
     1094000000    1,563390195e-01   -1,784969717e-01    6,292723119e-02    3,057078123e-01    0,000000000e+00    0,000000000e+00    0,000000000e+00    0,000000000e+00
     1108000000    1,077515772e-03   -3,044896126e-01    2,758459747e-01    2,479888946e-01    0,000000000e+00    0,000000000e+00    0,000000000e+00    0,000000000e+00
     1122000000   -2,529325187e-01   -2,656874955e-01    4,699520767e-01    1,160706673e-02    0,000000000e+00    0,000000000e+00    0,000000000e+00    0,000000000e+00
     1136000000   -3,157342970e-01    3,610980511e-02    3,980385959e-01   -3,911441863e-01    0,000000000e+00    0,000000000e+00    0,000000000e+00    0,000000000e+00
     1150000000   -4,244131595e-02    1,529693604e-01    3,192046424e-03   -5,425519347e-01    0,000000000e+00    0,000000000e+00    0,000000000e+00    0,000000000e+00
     1164000000    1,265919507e-01   -6,184512004e-02   -2,781091034e-01   -3,764435649e-01    0,000000000e+00    0,000000000e+00    0,000000000e+00    0,000000000e+00
     1178000000    1,765919849e-02   -3,042714298e-01   -3,689541519e-01   -1,509452909e-01    0,000000000e+00    0,000000000e+00    0,000000000e+00    0,000000000e+00
     1192000000   -2,678969204e-01   -3,731861115e-01   -3,249872029e-01    5,616763979e-02    0,000000000e+00    0,000000000e+00    0,000000000e+00    0,000000000e+00
     1206000000   -5,247711539e-01   -1,587066948e-01   -1,650669575e-01    1,787826121e-01    0,000000000e+00    0,000000000e+00    0,000000000e+00    0,000000000e+00
     1220000000   -5,105672479e-01    1,691485196e-01    3,805948421e-03    1,577271372e-01    0,000000000e+00    0,000000000e+00    0,000000000e+00    0,000000000e+00
     1234000000   -2,842290103e-01    3,669144213e-01    6,850787997e-02    6,247487664e-02    0,000000000e+00    0,000000000e+00    0,000000000e+00    0,000000000e+00
     1248000000   -5,017866567e-02    3,651348650e-01    5,103194341e-02   -5,264449865e-03    0,000000000e+00    0,000000000e+00    0,000000000e+00    0,000000000e+00
     1262000000    1,173784360e-01    2,543818057e-01    1,489377394e-02   -2,466398664e-02    0,000000000e+00    0,000000000e+00    0,000000000e+00    0,000000000e+00
     1276000000    2,110497355e-01    9,963601828e-02    1,938878675e-03    6,421828177e-03    0,000000000e+00    0,000000000e+00    0,000000000e+00    0,000000000e+00
     1290000000    2,257257104e-01   -7,540256530e-02    2,086641453e-02    5,160304904e-02    0,000000000e+00    0,000000000e+00    0,000000000e+00    0,000000000e+00
     1304000000    1,575775594e-01   -2,374143898e-01    1,335326731e-01    7,200314850e-02    0,000000000e+00    0,000000000e+00    0,000000000e+00    0,000000000e+00
     1318000000    3,599140421e-02   -3,376470804e-01    1,279831976e-01   -1,695524007e-01    0,000000000e+00    0,000000000e+00    0,000000000e+00    0,000000000e+00
     1332000000   -1,304302365e-01   -4,379802346e-01   -5,193984509e-02   -4,499794170e-02    0,000000000e+00    0,000000000e+00    0,000000000e+00    0,000000000e+00
     1346000000   -3,905234039e-01   -4,013405740e-01    2,475452982e-02    7,794743031e-02    0,000000000e+00    0,000000000e+00    0,000000000e+00    0,000000000e+00
     1360000000   -6,112429500e-01   -1,940745115e-01    1,381414086e-01    6,073176861e-02    0,000000000e+00    0,000000000e+00    0,000000000e+00    0,000000000e+00
     1374000000   -6,355034113e-01    1,312118620e-01    2,013833374e-01    9,799644351e-03    0,000000000e+00    0,000000000e+00    0,000000000e+00    0,000000000e+00
     1388000000   -4,728616774e-01    3,638370633e-01    2,035474181e-01   -6,888389587e-02    0,000000000e+00    0,000000000e+00    0,000000000e+00    0,000000000e+00
     1402000000   -2,326539755e-01    4,515772164e-01    1,928378344e-01   -9,265723079e-02    0,000000000e+00    0,000000000e+00    0,000000000e+00    0,000000000e+00
     1416000000   -2,316925488e-02    4,103468359e-01    1,780625135e-01   -1,057030186e-01    0,000000000e+00    0,000000000e+00    0,000000000e+00    0,000000000e+00
     1430000000    1,227323040e-01    2,988929749e-01    1,614928842e-01   -1,380363703e-01    0,000000000e+00    0,000000000e+00    0,000000000e+00    0,000000000e+00
     1444000000    2,045274228e-01    1,536802649e-01    1,537063569e-01   -9,112329781e-02    0,000000000e+00    0,000000000e+00    0,000000000e+00    0,000000000e+00
     1458000000    2,363103926e-01   -2,135594375e-02    1,523645371e-01   -7,214937359e-02    0,000000000e+00    0,000000000e+00    0,000000000e+00    0,000000000e+00
     1472000000    1,892186552e-01   -2,040618956e-01    1,357854605e-01   -3,784308210e-02    0,000000000e+00    0,000000000e+00    0,000000000e+00    0,000000000e+00
     1486000000    6,030527130e-02   -3,763990402e-01    1,822228581e-01    2,703410946e-02    0,000000000e+00    0,000000000e+00    0,000000000e+00    0,000000000e+00
     1500000000   -1,628913879e-01   -4,939822853e-01    2,608553469e-01    1,007665768e-01    0,000000000e+00    0,000000000e+00    0,000000000e+00    0,000000000e+00
