! NanoVNA-App
! Date: 2025-09-25 15:32:00
! Start: 100MHz Stop: 1,5GHz Points: 101
! S-Parameter data: F S11 S21 S12 S22
# Hz S RI R 50
!     Frequency           S11_Real           S11_Imag           S21_Real           S21_Imag           S12_Real           S12_Imag           S22_Real           S22_Imag
      100000000   -2,887338772e-02   -4,173790105e-03    3,741180301e-01   -7,217369080e-01    0,000000000e+00    0,000000000e+00    0,000000000e+00    0,000000000e+00
      114000000   -1,652713120e-02    1,153301168e-02   -8,908361942e-02   -8,053780794e-01    0,000000000e+00    0,000000000e+00    0,000000000e+00    0,000000000e+00
      128000000    3,453508718e-03    1,049603336e-02   -5,145772099e-01   -6,203322411e-01    0,000000000e+00    0,000000000e+00    0,000000000e+00    0,000000000e+00
      142000000    1,454757713e-02   -2,946336754e-03   -7,670080662e-01   -2,365694493e-01    0,000000000e+00    0,000000000e+00    0,000000000e+00    0,000000000e+00
      156000000    1,562127564e-02   -1,454159711e-02   -7,689511180e-01    2,236530334e-01    0,000000000e+00    0,000000000e+00    0,000000000e+00    0,000000000e+00
      170000000    1,667595282e-02   -2,255522646e-02   -5,178909302e-01    6,045047641e-01    0,000000000e+00    0,000000000e+00    0,000000000e+00    0,000000000e+00
      184000000    2,097942121e-02   -3,706305474e-02   -1,014176607e-01    7,859101295e-01    0,000000000e+00    0,000000000e+00    0,000000000e+00    0,000000000e+00
      198000000    1,309055090e-02   -6,253427267e-02    3,431721628e-01    7,121115923e-01    0,000000000e+00    0,000000000e+00    0,000000000e+00    0,000000000e+00
      212000000   -1,867782138e-02   -8,133965731e-02    6,781772375e-01    4,099847972e-01    0,000000000e+00    0,000000000e+00    0,000000000e+00    0,000000000e+00
      226000000   -6,171535328e-02   -6,913348287e-02    7,958338261e-01   -3,054958023e-02    0,000000000e+00    0,000000000e+00    0,000000000e+00    0,000000000e+00
      240000000   -8,256860077e-02   -2,562041022e-02    6,459990740e-01   -4,670124650e-01    0,000000000e+00    0,000000000e+00    0,000000000e+00    0,000000000e+00
      254000000   -6,350324303e-02    1,726672426e-02    2,761500776e-01   -7,435016036e-01    0,000000000e+00    0,000000000e+00    0,000000000e+00    0,000000000e+00
      268000000   -2,392266877e-02    2,888844162e-02   -1,781719327e-01   -7,642023563e-01    0,000000000e+00    0,000000000e+00    0,000000000e+00    0,000000000e+00
      282000000    4,179866519e-03    1,188737806e-02   -5,617792606e-01   -5,357384682e-01    0,000000000e+00    0,000000000e+00    0,000000000e+00    0,000000000e+00
      296000000    9,837307967e-03   -7,854826748e-03   -7,598759532e-01   -1,396483630e-01    0,000000000e+00    0,000000000e+00    0,000000000e+00    0,000000000e+00
      310000000    1,108723041e-02   -1,618181728e-02   -7,116432786e-01    2,977946997e-01    0,000000000e+00    0,000000000e+00    0,000000000e+00    0,000000000e+00
      324000000    1,954786666e-02   -2,656499855e-02   -4,270186424e-01    6,385146379e-01    0,000000000e+00    0,000000000e+00    0,000000000e+00    0,000000000e+00
      338000000    2,523130178e-02   -5,214823410e-02   -7,005413063e-03    7,620227933e-01    0,000000000e+00    0,000000000e+00    0,000000000e+00    0,000000000e+00
      352000000    7,293893024e-03   -8,488960564e-02    4,059407115e-01    6,391351819e-01    0,000000000e+00    0,000000000e+00    0,000000000e+00    0,000000000e+00
      366000000   -3,452192247e-02   -9,566100687e-02    6,901997328e-01    3,110632300e-01    0,000000000e+00    0,000000000e+00    0,000000000e+00    0,000000000e+00
      380000000   -7,072848082e-02   -7,127737254e-02    7,472382188e-01   -1,256974488e-01    0,000000000e+00    0,000000000e+00    0,000000000e+00    0,000000000e+00
      394000000   -7,279787213e-02   -3,241712973e-02    5,467345715e-01   -5,211226344e-01    0,000000000e+00    0,000000000e+00    0,000000000e+00    0,000000000e+00
      408000000   -4,646463692e-02   -1,612000167e-02    1,614181995e-01   -7,317541838e-01    0,000000000e+00    0,000000000e+00    0,000000000e+00    0,000000000e+00
      422000000   -2,843361907e-02   -3,215185925e-02   -2,676557004e-01   -6,956549883e-01    0,000000000e+00    0,000000000e+00    0,000000000e+00    0,000000000e+00
      436000000   -4,059142619e-02   -5,191691220e-02   -6,038703322e-01   -4,320100546e-01    0,000000000e+00    0,000000000e+00    0,000000000e+00    0,000000000e+00
      450000000   -6,723841280e-02   -4,391782731e-02   -7,405068874e-01   -2,116308361e-02    0,000000000e+00    0,000000000e+00    0,000000000e+00    0,000000000e+00
      464000000   -7,332080603e-02   -1,140283793e-02   -6,185404658e-01    3,982652426e-01    0,000000000e+00    0,000000000e+00    0,000000000e+00    0,000000000e+00
      478000000   -4,804642126e-02    1,160536893e-02   -2,826608419e-01    6,681904793e-01    0,000000000e+00    0,000000000e+00    0,000000000e+00    0,000000000e+00
      492000000   -1,579053700e-02    5,899513140e-03    1,379273981e-01    7,014093995e-01    0,000000000e+00    0,000000000e+00    0,000000000e+00    0,000000000e+00
      506000000   -2,619780600e-03   -1,600035653e-02    4,987578988e-01    5,021303892e-01    0,000000000e+00    0,000000000e+00    0,000000000e+00    0,000000000e+00
      520000000   -4,928752780e-03   -3,204885498e-02    6,902143955e-01    1,411453933e-01    0,000000000e+00    0,000000000e+00    0,000000000e+00    0,000000000e+00
      534000000   -3,766169539e-03   -3,804978356e-02    6,443140507e-01   -2,624700367e-01    0,000000000e+00    0,000000000e+00    0,000000000e+00    0,000000000e+00
      548000000    5,971811246e-03   -5,412267521e-02    3,813398480e-01   -5,681110024e-01    0,000000000e+00    0,000000000e+00    0,000000000e+00    0,000000000e+00
      562000000    3,260189900e-03   -8,933723718e-02    2,144644735e-03   -6,719902158e-01    0,000000000e+00    0,000000000e+00    0,000000000e+00    0,000000000e+00
      576000000   -3,370304033e-02   -1,245545074e-01   -3,687961698e-01   -5,575197935e-01    0,000000000e+00    0,000000000e+00    0,000000000e+00    0,000000000e+00
      590000000   -9,646479785e-02   -1,226199418e-01   -6,227740049e-01   -2,625479400e-01    0,000000000e+00    0,000000000e+00    0,000000000e+00    0,000000000e+00
      604000000   -1,398655027e-01   -7,187941670e-02   -6,655314565e-01    1,378607303e-01    0,000000000e+00    0,000000000e+00    0,000000000e+00    0,000000000e+00
      618000000   -1,293793768e-01   -9,390234016e-03   -4,642800093e-01    4,941062629e-01    0,000000000e+00    0,000000000e+00    0,000000000e+00    0,000000000e+00
      632000000   -8,342912048e-02    1,662650891e-02   -9,902855754e-02    6,643802524e-01    0,000000000e+00    0,000000000e+00    0,000000000e+00    0,000000000e+00
      646000000   -5,154156312e-02    3,760314939e-05    2,868747413e-01    5,957213044e-01    0,000000000e+00    0,000000000e+00    0,000000000e+00    0,000000000e+00
      660000000   -5,331603810e-02   -2,204639465e-02    5,682860613e-01    3,235103190e-01    0,000000000e+00    0,000000000e+00    0,000000000e+00    0,000000000e+00
      674000000   -7,106270641e-02   -1,746788062e-02    6,430428028e-01   -6,543591619e-02    0,000000000e+00    0,000000000e+00    0,000000000e+00    0,000000000e+00
      688000000   -6,863550097e-02    8,225867525e-03    4,714021087e-01   -4,279563725e-01    0,000000000e+00    0,000000000e+00    0,000000000e+00    0,000000000e+00
      702000000   -3,681349009e-02    2,606097795e-02    1,194180697e-01   -6,119752526e-01    0,000000000e+00    0,000000000e+00    0,000000000e+00    0,000000000e+00
      716000000    1,686640782e-03    1,823202148e-02   -2,647847533e-01   -5,463107228e-01    0,000000000e+00    0,000000000e+00    0,000000000e+00    0,000000000e+00
      730000000    3,732271120e-02   -1,044425275e-02   -5,288287401e-01   -2,690808475e-01    0,000000000e+00    0,000000000e+00    0,000000000e+00    0,000000000e+00
      744000000    6,469791383e-02   -6,170703098e-02   -5,645051003e-01    1,064144745e-01    0,000000000e+00    0,000000000e+00    0,000000000e+00    0,000000000e+00
      758000000    6,609480083e-02   -1,516761780e-01   -3,632170558e-01    4,104510248e-01    0,000000000e+00    0,000000000e+00    0,000000000e+00    0,000000000e+00
      772000000   -1,322371326e-02   -2,628783584e-01   -3,428199887e-02    5,160787702e-01    0,000000000e+00    0,000000000e+00    0,000000000e+00    0,000000000e+00
      786000000   -2,061046064e-01   -3,021288812e-01    2,752353847e-01    3,955097198e-01    0,000000000e+00    0,000000000e+00    0,000000000e+00    0,000000000e+00
      800000000   -4,260589182e-01   -1,294212639e-01    4,173295498e-01    9,911338240e-02    0,000000000e+00    0,000000000e+00    0,000000000e+00    0,000000000e+00
      814000000   -3,886994123e-01    2,213531882e-01    2,819105983e-01   -1,731932014e-01    0,000000000e+00    0,000000000e+00    0,000000000e+00    0,000000000e+00
      828000000   -4,916283116e-02    3,683228493e-01    5,539068580e-02   -1,890293807e-01    0,000000000e+00    0,000000000e+00    0,000000000e+00    0,000000000e+00
      842000000    2,349618971e-01    1,857858151e-01   -1,758500375e-02   -7,043695450e-02    0,000000000e+00    0,000000000e+00    0,000000000e+00    0,000000000e+00
      856000000    2,807007134e-01   -1,244582012e-01    4,531612992e-02   -1,314302068e-02    0,000000000e+00    0,000000000e+00    0,000000000e+00    0,000000000e+00
      870000000    7,489381731e-02   -3,759078085e-01    1,135751978e-01   -9,083071351e-02    0,000000000e+00    0,000000000e+00    0,000000000e+00    0,000000000e+00
      884000000   -2,963871062e-01   -3,622650504e-01    2,888315916e-02   -2,463145852e-01    0,000000000e+00    0,000000000e+00    0,000000000e+00    0,000000000e+00
      898000000   -4,717877209e-01    9,701224975e-03   -2,226735353e-01   -2,267268300e-01    0,000000000e+00    0,000000000e+00    0,000000000e+00    0,000000000e+00
      912000000   -2,250812501e-01    2,942190170e-01   -3,525491953e-01    7,153917104e-02    0,000000000e+00    0,000000000e+00    0,000000000e+00    0,000000000e+00
      926000000    6,948410720e-02    2,644493878e-01   -2,165751904e-01    2,643323839e-01    0,000000000e+00    0,000000000e+00    0,000000000e+00    0,000000000e+00
      940000000    2,147693634e-01    7,864604890e-02   -3,725085407e-02    3,290091455e-01    0,000000000e+00    0,000000000e+00    0,000000000e+00    0,000000000e+00
      954000000    2,247765958e-01   -1,284448951e-01    1,306107193e-01    3,073551357e-01    0,000000000e+00    0,000000000e+00    0,000000000e+00    0,000000000e+00
      968000000    1,177507043e-01   -2,990799248e-01    2,712942660e-01    2,193100750e-01    0,000000000e+00    0,000000000e+00    0,000000000e+00    0,000000000e+00
      982000000   -8,297954500e-02   -3,841689825e-01    3,654206991e-01    6,411277503e-02    0,000000000e+00    0,000000000e+00    0,000000000e+00    0,000000000e+00
      996000000   -3,197597265e-01   -3,295174837e-01    3,673207164e-01   -1,461115330e-01    0,000000000e+00    0,000000000e+00    0,000000000e+00    0,000000000e+00
     1010000000   -4,614754319e-01   -1,081689596e-01    2,216991037e-01   -3,421158195e-01    0,000000000e+00    0,000000000e+00    0,000000000e+00    0,000000000e+00
     1024000000   -4,172653258e-01    1,527944207e-01   -3,368500993e-02   -3,938267231e-01    0,000000000e+00    0,000000000e+00    0,000000000e+00    0,000000000e+00
     1038000000   -2,207564116e-01    2,919771671e-01   -2,472444624e-01   -2,602739930e-01    0,000000000e+00    0,000000000e+00    0,000000000e+00    0,000000000e+00
     1052000000   -1,054588985e-02    2,776849568e-01   -3,162323236e-01   -4,636719078e-02    0,000000000e+00    0,000000000e+00    0,000000000e+00    0,000000000e+00
     1066000000    1,376550794e-01    1,614946723e-01   -2,570655644e-01    1,434215307e-01    0,000000000e+00    0,000000000e+00    0,000000000e+00    0,000000000e+00
     1080000000    1,931703985e-01   -4,073715536e-04   -1,170462891e-01    2,631412446e-01    0,000000000e+00    0,000000000e+00    0,000000000e+00    0,000000000e+00
     1094000000    1,532028913e-01   -1,766528934e-01    6,438759714e-02    3,063680530e-01    0,000000000e+00    0,000000000e+00    0,000000000e+00    0,000000000e+00
     1108000000   -3,388934303e-03   -3,021952212e-01    2,779871821e-01    2,478520274e-01    0,000000000e+00    0,000000000e+00    0,000000000e+00    0,000000000e+00
     1122000000   -2,449563593e-01   -2,626684010e-01    4,709521830e-01    1,270292047e-02    0,000000000e+00    0,000000000e+00    0,000000000e+00    0,000000000e+00
     1136000000   -3,154591322e-01    3,535238281e-02    3,986378610e-01   -3,912558556e-01    0,000000000e+00    0,000000000e+00    0,000000000e+00    0,000000000e+00
     1150000000   -3,667015955e-02    1,496122628e-01    5,211797543e-03   -5,408179164e-01    0,000000000e+00    0,000000000e+00    0,000000000e+00    0,000000000e+00
     1164000000    1,259868443e-01   -6,265487522e-02   -2,767341733e-01   -3,764217794e-01    0,000000000e+00    0,000000000e+00    0,000000000e+00    0,000000000e+00
     1178000000    1,597332582e-02   -3,057259917e-01   -3,699447811e-01   -1,509601921e-01    0,000000000e+00    0,000000000e+00    0,000000000e+00    0,000000000e+00
     1192000000   -2,637740672e-01   -3,721552491e-01   -3,224542141e-01    5,719821528e-02    0,000000000e+00    0,000000000e+00    0,000000000e+00    0,000000000e+00
     1206000000   -5,254893303e-01   -1,605820060e-01   -1,672176719e-01    1,804392785e-01    0,000000000e+00    0,000000000e+00    0,000000000e+00    0,000000000e+00
     1220000000   -5,083379149e-01    1,788842529e-01    3,239668673e-03    1,602696627e-01    0,000000000e+00    0,000000000e+00    0,000000000e+00    0,000000000e+00
     1234000000   -2,876627743e-01    3,670905530e-01    6,862490624e-02    6,178988516e-02    0,000000000e+00    0,000000000e+00    0,000000000e+00    0,000000000e+00
     1248000000   -4,039315134e-02    3,666810989e-01    5,564061552e-02   -7,299833465e-03    0,000000000e+00    0,000000000e+00    0,000000000e+00    0,000000000e+00
     1262000000    1,210005581e-01    2,604680359e-01    1,752608642e-02   -1,968118176e-02    0,000000000e+00    0,000000000e+00    0,000000000e+00    0,000000000e+00
     1276000000    2,124629319e-01    1,002979726e-01   -1,125888783e-03    6,342441309e-03    0,000000000e+00    0,000000000e+00    0,000000000e+00    0,000000000e+00
     1290000000    2,235228121e-01   -7,254029065e-02    2,001053467e-02    5,349344015e-02    0,000000000e+00    0,000000000e+00    0,000000000e+00    0,000000000e+00
     1304000000    1,577590555e-01   -2,402891666e-01    1,382620931e-01    6,433358788e-02    0,000000000e+00    0,000000000e+00    0,000000000e+00    0,000000000e+00
     1318000000    3,424580023e-02   -3,372465670e-01    1,276700348e-01   -1,682128757e-01    0,000000000e+00    0,000000000e+00    0,000000000e+00    0,000000000e+00
     1332000000   -1,298027784e-01   -4,358904064e-01   -4,866770655e-02   -4,420502484e-02    0,000000000e+00    0,000000000e+00    0,000000000e+00    0,000000000e+00
     1346000000   -3,929988742e-01   -4,096804857e-01    3,271500021e-02    6,219304726e-02    0,000000000e+00    0,000000000e+00    0,000000000e+00    0,000000000e+00
     1360000000   -6,051237583e-01   -1,878352165e-01    1,455973685e-01    7,050359994e-02    0,000000000e+00    0,000000000e+00    0,000000000e+00    0,000000000e+00
     1374000000   -6,363431215e-01    1,299367100e-01    2,134393007e-01    1,391166821e-02    0,000000000e+00    0,000000000e+00    0,000000000e+00    0,000000000e+00
     1388000000   -4,697386920e-01    3,698767722e-01    1,955608130e-01   -5,886296183e-02    0,000000000e+00    0,000000000e+00    0,000000000e+00    0,000000000e+00
     1402000000   -2,342861593e-01    4,550386965e-01    1,944565773e-01   -1,009172946e-01    0,000000000e+00    0,000000000e+00    0,000000000e+00    0,000000000e+00
     1416000000   -2,495273016e-02    4,123121202e-01    1,711405367e-01   -1,041245908e-01    0,000000000e+00    0,000000000e+00    0,000000000e+00    0,000000000e+00
     1430000000    1,229609326e-01    2,985312045e-01    1,863784492e-01   -1,204228699e-01    0,000000000e+00    0,000000000e+00    0,000000000e+00    0,000000000e+00
     1444000000    2,099407166e-01    1,530930847e-01    1,505208910e-01   -9,754171222e-02    0,000000000e+00    0,000000000e+00    0,000000000e+00    0,000000000e+00
     1458000000    2,367210835e-01   -2,162207104e-02    1,482556164e-01   -6,650727987e-02    0,000000000e+00    0,000000000e+00    0,000000000e+00    0,000000000e+00
     1472000000    1,890476942e-01   -1,962051094e-01    1,407992542e-01   -2,799928375e-02    0,000000000e+00    0,000000000e+00    0,000000000e+00    0,000000000e+00
     1486000000    6,901878864e-02   -3,745112717e-01    1,891846210e-01    4,088331014e-02    0,000000000e+00    0,000000000e+00    0,000000000e+00    0,000000000e+00
     1500000000   -1,723694801e-01   -5,040243864e-01    2,416915596e-01    8,656986058e-02    0,000000000e+00    0,000000000e+00    0,000000000e+00    0,000000000e+00
