! NanoVNA-App
! Date: 2025-09-25 15:35:41
! Start: 100MHz Stop: 1,5GHz Points: 101
! S-Parameter data: F S11 S21 S12 S22
# Hz S RI R 50
!     Frequency           S11_Real           S11_Imag           S21_Real           S21_Imag           S12_Real           S12_Imag           S22_Real           S22_Imag
      100000000   -2,884430997e-02   -4,174159840e-03    3,741083443e-01   -7,218406796e-01    0,000000000e+00    0,000000000e+00    0,000000000e+00    0,000000000e+00
      114000000   -1,646956988e-02    1,152890269e-02   -8,917916566e-02   -8,054366708e-01    0,000000000e+00    0,000000000e+00    0,000000000e+00    0,000000000e+00
      128000000    3,454993945e-03    1,050713658e-02   -5,145475268e-01   -6,203742623e-01    0,000000000e+00    0,000000000e+00    0,000000000e+00    0,000000000e+00
      142000000    1,458788477e-02   -2,964900341e-03   -7,671317458e-01   -2,366108745e-01    0,000000000e+00    0,000000000e+00    0,000000000e+00    0,000000000e+00
      156000000    1,542921830e-02   -1,497542113e-02   -7,713539004e-01    2,218464911e-01    0,000000000e+00    0,000000000e+00    0,000000000e+00    0,000000000e+00
      170000000    1,667571999e-02   -2,259501070e-02   -5,180149674e-01    6,046250463e-01    0,000000000e+00    0,000000000e+00    0,000000000e+00    0,000000000e+00
      184000000    2,102180198e-02   -3,706295043e-02   -1,015529037e-01    7,860302329e-01    0,000000000e+00    0,000000000e+00    0,000000000e+00    0,000000000e+00
      198000000    1,306295767e-02   -6,242300570e-02    3,434934318e-01    7,124461532e-01    0,000000000e+00    0,000000000e+00    0,000000000e+00    0,000000000e+00
      212000000   -1,863435842e-02   -8,131916076e-02    6,781775951e-01    4,100548625e-01    0,000000000e+00    0,000000000e+00    0,000000000e+00    0,000000000e+00
      226000000   -6,171242520e-02   -6,921210885e-02    7,958036065e-01   -3,058740869e-02    0,000000000e+00    0,000000000e+00    0,000000000e+00    0,000000000e+00
      240000000   -8,256284148e-02   -2,562933601e-02    6,458173990e-01   -4,666063786e-01    0,000000000e+00    0,000000000e+00    0,000000000e+00    0,000000000e+00
      254000000   -6,346646696e-02    1,721793972e-02    2,757087946e-01   -7,434236407e-01    0,000000000e+00    0,000000000e+00    0,000000000e+00    0,000000000e+00
      268000000   -2,392934635e-02    2,886187471e-02   -1,782338321e-01   -7,640566826e-01    0,000000000e+00    0,000000000e+00    0,000000000e+00    0,000000000e+00
      282000000    4,189107567e-03    1,196119934e-02   -5,618135333e-01   -5,356085300e-01    0,000000000e+00    0,000000000e+00    0,000000000e+00    0,000000000e+00
      296000000    9,749954566e-03   -7,809330244e-03   -7,598850131e-01   -1,397588849e-01    0,000000000e+00    0,000000000e+00    0,000000000e+00    0,000000000e+00
      310000000    1,110153180e-02   -1,623342559e-02   -7,129516006e-01    2,974939644e-01    0,000000000e+00    0,000000000e+00    0,000000000e+00    0,000000000e+00
      324000000    1,960878633e-02   -2,652030438e-02   -4,275862277e-01    6,370536089e-01    0,000000000e+00    0,000000000e+00    0,000000000e+00    0,000000000e+00
      338000000    2,549692616e-02   -5,194512755e-02   -7,017284166e-03    7,616743445e-01    0,000000000e+00    0,000000000e+00    0,000000000e+00    0,000000000e+00
      352000000    7,228231989e-03   -8,479499072e-02    4,056835175e-01    6,394357681e-01    0,000000000e+00    0,000000000e+00    0,000000000e+00    0,000000000e+00
      366000000   -3,487459943e-02   -9,541532397e-02    6,906405687e-01    3,110768795e-01    0,000000000e+00    0,000000000e+00    0,000000000e+00    0,000000000e+00
      380000000   -7,077568769e-02   -7,123683393e-02    7,471877337e-01   -1,259466261e-01    0,000000000e+00    0,000000000e+00    0,000000000e+00    0,000000000e+00
      394000000   -7,264817506e-02   -3,225281835e-02    5,459847450e-01   -5,217549801e-01    0,000000000e+00    0,000000000e+00    0,000000000e+00    0,000000000e+00
      408000000   -4,644143581e-02   -1,626772992e-02    1,626870930e-01   -7,332944870e-01    0,000000000e+00    0,000000000e+00    0,000000000e+00    0,000000000e+00
      422000000   -2,841727622e-02   -3,221034631e-02   -2,684064209e-01   -6,953307986e-01    0,000000000e+00    0,000000000e+00    0,000000000e+00    0,000000000e+00
      436000000   -4,065873846e-02   -5,165588111e-02   -6,039715409e-01   -4,322440922e-01    0,000000000e+00    0,000000000e+00    0,000000000e+00    0,000000000e+00
      450000000   -6,770787388e-02   -4,397489876e-02   -7,405200005e-01   -2,105773613e-02    0,000000000e+00    0,000000000e+00    0,000000000e+00    0,000000000e+00
      464000000   -7,327423990e-02   -1,159807481e-02   -6,185852289e-01    3,974724114e-01    0,000000000e+00    0,000000000e+00    0,000000000e+00    0,000000000e+00
      478000000   -4,784781858e-02    1,191175077e-02   -2,820883393e-01    6,685274839e-01    0,000000000e+00    0,000000000e+00    0,000000000e+00    0,000000000e+00
      492000000   -1,588319428e-02    5,946320482e-03    1,372884810e-01    7,012896538e-01    0,000000000e+00    0,000000000e+00    0,000000000e+00    0,000000000e+00
      506000000   -2,669571666e-03   -1,590450108e-02    4,985564649e-01    5,023744106e-01    0,000000000e+00    0,000000000e+00    0,000000000e+00    0,000000000e+00
      520000000   -5,178117193e-03   -3,154738620e-02    6,881683469e-01    1,404648423e-01    0,000000000e+00    0,000000000e+00    0,000000000e+00    0,000000000e+00
      534000000   -3,666766686e-03   -3,826066479e-02    6,439487934e-01   -2,627661824e-01    0,000000000e+00    0,000000000e+00    0,000000000e+00    0,000000000e+00
      548000000    6,589607801e-03   -5,374219269e-02    3,816941679e-01   -5,669049621e-01    0,000000000e+00    0,000000000e+00    0,000000000e+00    0,000000000e+00
      562000000    3,272298956e-03   -8,974232525e-02    2,657965757e-03   -6,730617881e-01    0,000000000e+00    0,000000000e+00    0,000000000e+00    0,000000000e+00
      576000000   -3,460353985e-02   -1,242893189e-01   -3,692936897e-01   -5,580307841e-01    0,000000000e+00    0,000000000e+00    0,000000000e+00    0,000000000e+00
      590000000   -9,626843780e-02   -1,229072586e-01   -6,221186519e-01   -2,628338039e-01    0,000000000e+00    0,000000000e+00    0,000000000e+00    0,000000000e+00
      604000000   -1,392621696e-01   -7,156029344e-02   -6,647883058e-01    1,382319778e-01    0,000000000e+00    0,000000000e+00    0,000000000e+00    0,000000000e+00
      618000000   -1,297475994e-01   -8,625531569e-03   -4,654092193e-01    4,945725501e-01    0,000000000e+00    0,000000000e+00    0,000000000e+00    0,000000000e+00
      632000000   -8,360953629e-02    1,663591713e-02   -9,893702716e-02    6,636236310e-01    0,000000000e+00    0,000000000e+00    0,000000000e+00    0,000000000e+00
      646000000   -5,055122823e-02    5,117087858e-04    2,873700559e-01    5,949000716e-01    0,000000000e+00    0,000000000e+00    0,000000000e+00    0,000000000e+00
      660000000   -5,340722948e-02   -2,225674316e-02    5,680984259e-01    3,222496212e-01    0,000000000e+00    0,000000000e+00    0,000000000e+00    0,000000000e+00
      674000000   -7,041354477e-02   -1,714185439e-02    6,432324052e-01   -6,532504410e-02    0,000000000e+00    0,000000000e+00    0,000000000e+00    0,000000000e+00
      688000000   -6,897528470e-02    8,911183104e-03    4,719574153e-01   -4,277321100e-01    0,000000000e+00    0,000000000e+00    0,000000000e+00    0,000000000e+00
      702000000   -3,773964942e-02    2,625018172e-02    1,189221665e-01   -6,068996191e-01    0,000000000e+00    0,000000000e+00    0,000000000e+00    0,000000000e+00
      716000000    2,473123139e-03    1,856152900e-02   -2,654772997e-01   -5,470356345e-01    0,000000000e+00    0,000000000e+00    0,000000000e+00    0,000000000e+00
      730000000    3,748401254e-02   -1,120752748e-02   -5,285573006e-01   -2,688336372e-01    0,000000000e+00    0,000000000e+00    0,000000000e+00    0,000000000e+00
      744000000    6,541969627e-02   -6,190624833e-02   -5,644014478e-01    1,065928712e-01    0,000000000e+00    0,000000000e+00    0,000000000e+00    0,000000000e+00
      758000000    6,690994650e-02   -1,527195722e-01   -3,632853925e-01    4,112098515e-01    0,000000000e+00    0,000000000e+00    0,000000000e+00    0,000000000e+00
      772000000   -1,322314702e-02   -2,620769143e-01   -3,484762460e-02    5,154173970e-01    0,000000000e+00    0,000000000e+00    0,000000000e+00    0,000000000e+00
      786000000   -2,075827271e-01   -3,021658063e-01    2,740809917e-01    3,953770995e-01    0,000000000e+00    0,000000000e+00    0,000000000e+00    0,000000000e+00
      800000000   -4,263351858e-01   -1,306883991e-01    4,174512327e-01    9,965568036e-02    0,000000000e+00    0,000000000e+00    0,000000000e+00    0,000000000e+00
      814000000   -3,892075419e-01    2,208271921e-01    2,821218371e-01   -1,730064750e-01    0,000000000e+00    0,000000000e+00    0,000000000e+00    0,000000000e+00
      828000000   -4,885733500e-02    3,684899807e-01    5,492034927e-02   -1,892806441e-01    0,000000000e+00    0,000000000e+00    0,000000000e+00    0,000000000e+00
      842000000    2,347798198e-01    1,860040426e-01   -1,726034097e-02   -7,068578899e-02    0,000000000e+00    0,000000000e+00    0,000000000e+00    0,000000000e+00
      856000000    2,808285654e-01   -1,240320653e-01    4,518834129e-02   -1,290303934e-02    0,000000000e+00    0,000000000e+00    0,000000000e+00    0,000000000e+00
      870000000    7,506039739e-02   -3,763602376e-01    1,135640144e-01   -9,118346125e-02    0,000000000e+00    0,000000000e+00    0,000000000e+00    0,000000000e+00
      884000000   -2,956045866e-01   -3,615549505e-01    2,846825309e-02   -2,454943508e-01    0,000000000e+00    0,000000000e+00    0,000000000e+00    0,000000000e+00
      898000000   -4,721613824e-01    8,364880458e-03   -2,216653377e-01   -2,283085436e-01    0,000000000e+00    0,000000000e+00    0,000000000e+00    0,000000000e+00
      912000000   -2,274735421e-01    2,950809896e-01   -3,382959366e-01    7,377732545e-02    0,000000000e+00    0,000000000e+00    0,000000000e+00    0,000000000e+00
      926000000    6,779155880e-02    2,624758184e-01   -2,166113853e-01    2,623111904e-01    0,000000000e+00    0,000000000e+00    0,000000000e+00    0,000000000e+00
      940000000    2,144922316e-01    8,021234721e-02   -3,667796031e-02    3,278893232e-01    0,000000000e+00    0,000000000e+00    0,000000000e+00    0,000000000e+00
      954000000    2,252791673e-01   -1,278747469e-01    1,306699216e-01    3,075349033e-01    0,000000000e+00    0,000000000e+00    0,000000000e+00    0,000000000e+00
      968000000    1,160531268e-01   -3,033489287e-01    2,700154483e-01    2,176073194e-01    0,000000000e+00    0,000000000e+00    0,000000000e+00    0,000000000e+00
      982000000   -8,078560233e-02   -3,908427954e-01    3,663526177e-01    6,479973346e-02    0,000000000e+00    0,000000000e+00    0,000000000e+00    0,000000000e+00
      996000000   -3,157736659e-01   -3,319680393e-01    3,691107631e-01   -1,457505226e-01    0,000000000e+00    0,000000000e+00    0,000000000e+00    0,000000000e+00
     1010000000   -4,662943780e-01   -1,106518209e-01    2,243401408e-01   -3,429296613e-01    0,000000000e+00    0,000000000e+00    0,000000000e+00    0,000000000e+00
     1024000000   -4,167594314e-01    1,479107738e-01   -3,286325932e-02   -3,928763568e-01    0,000000000e+00    0,000000000e+00    0,000000000e+00    0,000000000e+00
     1038000000   -2,144465894e-01    2,947152853e-01   -2,463478744e-01   -2,594292164e-01    0,000000000e+00    0,000000000e+00    0,000000000e+00    0,000000000e+00
     1052000000   -1,032191049e-02    2,747759223e-01   -3,178094923e-01   -4,548272491e-02    0,000000000e+00    0,000000000e+00    0,000000000e+00    0,000000000e+00
     1066000000    1,375021935e-01    1,623651087e-01   -2,585650086e-01    1,440490782e-01    0,000000000e+00    0,000000000e+00    0,000000000e+00    0,000000000e+00
     1080000000    1,971512437e-01   -8,041245746e-04   -1,196851730e-01    2,634033859e-01    0,000000000e+00    0,000000000e+00    0,000000000e+00    0,000000000e+00
     1094000000    1,519759595e-01   -1,760157496e-01    6,553256512e-02    3,041202724e-01    0,000000000e+00    0,000000000e+00    0,000000000e+00    0,000000000e+00
     1108000000   -2,928039990e-03   -3,061263561e-01    2,782572210e-01    2,473434210e-01    0,000000000e+00    0,000000000e+00    0,000000000e+00    0,000000000e+00
     1122000000   -2,456151247e-01   -2,658513486e-01    4,738061726e-01    1,323462557e-02    0,000000000e+00    0,000000000e+00    0,000000000e+00    0,000000000e+00
     1136000000   -3,241903186e-01    3,163931891e-02    3,989092112e-01   -3,924037218e-01    0,000000000e+00    0,000000000e+00    0,000000000e+00    0,000000000e+00
     1150000000   -3,956180438e-02    1,550967395e-01    5,373195279e-03   -5,410819054e-01    0,000000000e+00    0,000000000e+00    0,000000000e+00    0,000000000e+00
     1164000000    1,227145121e-01   -6,623562425e-02   -2,769041657e-01   -3,789457381e-01    0,000000000e+00    0,000000000e+00    0,000000000e+00    0,000000000e+00
     1178000000    2,009271272e-02   -3,073953390e-01   -3,687230349e-01   -1,484470665e-01    0,000000000e+00    0,000000000e+00    0,000000000e+00    0,000000000e+00
     1192000000   -2,666850388e-01   -3,738676906e-01   -3,240462840e-01    5,790679529e-02    0,000000000e+00    0,000000000e+00    0,000000000e+00    0,000000000e+00
     1206000000   -5,183961391e-01   -1,655091047e-01   -1,657263190e-01    1,776496172e-01    0,000000000e+00    0,000000000e+00    0,000000000e+00    0,000000000e+00
     1220000000   -5,072350502e-01    1,732509136e-01    4,196097609e-03    1,558213383e-01    0,000000000e+00    0,000000000e+00    0,000000000e+00    0,000000000e+00
     1234000000   -2,885040045e-01    3,606247902e-01    7,014445215e-02    6,184474751e-02    0,000000000e+00    0,000000000e+00    0,000000000e+00    0,000000000e+00
     1248000000   -4,756264016e-02    3,618299663e-01    5,577498302e-02   -4,542556126e-03    0,000000000e+00    0,000000000e+00    0,000000000e+00    0,000000000e+00
     1262000000    1,245772466e-01    2,518129945e-01    1,981994882e-02   -2,032189071e-02    0,000000000e+00    0,000000000e+00    0,000000000e+00    0,000000000e+00
     1276000000    2,157437503e-01    9,773663431e-02    1,923281583e-03    1,602159813e-03    0,000000000e+00    0,000000000e+00    0,000000000e+00    0,000000000e+00
     1290000000    2,241079062e-01   -7,314553857e-02    1,741600223e-02    5,224193633e-02    0,000000000e+00    0,000000000e+00    0,000000000e+00    0,000000000e+00
     1304000000    1,526404917e-01   -2,388977259e-01    1,304684132e-01    7,278240472e-02    0,000000000e+00    0,000000000e+00    0,000000000e+00    0,000000000e+00
     1318000000    3,550911322e-02   -3,361786604e-01    1,302121729e-01   -1,689296365e-01    0,000000000e+00    0,000000000e+00    0,000000000e+00    0,000000000e+00
     1332000000   -1,322928816e-01   -4,385341406e-01   -5,122077465e-02   -4,645323008e-02    0,000000000e+00    0,000000000e+00    0,000000000e+00    0,000000000e+00
     1346000000   -3,905221522e-01   -4,088500142e-01    2,894591540e-02    6,492240727e-02    0,000000000e+00    0,000000000e+00    0,000000000e+00    0,000000000e+00
     1360000000   -6,002662182e-01   -1,920746416e-01    1,437028944e-01    7,356233895e-02    0,000000000e+00    0,000000000e+00    0,000000000e+00    0,000000000e+00
     1374000000   -6,291676760e-01    1,267977953e-01    2,106364816e-01    7,285432890e-03    0,000000000e+00    0,000000000e+00    0,000000000e+00    0,000000000e+00
     1388000000   -4,604990184e-01    3,691441417e-01    2,096506804e-01   -5,208503082e-02    0,000000000e+00    0,000000000e+00    0,000000000e+00    0,000000000e+00
     1402000000   -2,333992571e-01    4,532617331e-01    1,826523095e-01   -9,473802149e-02    0,000000000e+00    0,000000000e+00    0,000000000e+00    0,000000000e+00
     1416000000   -2,990925312e-02    4,082133770e-01    1,634891480e-01   -1,007528976e-01    0,000000000e+00    0,000000000e+00    0,000000000e+00    0,000000000e+00
     1430000000    1,160263717e-01    2,960000932e-01    1,548254937e-01   -1,074273661e-01    0,000000000e+00    0,000000000e+00    0,000000000e+00    0,000000000e+00
     1444000000    2,071273327e-01    1,486858130e-01    1,614783853e-01   -1,027522907e-01    0,000000000e+00    0,000000000e+00    0,000000000e+00    0,000000000e+00
     1458000000    2,358740270e-01   -2,324192971e-02    1,458755285e-01   -8,287515491e-02    0,000000000e+00    0,000000000e+00    0,000000000e+00    0,000000000e+00
     1472000000    1,956982166e-01   -2,032326907e-01    1,535120606e-01   -3,230349720e-02    0,000000000e+00    0,000000000e+00    0,000000000e+00    0,000000000e+00
     1486000000    6,009408087e-02   -3,741758466e-01    1,659505814e-01    2,411694638e-02    0,000000000e+00    0,000000000e+00    0,000000000e+00    0,000000000e+00
     1500000000   -1,675381064e-01   -4,916679263e-01    2,573254406e-01    9,575471282e-02    0,000000000e+00    0,000000000e+00    0,000000000e+00    0,000000000e+00
