! NanoVNA-App
! Date: 2025-09-25 15:32:25
! Start: 100MHz Stop: 1,5GHz Points: 101
! S-Parameter data: F S11 S21 S12 S22
# Hz S RI R 50
!     Frequency           S11_Real           S11_Imag           S21_Real           S21_Imag           S12_Real           S12_Imag           S22_Real           S22_Imag
      100000000   -2,885535546e-02   -4,170495551e-03    3,740988374e-01   -7,218021154e-01    0,000000000e+00    0,000000000e+00    0,000000000e+00    0,000000000e+00
      114000000   -1,653565839e-02    1,149477251e-02   -8,913340420e-02   -8,054485917e-01    0,000000000e+00    0,000000000e+00    0,000000000e+00    0,000000000e+00
      128000000    3,504377091e-03    1,050023269e-02   -5,145660639e-01   -6,203757524e-01    0,000000000e+00    0,000000000e+00    0,000000000e+00    0,000000000e+00
      142000000    1,455982309e-02   -2,948064357e-03   -7,673313618e-01   -2,366253436e-01    0,000000000e+00    0,000000000e+00    0,000000000e+00    0,000000000e+00
      156000000    1,511805877e-02   -1,505179517e-02   -7,690885663e-01    2,197344601e-01    0,000000000e+00    0,000000000e+00    0,000000000e+00    0,000000000e+00
      170000000    1,665066555e-02   -2,250722423e-02   -5,181448460e-01    6,045373678e-01    0,000000000e+00    0,000000000e+00    0,000000000e+00    0,000000000e+00
      184000000    2,102823742e-02   -3,708237037e-02   -1,014917120e-01    7,862690687e-01    0,000000000e+00    0,000000000e+00    0,000000000e+00    0,000000000e+00
      198000000    1,305009145e-02   -6,247653812e-02    3,433558643e-01    7,125096321e-01    0,000000000e+00    0,000000000e+00    0,000000000e+00    0,000000000e+00
      212000000   -1,861332171e-02   -8,123547584e-02    6,783894300e-01    4,100139737e-01    0,000000000e+00    0,000000000e+00    0,000000000e+00    0,000000000e+00
      226000000   -6,168785691e-02   -6,919217855e-02    7,958140969e-01   -3,066511825e-02    0,000000000e+00    0,000000000e+00    0,000000000e+00    0,000000000e+00
      240000000   -8,260584623e-02   -2,560155094e-02    6,461349726e-01   -4,673897922e-01    0,000000000e+00    0,000000000e+00    0,000000000e+00    0,000000000e+00
      254000000   -6,351644546e-02    1,724162884e-02    2,756270468e-01   -7,434712052e-01    0,000000000e+00    0,000000000e+00    0,000000000e+00    0,000000000e+00
      268000000   -2,378911711e-02    2,893520333e-02   -1,780849993e-01   -7,643482089e-01    0,000000000e+00    0,000000000e+00    0,000000000e+00    0,000000000e+00
      282000000    4,178637639e-03    1,194383763e-02   -5,616979003e-01   -5,352783799e-01    0,000000000e+00    0,000000000e+00    0,000000000e+00    0,000000000e+00
      296000000    9,732891805e-03   -7,916223258e-03   -7,599006891e-01   -1,395387501e-01    0,000000000e+00    0,000000000e+00    0,000000000e+00    0,000000000e+00
      310000000    1,115625072e-02   -1,636260189e-02   -7,118361592e-01    2,976051569e-01    0,000000000e+00    0,000000000e+00    0,000000000e+00    0,000000000e+00
      324000000    1,962821372e-02   -2,641085163e-02   -4,281161427e-01    6,381141543e-01    0,000000000e+00    0,000000000e+00    0,000000000e+00    0,000000000e+00
      338000000    2,559250966e-02   -5,230561271e-02   -6,934162229e-03    7,627987266e-01    0,000000000e+00    0,000000000e+00    0,000000000e+00    0,000000000e+00
      352000000    7,585880347e-03   -8,462616801e-02    4,076875448e-01    6,390511990e-01    0,000000000e+00    0,000000000e+00    0,000000000e+00    0,000000000e+00
      366000000   -3,460536152e-02   -9,581784159e-02    6,905578971e-01    3,104137778e-01    0,000000000e+00    0,000000000e+00    0,000000000e+00    0,000000000e+00
      380000000   -7,086859643e-02   -7,127028704e-02    7,474348545e-01   -1,255151778e-01    0,000000000e+00    0,000000000e+00    0,000000000e+00    0,000000000e+00
      394000000   -7,263725251e-02   -3,242105246e-02    5,469297171e-01   -5,225303769e-01    0,000000000e+00    0,000000000e+00    0,000000000e+00    0,000000000e+00
      408000000   -4,614996538e-02   -1,618406363e-02    1,619568020e-01   -7,322328687e-01    0,000000000e+00    0,000000000e+00    0,000000000e+00    0,000000000e+00
      422000000   -2,830847725e-02   -3,195725381e-02   -2,679503858e-01   -6,950668097e-01    0,000000000e+00    0,000000000e+00    0,000000000e+00    0,000000000e+00
      436000000   -4,037958384e-02   -5,168639496e-02   -6,037006974e-01   -4,315967262e-01    0,000000000e+00    0,000000000e+00    0,000000000e+00    0,000000000e+00
      450000000   -6,739539653e-02   -4,405416921e-02   -7,402939200e-01   -2,143392153e-02    0,000000000e+00    0,000000000e+00    0,000000000e+00    0,000000000e+00
      464000000   -7,355295867e-02   -1,146907639e-02   -6,188716888e-01    3,974491954e-01    0,000000000e+00    0,000000000e+00    0,000000000e+00    0,000000000e+00
      478000000   -4,790938273e-02    1,169856172e-02   -2,821286321e-01    6,680064201e-01    0,000000000e+00    0,000000000e+00    0,000000000e+00    0,000000000e+00
      492000000   -1,566902176e-02    5,694879219e-03    1,379890144e-01    7,015427947e-01    0,000000000e+00    0,000000000e+00    0,000000000e+00    0,000000000e+00
      506000000   -2,585197100e-03   -1,616479643e-02    4,982305169e-01    5,025744438e-01    0,000000000e+00    0,000000000e+00    0,000000000e+00    0,000000000e+00
      520000000   -4,974864889e-03   -3,166955709e-02    6,877194047e-01    1,412564069e-01    0,000000000e+00    0,000000000e+00    0,000000000e+00    0,000000000e+00
      534000000   -3,555552801e-03   -3,842125461e-02    6,438255310e-01   -2,630377710e-01    0,000000000e+00    0,000000000e+00    0,000000000e+00    0,000000000e+00
      548000000    6,063375156e-03   -5,357553810e-02    3,811695576e-01   -5,677413344e-01    0,000000000e+00    0,000000000e+00    0,000000000e+00    0,000000000e+00
      562000000    3,536773846e-03   -8,923462033e-02    2,863533329e-03   -6,716627479e-01    0,000000000e+00    0,000000000e+00    0,000000000e+00    0,000000000e+00
      576000000   -3,436716273e-02   -1,246253923e-01   -3,697465956e-01   -5,575007796e-01    0,000000000e+00    0,000000000e+00    0,000000000e+00    0,000000000e+00
      590000000   -9,639171511e-02   -1,224382073e-01   -6,213373542e-01   -2,617811561e-01    0,000000000e+00    0,000000000e+00    0,000000000e+00    0,000000000e+00
      604000000   -1,397439539e-01   -7,175172120e-02   -6,653951406e-01    1,383827627e-01    0,000000000e+00    0,000000000e+00    0,000000000e+00    0,000000000e+00
      618000000   -1,288615763e-01   -8,979591541e-03   -4,641549885e-01    4,950542152e-01    0,000000000e+00    0,000000000e+00    0,000000000e+00    0,000000000e+00
      632000000   -8,435191214e-02    1,631411724e-02   -9,857154638e-02    6,640078425e-01    0,000000000e+00    0,000000000e+00    0,000000000e+00    0,000000000e+00
      646000000   -5,071967840e-02    1,164961577e-04    2,876310647e-01    5,952695608e-01    0,000000000e+00    0,000000000e+00    0,000000000e+00    0,000000000e+00
      660000000   -5,249030516e-02   -2,200262435e-02    5,671312809e-01    3,225816488e-01    0,000000000e+00    0,000000000e+00    0,000000000e+00    0,000000000e+00
      674000000   -7,055540383e-02   -1,827785745e-02    6,433264613e-01   -6,560361385e-02    0,000000000e+00    0,000000000e+00    0,000000000e+00    0,000000000e+00
      688000000   -6,875669956e-02    8,234945126e-03    4,713655710e-01   -4,278313518e-01    0,000000000e+00    0,000000000e+00    0,000000000e+00    0,000000000e+00
      702000000   -3,755357489e-02    2,742507868e-02    1,173408777e-01   -6,115802526e-01    0,000000000e+00    0,000000000e+00    0,000000000e+00    0,000000000e+00
      716000000    2,872389741e-03    1,743987575e-02   -2,648251057e-01   -5,465809703e-01    0,000000000e+00    0,000000000e+00    0,000000000e+00    0,000000000e+00
      730000000    3,624688461e-02   -1,104814745e-02   -5,286881328e-01   -2,687940300e-01    0,000000000e+00    0,000000000e+00    0,000000000e+00    0,000000000e+00
      744000000    6,513190269e-02   -6,312339753e-02   -5,642469525e-01    1,066336557e-01    0,000000000e+00    0,000000000e+00    0,000000000e+00    0,000000000e+00
      758000000    6,661792845e-02   -1,525317281e-01   -3,634680212e-01    4,108506143e-01    0,000000000e+00    0,000000000e+00    0,000000000e+00    0,000000000e+00
      772000000   -1,227035001e-02   -2,626740336e-01   -3,504068404e-02    5,152753592e-01    0,000000000e+00    0,000000000e+00    0,000000000e+00    0,000000000e+00
      786000000   -2,068419009e-01   -3,027845621e-01    2,740803361e-01    3,954256475e-01    0,000000000e+00    0,000000000e+00    0,000000000e+00    0,000000000e+00
      800000000   -4,259234667e-01   -1,294056773e-01    4,169737697e-01    9,864682704e-02    0,000000000e+00    0,000000000e+00    0,000000000e+00    0,000000000e+00
      814000000   -3,903688490e-01    2,207868844e-01    2,823862731e-01   -1,734852493e-01    0,000000000e+00    0,000000000e+00    0,000000000e+00    0,000000000e+00
      828000000   -4,954257980e-02    3,680406809e-01    5,550130829e-02   -1,889743358e-01    0,000000000e+00    0,000000000e+00    0,000000000e+00    0,000000000e+00
      842000000    2,350192070e-01    1,858742386e-01   -1,723517850e-02   -7,067521662e-02    0,000000000e+00    0,000000000e+00    0,000000000e+00    0,000000000e+00
      856000000    2,805896401e-01   -1,242034510e-01    4,522993043e-02   -1,314910222e-02    0,000000000e+00    0,000000000e+00    0,000000000e+00    0,000000000e+00
      870000000    7,493723184e-02   -3,761143386e-01    1,137919649e-01   -9,054052085e-02    0,000000000e+00    0,000000000e+00    0,000000000e+00    0,000000000e+00
      884000000   -2,950294316e-01   -3,610921204e-01    2,836686373e-02   -2,449375391e-01    0,000000000e+00    0,000000000e+00    0,000000000e+00    0,000000000e+00
      898000000   -4,726113677e-01    9,915141389e-03   -2,227121592e-01   -2,269911915e-01    0,000000000e+00    0,000000000e+00    0,000000000e+00    0,000000000e+00
      912000000   -2,260579914e-01    2,952642739e-01   -3,552918434e-01    6,991142780e-02    0,000000000e+00    0,000000000e+00    0,000000000e+00    0,000000000e+00
      926000000    6,587875634e-02    2,631590962e-01   -2,171883434e-01    2,644631863e-01    0,000000000e+00    0,000000000e+00    0,000000000e+00    0,000000000e+00
      940000000    2,169457823e-01    7,847975194e-02   -3,516295180e-02    3,297697008e-01    0,000000000e+00    0,000000000e+00    0,000000000e+00    0,000000000e+00
      954000000    2,248343825e-01   -1,288369149e-01    1,300430149e-01    3,072057664e-01    0,000000000e+00    0,000000000e+00    0,000000000e+00    0,000000000e+00
      968000000    1,153226718e-01   -3,013555110e-01    2,695059180e-01    2,187688202e-01    0,000000000e+00    0,000000000e+00    0,000000000e+00    0,000000000e+00
      982000000   -8,043485880e-02   -3,842357397e-01    3,670055568e-01    6,506244838e-02    0,000000000e+00    0,000000000e+00    0,000000000e+00    0,000000000e+00
      996000000   -3,180389702e-01   -3,276300728e-01    3,691017032e-01   -1,446686983e-01    0,000000000e+00    0,000000000e+00    0,000000000e+00    0,000000000e+00
     1010000000   -4,653407931e-01   -1,122967005e-01    2,224530131e-01   -3,427326679e-01    0,000000000e+00    0,000000000e+00    0,000000000e+00    0,000000000e+00
     1024000000   -4,115695953e-01    1,520342976e-01   -3,344522789e-02   -3,942875564e-01    0,000000000e+00    0,000000000e+00    0,000000000e+00    0,000000000e+00
     1038000000   -2,165640742e-01    2,884045243e-01   -2,467691004e-01   -2,607222199e-01    0,000000000e+00    0,000000000e+00    0,000000000e+00    0,000000000e+00
     1052000000   -5,773203447e-03    2,761836946e-01   -3,169594109e-01   -4,655510932e-02    0,000000000e+00    0,000000000e+00    0,000000000e+00    0,000000000e+00
     1066000000    1,351916194e-01    1,655493081e-01   -2,577841878e-01    1,447130889e-01    0,000000000e+00    0,000000000e+00    0,000000000e+00    0,000000000e+00
     1080000000    1,966560930e-01    3,959864844e-04   -1,182938591e-01    2,633610666e-01    0,000000000e+00    0,000000000e+00    0,000000000e+00    0,000000000e+00
     1094000000    1,556041986e-01   -1,720128208e-01    6,432434171e-02    3,042283654e-01    0,000000000e+00    0,000000000e+00    0,000000000e+00    0,000000000e+00
     1108000000    1,862838835e-04   -3,077752590e-01    2,780167162e-01    2,464137673e-01    0,000000000e+00    0,000000000e+00    0,000000000e+00    0,000000000e+00
     1122000000   -2,447580695e-01   -2,668281198e-01    4,692950845e-01    1,422893070e-02    0,000000000e+00    0,000000000e+00    0,000000000e+00    0,000000000e+00
     1136000000   -3,221916258e-01    3,063317388e-02    3,984514773e-01   -3,937464952e-01    0,000000000e+00    0,000000000e+00    0,000000000e+00    0,000000000e+00
     1150000000   -3,959005699e-02    1,550938636e-01    6,424514111e-03   -5,428727865e-01    0,000000000e+00    0,000000000e+00    0,000000000e+00    0,000000000e+00
     1164000000    1,237346455e-01   -5,921793357e-02   -2,776910961e-01   -3,762102723e-01    0,000000000e+00    0,000000000e+00    0,000000000e+00    0,000000000e+00
     1178000000    1,563700847e-02   -3,032236099e-01   -3,689626157e-01   -1,510519385e-01    0,000000000e+00    0,000000000e+00    0,000000000e+00    0,000000000e+00
     1192000000   -2,640896738e-01   -3,699377775e-01   -3,214294314e-01    5,727158859e-02    0,000000000e+00    0,000000000e+00    0,000000000e+00    0,000000000e+00
     1206000000   -5,234681368e-01   -1,630794853e-01   -1,637045443e-01    1,804100424e-01    0,000000000e+00    0,000000000e+00    0,000000000e+00    0,000000000e+00
     1220000000   -5,070434809e-01    1,683513671e-01    4,167866427e-03    1,577709317e-01    0,000000000e+00    0,000000000e+00    0,000000000e+00    0,000000000e+00
     1234000000   -2,822367251e-01    3,618091941e-01    6,905810535e-02    6,395030022e-02    0,000000000e+00    0,000000000e+00    0,000000000e+00    0,000000000e+00
     1248000000   -5,132043734e-02    3,667154312e-01    5,107765645e-02   -2,665724372e-03    0,000000000e+00    0,000000000e+00    0,000000000e+00    0,000000000e+00
     1262000000    1,230846271e-01    2,512679696e-01    1,915767230e-02   -2,469509281e-02    0,000000000e+00    0,000000000e+00    0,000000000e+00    0,000000000e+00
     1276000000    2,117641121e-01    9,803821146e-02   -2,630766714e-03    4,618782084e-03    0,000000000e+00    0,000000000e+00    0,000000000e+00    0,000000000e+00
     1290000000    2,238396853e-01   -7,526796311e-02    2,483763546e-02    5,447138473e-02    0,000000000e+00    0,000000000e+00    0,000000000e+00    0,000000000e+00
     1304000000    1,582645327e-01   -2,451095134e-01    1,329310387e-01    7,054203004e-02    0,000000000e+00    0,000000000e+00    0,000000000e+00    0,000000000e+00
     1318000000    3,350479156e-02   -3,369391263e-01    1,337529570e-01   -1,691166610e-01    0,000000000e+00    0,000000000e+00    0,000000000e+00    0,000000000e+00
     1332000000   -1,338324398e-01   -4,350633025e-01   -4,658745974e-02   -4,245181009e-02    0,000000000e+00    0,000000000e+00    0,000000000e+00    0,000000000e+00
     1346000000   -3,939330280e-01   -4,048965871e-01    2,991007082e-02    7,427934557e-02    0,000000000e+00    0,000000000e+00    0,000000000e+00    0,000000000e+00
     1360000000   -6,009339690e-01   -1,826110929e-01    1,379564852e-01    7,711085677e-02    0,000000000e+00    0,000000000e+00    0,000000000e+00    0,000000000e+00
     1374000000   -6,355445385e-01    1,178195328e-01    2,095778286e-01   -4,169658758e-03    0,000000000e+00    0,000000000e+00    0,000000000e+00    0,000000000e+00
     1388000000   -4,653055370e-01    3,618230820e-01    2,079836428e-01   -7,114711404e-02    0,000000000e+00    0,000000000e+00    0,000000000e+00    0,000000000e+00
     1402000000   -2,395098954e-01    4,515073001e-01    1,809491068e-01   -9,784144163e-02    0,000000000e+00    0,000000000e+00    0,000000000e+00    0,000000000e+00
     1416000000   -2,482770942e-02    4,077625871e-01    1,649739742e-01   -1,068468019e-01    0,000000000e+00    0,000000000e+00    0,000000000e+00    0,000000000e+00
     1430000000    1,138593554e-01    2,941617370e-01    1,354817450e-01   -1,087459177e-01    0,000000000e+00    0,000000000e+00    0,000000000e+00    0,000000000e+00
     1444000000    2,106294781e-01    1,502068639e-01    1,612977982e-01   -9,670799971e-02    0,000000000e+00    0,000000000e+00    0,000000000e+00    0,000000000e+00
     1458000000    2,358436882e-01   -1,565328799e-02    1,433150023e-01   -6,825468689e-02    0,000000000e+00    0,000000000e+00    0,000000000e+00    0,000000000e+00
     1472000000    1,888525486e-01   -1,987739950e-01    1,376599520e-01   -2,871093899e-02    0,000000000e+00    0,000000000e+00    0,000000000e+00    0,000000000e+00
     1486000000    5,830283463e-02   -3,721169531e-01    1,780092567e-01    4,641579837e-02    0,000000000e+00    0,000000000e+00    0,000000000e+00    0,000000000e+00
     1500000000   -1,659762859e-01   -4,966351986e-01    2,570430338e-01    9,525999427e-02    0,000000000e+00    0,000000000e+00    0,000000000e+00    0,000000000e+00
