! NanoVNA-App
! Date: 2025-09-25 15:33:09
! Start: 100MHz Stop: 1,5GHz Points: 101
! S-Parameter data: F S11 S21 S12 S22
# Hz S RI R 50
!     Frequency           S11_Real           S11_Imag           S21_Real           S21_Imag           S12_Real           S12_Imag           S22_Real           S22_Imag
      100000000   -2,887118049e-02   -4,179854412e-03    3,741707504e-01   -7,217944860e-01    0,000000000e+00    0,000000000e+00    0,000000000e+00    0,000000000e+00
      114000000   -1,650489680e-02    1,154381037e-02   -8,917196095e-02   -8,054728508e-01    0,000000000e+00    0,000000000e+00    0,000000000e+00    0,000000000e+00
      128000000    3,495445475e-03    1,049958076e-02   -5,145238638e-01   -6,205361485e-01    0,000000000e+00    0,000000000e+00    0,000000000e+00    0,000000000e+00
      142000000    1,454682462e-02   -2,957645804e-03   -7,671952844e-01   -2,367200702e-01    0,000000000e+00    0,000000000e+00    0,000000000e+00    0,000000000e+00
      156000000    1,442959346e-02   -1,489203237e-02   -7,644316554e-01    2,201933861e-01    0,000000000e+00    0,000000000e+00    0,000000000e+00    0,000000000e+00
      170000000    1,666718535e-02   -2,257580124e-02   -5,181271434e-01    6,047605872e-01    0,000000000e+00    0,000000000e+00    0,000000000e+00    0,000000000e+00
      184000000    2,100832947e-02   -3,706539050e-02   -1,013571322e-01    7,863432169e-01    0,000000000e+00    0,000000000e+00    0,000000000e+00    0,000000000e+00
      198000000    1,299173199e-02   -6,242921203e-02    3,436553180e-01    7,127312422e-01    0,000000000e+00    0,000000000e+00    0,000000000e+00    0,000000000e+00
      212000000   -1,866284758e-02   -8,131063730e-02    6,782695055e-01    4,100064635e-01    0,000000000e+00    0,000000000e+00    0,000000000e+00    0,000000000e+00
      226000000   -6,171733513e-02   -6,922460347e-02    7,958677411e-01   -3,057235666e-02    0,000000000e+00    0,000000000e+00    0,000000000e+00    0,000000000e+00
      240000000   -8,260453492e-02   -2,555829473e-02    6,461082101e-01   -4,671520591e-01    0,000000000e+00    0,000000000e+00    0,000000000e+00    0,000000000e+00
      254000000   -6,352211535e-02    1,723115891e-02    2,760772109e-01   -7,435570359e-01    0,000000000e+00    0,000000000e+00    0,000000000e+00    0,000000000e+00
      268000000   -2,381721325e-02    2,887841500e-02   -1,784248054e-01   -7,645467520e-01    0,000000000e+00    0,000000000e+00    0,000000000e+00    0,000000000e+00
      282000000    4,244877025e-03    1,199043915e-02   -5,619183779e-01   -5,355938077e-01    0,000000000e+00    0,000000000e+00    0,000000000e+00    0,000000000e+00
      296000000    9,725208394e-03   -7,904990576e-03   -7,598938346e-01   -1,396132857e-01    0,000000000e+00    0,000000000e+00    0,000000000e+00    0,000000000e+00
      310000000    1,129436865e-02   -1,626557671e-02   -7,119041681e-01    2,986111939e-01    0,000000000e+00    0,000000000e+00    0,000000000e+00    0,000000000e+00
      324000000    1,964709722e-02   -2,639077976e-02   -4,270569682e-01    6,374067664e-01    0,000000000e+00    0,000000000e+00    0,000000000e+00    0,000000000e+00
      338000000    2,544470504e-02   -5,219417438e-02   -7,054502144e-03    7,615086436e-01    0,000000000e+00    0,000000000e+00    0,000000000e+00    0,000000000e+00
      352000000    7,299278397e-03   -8,487559855e-02    4,065102041e-01    6,387221217e-01    0,000000000e+00    0,000000000e+00    0,000000000e+00    0,000000000e+00
      366000000   -3,473107144e-02   -9,564446658e-02    6,908948421e-01    3,110840321e-01    0,000000000e+00    0,000000000e+00    0,000000000e+00    0,000000000e+00
      380000000   -7,084739953e-02   -7,115116715e-02    7,476310134e-01   -1,260882914e-01    0,000000000e+00    0,000000000e+00    0,000000000e+00    0,000000000e+00
      394000000   -7,273389399e-02   -3,213609383e-02    5,458111763e-01   -5,231493711e-01    0,000000000e+00    0,000000000e+00    0,000000000e+00    0,000000000e+00
      408000000   -4,648824036e-02   -1,625355333e-02    1,615553647e-01   -7,318518758e-01    0,000000000e+00    0,000000000e+00    0,000000000e+00    0,000000000e+00
      422000000   -2,814424038e-02   -3,201948479e-02   -2,670489848e-01   -6,952742934e-01    0,000000000e+00    0,000000000e+00    0,000000000e+00    0,000000000e+00
      436000000   -4,087786749e-02   -5,171866715e-02   -6,036224365e-01   -4,315185547e-01    0,000000000e+00    0,000000000e+00    0,000000000e+00    0,000000000e+00
      450000000   -6,746625900e-02   -4,396451265e-02   -7,407290339e-01   -2,164322883e-02    0,000000000e+00    0,000000000e+00    0,000000000e+00    0,000000000e+00
      464000000   -7,366105169e-02   -1,150817517e-02   -6,190882921e-01    3,979737461e-01    0,000000000e+00    0,000000000e+00    0,000000000e+00    0,000000000e+00
      478000000   -4,755058885e-02    1,184373908e-02   -2,822298706e-01    6,675973535e-01    0,000000000e+00    0,000000000e+00    0,000000000e+00    0,000000000e+00
      492000000   -1,571057178e-02    6,413413677e-03    1,376564056e-01    7,017093301e-01    0,000000000e+00    0,000000000e+00    0,000000000e+00    0,000000000e+00
      506000000   -2,630302450e-03   -1,560589019e-02    4,981459975e-01    5,032047629e-01    0,000000000e+00    0,000000000e+00    0,000000000e+00    0,000000000e+00
      520000000   -4,639877472e-03   -3,131264821e-02    6,875095963e-01    1,410916448e-01    0,000000000e+00    0,000000000e+00    0,000000000e+00    0,000000000e+00
      534000000   -3,995268140e-03   -3,825509176e-02    6,431816816e-01   -2,624059916e-01    0,000000000e+00    0,000000000e+00    0,000000000e+00    0,000000000e+00
      548000000    5,779113155e-03   -5,410742760e-02    3,811436594e-01   -5,668620467e-01    0,000000000e+00    0,000000000e+00    0,000000000e+00    0,000000000e+00
      562000000    3,091549501e-03   -8,970870078e-02    3,089650301e-03   -6,724207997e-01    0,000000000e+00    0,000000000e+00    0,000000000e+00    0,000000000e+00
      576000000   -3,433727473e-02   -1,238259301e-01   -3,685764372e-01   -5,569905043e-01    0,000000000e+00    0,000000000e+00    0,000000000e+00    0,000000000e+00
      590000000   -9,622681886e-02   -1,227042452e-01   -6,197291613e-01   -2,641271353e-01    0,000000000e+00    0,000000000e+00    0,000000000e+00    0,000000000e+00
      604000000   -1,397697181e-01   -7,185516506e-02   -6,654920578e-01    1,376865655e-01    0,000000000e+00    0,000000000e+00    0,000000000e+00    0,000000000e+00
      618000000   -1,292786747e-01   -8,631098084e-03   -4,642165899e-01    4,946561754e-01    0,000000000e+00    0,000000000e+00    0,000000000e+00    0,000000000e+00
      632000000   -8,423446864e-02    1,730874740e-02   -9,853255004e-02    6,634442210e-01    0,000000000e+00    0,000000000e+00    0,000000000e+00    0,000000000e+00
      646000000   -5,071656033e-02    1,144217822e-04    2,865087688e-01    5,957531929e-01    0,000000000e+00    0,000000000e+00    0,000000000e+00    0,000000000e+00
      660000000   -5,363022909e-02   -2,159123309e-02    5,668848157e-01    3,221577704e-01    0,000000000e+00    0,000000000e+00    0,000000000e+00    0,000000000e+00
      674000000   -6,976583600e-02   -1,709667034e-02    6,433129907e-01   -6,533231586e-02    0,000000000e+00    0,000000000e+00    0,000000000e+00    0,000000000e+00
      688000000   -6,817201525e-02    8,458496071e-03    4,716826081e-01   -4,280878603e-01    0,000000000e+00    0,000000000e+00    0,000000000e+00    0,000000000e+00
      702000000   -3,859366849e-02    2,688900195e-02    1,182313189e-01   -6,115871072e-01    0,000000000e+00    0,000000000e+00    0,000000000e+00    0,000000000e+00
      716000000    1,874689711e-03    1,742446981e-02   -2,652781010e-01   -5,467284918e-01    0,000000000e+00    0,000000000e+00    0,000000000e+00    0,000000000e+00
      730000000    3,669553995e-02   -1,155048143e-02   -5,286152959e-01   -2,691091001e-01    0,000000000e+00    0,000000000e+00    0,000000000e+00    0,000000000e+00
      744000000    6,478653103e-02   -6,175944954e-02   -5,640819669e-01    1,056938767e-01    0,000000000e+00    0,000000000e+00    0,000000000e+00    0,000000000e+00
      758000000    6,615397334e-02   -1,522494406e-01   -3,628460765e-01    4,104259014e-01    0,000000000e+00    0,000000000e+00    0,000000000e+00    0,000000000e+00
      772000000   -1,308378298e-02   -2,629865110e-01   -3,548028320e-02    5,158951283e-01    0,000000000e+00    0,000000000e+00    0,000000000e+00    0,000000000e+00
      786000000   -2,060861588e-01   -3,029849231e-01    2,736846209e-01    3,955144882e-01    0,000000000e+00    0,000000000e+00    0,000000000e+00    0,000000000e+00
      800000000   -4,249160588e-01   -1,296044290e-01    4,167740643e-01    9,858459979e-02    0,000000000e+00    0,000000000e+00    0,000000000e+00    0,000000000e+00
      814000000   -3,892594278e-01    2,208881527e-01    2,823053598e-01   -1,728564352e-01    0,000000000e+00    0,000000000e+00    0,000000000e+00    0,000000000e+00
      828000000   -5,000180379e-02    3,675631285e-01    5,530032516e-02   -1,887180358e-01    0,000000000e+00    0,000000000e+00    0,000000000e+00    0,000000000e+00
      842000000    2,345076054e-01    1,863653660e-01   -1,729480736e-02   -7,069025934e-02    0,000000000e+00    0,000000000e+00    0,000000000e+00    0,000000000e+00
      856000000    2,806139588e-01   -1,244632229e-01    4,480691254e-02   -1,300396398e-02    0,000000000e+00    0,000000000e+00    0,000000000e+00    0,000000000e+00
      870000000    7,528001815e-02   -3,772678375e-01    1,137206852e-01   -9,141699970e-02    0,000000000e+00    0,000000000e+00    0,000000000e+00    0,000000000e+00
      884000000   -2,954362333e-01   -3,628863096e-01    2,879334614e-02   -2,456609905e-01    0,000000000e+00    0,000000000e+00    0,000000000e+00    0,000000000e+00
      898000000   -4,715151489e-01    8,949739859e-03   -2,210256457e-01   -2,270944864e-01    0,000000000e+00    0,000000000e+00    0,000000000e+00    0,000000000e+00
      912000000   -2,266236395e-01    2,940080762e-01   -3,433449566e-01    7,780575007e-02    0,000000000e+00    0,000000000e+00    0,000000000e+00    0,000000000e+00
      926000000    6,610939652e-02    2,651515007e-01   -2,169623226e-01    2,658194602e-01    0,000000000e+00    0,000000000e+00    0,000000000e+00    0,000000000e+00
      940000000    2,185553908e-01    7,966151834e-02   -3,646401316e-02    3,298744857e-01    0,000000000e+00    0,000000000e+00    0,000000000e+00    0,000000000e+00
      954000000    2,236164212e-01   -1,255378127e-01    1,316173673e-01    3,075817525e-01    0,000000000e+00    0,000000000e+00    0,000000000e+00    0,000000000e+00
      968000000    1,160183772e-01   -2,970182896e-01    2,722849846e-01    2,182389349e-01    0,000000000e+00    0,000000000e+00    0,000000000e+00    0,000000000e+00
      982000000   -8,267860115e-02   -3,845383227e-01    3,659958839e-01    6,465519220e-02    0,000000000e+00    0,000000000e+00    0,000000000e+00    0,000000000e+00
      996000000   -3,134050071e-01   -3,310020864e-01    3,693664074e-01   -1,454139501e-01    0,000000000e+00    0,000000000e+00    0,000000000e+00    0,000000000e+00
     1010000000   -4,657205641e-01   -1,118088961e-01    2,234061956e-01   -3,394900262e-01    0,000000000e+00    0,000000000e+00    0,000000000e+00    0,000000000e+00
     1024000000   -4,118283987e-01    1,538366973e-01   -3,537702933e-02   -3,926174939e-01    0,000000000e+00    0,000000000e+00    0,000000000e+00    0,000000000e+00
     1038000000   -2,189411968e-01    2,939569354e-01   -2,462650836e-01   -2,620612383e-01    0,000000000e+00    0,000000000e+00    0,000000000e+00    0,000000000e+00
     1052000000   -9,682042524e-03    2,795868516e-01   -3,172004521e-01   -4,786921293e-02    0,000000000e+00    0,000000000e+00    0,000000000e+00    0,000000000e+00
     1066000000    1,364221275e-01    1,657600254e-01   -2,596645057e-01    1,422185153e-01    0,000000000e+00    0,000000000e+00    0,000000000e+00    0,000000000e+00
     1080000000    1,974353194e-01   -2,116185147e-03   -1,207170188e-01    2,646655738e-01    0,000000000e+00    0,000000000e+00    0,000000000e+00    0,000000000e+00
     1094000000    1,562302858e-01   -1,764625460e-01    6,319767982e-02    3,023691177e-01    0,000000000e+00    0,000000000e+00    0,000000000e+00    0,000000000e+00
     1108000000   -5,151229911e-03   -3,057072461e-01    2,771277428e-01    2,461399138e-01    0,000000000e+00    0,000000000e+00    0,000000000e+00    0,000000000e+00
     1122000000   -2,533705831e-01   -2,653798163e-01    4,718745649e-01    1,260615885e-02    0,000000000e+00    0,000000000e+00    0,000000000e+00    0,000000000e+00
     1136000000   -3,193987310e-01    3,647057340e-02    4,006984532e-01   -3,925853372e-01    0,000000000e+00    0,000000000e+00    0,000000000e+00    0,000000000e+00
     1150000000   -4,320279509e-02    1,551777869e-01    5,273734219e-03   -5,405960679e-01    0,000000000e+00    0,000000000e+00    0,000000000e+00    0,000000000e+00
     1164000000    1,263684928e-01   -6,378947198e-02   -2,763983607e-01   -3,783509731e-01    0,000000000e+00    0,000000000e+00    0,000000000e+00    0,000000000e+00
     1178000000    1,843320765e-02   -3,059881330e-01   -3,666194975e-01   -1,518955529e-01    0,000000000e+00    0,000000000e+00    0,000000000e+00    0,000000000e+00
     1192000000   -2,682184875e-01   -3,728615940e-01   -3,250183165e-01    5,449540168e-02    0,000000000e+00    0,000000000e+00    0,000000000e+00    0,000000000e+00
     1206000000   -5,244632959e-01   -1,587889642e-01   -1,665158272e-01    1,822687685e-01    0,000000000e+00    0,000000000e+00    0,000000000e+00    0,000000000e+00
     1220000000   -5,165358186e-01    1,712664813e-01    1,430109958e-03    1,582020074e-01    0,000000000e+00    0,000000000e+00    0,000000000e+00    0,000000000e+00
     1234000000   -2,906732559e-01    3,608213067e-01    6,945256144e-02    6,129699945e-02    0,000000000e+00    0,000000000e+00    0,000000000e+00    0,000000000e+00
     1248000000   -4,335808754e-02    3,632052839e-01    5,423260853e-02   -6,586650386e-03    0,000000000e+00    0,000000000e+00    0,000000000e+00    0,000000000e+00
     1262000000    1,239215657e-01    2,529694736e-01    2,136224695e-02   -2,175903693e-02    0,000000000e+00    0,000000000e+00    0,000000000e+00    0,000000000e+00
     1276000000    2,130414099e-01    1,016955525e-01    1,389917103e-03    4,693908617e-03    0,000000000e+00    0,000000000e+00    0,000000000e+00    0,000000000e+00
     1290000000    2,225856930e-01   -6,982287765e-02    1,997379586e-02    5,578431487e-02    0,000000000e+00    0,000000000e+00    0,000000000e+00    0,000000000e+00
     1304000000    1,536424011e-01   -2,402810007e-01    1,302572489e-01    7,089029253e-02    0,000000000e+00    0,000000000e+00    0,000000000e+00    0,000000000e+00
     1318000000    3,677790985e-02   -3,325210810e-01    1,304740012e-01   -1,672757566e-01    0,000000000e+00    0,000000000e+00    0,000000000e+00    0,000000000e+00
     1332000000   -1,262727082e-01   -4,391174316e-01   -4,263604805e-02   -5,262753367e-02    0,000000000e+00    0,000000000e+00    0,000000000e+00    0,000000000e+00
     1346000000   -3,956286311e-01   -4,054509699e-01    3,163430840e-02    6,851925701e-02    0,000000000e+00    0,000000000e+00    0,000000000e+00    0,000000000e+00
     1360000000   -6,136762500e-01   -1,880724430e-01    1,336992234e-01    6,537708640e-02    0,000000000e+00    0,000000000e+00    0,000000000e+00    0,000000000e+00
     1374000000   -6,373521686e-01    1,228065789e-01    2,066297978e-01    7,739071734e-03    0,000000000e+00    0,000000000e+00    0,000000000e+00    0,000000000e+00
     1388000000   -4,729179740e-01    3,686920404e-01    2,010400742e-01   -6,420076638e-02    0,000000000e+00    0,000000000e+00    0,000000000e+00    0,000000000e+00
     1402000000   -2,438928336e-01    4,546467364e-01    1,753348261e-01   -1,000783741e-01    0,000000000e+00    0,000000000e+00    0,000000000e+00    0,000000000e+00
     1416000000   -2,978307381e-02    4,091767669e-01    1,698971242e-01   -1,128494143e-01    0,000000000e+00    0,000000000e+00    0,000000000e+00    0,000000000e+00
     1430000000    1,264588535e-01    3,032518625e-01    1,553200781e-01   -1,147991568e-01    0,000000000e+00    0,000000000e+00    0,000000000e+00    0,000000000e+00
     1444000000    2,097685486e-01    1,560171545e-01    1,588396132e-01   -9,796209633e-02    0,000000000e+00    0,000000000e+00    0,000000000e+00    0,000000000e+00
     1458000000    2,392864823e-01   -2,351436205e-02    1,419258267e-01   -8,118405193e-02    0,000000000e+00    0,000000000e+00    0,000000000e+00    0,000000000e+00
     1472000000    1,916532665e-01   -2,030418813e-01    1,525552869e-01   -3,329716995e-02    0,000000000e+00    0,000000000e+00    0,000000000e+00    0,000000000e+00
     1486000000    6,012054533e-02   -3,771148920e-01    1,706042439e-01    2,434996516e-02    0,000000000e+00    0,000000000e+00    0,000000000e+00    0,000000000e+00
     1500000000   -1,676647663e-01   -4,950482249e-01    2,602551281e-01    9,692356735e-02    0,000000000e+00    0,000000000e+00    0,000000000e+00    0,000000000e+00
