! NanoVNA-App
! Date: 2025-09-25 15:33:37
! Start: 100MHz Stop: 1,5GHz Points: 101
! S-Parameter data: F S11 S21 S12 S22
# Hz S RI R 50
!     Frequency           S11_Real           S11_Imag           S21_Real           S21_Imag           S12_Real           S12_Imag           S22_Real           S22_Imag
      100000000   -2,886641398e-02   -4,165506922e-03    3,741506636e-01   -7,217939496e-01    0,000000000e+00    0,000000000e+00    0,000000000e+00    0,000000000e+00
      114000000   -1,650543138e-02    1,151439454e-02   -8,918304741e-02   -8,055642247e-01    0,000000000e+00    0,000000000e+00    0,000000000e+00    0,000000000e+00
      128000000    3,443154041e-03    1,056936570e-02   -5,144360065e-01   -6,204447150e-01    0,000000000e+00    0,000000000e+00    0,000000000e+00    0,000000000e+00
      142000000    1,455816533e-02   -2,936480800e-03   -7,671046853e-01   -2,364257574e-01    0,000000000e+00    0,000000000e+00    0,000000000e+00    0,000000000e+00
      156000000    1,442583743e-02   -1,497672871e-02   -7,646141052e-01    2,180254757e-01    0,000000000e+00    0,000000000e+00    0,000000000e+00    0,000000000e+00
      170000000    1,670224592e-02   -2,249640413e-02   -5,182891488e-01    6,045926809e-01    0,000000000e+00    0,000000000e+00    0,000000000e+00    0,000000000e+00
      184000000    2,100707963e-02   -3,711602837e-02   -1,014350653e-01    7,862020731e-01    0,000000000e+00    0,000000000e+00    0,000000000e+00    0,000000000e+00
      198000000    1,295828819e-02   -6,244992837e-02    3,433321416e-01    7,127540708e-01    0,000000000e+00    0,000000000e+00    0,000000000e+00    0,000000000e+00
      212000000   -1,865688339e-02   -8,134116977e-02    6,780752540e-01    4,100688398e-01    0,000000000e+00    0,000000000e+00    0,000000000e+00    0,000000000e+00
      226000000   -6,174572185e-02   -6,921009719e-02    7,958613038e-01   -3,057727590e-02    0,000000000e+00    0,000000000e+00    0,000000000e+00    0,000000000e+00
      240000000   -8,256235719e-02   -2,560541220e-02    6,463481188e-01   -4,672204852e-01    0,000000000e+00    0,000000000e+00    0,000000000e+00    0,000000000e+00
      254000000   -6,349157542e-02    1,727808826e-02    2,764925361e-01   -7,433095574e-01    0,000000000e+00    0,000000000e+00    0,000000000e+00    0,000000000e+00
      268000000   -2,387122437e-02    2,896057442e-02   -1,781885028e-01   -7,640668750e-01    0,000000000e+00    0,000000000e+00    0,000000000e+00    0,000000000e+00
      282000000    4,183201119e-03    1,198498160e-02   -5,619251132e-01   -5,355290771e-01    0,000000000e+00    0,000000000e+00    0,000000000e+00    0,000000000e+00
      296000000    9,738619439e-03   -7,866377942e-03   -7,597694397e-01   -1,395740211e-01    0,000000000e+00    0,000000000e+00    0,000000000e+00    0,000000000e+00
      310000000    1,097256131e-02   -1,612552814e-02   -7,125947475e-01    2,995532453e-01    0,000000000e+00    0,000000000e+00    0,000000000e+00    0,000000000e+00
      324000000    1,967883855e-02   -2,657139860e-02   -4,273917377e-01    6,373870969e-01    0,000000000e+00    0,000000000e+00    0,000000000e+00    0,000000000e+00
      338000000    2,592066117e-02   -5,226735026e-02   -8,809288032e-03    7,607539296e-01    0,000000000e+00    0,000000000e+00    0,000000000e+00    0,000000000e+00
      352000000    7,662981283e-03   -8,461076766e-02    4,061482251e-01    6,391202211e-01    0,000000000e+00    0,000000000e+00    0,000000000e+00    0,000000000e+00
      366000000   -3,449818864e-02   -9,571968764e-02    6,908707023e-01    3,112358153e-01    0,000000000e+00    0,000000000e+00    0,000000000e+00    0,000000000e+00
      380000000   -7,084636390e-02   -7,100030035e-02    7,480594516e-01   -1,253507733e-01    0,000000000e+00    0,000000000e+00    0,000000000e+00    0,000000000e+00
      394000000   -7,252692431e-02   -3,257999569e-02    5,459225178e-01   -5,215849876e-01    0,000000000e+00    0,000000000e+00    0,000000000e+00    0,000000000e+00
      408000000   -4,619473219e-02   -1,615214162e-02    1,615846455e-01   -7,331289649e-01    0,000000000e+00    0,000000000e+00    0,000000000e+00    0,000000000e+00
      422000000   -2,849506214e-02   -3,191301227e-02   -2,676288486e-01   -6,951237917e-01    0,000000000e+00    0,000000000e+00    0,000000000e+00    0,000000000e+00
      436000000   -4,071095958e-02   -5,178914964e-02   -6,040104032e-01   -4,323621690e-01    0,000000000e+00    0,000000000e+00    0,000000000e+00    0,000000000e+00
      450000000   -6,759878248e-02   -4,404800013e-02   -7,406510711e-01   -2,182747424e-02    0,000000000e+00    0,000000000e+00    0,000000000e+00    0,000000000e+00
      464000000   -7,326857001e-02   -1,186725963e-02   -6,183402538e-01    3,977594376e-01    0,000000000e+00    0,000000000e+00    0,000000000e+00    0,000000000e+00
      478000000   -4,806366190e-02    1,178190019e-02   -2,821122706e-01    6,680592895e-01    0,000000000e+00    0,000000000e+00    0,000000000e+00    0,000000000e+00
      492000000   -1,544100512e-02    6,333176978e-03    1,382760257e-01    7,011240125e-01    0,000000000e+00    0,000000000e+00    0,000000000e+00    0,000000000e+00
      506000000   -2,487656893e-03   -1,579800993e-02    4,982954860e-01    5,019252300e-01    0,000000000e+00    0,000000000e+00    0,000000000e+00    0,000000000e+00
      520000000   -5,139875226e-03   -3,177517653e-02    6,885051727e-01    1,415437609e-01    0,000000000e+00    0,000000000e+00    0,000000000e+00    0,000000000e+00
      534000000   -3,560794517e-03   -3,828070685e-02    6,438741088e-01   -2,624157369e-01    0,000000000e+00    0,000000000e+00    0,000000000e+00    0,000000000e+00
      548000000    6,148582324e-03   -5,379076302e-02    3,815557957e-01   -5,666319728e-01    0,000000000e+00    0,000000000e+00    0,000000000e+00    0,000000000e+00
      562000000    3,180680797e-03   -8,951833844e-02    1,662585186e-03   -6,728884578e-01    0,000000000e+00    0,000000000e+00    0,000000000e+00    0,000000000e+00
      576000000   -3,456937149e-02   -1,241535470e-01   -3,689556122e-01   -5,567129254e-01    0,000000000e+00    0,000000000e+00    0,000000000e+00    0,000000000e+00
      590000000   -9,642138332e-02   -1,226328537e-01   -6,195034385e-01   -2,652335763e-01    0,000000000e+00    0,000000000e+00    0,000000000e+00    0,000000000e+00
      604000000   -1,394529641e-01   -7,179252803e-02   -6,644687653e-01    1,378640383e-01    0,000000000e+00    0,000000000e+00    0,000000000e+00    0,000000000e+00
      618000000   -1,288212389e-01   -9,062736295e-03   -4,644846320e-01    4,947990179e-01    0,000000000e+00    0,000000000e+00    0,000000000e+00    0,000000000e+00
      632000000   -8,436258882e-02    1,648800448e-02   -9,958523512e-02    6,642590761e-01    0,000000000e+00    0,000000000e+00    0,000000000e+00    0,000000000e+00
      646000000   -5,052838847e-02    1,443337824e-04    2,883293629e-01    5,952627063e-01    0,000000000e+00    0,000000000e+00    0,000000000e+00    0,000000000e+00
      660000000   -5,269566178e-02   -2,166048065e-02    5,667594075e-01    3,231498599e-01    0,000000000e+00    0,000000000e+00    0,000000000e+00    0,000000000e+00
      674000000   -7,101062685e-02   -1,787039265e-02    6,432710886e-01   -6,488076597e-02    0,000000000e+00    0,000000000e+00    0,000000000e+00    0,000000000e+00
      688000000   -6,790606678e-02    9,205972776e-03    4,716307521e-01   -4,285103977e-01    0,000000000e+00    0,000000000e+00    0,000000000e+00    0,000000000e+00
      702000000   -3,748999909e-02    2,602269500e-02    1,234272644e-01   -6,097200513e-01    0,000000000e+00    0,000000000e+00    0,000000000e+00    0,000000000e+00
      716000000    1,724060508e-03    1,824996062e-02   -2,645002306e-01   -5,464575291e-01    0,000000000e+00    0,000000000e+00    0,000000000e+00    0,000000000e+00
      730000000    3,627505153e-02   -1,131378021e-02   -5,289714336e-01   -2,693016529e-01    0,000000000e+00    0,000000000e+00    0,000000000e+00    0,000000000e+00
      744000000    6,548178196e-02   -6,197833642e-02   -5,648272038e-01    1,063359603e-01    0,000000000e+00    0,000000000e+00    0,000000000e+00    0,000000000e+00
      758000000    6,668771803e-02   -1,528549045e-01   -3,629208505e-01    4,101943374e-01    0,000000000e+00    0,000000000e+00    0,000000000e+00    0,000000000e+00
      772000000   -1,236838847e-02   -2,626182735e-01   -3,549740091e-02    5,161052346e-01    0,000000000e+00    0,000000000e+00    0,000000000e+00    0,000000000e+00
      786000000   -2,069428861e-01   -3,032133281e-01    2,751751244e-01    3,959872127e-01    0,000000000e+00    0,000000000e+00    0,000000000e+00    0,000000000e+00
      800000000   -4,252417386e-01   -1,311526299e-01    4,171818495e-01    9,925681353e-02    0,000000000e+00    0,000000000e+00    0,000000000e+00    0,000000000e+00
      814000000   -3,897992074e-01    2,214661986e-01    2,824129462e-01   -1,731416732e-01    0,000000000e+00    0,000000000e+00    0,000000000e+00    0,000000000e+00
      828000000   -4,964451864e-02    3,683943450e-01    5,541133508e-02   -1,898611188e-01    0,000000000e+00    0,000000000e+00    0,000000000e+00    0,000000000e+00
      842000000    2,353639752e-01    1,857924312e-01   -1,702225581e-02   -7,121206820e-02    0,000000000e+00    0,000000000e+00    0,000000000e+00    0,000000000e+00
      856000000    2,803921998e-01   -1,247196719e-01    4,515735433e-02   -1,334969513e-02    0,000000000e+00    0,000000000e+00    0,000000000e+00    0,000000000e+00
      870000000    7,438513637e-02   -3,759067953e-01    1,134301871e-01   -9,070538729e-02    0,000000000e+00    0,000000000e+00    0,000000000e+00    0,000000000e+00
      884000000   -2,947473228e-01   -3,624498844e-01    2,917709574e-02   -2,456125319e-01    0,000000000e+00    0,000000000e+00    0,000000000e+00    0,000000000e+00
      898000000   -4,719166160e-01    9,509211406e-03   -2,221925557e-01   -2,274635434e-01    0,000000000e+00    0,000000000e+00    0,000000000e+00    0,000000000e+00
      912000000   -2,266648561e-01    2,948882878e-01   -3,421283066e-01    5,853485316e-02    0,000000000e+00    0,000000000e+00    0,000000000e+00    0,000000000e+00
      926000000    6,689035892e-02    2,635503113e-01   -2,160702944e-01    2,641209364e-01    0,000000000e+00    0,000000000e+00    0,000000000e+00    0,000000000e+00
      940000000    2,142386883e-01    7,921738923e-02   -3,793224692e-02    3,288634419e-01    0,000000000e+00    0,000000000e+00    0,000000000e+00    0,000000000e+00
      954000000    2,235876620e-01   -1,298995465e-01    1,311660111e-01    3,069537282e-01    0,000000000e+00    0,000000000e+00    0,000000000e+00    0,000000000e+00
      968000000    1,132403091e-01   -3,006486297e-01    2,692858279e-01    2,184500545e-01    0,000000000e+00    0,000000000e+00    0,000000000e+00    0,000000000e+00
      982000000   -8,321852237e-02   -3,894799650e-01    3,667819500e-01    6,495750695e-02    0,000000000e+00    0,000000000e+00    0,000000000e+00    0,000000000e+00
      996000000   -3,157093227e-01   -3,330752850e-01    3,712230027e-01   -1,449068785e-01    0,000000000e+00    0,000000000e+00    0,000000000e+00    0,000000000e+00
     1010000000   -4,610258937e-01   -1,130640209e-01    2,230469733e-01   -3,421860933e-01    0,000000000e+00    0,000000000e+00    0,000000000e+00    0,000000000e+00
     1024000000   -4,176324010e-01    1,510052234e-01   -3,305454552e-02   -3,937630951e-01    0,000000000e+00    0,000000000e+00    0,000000000e+00    0,000000000e+00
     1038000000   -2,156442851e-01    2,944127619e-01   -2,475413233e-01   -2,593975365e-01    0,000000000e+00    0,000000000e+00    0,000000000e+00    0,000000000e+00
     1052000000   -6,548814010e-03    2,765319645e-01   -3,193440139e-01   -4,598704353e-02    0,000000000e+00    0,000000000e+00    0,000000000e+00    0,000000000e+00
     1066000000    1,370325536e-01    1,651510298e-01   -2,574319243e-01    1,435964257e-01    0,000000000e+00    0,000000000e+00    0,000000000e+00    0,000000000e+00
     1080000000    1,945490688e-01   -3,532370785e-03   -1,181857362e-01    2,650713623e-01    0,000000000e+00    0,000000000e+00    0,000000000e+00    0,000000000e+00
     1094000000    1,548131406e-01   -1,772523522e-01    6,470977515e-02    3,079274297e-01    0,000000000e+00    0,000000000e+00    0,000000000e+00    0,000000000e+00
     1108000000   -4,325497895e-03   -3,045738935e-01    2,777713835e-01    2,484752834e-01    0,000000000e+00    0,000000000e+00    0,000000000e+00    0,000000000e+00
     1122000000   -2,475344241e-01   -2,618555427e-01    4,710685313e-01    1,509411912e-02    0,000000000e+00    0,000000000e+00    0,000000000e+00    0,000000000e+00
     1136000000   -3,164319396e-01    2,914796397e-02    4,012138546e-01   -3,915643394e-01    0,000000000e+00    0,000000000e+00    0,000000000e+00    0,000000000e+00
     1150000000   -3,635052964e-02    1,523529589e-01    5,347671453e-03   -5,416021943e-01    0,000000000e+00    0,000000000e+00    0,000000000e+00    0,000000000e+00
     1164000000    1,252205372e-01   -6,060034782e-02   -2,776382267e-01   -3,765406311e-01    0,000000000e+00    0,000000000e+00    0,000000000e+00    0,000000000e+00
     1178000000    1,540635992e-02   -3,024107516e-01   -3,692806661e-01   -1,535305679e-01    0,000000000e+00    0,000000000e+00    0,000000000e+00    0,000000000e+00
     1192000000   -2,672464848e-01   -3,705996573e-01   -3,262216449e-01    5,686507002e-02    0,000000000e+00    0,000000000e+00    0,000000000e+00    0,000000000e+00
     1206000000   -5,193468332e-01   -1,580712199e-01   -1,640166640e-01    1,800792813e-01    0,000000000e+00    0,000000000e+00    0,000000000e+00    0,000000000e+00
     1220000000   -5,065285563e-01    1,701305360e-01    2,131697955e-03    1,583049744e-01    0,000000000e+00    0,000000000e+00    0,000000000e+00    0,000000000e+00
     1234000000   -2,826724648e-01    3,614909649e-01    7,502591610e-02    6,309989095e-02    0,000000000e+00    0,000000000e+00    0,000000000e+00    0,000000000e+00
     1248000000   -4,288959876e-02    3,692158461e-01    5,875961855e-02   -2,124351449e-03    0,000000000e+00    0,000000000e+00    0,000000000e+00    0,000000000e+00
     1262000000    1,233914122e-01    2,625505328e-01    1,693284884e-02   -1,655033045e-02    0,000000000e+00    0,000000000e+00    0,000000000e+00    0,000000000e+00
     1276000000    2,077051401e-01    1,005000547e-01   -6,020419765e-03    4,177773837e-03    0,000000000e+00    0,000000000e+00    0,000000000e+00    0,000000000e+00
     1290000000    2,258887589e-01   -7,507354766e-02    2,019567974e-02    5,361559987e-02    0,000000000e+00    0,000000000e+00    0,000000000e+00    0,000000000e+00
     1304000000    1,530117095e-01   -2,402488738e-01    1,315356791e-01    6,774762273e-02    0,000000000e+00    0,000000000e+00    0,000000000e+00    0,000000000e+00
     1318000000    3,499624878e-02   -3,337794542e-01    1,207545325e-01   -1,660774052e-01    0,000000000e+00    0,000000000e+00    0,000000000e+00    0,000000000e+00
     1332000000   -1,278648674e-01   -4,341242015e-01   -3,715606406e-02   -4,469701648e-02    0,000000000e+00    0,000000000e+00    0,000000000e+00    0,000000000e+00
     1346000000   -3,927109838e-01   -4,102089703e-01    2,664689161e-02    6,112534180e-02    0,000000000e+00    0,000000000e+00    0,000000000e+00    0,000000000e+00
     1360000000   -6,095615029e-01   -1,855469942e-01    1,323472708e-01    7,853309810e-02    0,000000000e+00    0,000000000e+00    0,000000000e+00    0,000000000e+00
     1374000000   -6,407555342e-01    1,284823567e-01    1,979936361e-01    1,041431632e-02    0,000000000e+00    0,000000000e+00    0,000000000e+00    0,000000000e+00
     1388000000   -4,715694487e-01    3,667730093e-01    2,097434402e-01   -6,449860334e-02    0,000000000e+00    0,000000000e+00    0,000000000e+00    0,000000000e+00
     1402000000   -2,333416790e-01    4,537596703e-01    1,855251342e-01   -9,159377962e-02    0,000000000e+00    0,000000000e+00    0,000000000e+00    0,000000000e+00
     1416000000   -2,897370607e-02    4,082890153e-01    1,651178598e-01   -1,067941785e-01    0,000000000e+00    0,000000000e+00    0,000000000e+00    0,000000000e+00
     1430000000    1,244690418e-01    2,996785641e-01    1,603872329e-01   -8,869156241e-02    0,000000000e+00    0,000000000e+00    0,000000000e+00    0,000000000e+00
     1444000000    2,034872919e-01    1,530476511e-01    1,498624235e-01   -9,306159616e-02    0,000000000e+00    0,000000000e+00    0,000000000e+00    0,000000000e+00
     1458000000    2,355331630e-01   -2,158160694e-02    1,530994773e-01   -7,340229303e-02    0,000000000e+00    0,000000000e+00    0,000000000e+00    0,000000000e+00
     1472000000    1,855587512e-01   -1,991603374e-01    1,313053519e-01   -2,147313580e-02    0,000000000e+00    0,000000000e+00    0,000000000e+00    0,000000000e+00
     1486000000    6,115021557e-02   -3,753885925e-01    1,662623733e-01    2,347611263e-02    0,000000000e+00    0,000000000e+00    0,000000000e+00    0,000000000e+00
     1500000000   -1,658526212e-01   -4,942262173e-01    2,634128332e-01    8,325212449e-02    0,000000000e+00    0,000000000e+00    0,000000000e+00    0,000000000e+00
