! NanoVNA-App
! Date: 2025-09-25 15:33:22
! Start: 100MHz Stop: 1,5GHz Points: 101
! S-Parameter data: F S11 S21 S12 S22
# Hz S RI R 50
!     Frequency           S11_Real           S11_Imag           S21_Real           S21_Imag           S12_Real           S12_Imag           S22_Real           S22_Imag
      100000000   -2,887728997e-02   -4,170689732e-03    3,741126359e-01   -7,217960954e-01    0,000000000e+00    0,000000000e+00    0,000000000e+00    0,000000000e+00
      114000000   -1,650728472e-02    1,151901297e-02   -8,914040774e-02   -8,052865267e-01    0,000000000e+00    0,000000000e+00    0,000000000e+00    0,000000000e+00
      128000000    3,439137712e-03    1,054278109e-02   -5,147177577e-01   -6,205388308e-01    0,000000000e+00    0,000000000e+00    0,000000000e+00    0,000000000e+00
      142000000    1,455369312e-02   -2,961603925e-03   -7,671242356e-01   -2,365650088e-01    0,000000000e+00    0,000000000e+00    0,000000000e+00    0,000000000e+00
      156000000    1,441707090e-02   -1,495136507e-02   -7,647471428e-01    2,179523557e-01    0,000000000e+00    0,000000000e+00    0,000000000e+00    0,000000000e+00
      170000000    1,667834073e-02   -2,249832265e-02   -5,183897018e-01    6,046861410e-01    0,000000000e+00    0,000000000e+00    0,000000000e+00    0,000000000e+00
      184000000    2,100651897e-02   -3,707588091e-02   -1,015025526e-01    7,863605022e-01    0,000000000e+00    0,000000000e+00    0,000000000e+00    0,000000000e+00
      198000000    1,300291251e-02   -6,246484071e-02    3,433511257e-01    7,121006846e-01    0,000000000e+00    0,000000000e+00    0,000000000e+00    0,000000000e+00
      212000000   -1,866272464e-02   -8,131719381e-02    6,780474782e-01    4,100694358e-01    0,000000000e+00    0,000000000e+00    0,000000000e+00    0,000000000e+00
      226000000   -6,167133525e-02   -6,924469024e-02    7,957178950e-01   -3,058617748e-02    0,000000000e+00    0,000000000e+00    0,000000000e+00    0,000000000e+00
      240000000   -8,261952549e-02   -2,563125454e-02    6,462377906e-01   -4,671081305e-01    0,000000000e+00    0,000000000e+00    0,000000000e+00    0,000000000e+00
      254000000   -6,350430846e-02    1,726987213e-02    2,761494219e-01   -7,433705926e-01    0,000000000e+00    0,000000000e+00    0,000000000e+00    0,000000000e+00
      268000000   -2,381982282e-02    2,901959233e-02   -1,783216298e-01   -7,643961310e-01    0,000000000e+00    0,000000000e+00    0,000000000e+00    0,000000000e+00
      282000000    4,150698427e-03    1,198300812e-02   -5,618277788e-01   -5,357013941e-01    0,000000000e+00    0,000000000e+00    0,000000000e+00    0,000000000e+00
      296000000    9,686190635e-03   -7,789307274e-03   -7,597253919e-01   -1,396273077e-01    0,000000000e+00    0,000000000e+00    0,000000000e+00    0,000000000e+00
      310000000    1,109906565e-02   -1,619189791e-02   -7,119415998e-01    2,980890274e-01    0,000000000e+00    0,000000000e+00    0,000000000e+00    0,000000000e+00
      324000000    1,950958930e-02   -2,662799135e-02   -4,279082417e-01    6,372528076e-01    0,000000000e+00    0,000000000e+00    0,000000000e+00    0,000000000e+00
      338000000    2,552551031e-02   -5,201073736e-02   -1,000981685e-02    7,634406686e-01    0,000000000e+00    0,000000000e+00    0,000000000e+00    0,000000000e+00
      352000000    7,418651134e-03   -8,474507183e-02    4,064768255e-01    6,392137408e-01    0,000000000e+00    0,000000000e+00    0,000000000e+00    0,000000000e+00
      366000000   -3,455690295e-02   -9,591891617e-02    6,910910606e-01    3,110929132e-01    0,000000000e+00    0,000000000e+00    0,000000000e+00    0,000000000e+00
      380000000   -7,064069808e-02   -7,118882984e-02    7,479227185e-01   -1,256554574e-01    0,000000000e+00    0,000000000e+00    0,000000000e+00    0,000000000e+00
      394000000   -7,255849987e-02   -3,239365295e-02    5,459868312e-01   -5,212916136e-01    0,000000000e+00    0,000000000e+00    0,000000000e+00    0,000000000e+00
      408000000   -4,649419710e-02   -1,625556126e-02    1,608291268e-01   -7,329413295e-01    0,000000000e+00    0,000000000e+00    0,000000000e+00    0,000000000e+00
      422000000   -2,840239741e-02   -3,184162080e-02   -2,685941756e-01   -6,948292255e-01    0,000000000e+00    0,000000000e+00    0,000000000e+00    0,000000000e+00
      436000000   -4,062172398e-02   -5,186747387e-02   -6,039148569e-01   -4,313440621e-01    0,000000000e+00    0,000000000e+00    0,000000000e+00    0,000000000e+00
      450000000   -6,719148159e-02   -4,385260865e-02   -7,405549884e-01   -2,120880410e-02    0,000000000e+00    0,000000000e+00    0,000000000e+00    0,000000000e+00
      464000000   -7,344586402e-02   -1,190518495e-02   -6,180539727e-01    3,970598876e-01    0,000000000e+00    0,000000000e+00    0,000000000e+00    0,000000000e+00
      478000000   -4,743011296e-02    1,186431758e-02   -2,820219994e-01    6,680305600e-01    0,000000000e+00    0,000000000e+00    0,000000000e+00    0,000000000e+00
      492000000   -1,610384509e-02    5,865219515e-03    1,380801052e-01    7,012749314e-01    0,000000000e+00    0,000000000e+00    0,000000000e+00    0,000000000e+00
      506000000   -2,676113043e-03   -1,555542927e-02    4,987026751e-01    5,027912259e-01    0,000000000e+00    0,000000000e+00    0,000000000e+00    0,000000000e+00
      520000000   -4,927049391e-03   -3,170259669e-02    6,879629493e-01    1,400810331e-01    0,000000000e+00    0,000000000e+00    0,000000000e+00    0,000000000e+00
      534000000   -3,738095751e-03   -3,807039559e-02    6,434094906e-01   -2,624685168e-01    0,000000000e+00    0,000000000e+00    0,000000000e+00    0,000000000e+00
      548000000    6,073671393e-03   -5,371330678e-02    3,813564181e-01   -5,673209429e-01    0,000000000e+00    0,000000000e+00    0,000000000e+00    0,000000000e+00
      562000000    3,189874580e-03   -8,916212618e-02    2,872966230e-03   -6,716888547e-01    0,000000000e+00    0,000000000e+00    0,000000000e+00    0,000000000e+00
      576000000   -3,453093767e-02   -1,245417222e-01   -3,690516353e-01   -5,580052137e-01    0,000000000e+00    0,000000000e+00    0,000000000e+00    0,000000000e+00
      590000000   -9,612216055e-02   -1,229462698e-01   -6,206312180e-01   -2,652727664e-01    0,000000000e+00    0,000000000e+00    0,000000000e+00    0,000000000e+00
      604000000   -1,393491626e-01   -7,190555334e-02   -6,649647355e-01    1,378812939e-01    0,000000000e+00    0,000000000e+00    0,000000000e+00    0,000000000e+00
      618000000   -1,295244694e-01   -9,471240453e-03   -4,647120535e-01    4,946151674e-01    0,000000000e+00    0,000000000e+00    0,000000000e+00    0,000000000e+00
      632000000   -8,445365727e-02    1,697023027e-02   -9,948661178e-02    6,637508273e-01    0,000000000e+00    0,000000000e+00    0,000000000e+00    0,000000000e+00
      646000000   -5,069674924e-02    9,218559717e-04    2,870574296e-01    5,954877138e-01    0,000000000e+00    0,000000000e+00    0,000000000e+00    0,000000000e+00
      660000000   -5,327646434e-02   -2,235408127e-02    5,674768090e-01    3,221255839e-01    0,000000000e+00    0,000000000e+00    0,000000000e+00    0,000000000e+00
      674000000   -7,097331434e-02   -1,759961247e-02    6,433631182e-01   -6,568721682e-02    0,000000000e+00    0,000000000e+00    0,000000000e+00    0,000000000e+00
      688000000   -6,908399612e-02    8,755622432e-03    4,713538289e-01   -4,281750917e-01    0,000000000e+00    0,000000000e+00    0,000000000e+00    0,000000000e+00
      702000000   -3,773324937e-02    2,570596896e-02    1,183799505e-01   -6,099017262e-01    0,000000000e+00    0,000000000e+00    0,000000000e+00    0,000000000e+00
      716000000    1,788763911e-03    1,821437664e-02   -2,648971081e-01   -5,471897125e-01    0,000000000e+00    0,000000000e+00    0,000000000e+00    0,000000000e+00
      730000000    3,602725640e-02   -1,110228337e-02   -5,283005238e-01   -2,694054842e-01    0,000000000e+00    0,000000000e+00    0,000000000e+00    0,000000000e+00
      744000000    6,578748673e-02   -6,200035289e-02   -5,639823675e-01    1,065256894e-01    0,000000000e+00    0,000000000e+00    0,000000000e+00    0,000000000e+00
      758000000    6,709938496e-02   -1,517823637e-01   -3,636458516e-01    4,096424282e-01    0,000000000e+00    0,000000000e+00    0,000000000e+00    0,000000000e+00
      772000000   -1,312376466e-02   -2,616527379e-01   -3,384670988e-02    5,147850513e-01    0,000000000e+00    0,000000000e+00    0,000000000e+00    0,000000000e+00
      786000000   -2,067164630e-01   -3,025575280e-01    2,743659019e-01    3,947487772e-01    0,000000000e+00    0,000000000e+00    0,000000000e+00    0,000000000e+00
      800000000   -4,264815450e-01   -1,303488314e-01    4,178238511e-01    9,903799742e-02    0,000000000e+00    0,000000000e+00    0,000000000e+00    0,000000000e+00
      814000000   -3,898702562e-01    2,223912776e-01    2,823100388e-01   -1,731112003e-01    0,000000000e+00    0,000000000e+00    0,000000000e+00    0,000000000e+00
      828000000   -4,926972836e-02    3,684366941e-01    5,489360169e-02   -1,888303757e-01    0,000000000e+00    0,000000000e+00    0,000000000e+00    0,000000000e+00
      842000000    2,349607199e-01    1,855312437e-01   -1,723654196e-02   -7,081305981e-02    0,000000000e+00    0,000000000e+00    0,000000000e+00    0,000000000e+00
      856000000    2,806118429e-01   -1,243992448e-01    4,523147270e-02   -1,301778853e-02    0,000000000e+00    0,000000000e+00    0,000000000e+00    0,000000000e+00
      870000000    7,449022681e-02   -3,766926825e-01    1,137135774e-01   -9,130896628e-02    0,000000000e+00    0,000000000e+00    0,000000000e+00    0,000000000e+00
      884000000   -2,949743271e-01   -3,621869981e-01    2,872871421e-02   -2,465443611e-01    0,000000000e+00    0,000000000e+00    0,000000000e+00    0,000000000e+00
      898000000   -4,728120267e-01    8,303079754e-03   -2,226098180e-01   -2,275612056e-01    0,000000000e+00    0,000000000e+00    0,000000000e+00    0,000000000e+00
      912000000   -2,256687135e-01    2,941084206e-01   -3,361381292e-01    7,180746645e-02    0,000000000e+00    0,000000000e+00    0,000000000e+00    0,000000000e+00
      926000000    6,713157147e-02    2,656031251e-01   -2,169592828e-01    2,658084035e-01    0,000000000e+00    0,000000000e+00    0,000000000e+00    0,000000000e+00
      940000000    2,138534784e-01    7,885721326e-02   -3,621391580e-02    3,297380209e-01    0,000000000e+00    0,000000000e+00    0,000000000e+00    0,000000000e+00
      954000000    2,222232223e-01   -1,298515201e-01    1,297249198e-01    3,071707189e-01    0,000000000e+00    0,000000000e+00    0,000000000e+00    0,000000000e+00
      968000000    1,177336201e-01   -2,997440100e-01    2,715043724e-01    2,182782441e-01    0,000000000e+00    0,000000000e+00    0,000000000e+00    0,000000000e+00
      982000000   -8,115549386e-02   -3,857231438e-01    3,672203124e-01    6,535311043e-02    0,000000000e+00    0,000000000e+00    0,000000000e+00    0,000000000e+00
      996000000   -3,172955811e-01   -3,259019554e-01    3,687912822e-01   -1,445270032e-01    0,000000000e+00    0,000000000e+00    0,000000000e+00    0,000000000e+00
     1010000000   -4,597987235e-01   -1,117641181e-01    2,227068543e-01   -3,418619931e-01    0,000000000e+00    0,000000000e+00    0,000000000e+00    0,000000000e+00
     1024000000   -4,183066189e-01    1,475338042e-01   -3,247362748e-02   -3,909867704e-01    0,000000000e+00    0,000000000e+00    0,000000000e+00    0,000000000e+00
     1038000000   -2,188691497e-01    2,945116758e-01   -2,477029413e-01   -2,608862519e-01    0,000000000e+00    0,000000000e+00    0,000000000e+00    0,000000000e+00
     1052000000   -1,123851351e-02    2,776653469e-01   -3,177754283e-01   -4,649172723e-02    0,000000000e+00    0,000000000e+00    0,000000000e+00    0,000000000e+00
     1066000000    1,353514493e-01    1,618984491e-01   -2,583619356e-01    1,408840865e-01    0,000000000e+00    0,000000000e+00    0,000000000e+00    0,000000000e+00
     1080000000    1,965627819e-01   -7,160265814e-04   -1,183619946e-01    2,630508244e-01    0,000000000e+00    0,000000000e+00    0,000000000e+00    0,000000000e+00
     1094000000    1,529400796e-01   -1,777146310e-01    6,599058211e-02    3,051126897e-01    0,000000000e+00    0,000000000e+00    0,000000000e+00    0,000000000e+00
     1108000000   -5,453561433e-03   -3,039850593e-01    2,774467766e-01    2,446339130e-01    0,000000000e+00    0,000000000e+00    0,000000000e+00    0,000000000e+00
     1122000000   -2,527810037e-01   -2,662274837e-01    4,717074633e-01    1,207727380e-02    0,000000000e+00    0,000000000e+00    0,000000000e+00    0,000000000e+00
     1136000000   -3,205187917e-01    3,660151735e-02    3,949156702e-01   -3,950780630e-01    0,000000000e+00    0,000000000e+00    0,000000000e+00    0,000000000e+00
     1150000000   -4,278677702e-02    1,522360295e-01    6,684936117e-03   -5,388509631e-01    0,000000000e+00    0,000000000e+00    0,000000000e+00    0,000000000e+00
     1164000000    1,255431026e-01   -6,077122316e-02   -2,770974338e-01   -3,773181140e-01    0,000000000e+00    0,000000000e+00    0,000000000e+00    0,000000000e+00
     1178000000    1,879316568e-02   -3,066697717e-01   -3,676589727e-01   -1,514733136e-01    0,000000000e+00    0,000000000e+00    0,000000000e+00    0,000000000e+00
     1192000000   -2,645801902e-01   -3,677538633e-01   -3,220553994e-01    6,005227566e-02    0,000000000e+00    0,000000000e+00    0,000000000e+00    0,000000000e+00
     1206000000   -5,199778080e-01   -1,623803526e-01   -1,655609012e-01    1,768947095e-01    0,000000000e+00    0,000000000e+00    0,000000000e+00    0,000000000e+00
     1220000000   -5,071624517e-01    1,698225141e-01    3,033956513e-03    1,552733332e-01    0,000000000e+00    0,000000000e+00    0,000000000e+00    0,000000000e+00
     1234000000   -2,794356346e-01    3,619341552e-01    7,225938141e-02    6,233657524e-02    0,000000000e+00    0,000000000e+00    0,000000000e+00    0,000000000e+00
     1248000000   -4,088544101e-02    3,669754863e-01    5,776287243e-02   -8,106670342e-03    0,000000000e+00    0,000000000e+00    0,000000000e+00    0,000000000e+00
     1262000000    1,212199554e-01    2,596549690e-01    1,357324421e-02   -1,910523325e-02    0,000000000e+00    0,000000000e+00    0,000000000e+00    0,000000000e+00
     1276000000    2,071856260e-01    9,851304442e-02   -4,975440446e-03    6,637116894e-04    0,000000000e+00    0,000000000e+00    0,000000000e+00    0,000000000e+00
     1290000000    2,258004397e-01   -7,523103058e-02    1,334303152e-02    4,881677777e-02    0,000000000e+00    0,000000000e+00    0,000000000e+00    0,000000000e+00
     1304000000    1,570103914e-01   -2,401017845e-01    1,354740560e-01    6,506327540e-02    0,000000000e+00    0,000000000e+00    0,000000000e+00    0,000000000e+00
     1318000000    3,430940583e-02   -3,343187869e-01    1,309358925e-01   -1,626966000e-01    0,000000000e+00    0,000000000e+00    0,000000000e+00    0,000000000e+00
     1332000000   -1,266909987e-01   -4,416827559e-01   -3,719812259e-02   -5,050241947e-02    0,000000000e+00    0,000000000e+00    0,000000000e+00    0,000000000e+00
     1346000000   -3,891432881e-01   -4,111073315e-01    2,849843539e-02    6,867405772e-02    0,000000000e+00    0,000000000e+00    0,000000000e+00    0,000000000e+00
     1360000000   -6,036722064e-01   -1,823252439e-01    1,417690814e-01    7,773433626e-02    0,000000000e+00    0,000000000e+00    0,000000000e+00    0,000000000e+00
     1374000000   -6,364556551e-01    1,297652572e-01    1,998020411e-01    1,696917228e-02    0,000000000e+00    0,000000000e+00    0,000000000e+00    0,000000000e+00
     1388000000   -4,657425582e-01    3,619743884e-01    2,144474089e-01   -6,651457399e-02    0,000000000e+00    0,000000000e+00    0,000000000e+00    0,000000000e+00
     1402000000   -2,348873317e-01    4,474914968e-01    1,808760464e-01   -1,005757004e-01    0,000000000e+00    0,000000000e+00    0,000000000e+00    0,000000000e+00
     1416000000   -2,292785235e-02    4,122860432e-01    1,726541668e-01   -1,124215573e-01    0,000000000e+00    0,000000000e+00    0,000000000e+00    0,000000000e+00
     1430000000    1,261665076e-01    3,002458215e-01    1,764782965e-01   -1,255905181e-01    0,000000000e+00    0,000000000e+00    0,000000000e+00    0,000000000e+00
     1444000000    2,083712965e-01    1,495045424e-01    1,510722488e-01   -1,042639166e-01    0,000000000e+00    0,000000000e+00    0,000000000e+00    0,000000000e+00
     1458000000    2,369502634e-01   -2,096057869e-02    1,433939040e-01   -8,261072636e-02    0,000000000e+00    0,000000000e+00    0,000000000e+00    0,000000000e+00
     1472000000    1,871477962e-01   -2,034844756e-01    1,343516856e-01   -3,314206377e-02    0,000000000e+00    0,000000000e+00    0,000000000e+00    0,000000000e+00
     1486000000    6,771507114e-02   -3,788481355e-01    1,749162376e-01    3,722493723e-02    0,000000000e+00    0,000000000e+00    0,000000000e+00    0,000000000e+00
     1500000000   -1,644848436e-01   -4,918517172e-01    2,576772273e-01    1,002767682e-01    0,000000000e+00    0,000000000e+00    0,000000000e+00    0,000000000e+00
