! NanoVNA-App
! Date: 2025-09-25 15:36:49
! Start: 100MHz Stop: 1,5GHz Points: 101
! S-Parameter data: F S11 S21 S12 S22
# Hz S RI R 50
!     Frequency           S11_Real           S11_Imag           S21_Real           S21_Imag           S12_Real           S12_Imag           S22_Real           S22_Imag
      100000000   -2,883993648e-02   -4,161399323e-03    3,740940094e-01   -7,217027545e-01    0,000000000e+00    0,000000000e+00    0,000000000e+00    0,000000000e+00
      114000000   -1,644881815e-02    1,152049843e-02   -8,897297829e-02   -8,054011464e-01    0,000000000e+00    0,000000000e+00    0,000000000e+00    0,000000000e+00
      128000000    3,525260370e-03    1,053541340e-02   -5,147207379e-01   -6,204319596e-01    0,000000000e+00    0,000000000e+00    0,000000000e+00    0,000000000e+00
      142000000    1,457853895e-02   -2,967896173e-03   -7,671100497e-01   -2,365590781e-01    0,000000000e+00    0,000000000e+00    0,000000000e+00    0,000000000e+00
      156000000    1,443512738e-02   -1,496103313e-02   -7,646740675e-01    2,181047797e-01    0,000000000e+00    0,000000000e+00    0,000000000e+00    0,000000000e+00
      170000000    1,671346650e-02   -2,258914337e-02   -5,180963278e-01    6,048531532e-01    0,000000000e+00    0,000000000e+00    0,000000000e+00    0,000000000e+00
      184000000    2,102582902e-02   -3,706652299e-02   -1,014524177e-01    7,863038182e-01    0,000000000e+00    0,000000000e+00    0,000000000e+00    0,000000000e+00
      198000000    1,306793746e-02   -6,244210899e-02    3,432969451e-01    7,126262784e-01    0,000000000e+00    0,000000000e+00    0,000000000e+00    0,000000000e+00
      212000000   -1,862478629e-02   -8,131410927e-02    6,781118512e-01    4,098547697e-01    0,000000000e+00    0,000000000e+00    0,000000000e+00    0,000000000e+00
      226000000   -6,165264919e-02   -6,914038211e-02    7,958055139e-01   -3,063736856e-02    0,000000000e+00    0,000000000e+00    0,000000000e+00    0,000000000e+00
      240000000   -8,256299049e-02   -2,562001906e-02    6,461530924e-01   -4,671015739e-01    0,000000000e+00    0,000000000e+00    0,000000000e+00    0,000000000e+00
      254000000   -6,347768754e-02    1,720773615e-02    2,759376168e-01   -7,432328463e-01    0,000000000e+00    0,000000000e+00    0,000000000e+00    0,000000000e+00
      268000000   -2,378911525e-02    2,886845358e-02   -1,779604405e-01   -7,642138600e-01    0,000000000e+00    0,000000000e+00    0,000000000e+00    0,000000000e+00
      282000000    4,164904356e-03    1,198870689e-02   -5,620065331e-01   -5,355404615e-01    0,000000000e+00    0,000000000e+00    0,000000000e+00    0,000000000e+00
      296000000    9,804520756e-03   -7,858294062e-03   -7,597765923e-01   -1,396594346e-01    0,000000000e+00    0,000000000e+00    0,000000000e+00    0,000000000e+00
      310000000    1,115536969e-02   -1,610264182e-02   -7,116355300e-01    2,982372344e-01    0,000000000e+00    0,000000000e+00    0,000000000e+00    0,000000000e+00
      324000000    1,974493079e-02   -2,650614642e-02   -4,263020456e-01    6,380215287e-01    0,000000000e+00    0,000000000e+00    0,000000000e+00    0,000000000e+00
      338000000    2,563672140e-02   -5,216300115e-02   -7,013601717e-03    7,641150951e-01    0,000000000e+00    0,000000000e+00    0,000000000e+00    0,000000000e+00
      352000000    7,334376685e-03   -8,466103673e-02    4,065190554e-01    6,408852935e-01    0,000000000e+00    0,000000000e+00    0,000000000e+00    0,000000000e+00
      366000000   -3,477381170e-02   -9,533013403e-02    6,909686923e-01    3,115454614e-01    0,000000000e+00    0,000000000e+00    0,000000000e+00    0,000000000e+00
      380000000   -7,082461566e-02   -7,134486735e-02    7,477189898e-01   -1,261277199e-01    0,000000000e+00    0,000000000e+00    0,000000000e+00    0,000000000e+00
      394000000   -7,267019898e-02   -3,245815635e-02    5,455740094e-01   -5,208345056e-01    0,000000000e+00    0,000000000e+00    0,000000000e+00    0,000000000e+00
      408000000   -4,609758407e-02   -1,618931815e-02    1,616055071e-01   -7,316050529e-01    0,000000000e+00    0,000000000e+00    0,000000000e+00    0,000000000e+00
      422000000   -2,828341722e-02   -3,224148601e-02   -2,684738636e-01   -6,955705881e-01    0,000000000e+00    0,000000000e+00    0,000000000e+00    0,000000000e+00
      436000000   -4,067968577e-02   -5,205283314e-02   -6,041831970e-01   -4,324624836e-01    0,000000000e+00    0,000000000e+00    0,000000000e+00    0,000000000e+00
      450000000   -6,726586819e-02   -4,391420260e-02   -7,406466603e-01   -2,135854587e-02    0,000000000e+00    0,000000000e+00    0,000000000e+00    0,000000000e+00
      464000000   -7,328141481e-02   -1,166770514e-02   -6,186060905e-01    3,970997632e-01    0,000000000e+00    0,000000000e+00    0,000000000e+00    0,000000000e+00
      478000000   -4,790136591e-02    1,163142081e-02   -2,830507457e-01    6,680976748e-01    0,000000000e+00    0,000000000e+00    0,000000000e+00    0,000000000e+00
      492000000   -1,571743004e-02    5,953119602e-03    1,379718035e-01    7,019949555e-01    0,000000000e+00    0,000000000e+00    0,000000000e+00    0,000000000e+00
      506000000   -2,705606632e-03   -1,557310577e-02    4,979088008e-01    5,029749274e-01    0,000000000e+00    0,000000000e+00    0,000000000e+00    0,000000000e+00
      520000000   -4,911518190e-03   -3,141919896e-02    6,885132790e-01    1,400155127e-01    0,000000000e+00    0,000000000e+00    0,000000000e+00    0,000000000e+00
      534000000   -3,831324168e-03   -3,805290535e-02    6,433731914e-01   -2,626436949e-01    0,000000000e+00    0,000000000e+00    0,000000000e+00    0,000000000e+00
      548000000    5,828591529e-03   -5,372330919e-02    3,812639415e-01   -5,670164227e-01    0,000000000e+00    0,000000000e+00    0,000000000e+00    0,000000000e+00
      562000000    2,789854072e-03   -8,958346397e-02    2,398297656e-03   -6,717920899e-01    0,000000000e+00    0,000000000e+00    0,000000000e+00    0,000000000e+00
      576000000   -3,432581201e-02   -1,246450618e-01   -3,683515787e-01   -5,569271445e-01    0,000000000e+00    0,000000000e+00    0,000000000e+00    0,000000000e+00
      590000000   -9,618523717e-02   -1,225938424e-01   -6,229301691e-01   -2,640514374e-01    0,000000000e+00    0,000000000e+00    0,000000000e+00    0,000000000e+00
      604000000   -1,396836042e-01   -7,144363970e-02   -6,650902033e-01    1,384903193e-01    0,000000000e+00    0,000000000e+00    0,000000000e+00    0,000000000e+00
      618000000   -1,293195337e-01   -9,287626483e-03   -4,648415148e-01    4,948124886e-01    0,000000000e+00    0,000000000e+00    0,000000000e+00    0,000000000e+00
      632000000   -8,462700248e-02    1,675283350e-02   -9,872206300e-02    6,644992232e-01    0,000000000e+00    0,000000000e+00    0,000000000e+00    0,000000000e+00
      646000000   -5,133707076e-02    8,448354492e-05    2,875598371e-01    5,948876739e-01    0,000000000e+00    0,000000000e+00    0,000000000e+00    0,000000000e+00
      660000000   -5,286578834e-02   -2,185569704e-02    5,680260658e-01    3,235807121e-01    0,000000000e+00    0,000000000e+00    0,000000000e+00    0,000000000e+00
      674000000   -7,073218375e-02   -1,748787053e-02    6,430947185e-01   -6,560868770e-02    0,000000000e+00    0,000000000e+00    0,000000000e+00    0,000000000e+00
      688000000   -6,852559745e-02    8,379907347e-03    4,714843035e-01   -4,283977747e-01    0,000000000e+00    0,000000000e+00    0,000000000e+00    0,000000000e+00
      702000000   -3,685932606e-02    2,586900443e-02    1,174503416e-01   -6,099188328e-01    0,000000000e+00    0,000000000e+00    0,000000000e+00    0,000000000e+00
      716000000    1,701083966e-03    1,837825589e-02   -2,648577988e-01   -5,464579463e-01    0,000000000e+00    0,000000000e+00    0,000000000e+00    0,000000000e+00
      730000000    3,634103388e-02   -1,129767392e-02   -5,287372470e-01   -2,687825561e-01    0,000000000e+00    0,000000000e+00    0,000000000e+00    0,000000000e+00
      744000000    6,476291269e-02   -6,193499267e-02   -5,643514991e-01    1,061152741e-01    0,000000000e+00    0,000000000e+00    0,000000000e+00    0,000000000e+00
      758000000    6,705770642e-02   -1,522951573e-01   -3,634627163e-01    4,107162058e-01    0,000000000e+00    0,000000000e+00    0,000000000e+00    0,000000000e+00
      772000000   -1,234664302e-02   -2,614123523e-01   -3,499667719e-02    5,153785944e-01    0,000000000e+00    0,000000000e+00    0,000000000e+00    0,000000000e+00
      786000000   -2,068822384e-01   -3,035456836e-01    2,744865417e-01    3,957574964e-01    0,000000000e+00    0,000000000e+00    0,000000000e+00    0,000000000e+00
      800000000   -4,247696102e-01   -1,306247860e-01    4,174507856e-01    9,847161174e-02    0,000000000e+00    0,000000000e+00    0,000000000e+00    0,000000000e+00
      814000000   -3,888709545e-01    2,214589715e-01    2,822388709e-01   -1,728176177e-01    0,000000000e+00    0,000000000e+00    0,000000000e+00    0,000000000e+00
      828000000   -4,953930154e-02    3,674529791e-01    5,516696349e-02   -1,891731024e-01    0,000000000e+00    0,000000000e+00    0,000000000e+00    0,000000000e+00
      842000000    2,351814359e-01    1,857487708e-01   -1,673298329e-02   -7,116351277e-02    0,000000000e+00    0,000000000e+00    0,000000000e+00    0,000000000e+00
      856000000    2,801682353e-01   -1,244266182e-01    4,506199062e-02   -1,357005723e-02    0,000000000e+00    0,000000000e+00    0,000000000e+00    0,000000000e+00
      870000000    7,474503666e-02   -3,763144016e-01    1,133598611e-01   -9,081193805e-02    0,000000000e+00    0,000000000e+00    0,000000000e+00    0,000000000e+00
      884000000   -2,966693342e-01   -3,619952202e-01    2,901728451e-02   -2,449760437e-01    0,000000000e+00    0,000000000e+00    0,000000000e+00    0,000000000e+00
      898000000   -4,726266861e-01    8,029913530e-03   -2,220541686e-01   -2,272452712e-01    0,000000000e+00    0,000000000e+00    0,000000000e+00    0,000000000e+00
      912000000   -2,258869410e-01    2,940475345e-01   -3,510903120e-01    7,420666516e-02    0,000000000e+00    0,000000000e+00    0,000000000e+00    0,000000000e+00
      926000000    6,513570249e-02    2,650655806e-01   -2,192017436e-01    2,650556266e-01    0,000000000e+00    0,000000000e+00    0,000000000e+00    0,000000000e+00
      940000000    2,181707919e-01    8,136633784e-02   -3,589799628e-02    3,294944465e-01    0,000000000e+00    0,000000000e+00    0,000000000e+00    0,000000000e+00
      954000000    2,228996605e-01   -1,288276911e-01    1,320539266e-01    3,066725135e-01    0,000000000e+00    0,000000000e+00    0,000000000e+00    0,000000000e+00
      968000000    1,148623824e-01   -3,002394438e-01    2,706723213e-01    2,182886750e-01    0,000000000e+00    0,000000000e+00    0,000000000e+00    0,000000000e+00
      982000000   -8,009962738e-02   -3,874826133e-01    3,661978841e-01    6,610423326e-02    0,000000000e+00    0,000000000e+00    0,000000000e+00    0,000000000e+00
      996000000   -3,162480891e-01   -3,306972086e-01    3,687312901e-01   -1,467355639e-01    0,000000000e+00    0,000000000e+00    0,000000000e+00    0,000000000e+00
     1010000000   -4,604220390e-01   -1,118540466e-01    2,221693695e-01   -3,400405049e-01    0,000000000e+00    0,000000000e+00    0,000000000e+00    0,000000000e+00
     1024000000   -4,174025953e-01    1,477176547e-01   -3,411460668e-02   -3,920814395e-01    0,000000000e+00    0,000000000e+00    0,000000000e+00    0,000000000e+00
     1038000000   -2,185401618e-01    2,879791558e-01   -2,473462969e-01   -2,612268329e-01    0,000000000e+00    0,000000000e+00    0,000000000e+00    0,000000000e+00
     1052000000   -5,580172874e-03    2,804803252e-01   -3,184241951e-01   -4,652687162e-02    0,000000000e+00    0,000000000e+00    0,000000000e+00    0,000000000e+00
     1066000000    1,355039626e-01    1,605517268e-01   -2,555627525e-01    1,424230784e-01    0,000000000e+00    0,000000000e+00    0,000000000e+00    0,000000000e+00
     1080000000    1,926895827e-01    9,246345726e-04   -1,191273332e-01    2,628119290e-01    0,000000000e+00    0,000000000e+00    0,000000000e+00    0,000000000e+00
     1094000000    1,557669491e-01   -1,736649573e-01    6,191181019e-02    3,050632477e-01    0,000000000e+00    0,000000000e+00    0,000000000e+00    0,000000000e+00
     1108000000   -1,657806337e-03   -3,030284643e-01    2,774192095e-01    2,464989275e-01    0,000000000e+00    0,000000000e+00    0,000000000e+00    0,000000000e+00
     1122000000   -2,508611977e-01   -2,608537972e-01    4,741799533e-01    1,212893426e-02    0,000000000e+00    0,000000000e+00    0,000000000e+00    0,000000000e+00
     1136000000   -3,209440708e-01    3,185717762e-02    3,995786011e-01   -3,905109167e-01    0,000000000e+00    0,000000000e+00    0,000000000e+00    0,000000000e+00
     1150000000   -4,367388412e-02    1,496594697e-01    6,561420858e-03   -5,435728431e-01    0,000000000e+00    0,000000000e+00    0,000000000e+00    0,000000000e+00
     1164000000    1,252497286e-01   -6,625185162e-02   -2,765623331e-01   -3,781636059e-01    0,000000000e+00    0,000000000e+00    0,000000000e+00    0,000000000e+00
     1178000000    1,956350729e-02   -3,051637411e-01   -3,655205965e-01   -1,538651735e-01    0,000000000e+00    0,000000000e+00    0,000000000e+00    0,000000000e+00
     1192000000   -2,679044604e-01   -3,742864430e-01   -3,226259649e-01    5,978981033e-02    0,000000000e+00    0,000000000e+00    0,000000000e+00    0,000000000e+00
     1206000000   -5,212330222e-01   -1,637882292e-01   -1,666274518e-01    1,782837808e-01    0,000000000e+00    0,000000000e+00    0,000000000e+00    0,000000000e+00
     1220000000   -5,071256757e-01    1,781796515e-01    2,243846189e-03    1,627234370e-01    0,000000000e+00    0,000000000e+00    0,000000000e+00    0,000000000e+00
     1234000000   -2,902132571e-01    3,659189045e-01    6,824416667e-02    6,387537718e-02    0,000000000e+00    0,000000000e+00    0,000000000e+00    0,000000000e+00
     1248000000   -4,184455052e-02    3,670370877e-01    6,091584638e-02   -5,180592183e-03    0,000000000e+00    0,000000000e+00    0,000000000e+00    0,000000000e+00
     1262000000    1,237828881e-01    2,523534596e-01    1,531498972e-02   -2,496633492e-02    0,000000000e+00    0,000000000e+00    0,000000000e+00    0,000000000e+00
     1276000000    2,147070318e-01    9,791131318e-02   -2,287558600e-04    7,594123017e-03    0,000000000e+00    0,000000000e+00    0,000000000e+00    0,000000000e+00
     1290000000    2,239928544e-01   -7,470823824e-02    1,643407159e-02    5,130168796e-02    0,000000000e+00    0,000000000e+00    0,000000000e+00    0,000000000e+00
     1304000000    1,586138010e-01   -2,454186976e-01    1,315335929e-01    6,826234609e-02    0,000000000e+00    0,000000000e+00    0,000000000e+00    0,000000000e+00
     1318000000    3,361564502e-02   -3,370041549e-01    1,334370822e-01   -1,637802422e-01    0,000000000e+00    0,000000000e+00    0,000000000e+00    0,000000000e+00
     1332000000   -1,307294071e-01   -4,349658191e-01   -5,182285234e-02   -4,349898919e-02    0,000000000e+00    0,000000000e+00    0,000000000e+00    0,000000000e+00
     1346000000   -3,962135017e-01   -4,041280150e-01    2,044088766e-02    7,310677320e-02    0,000000000e+00    0,000000000e+00    0,000000000e+00    0,000000000e+00
     1360000000   -6,045455933e-01   -1,907722652e-01    1,448092163e-01    7,176030427e-02    0,000000000e+00    0,000000000e+00    0,000000000e+00    0,000000000e+00
     1374000000   -6,339031458e-01    1,329491884e-01    2,065856457e-01    7,533560507e-03    0,000000000e+00    0,000000000e+00    0,000000000e+00    0,000000000e+00
     1388000000   -4,706632197e-01    3,734171689e-01    2,033142298e-01   -6,452915817e-02    0,000000000e+00    0,000000000e+00    0,000000000e+00    0,000000000e+00
     1402000000   -2,300710082e-01    4,579829872e-01    1,902449429e-01   -9,610679746e-02    0,000000000e+00    0,000000000e+00    0,000000000e+00    0,000000000e+00
     1416000000   -3,157781437e-02    4,093723893e-01    1,656166613e-01   -1,048814654e-01    0,000000000e+00    0,000000000e+00    0,000000000e+00    0,000000000e+00
     1430000000    1,274207830e-01    2,897831500e-01    1,362584531e-01   -1,045439988e-01    0,000000000e+00    0,000000000e+00    0,000000000e+00    0,000000000e+00
     1444000000    2,100441009e-01    1,563952118e-01    1,608051360e-01   -9,186997265e-02    0,000000000e+00    0,000000000e+00    0,000000000e+00    0,000000000e+00
     1458000000    2,315852791e-01   -1,944747940e-02    1,388371587e-01   -7,889610529e-02    0,000000000e+00    0,000000000e+00    0,000000000e+00    0,000000000e+00
     1472000000    1,909009069e-01   -2,071830779e-01    1,472655982e-01   -3,877342120e-02    0,000000000e+00    0,000000000e+00    0,000000000e+00    0,000000000e+00
     1486000000    6,353640556e-02   -3,684275448e-01    1,885666847e-01    3,816911206e-02    0,000000000e+00    0,000000000e+00    0,000000000e+00    0,000000000e+00
     1500000000   -1,654428691e-01   -5,039343238e-01    2,560693026e-01    8,564821631e-02    0,000000000e+00    0,000000000e+00    0,000000000e+00    0,000000000e+00
