! NanoVNA-App
! Date: 2025-09-25 15:36:14
! Start: 100MHz Stop: 1,5GHz Points: 101
! S-Parameter data: F S11 S21 S12 S22
# Hz S RI R 50
!     Frequency           S11_Real           S11_Imag           S21_Real           S21_Imag           S12_Real           S12_Imag           S22_Real           S22_Imag
      100000000   -2,882317081e-02   -4,172355868e-03    3,740509450e-01   -7,217085361e-01    0,000000000e+00    0,000000000e+00    0,000000000e+00    0,000000000e+00
      114000000   -1,651518792e-02    1,150997542e-02   -8,910490572e-02   -8,054518700e-01    0,000000000e+00    0,000000000e+00    0,000000000e+00    0,000000000e+00
      128000000    3,545499174e-03    1,053045131e-02   -5,145823956e-01   -6,204710007e-01    0,000000000e+00    0,000000000e+00    0,000000000e+00    0,000000000e+00
      142000000    1,459558867e-02   -2,963313367e-03   -7,668287754e-01   -2,364807129e-01    0,000000000e+00    0,000000000e+00    0,000000000e+00    0,000000000e+00
      156000000    1,485831942e-02   -1,498402189e-02   -7,668344975e-01    2,184476256e-01    0,000000000e+00    0,000000000e+00    0,000000000e+00    0,000000000e+00
      170000000    1,666468382e-02   -2,261394076e-02   -5,182316303e-01    6,045845151e-01    0,000000000e+00    0,000000000e+00    0,000000000e+00    0,000000000e+00
      184000000    2,104037441e-02   -3,704337776e-02   -1,012227386e-01    7,858748436e-01    0,000000000e+00    0,000000000e+00    0,000000000e+00    0,000000000e+00
      198000000    1,303964853e-02   -6,245238334e-02    3,432769179e-01    7,123858333e-01    0,000000000e+00    0,000000000e+00    0,000000000e+00    0,000000000e+00
      212000000   -1,865712740e-02   -8,128758520e-02    6,780005097e-01    4,100191295e-01    0,000000000e+00    0,000000000e+00    0,000000000e+00    0,000000000e+00
      226000000   -6,164873764e-02   -6,924905628e-02    7,957516313e-01   -3,055234253e-02    0,000000000e+00    0,000000000e+00    0,000000000e+00    0,000000000e+00
      240000000   -8,253002167e-02   -2,559572086e-02    6,461299062e-01   -4,670912623e-01    0,000000000e+00    0,000000000e+00    0,000000000e+00    0,000000000e+00
      254000000   -6,343923509e-02    1,725732349e-02    2,763996124e-01   -7,431805134e-01    0,000000000e+00    0,000000000e+00    0,000000000e+00    0,000000000e+00
      268000000   -2,383304760e-02    2,889092825e-02   -1,783612967e-01   -7,642100453e-01    0,000000000e+00    0,000000000e+00    0,000000000e+00    0,000000000e+00
      282000000    4,161976743e-03    1,197713614e-02   -5,619626045e-01   -5,354802608e-01    0,000000000e+00    0,000000000e+00    0,000000000e+00    0,000000000e+00
      296000000    9,833069518e-03   -7,825308479e-03   -7,598261237e-01   -1,395356357e-01    0,000000000e+00    0,000000000e+00    0,000000000e+00    0,000000000e+00
      310000000    1,121401694e-02   -1,605567150e-02   -7,122990489e-01    2,989470959e-01    0,000000000e+00    0,000000000e+00    0,000000000e+00    0,000000000e+00
      324000000    1,983676478e-02   -2,650000900e-02   -4,271837473e-01    6,385415196e-01    0,000000000e+00    0,000000000e+00    0,000000000e+00    0,000000000e+00
      338000000    2,530767769e-02   -5,241826549e-02   -9,690434672e-03    7,636287212e-01    0,000000000e+00    0,000000000e+00    0,000000000e+00    0,000000000e+00
      352000000    7,378909271e-03   -8,479283750e-02    4,067491293e-01    6,396287084e-01    0,000000000e+00    0,000000000e+00    0,000000000e+00    0,000000000e+00
      366000000   -3,453069925e-02   -9,544742107e-02    6,903357506e-01    3,114987612e-01    0,000000000e+00    0,000000000e+00    0,000000000e+00    0,000000000e+00
      380000000   -7,075620443e-02   -7,121056318e-02    7,476167083e-01   -1,260316819e-01    0,000000000e+00    0,000000000e+00    0,000000000e+00    0,000000000e+00
      394000000   -7,233352214e-02   -3,241893277e-02    5,469120741e-01   -5,225346088e-01    0,000000000e+00    0,000000000e+00    0,000000000e+00    0,000000000e+00
      408000000   -4,662094265e-02   -1,621046290e-02    1,602472812e-01   -7,318350077e-01    0,000000000e+00    0,000000000e+00    0,000000000e+00    0,000000000e+00
      422000000   -2,816957608e-02   -3,181731701e-02   -2,674908936e-01   -6,952528358e-01    0,000000000e+00    0,000000000e+00    0,000000000e+00    0,000000000e+00
      436000000   -4,050011188e-02   -5,210014433e-02   -6,037309766e-01   -4,329349101e-01    0,000000000e+00    0,000000000e+00    0,000000000e+00    0,000000000e+00
      450000000   -6,733136624e-02   -4,387262464e-02   -7,405750751e-01   -2,138234116e-02    0,000000000e+00    0,000000000e+00    0,000000000e+00    0,000000000e+00
      464000000   -7,358253747e-02   -1,194894407e-02   -6,187208295e-01    3,973436654e-01    0,000000000e+00    0,000000000e+00    0,000000000e+00    0,000000000e+00
      478000000   -4,782587290e-02    1,185103599e-02   -2,819533348e-01    6,679203510e-01    0,000000000e+00    0,000000000e+00    0,000000000e+00    0,000000000e+00
      492000000   -1,530155540e-02    5,958968308e-03    1,371617168e-01    7,017104626e-01    0,000000000e+00    0,000000000e+00    0,000000000e+00    0,000000000e+00
      506000000   -2,579777967e-03   -1,596673578e-02    4,978061914e-01    5,023475289e-01    0,000000000e+00    0,000000000e+00    0,000000000e+00    0,000000000e+00
      520000000   -5,060009193e-03   -3,102733381e-02    6,885760427e-01    1,407959759e-01    0,000000000e+00    0,000000000e+00    0,000000000e+00    0,000000000e+00
      534000000   -3,662739182e-03   -3,834616765e-02    6,439862847e-01   -2,628144920e-01    0,000000000e+00    0,000000000e+00    0,000000000e+00    0,000000000e+00
      548000000    6,265041884e-03   -5,409482867e-02    3,815084696e-01   -5,668092966e-01    0,000000000e+00    0,000000000e+00    0,000000000e+00    0,000000000e+00
      562000000    3,157361643e-03   -8,927565813e-02    2,097772202e-03   -6,730394959e-01    0,000000000e+00    0,000000000e+00    0,000000000e+00    0,000000000e+00
      576000000   -3,443387896e-02   -1,240778640e-01   -3,692061603e-01   -5,569013357e-01    0,000000000e+00    0,000000000e+00    0,000000000e+00    0,000000000e+00
      590000000   -9,631218016e-02   -1,227636188e-01   -6,198564172e-01   -2,634180188e-01    0,000000000e+00    0,000000000e+00    0,000000000e+00    0,000000000e+00
      604000000   -1,393275261e-01   -7,172083855e-02   -6,648384929e-01    1,380822808e-01    0,000000000e+00    0,000000000e+00    0,000000000e+00    0,000000000e+00
      618000000   -1,293836683e-01   -9,527726099e-03   -4,645507932e-01    4,953140020e-01    0,000000000e+00    0,000000000e+00    0,000000000e+00    0,000000000e+00
      632000000   -8,372636884e-02    1,630138047e-02   -9,755659848e-02    6,635628343e-01    0,000000000e+00    0,000000000e+00    0,000000000e+00    0,000000000e+00
      646000000   -5,054978281e-02    1,817503799e-04    2,878747284e-01    5,953804255e-01    0,000000000e+00    0,000000000e+00    0,000000000e+00    0,000000000e+00
      660000000   -5,284970626e-02   -2,124850824e-02    5,679371357e-01    3,233665526e-01    0,000000000e+00    0,000000000e+00    0,000000000e+00    0,000000000e+00
      674000000   -7,019956410e-02   -1,697588339e-02    6,429250836e-01   -6,561165303e-02    0,000000000e+00    0,000000000e+00    0,000000000e+00    0,000000000e+00
      688000000   -6,792630255e-02    8,263271302e-03    4,712336957e-01   -4,283544421e-01    0,000000000e+00    0,000000000e+00    0,000000000e+00    0,000000000e+00
      702000000   -3,665382415e-02    2,666183375e-02    1,173391938e-01   -6,085702777e-01    0,000000000e+00    0,000000000e+00    0,000000000e+00    0,000000000e+00
      716000000    2,674556803e-03    1,857363246e-02   -2,647187412e-01   -5,459684730e-01    0,000000000e+00    0,000000000e+00    0,000000000e+00    0,000000000e+00
      730000000    3,642178327e-02   -1,044424344e-02   -5,285648108e-01   -2,687642872e-01    0,000000000e+00    0,000000000e+00    0,000000000e+00    0,000000000e+00
      744000000    6,575479358e-02   -6,214349717e-02   -5,640882850e-01    1,060056165e-01    0,000000000e+00    0,000000000e+00    0,000000000e+00    0,000000000e+00
      758000000    6,631751359e-02   -1,518045217e-01   -3,633064032e-01    4,101946354e-01    0,000000000e+00    0,000000000e+00    0,000000000e+00    0,000000000e+00
      772000000   -1,219979487e-02   -2,630056739e-01   -3,517302498e-02    5,158550143e-01    0,000000000e+00    0,000000000e+00    0,000000000e+00    0,000000000e+00
      786000000   -2,067791969e-01   -3,035451770e-01    2,747320235e-01    3,961839974e-01    0,000000000e+00    0,000000000e+00    0,000000000e+00    0,000000000e+00
      800000000   -4,247393012e-01   -1,308243573e-01    4,171900153e-01    9,928627312e-02    0,000000000e+00    0,000000000e+00    0,000000000e+00    0,000000000e+00
      814000000   -3,885504007e-01    2,206600755e-01    2,823697627e-01   -1,725893617e-01    0,000000000e+00    0,000000000e+00    0,000000000e+00    0,000000000e+00
      828000000   -5,009942874e-02    3,677355051e-01    5,565040559e-02   -1,892731935e-01    0,000000000e+00    0,000000000e+00    0,000000000e+00    0,000000000e+00
      842000000    2,349124849e-01    1,863275468e-01   -1,691464521e-02   -7,036738843e-02    0,000000000e+00    0,000000000e+00    0,000000000e+00    0,000000000e+00
      856000000    2,807467282e-01   -1,241029352e-01    4,449678957e-02   -1,334203128e-02    0,000000000e+00    0,000000000e+00    0,000000000e+00    0,000000000e+00
      870000000    7,509142905e-02   -3,770233095e-01    1,140637696e-01   -9,081142396e-02    0,000000000e+00    0,000000000e+00    0,000000000e+00    0,000000000e+00
      884000000   -2,957395017e-01   -3,617899716e-01    2,812227234e-02   -2,451808900e-01    0,000000000e+00    0,000000000e+00    0,000000000e+00    0,000000000e+00
      898000000   -4,726169109e-01    7,979846559e-03   -2,222111672e-01   -2,280612588e-01    0,000000000e+00    0,000000000e+00    0,000000000e+00    0,000000000e+00
      912000000   -2,270135283e-01    2,937584221e-01   -3,511539996e-01    6,168024614e-02    0,000000000e+00    0,000000000e+00    0,000000000e+00    0,000000000e+00
      926000000    6,699164212e-02    2,618171871e-01   -2,156089097e-01    2,617327869e-01    0,000000000e+00    0,000000000e+00    0,000000000e+00    0,000000000e+00
      940000000    2,145498097e-01    8,081174642e-02   -3,621785343e-02    3,285091519e-01    0,000000000e+00    0,000000000e+00    0,000000000e+00    0,000000000e+00
      954000000    2,243387848e-01   -1,269302815e-01    1,300844550e-01    3,069297373e-01    0,000000000e+00    0,000000000e+00    0,000000000e+00    0,000000000e+00
      968000000    1,185851991e-01   -3,011678159e-01    2,718060017e-01    2,182246447e-01    0,000000000e+00    0,000000000e+00    0,000000000e+00    0,000000000e+00
      982000000   -7,955199480e-02   -3,859330416e-01    3,647027910e-01    6,539951265e-02    0,000000000e+00    0,000000000e+00    0,000000000e+00    0,000000000e+00
      996000000   -3,171580434e-01   -3,278569579e-01    3,686378598e-01   -1,464240849e-01    0,000000000e+00    0,000000000e+00    0,000000000e+00    0,000000000e+00
     1010000000   -4,611862600e-01   -1,109993234e-01    2,235316038e-01   -3,403104246e-01    0,000000000e+00    0,000000000e+00    0,000000000e+00    0,000000000e+00
     1024000000   -4,115056992e-01    1,516698450e-01   -3,279441223e-02   -3,923596144e-01    0,000000000e+00    0,000000000e+00    0,000000000e+00    0,000000000e+00
     1038000000   -2,187345624e-01    2,893958688e-01   -2,484590411e-01   -2,604453564e-01    0,000000000e+00    0,000000000e+00    0,000000000e+00    0,000000000e+00
     1052000000   -7,502467372e-03    2,755375206e-01   -3,202787042e-01   -4,778333008e-02    0,000000000e+00    0,000000000e+00    0,000000000e+00    0,000000000e+00
     1066000000    1,376486570e-01    1,654566377e-01   -2,583239079e-01    1,438221633e-01    0,000000000e+00    0,000000000e+00    0,000000000e+00    0,000000000e+00
     1080000000    1,915115714e-01   -2,383810934e-03   -1,202170551e-01    2,629846036e-01    0,000000000e+00    0,000000000e+00    0,000000000e+00    0,000000000e+00
     1094000000    1,525299400e-01   -1,732423902e-01    6,546934694e-02    3,048798144e-01    0,000000000e+00    0,000000000e+00    0,000000000e+00    0,000000000e+00
     1108000000   -2,671535593e-03   -3,044340312e-01    2,771967649e-01    2,464356571e-01    0,000000000e+00    0,000000000e+00    0,000000000e+00    0,000000000e+00
     1122000000   -2,504273653e-01   -2,682189941e-01    4,742591083e-01    1,524464879e-02    0,000000000e+00    0,000000000e+00    0,000000000e+00    0,000000000e+00
     1136000000   -3,239878118e-01    3,472471982e-02    3,990053535e-01   -3,952018023e-01    0,000000000e+00    0,000000000e+00    0,000000000e+00    0,000000000e+00
     1150000000   -4,277062044e-02    1,490895152e-01    1,587490900e-03   -5,371679664e-01    0,000000000e+00    0,000000000e+00    0,000000000e+00    0,000000000e+00
     1164000000    1,237747967e-01   -6,535954028e-02   -2,760086358e-01   -3,766090274e-01    0,000000000e+00    0,000000000e+00    0,000000000e+00    0,000000000e+00
     1178000000    1,597841457e-02   -3,046796024e-01   -3,675215244e-01   -1,503538936e-01    0,000000000e+00    0,000000000e+00    0,000000000e+00    0,000000000e+00
     1192000000   -2,701076865e-01   -3,716103435e-01   -3,233036697e-01    5,675201491e-02    0,000000000e+00    0,000000000e+00    0,000000000e+00    0,000000000e+00
     1206000000   -5,216478705e-01   -1,629884839e-01   -1,698065251e-01    1,804504246e-01    0,000000000e+00    0,000000000e+00    0,000000000e+00    0,000000000e+00
     1220000000   -5,042613745e-01    1,702885181e-01    2,467685146e-03    1,597466469e-01    0,000000000e+00    0,000000000e+00    0,000000000e+00    0,000000000e+00
     1234000000   -2,915753424e-01    3,626397848e-01    6,914331764e-02    6,603845209e-02    0,000000000e+00    0,000000000e+00    0,000000000e+00    0,000000000e+00
     1248000000   -4,514671862e-02    3,591454029e-01    5,659186468e-02   -1,176683046e-02    0,000000000e+00    0,000000000e+00    0,000000000e+00    0,000000000e+00
     1262000000    1,221735701e-01    2,575637400e-01    1,662693918e-02   -2,100083791e-02    0,000000000e+00    0,000000000e+00    0,000000000e+00    0,000000000e+00
     1276000000    2,131866962e-01    9,897327423e-02   -3,443222726e-03    6,073121447e-03    0,000000000e+00    0,000000000e+00    0,000000000e+00    0,000000000e+00
     1290000000    2,214103043e-01   -7,325533777e-02    1,641662046e-02    5,661768839e-02    0,000000000e+00    0,000000000e+00    0,000000000e+00    0,000000000e+00
     1304000000    1,545000970e-01   -2,408276200e-01    1,286373436e-01    6,393709779e-02    0,000000000e+00    0,000000000e+00    0,000000000e+00    0,000000000e+00
     1318000000    3,776896372e-02   -3,364041150e-01    1,276850402e-01   -1,696683168e-01    0,000000000e+00    0,000000000e+00    0,000000000e+00    0,000000000e+00
     1332000000   -1,297784001e-01   -4,392509460e-01   -4,415531084e-02   -4,721466824e-02    0,000000000e+00    0,000000000e+00    0,000000000e+00    0,000000000e+00
     1346000000   -3,966201544e-01   -4,095667601e-01    1,668631285e-02    7,088407874e-02    0,000000000e+00    0,000000000e+00    0,000000000e+00    0,000000000e+00
     1360000000   -6,124783158e-01   -1,977655739e-01    1,371130347e-01    7,079287618e-02    0,000000000e+00    0,000000000e+00    0,000000000e+00    0,000000000e+00
     1374000000   -6,219138503e-01    1,253827959e-01    2,139308006e-01    3,736986779e-03    0,000000000e+00    0,000000000e+00    0,000000000e+00    0,000000000e+00
     1388000000   -4,697383642e-01    3,664553165e-01    2,057866454e-01   -5,823214352e-02    0,000000000e+00    0,000000000e+00    0,000000000e+00    0,000000000e+00
     1402000000   -2,281139791e-01    4,583227336e-01    1,948007047e-01   -8,507493138e-02    0,000000000e+00    0,000000000e+00    0,000000000e+00    0,000000000e+00
     1416000000   -3,676849604e-02    4,107465148e-01    1,681407690e-01   -9,845691174e-02    0,000000000e+00    0,000000000e+00    0,000000000e+00    0,000000000e+00
     1430000000    1,268449128e-01    3,083236217e-01    1,863697171e-01   -9,312740713e-02    0,000000000e+00    0,000000000e+00    0,000000000e+00    0,000000000e+00
     1444000000    2,052765489e-01    1,500943154e-01    1,640141159e-01   -9,572719038e-02    0,000000000e+00    0,000000000e+00    0,000000000e+00    0,000000000e+00
     1458000000    2,421813011e-01   -2,413455769e-02    1,532391310e-01   -8,370776474e-02    0,000000000e+00    0,000000000e+00    0,000000000e+00    0,000000000e+00
     1472000000    1,949661225e-01   -1,981907487e-01    1,426975131e-01   -1,861442626e-02    0,000000000e+00    0,000000000e+00    0,000000000e+00    0,000000000e+00
     1486000000    7,258065790e-02   -3,816370964e-01    1,787080914e-01    2,799701691e-02    0,000000000e+00    0,000000000e+00    0,000000000e+00    0,000000000e+00
     1500000000   -1,790913492e-01   -4,996995926e-01    2,339712679e-01    8,813965321e-02    0,000000000e+00    0,000000000e+00    0,000000000e+00    0,000000000e+00
