! NanoVNA-App
! Date: 2025-09-25 15:35:01
! Start: 100MHz Stop: 1,5GHz Points: 101
! S-Parameter data: F S11 S21 S12 S22
# Hz S RI R 50
!     Frequency           S11_Real           S11_Imag           S21_Real           S21_Imag           S12_Real           S12_Imag           S22_Real           S22_Imag
      100000000   -2,884508483e-02   -4,168525338e-03    3,741100729e-01   -7,218071818e-01    0,000000000e+00    0,000000000e+00    0,000000000e+00    0,000000000e+00
      114000000   -1,646362804e-02    1,152129192e-02   -8,911283314e-02   -8,055114746e-01    0,000000000e+00    0,000000000e+00    0,000000000e+00    0,000000000e+00
      128000000    3,520220285e-03    1,053392421e-02   -5,146090388e-01   -6,205477715e-01    0,000000000e+00    0,000000000e+00    0,000000000e+00    0,000000000e+00
      142000000    1,459320262e-02   -2,970698057e-03   -7,671095133e-01   -2,365296334e-01    0,000000000e+00    0,000000000e+00    0,000000000e+00    0,000000000e+00
      156000000    1,482239459e-02   -1,494775712e-02   -7,667842507e-01    2,183339298e-01    0,000000000e+00    0,000000000e+00    0,000000000e+00    0,000000000e+00
      170000000    1,669690199e-02   -2,252090909e-02   -5,183443427e-01    6,046388745e-01    0,000000000e+00    0,000000000e+00    0,000000000e+00    0,000000000e+00
      184000000    2,103086747e-02   -3,703619167e-02   -1,013757512e-01    7,860038877e-01    0,000000000e+00    0,000000000e+00    0,000000000e+00    0,000000000e+00
      198000000    1,305694599e-02   -6,250231713e-02    3,433001935e-01    7,122917771e-01    0,000000000e+00    0,000000000e+00    0,000000000e+00    0,000000000e+00
      212000000   -1,863838546e-02   -8,133273572e-02    6,780747175e-01    4,100254178e-01    0,000000000e+00    0,000000000e+00    0,000000000e+00    0,000000000e+00
      226000000   -6,172094494e-02   -6,918998063e-02    7,957844138e-01   -3,058664873e-02    0,000000000e+00    0,000000000e+00    0,000000000e+00    0,000000000e+00
      240000000   -8,254694194e-02   -2,560637891e-02    6,460095048e-01   -4,668981731e-01    0,000000000e+00    0,000000000e+00    0,000000000e+00    0,000000000e+00
      254000000   -6,348823756e-02    1,722653024e-02    2,760366201e-01   -7,434920669e-01    0,000000000e+00    0,000000000e+00    0,000000000e+00    0,000000000e+00
      268000000   -2,384632267e-02    2,888485789e-02   -1,779994220e-01   -7,641570568e-01    0,000000000e+00    0,000000000e+00    0,000000000e+00    0,000000000e+00
      282000000    4,180758726e-03    1,198624447e-02   -5,620015264e-01   -5,357403755e-01    0,000000000e+00    0,000000000e+00    0,000000000e+00    0,000000000e+00
      296000000    9,677541442e-03   -7,915003225e-03   -7,598004937e-01   -1,395120472e-01    0,000000000e+00    0,000000000e+00    0,000000000e+00    0,000000000e+00
      310000000    1,096387394e-02   -1,629197970e-02   -7,131853700e-01    2,984103858e-01    0,000000000e+00    0,000000000e+00    0,000000000e+00    0,000000000e+00
      324000000    1,979679056e-02   -2,631506324e-02   -4,268966615e-01    6,371691227e-01    0,000000000e+00    0,000000000e+00    0,000000000e+00    0,000000000e+00
      338000000    2,547951601e-02   -5,230034515e-02   -7,269741967e-03    7,637666464e-01    0,000000000e+00    0,000000000e+00    0,000000000e+00    0,000000000e+00
      352000000    7,662623189e-03   -8,475999534e-02    4,068790972e-01    6,385627985e-01    0,000000000e+00    0,000000000e+00    0,000000000e+00    0,000000000e+00
      366000000   -3,462992981e-02   -9,534130991e-02    6,906901002e-01    3,113546371e-01    0,000000000e+00    0,000000000e+00    0,000000000e+00    0,000000000e+00
      380000000   -7,069836557e-02   -7,144918293e-02    7,479510903e-01   -1,263966113e-01    0,000000000e+00    0,000000000e+00    0,000000000e+00    0,000000000e+00
      394000000   -7,240404934e-02   -3,252846748e-02    5,455626845e-01   -5,212402344e-01    0,000000000e+00    0,000000000e+00    0,000000000e+00    0,000000000e+00
      408000000   -4,659897834e-02   -1,622986421e-02    1,617209613e-01   -7,321799994e-01    0,000000000e+00    0,000000000e+00    0,000000000e+00    0,000000000e+00
      422000000   -2,829710022e-02   -3,196535259e-02   -2,679710090e-01   -6,953064799e-01    0,000000000e+00    0,000000000e+00    0,000000000e+00    0,000000000e+00
      436000000   -4,055975750e-02   -5,188353732e-02   -6,035830379e-01   -4,318903983e-01    0,000000000e+00    0,000000000e+00    0,000000000e+00    0,000000000e+00
      450000000   -6,743212044e-02   -4,397473112e-02   -7,404850721e-01   -2,119928412e-02    0,000000000e+00    0,000000000e+00    0,000000000e+00    0,000000000e+00
      464000000   -7,350541651e-02   -1,170563046e-02   -6,184862852e-01    3,975980580e-01    0,000000000e+00    0,000000000e+00    0,000000000e+00    0,000000000e+00
      478000000   -4,757188633e-02    1,152321510e-02   -2,819589078e-01    6,681200266e-01    0,000000000e+00    0,000000000e+00    0,000000000e+00    0,000000000e+00
      492000000   -1,549204160e-02    6,080591585e-03    1,383234411e-01    7,023652792e-01    0,000000000e+00    0,000000000e+00    0,000000000e+00    0,000000000e+00
      506000000   -2,356857294e-03   -1,557366364e-02    4,986102879e-01    5,030716062e-01    0,000000000e+00    0,000000000e+00    0,000000000e+00    0,000000000e+00
      520000000   -5,170118995e-03   -3,176822141e-02    6,882633567e-01    1,406380087e-01    0,000000000e+00    0,000000000e+00    0,000000000e+00    0,000000000e+00
      534000000   -3,996790852e-03   -3,857687861e-02    6,434333324e-01   -2,624237537e-01    0,000000000e+00    0,000000000e+00    0,000000000e+00    0,000000000e+00
      548000000    5,960061215e-03   -5,416461825e-02    3,811292052e-01   -5,675167441e-01    0,000000000e+00    0,000000000e+00    0,000000000e+00    0,000000000e+00
      562000000    2,683299128e-03   -8,948118985e-02    2,516413340e-03   -6,727894545e-01    0,000000000e+00    0,000000000e+00    0,000000000e+00    0,000000000e+00
      576000000   -3,367600217e-02   -1,239989027e-01   -3,689219356e-01   -5,573145151e-01    0,000000000e+00    0,000000000e+00    0,000000000e+00    0,000000000e+00
      590000000   -9,610613436e-02   -1,226273701e-01   -6,198222041e-01   -2,629080415e-01    0,000000000e+00    0,000000000e+00    0,000000000e+00    0,000000000e+00
      604000000   -1,395693272e-01   -7,146629691e-02   -6,649346948e-01    1,379552186e-01    0,000000000e+00    0,000000000e+00    0,000000000e+00    0,000000000e+00
      618000000   -1,299796999e-01   -8,849864826e-03   -4,643216133e-01    4,954136312e-01    0,000000000e+00    0,000000000e+00    0,000000000e+00    0,000000000e+00
      632000000   -8,449818194e-02    1,655671000e-02   -9,778305143e-02    6,636281610e-01    0,000000000e+00    0,000000000e+00    0,000000000e+00    0,000000000e+00
      646000000   -5,077183992e-02    1,085071359e-03    2,884799838e-01    5,950937867e-01    0,000000000e+00    0,000000000e+00    0,000000000e+00    0,000000000e+00
      660000000   -5,352634937e-02   -2,129603364e-02    5,676460266e-01    3,231313825e-01    0,000000000e+00    0,000000000e+00    0,000000000e+00    0,000000000e+00
      674000000   -6,975221634e-02   -1,759700291e-02    6,434008479e-01   -6,497164816e-02    0,000000000e+00    0,000000000e+00    0,000000000e+00    0,000000000e+00
      688000000   -6,824870408e-02    9,511341341e-03    4,712256193e-01   -4,279579520e-01    0,000000000e+00    0,000000000e+00    0,000000000e+00    0,000000000e+00
      702000000   -3,759032115e-02    2,736396715e-02    1,141716614e-01   -6,095711589e-01    0,000000000e+00    0,000000000e+00    0,000000000e+00    0,000000000e+00
      716000000    3,026151797e-03    1,743810996e-02   -2,643238008e-01   -5,463515520e-01    0,000000000e+00    0,000000000e+00    0,000000000e+00    0,000000000e+00
      730000000    3,735554591e-02   -1,070088334e-02   -5,282422900e-01   -2,688479125e-01    0,000000000e+00    0,000000000e+00    0,000000000e+00    0,000000000e+00
      744000000    6,481254101e-02   -6,296114624e-02   -5,645224452e-01    1,063774601e-01    0,000000000e+00    0,000000000e+00    0,000000000e+00    0,000000000e+00
      758000000    6,623289734e-02   -1,520026773e-01   -3,628639579e-01    4,101854861e-01    0,000000000e+00    0,000000000e+00    0,000000000e+00    0,000000000e+00
      772000000   -1,333520655e-02   -2,624542713e-01   -3,534960374e-02    5,153603554e-01    0,000000000e+00    0,000000000e+00    0,000000000e+00    0,000000000e+00
      786000000   -2,065378129e-01   -3,029904664e-01    2,750129998e-01    3,957262337e-01    0,000000000e+00    0,000000000e+00    0,000000000e+00    0,000000000e+00
      800000000   -4,261189103e-01   -1,305343509e-01    4,173071086e-01    9,927821904e-02    0,000000000e+00    0,000000000e+00    0,000000000e+00    0,000000000e+00
      814000000   -3,892947435e-01    2,218793333e-01    2,814677954e-01   -1,734858453e-01    0,000000000e+00    0,000000000e+00    0,000000000e+00    0,000000000e+00
      828000000   -4,985387251e-02    3,690225184e-01    5,469937250e-02   -1,892053783e-01    0,000000000e+00    0,000000000e+00    0,000000000e+00    0,000000000e+00
      842000000    2,349012196e-01    1,859795153e-01   -1,732551120e-02   -7,059641927e-02    0,000000000e+00    0,000000000e+00    0,000000000e+00    0,000000000e+00
      856000000    2,805850506e-01   -1,246673763e-01    4,517497122e-02   -1,330844872e-02    0,000000000e+00    0,000000000e+00    0,000000000e+00    0,000000000e+00
      870000000    7,513549179e-02   -3,763050139e-01    1,130716354e-01   -9,047686309e-02    0,000000000e+00    0,000000000e+00    0,000000000e+00    0,000000000e+00
      884000000   -2,957471609e-01   -3,625304997e-01    2,805692516e-02   -2,455784827e-01    0,000000000e+00    0,000000000e+00    0,000000000e+00    0,000000000e+00
      898000000   -4,716176689e-01    8,049496450e-03   -2,215519696e-01   -2,277306169e-01    0,000000000e+00    0,000000000e+00    0,000000000e+00    0,000000000e+00
      912000000   -2,255986780e-01    2,940514684e-01   -3,492623568e-01    6,186906621e-02    0,000000000e+00    0,000000000e+00    0,000000000e+00    0,000000000e+00
      926000000    6,704343110e-02    2,623555958e-01   -2,154854685e-01    2,633529603e-01    0,000000000e+00    0,000000000e+00    0,000000000e+00    0,000000000e+00
      940000000    2,132022679e-01    7,886743546e-02   -3,650881723e-02    3,300096989e-01    0,000000000e+00    0,000000000e+00    0,000000000e+00    0,000000000e+00
      954000000    2,214907110e-01   -1,294960082e-01    1,301168501e-01    3,075930774e-01    0,000000000e+00    0,000000000e+00    0,000000000e+00    0,000000000e+00
      968000000    1,172062606e-01   -3,012899458e-01    2,721015215e-01    2,192605883e-01    0,000000000e+00    0,000000000e+00    0,000000000e+00    0,000000000e+00
      982000000   -8,051212877e-02   -3,881219029e-01    3,667483926e-01    6,295364350e-02    0,000000000e+00    0,000000000e+00    0,000000000e+00    0,000000000e+00
      996000000   -3,160727918e-01   -3,267550468e-01    3,676021993e-01   -1,450908184e-01    0,000000000e+00    0,000000000e+00    0,000000000e+00    0,000000000e+00
     1010000000   -4,596100748e-01   -1,112986058e-01    2,230893075e-01   -3,413230479e-01    0,000000000e+00    0,000000000e+00    0,000000000e+00    0,000000000e+00
     1024000000   -4,148533344e-01    1,466103792e-01   -3,371062130e-02   -3,928725719e-01    0,000000000e+00    0,000000000e+00    0,000000000e+00    0,000000000e+00
     1038000000   -2,139294893e-01    2,900229096e-01   -2,466655821e-01   -2,613581419e-01    0,000000000e+00    0,000000000e+00    0,000000000e+00    0,000000000e+00
     1052000000   -1,100884005e-02    2,785747945e-01   -3,164306283e-01   -4,561534896e-02    0,000000000e+00    0,000000000e+00    0,000000000e+00    0,000000000e+00
     1066000000    1,361367851e-01    1,613758653e-01   -2,599946856e-01    1,416555047e-01    0,000000000e+00    0,000000000e+00    0,000000000e+00    0,000000000e+00
     1080000000    1,949035078e-01    2,725160681e-03   -1,209601983e-01    2,640347183e-01    0,000000000e+00    0,000000000e+00    0,000000000e+00    0,000000000e+00
     1094000000    1,564121097e-01   -1,762383431e-01    6,560447812e-02    3,047862351e-01    0,000000000e+00    0,000000000e+00    0,000000000e+00    0,000000000e+00
     1108000000   -4,039895255e-03   -3,047812283e-01    2,775098383e-01    2,473586649e-01    0,000000000e+00    0,000000000e+00    0,000000000e+00    0,000000000e+00
     1122000000   -2,474137545e-01   -2,613412440e-01    4,715826213e-01    1,065364573e-02    0,000000000e+00    0,000000000e+00    0,000000000e+00    0,000000000e+00
     1136000000   -3,143722117e-01    3,273030370e-02    3,978301883e-01   -3,949729800e-01    0,000000000e+00    0,000000000e+00    0,000000000e+00    0,000000000e+00
     1150000000   -3,829216585e-02    1,540586948e-01    4,081107676e-03   -5,428878665e-01    0,000000000e+00    0,000000000e+00    0,000000000e+00    0,000000000e+00
     1164000000    1,226190850e-01   -6,383821368e-02   -2,783135176e-01   -3,771953285e-01    0,000000000e+00    0,000000000e+00    0,000000000e+00    0,000000000e+00
     1178000000    1,732654870e-02   -3,015715182e-01   -3,702704608e-01   -1,507422626e-01    0,000000000e+00    0,000000000e+00    0,000000000e+00    0,000000000e+00
     1192000000   -2,633378506e-01   -3,679736853e-01   -3,212609589e-01    5,738259107e-02    0,000000000e+00    0,000000000e+00    0,000000000e+00    0,000000000e+00
     1206000000   -5,220564604e-01   -1,577308476e-01   -1,664230973e-01    1,822837889e-01    0,000000000e+00    0,000000000e+00    0,000000000e+00    0,000000000e+00
     1220000000   -5,138171911e-01    1,761220694e-01    2,663061023e-03    1,596395969e-01    0,000000000e+00    0,000000000e+00    0,000000000e+00    0,000000000e+00
     1234000000   -2,819966078e-01    3,680335283e-01    7,080049813e-02    6,411662698e-02    0,000000000e+00    0,000000000e+00    0,000000000e+00    0,000000000e+00
     1248000000   -4,755900800e-02    3,699724674e-01    5,700454861e-02   -7,619004697e-03    0,000000000e+00    0,000000000e+00    0,000000000e+00    0,000000000e+00
     1262000000    1,220447943e-01    2,565685809e-01    1,459262054e-02   -1,890213415e-02    0,000000000e+00    0,000000000e+00    0,000000000e+00    0,000000000e+00
     1276000000    2,115186304e-01    9,774959832e-02    2,789794700e-03    4,254250322e-03    0,000000000e+00    0,000000000e+00    0,000000000e+00    0,000000000e+00
     1290000000    2,241721153e-01   -7,483003289e-02    2,267384902e-02    5,331735685e-02    0,000000000e+00    0,000000000e+00    0,000000000e+00    0,000000000e+00
     1304000000    1,570176035e-01   -2,390250117e-01    1,350819319e-01    7,167051733e-02    0,000000000e+00    0,000000000e+00    0,000000000e+00    0,000000000e+00
     1318000000    3,573301062e-02   -3,355742991e-01    1,328819543e-01   -1,613185853e-01    0,000000000e+00    0,000000000e+00    0,000000000e+00    0,000000000e+00
     1332000000   -1,317385137e-01   -4,399462044e-01   -4,478045553e-02   -5,289193243e-02    0,000000000e+00    0,000000000e+00    0,000000000e+00    0,000000000e+00
     1346000000   -3,913734853e-01   -4,062531590e-01    2,894884162e-02    7,057576627e-02    0,000000000e+00    0,000000000e+00    0,000000000e+00    0,000000000e+00
     1360000000   -6,101455092e-01   -1,915407777e-01    1,347853243e-01    6,850416958e-02    0,000000000e+00    0,000000000e+00    0,000000000e+00    0,000000000e+00
     1374000000   -6,361709237e-01    1,339879185e-01    1,973539442e-01    7,598602213e-03    0,000000000e+00    0,000000000e+00    0,000000000e+00    0,000000000e+00
     1388000000   -4,703770578e-01    3,667948246e-01    2,080826461e-01   -6,566736102e-02    0,000000000e+00    0,000000000e+00    0,000000000e+00    0,000000000e+00
     1402000000   -2,385112643e-01    4,522309601e-01    1,875308156e-01   -8,866251260e-02    0,000000000e+00    0,000000000e+00    0,000000000e+00    0,000000000e+00
     1416000000   -3,604475036e-02    4,088870585e-01    1,701847613e-01   -1,118230969e-01    0,000000000e+00    0,000000000e+00    0,000000000e+00    0,000000000e+00
     1430000000    1,206640005e-01    3,054162562e-01    1,659876257e-01   -1,010412276e-01    0,000000000e+00    0,000000000e+00    0,000000000e+00    0,000000000e+00
     1444000000    2,088781744e-01    1,547942609e-01    1,463065594e-01   -9,878454357e-02    0,000000000e+00    0,000000000e+00    0,000000000e+00    0,000000000e+00
     1458000000    2,339004427e-01   -1,738807745e-02    1,498445719e-01   -6,352272630e-02    0,000000000e+00    0,000000000e+00    0,000000000e+00    0,000000000e+00
     1472000000    1,877470315e-01   -2,024957985e-01    1,335920244e-01   -3,295866027e-02    0,000000000e+00    0,000000000e+00    0,000000000e+00    0,000000000e+00
     1486000000    6,511233747e-02   -3,748188913e-01    1,695547402e-01    2,121310681e-02    0,000000000e+00    0,000000000e+00    0,000000000e+00    0,000000000e+00
     1500000000   -1,701866239e-01   -5,005196333e-01    2,442131937e-01    8,979684860e-02    0,000000000e+00    0,000000000e+00    0,000000000e+00    0,000000000e+00
