! NanoVNA-App
! Date: 2025-09-25 15:30:28
! Start: 100MHz Stop: 1,5GHz Points: 101
! S-Parameter data: F S11 S21 S12 S22
# Hz S RI R 50
!     Frequency           S11_Real           S11_Imag           S21_Real           S21_Imag           S12_Real           S12_Imag           S22_Real           S22_Imag
      100000000   -2,887114882e-02   -4,175669514e-03    3,741081953e-01   -7,217997909e-01    0,000000000e+00    0,000000000e+00    0,000000000e+00    0,000000000e+00
      114000000   -1,653859392e-02    1,151526626e-02   -8,900455385e-02   -8,052873015e-01    0,000000000e+00    0,000000000e+00    0,000000000e+00    0,000000000e+00
      128000000    3,478145692e-03    1,055256464e-02   -5,146758556e-01   -6,207740307e-01    0,000000000e+00    0,000000000e+00    0,000000000e+00    0,000000000e+00
      142000000    1,453826670e-02   -2,930024173e-03   -7,670817375e-01   -2,364538014e-01    0,000000000e+00    0,000000000e+00    0,000000000e+00    0,000000000e+00
      156000000    1,438147109e-02   -1,488302555e-02   -7,643337846e-01    2,202141732e-01    0,000000000e+00    0,000000000e+00    0,000000000e+00    0,000000000e+00
      170000000    1,669074409e-02   -2,251809835e-02   -5,182772279e-01    6,047358513e-01    0,000000000e+00    0,000000000e+00    0,000000000e+00    0,000000000e+00
      184000000    2,100807987e-02   -3,713292629e-02   -1,012755930e-01    7,863590121e-01    0,000000000e+00    0,000000000e+00    0,000000000e+00    0,000000000e+00
      198000000    1,300629415e-02   -6,245294958e-02    3,431448042e-01    7,123012543e-01    0,000000000e+00    0,000000000e+00    0,000000000e+00    0,000000000e+00
      212000000   -1,868250780e-02   -8,129162341e-02    6,781637073e-01    4,099353254e-01    0,000000000e+00    0,000000000e+00    0,000000000e+00    0,000000000e+00
      226000000   -6,165375561e-02   -6,913626939e-02    7,957920432e-01   -3,062874824e-02    0,000000000e+00    0,000000000e+00    0,000000000e+00    0,000000000e+00
      240000000   -8,258846402e-02   -2,559538186e-02    6,461266875e-01   -4,668428302e-01    0,000000000e+00    0,000000000e+00    0,000000000e+00    0,000000000e+00
      254000000   -6,352640688e-02    1,728625596e-02    2,761115134e-01   -7,435886264e-01    0,000000000e+00    0,000000000e+00    0,000000000e+00    0,000000000e+00
      268000000   -2,389505133e-02    2,894452214e-02   -1,785522699e-01   -7,645317912e-01    0,000000000e+00    0,000000000e+00    0,000000000e+00    0,000000000e+00
      282000000    4,098726436e-03    1,193475630e-02   -5,619105101e-01   -5,357511640e-01    0,000000000e+00    0,000000000e+00    0,000000000e+00    0,000000000e+00
      296000000    9,754559956e-03   -7,845478132e-03   -7,601143718e-01   -1,397183537e-01    0,000000000e+00    0,000000000e+00    0,000000000e+00    0,000000000e+00
      310000000    1,112488564e-02   -1,616454311e-02   -7,134290934e-01    2,988018095e-01    0,000000000e+00    0,000000000e+00    0,000000000e+00    0,000000000e+00
      324000000    1,953507587e-02   -2,648046613e-02   -4,268857837e-01    6,382985115e-01    0,000000000e+00    0,000000000e+00    0,000000000e+00    0,000000000e+00
      338000000    2,545616589e-02   -5,224258825e-02   -1,042611431e-02    7,627769113e-01    0,000000000e+00    0,000000000e+00    0,000000000e+00    0,000000000e+00
      352000000    7,119903807e-03   -8,469492197e-02    4,065810144e-01    6,394528747e-01    0,000000000e+00    0,000000000e+00    0,000000000e+00    0,000000000e+00
      366000000   -3,465618193e-02   -9,555170685e-02    6,900917292e-01    3,109462857e-01    0,000000000e+00    0,000000000e+00    0,000000000e+00    0,000000000e+00
      380000000   -7,081667334e-02   -7,115023583e-02    7,478443980e-01   -1,256175339e-01    0,000000000e+00    0,000000000e+00    0,000000000e+00    0,000000000e+00
      394000000   -7,247144729e-02   -3,253309056e-02    5,457595587e-01   -5,226894021e-01    0,000000000e+00    0,000000000e+00    0,000000000e+00    0,000000000e+00
      408000000   -4,637970030e-02   -1,606965624e-02    1,638426930e-01   -7,316864133e-01    0,000000000e+00    0,000000000e+00    0,000000000e+00    0,000000000e+00
      422000000   -2,832049318e-02   -3,197005019e-02   -2,676672935e-01   -6,947186589e-01    0,000000000e+00    0,000000000e+00    0,000000000e+00    0,000000000e+00
      436000000   -4,079218581e-02   -5,166522413e-02   -6,040797234e-01   -4,318127632e-01    0,000000000e+00    0,000000000e+00    0,000000000e+00    0,000000000e+00
      450000000   -6,729473174e-02   -4,380194098e-02   -7,404174805e-01   -2,114390582e-02    0,000000000e+00    0,000000000e+00    0,000000000e+00    0,000000000e+00
      464000000   -7,336722314e-02   -1,163987722e-02   -6,182845831e-01    3,975889087e-01    0,000000000e+00    0,000000000e+00    0,000000000e+00    0,000000000e+00
      478000000   -4,791817069e-02    1,161494944e-02   -2,826056480e-01    6,672862768e-01    0,000000000e+00    0,000000000e+00    0,000000000e+00    0,000000000e+00
      492000000   -1,588464342e-02    6,150014699e-03    1,379302889e-01    7,012743950e-01    0,000000000e+00    0,000000000e+00    0,000000000e+00    0,000000000e+00
      506000000   -2,693012124e-03   -1,595130749e-02    4,986419380e-01    5,030682683e-01    0,000000000e+00    0,000000000e+00    0,000000000e+00    0,000000000e+00
      520000000   -5,011347588e-03   -3,113324009e-02    6,874091029e-01    1,402549446e-01    0,000000000e+00    0,000000000e+00    0,000000000e+00    0,000000000e+00
      534000000   -3,726480529e-03   -3,821377829e-02    6,437218189e-01   -2,632995844e-01    0,000000000e+00    0,000000000e+00    0,000000000e+00    0,000000000e+00
      548000000    6,233325228e-03   -5,379438028e-02    3,820518255e-01   -5,671288967e-01    0,000000000e+00    0,000000000e+00    0,000000000e+00    0,000000000e+00
      562000000    3,035419853e-03   -8,959934860e-02    2,637478290e-03   -6,732035875e-01    0,000000000e+00    0,000000000e+00    0,000000000e+00    0,000000000e+00
      576000000   -3,427621350e-02   -1,239694133e-01   -3,689888418e-01   -5,575149655e-01    0,000000000e+00    0,000000000e+00    0,000000000e+00    0,000000000e+00
      590000000   -9,635940939e-02   -1,225633398e-01   -6,209446192e-01   -2,654424310e-01    0,000000000e+00    0,000000000e+00    0,000000000e+00    0,000000000e+00
      604000000   -1,390933245e-01   -7,194697112e-02   -6,647923589e-01    1,375851780e-01    0,000000000e+00    0,000000000e+00    0,000000000e+00    0,000000000e+00
      618000000   -1,296204925e-01   -9,223740548e-03   -4,632873833e-01    4,943461120e-01    0,000000000e+00    0,000000000e+00    0,000000000e+00    0,000000000e+00
      632000000   -8,395524323e-02    1,621744968e-02   -9,889773279e-02    6,637368202e-01    0,000000000e+00    0,000000000e+00    0,000000000e+00    0,000000000e+00
      646000000   -5,041670427e-02    4,137562355e-04    2,874193490e-01    5,951353908e-01    0,000000000e+00    0,000000000e+00    0,000000000e+00    0,000000000e+00
      660000000   -5,301660672e-02   -2,122404985e-02    5,677158833e-01    3,230255842e-01    0,000000000e+00    0,000000000e+00    0,000000000e+00    0,000000000e+00
      674000000   -6,998268515e-02   -1,696721464e-02    6,429733634e-01   -6,547144800e-02    0,000000000e+00    0,000000000e+00    0,000000000e+00    0,000000000e+00
      688000000   -6,887698174e-02    9,402773343e-03    4,710003138e-01   -4,282326698e-01    0,000000000e+00    0,000000000e+00    0,000000000e+00    0,000000000e+00
      702000000   -3,861511126e-02    2,664798684e-02    1,232068986e-01   -6,103408933e-01    0,000000000e+00    0,000000000e+00    0,000000000e+00    0,000000000e+00
      716000000    2,378949896e-03    1,857219078e-02   -2,653312683e-01   -5,462807417e-01    0,000000000e+00    0,000000000e+00    0,000000000e+00    0,000000000e+00
      730000000    3,630571067e-02   -1,039018575e-02   -5,282517076e-01   -2,687952518e-01    0,000000000e+00    0,000000000e+00    0,000000000e+00    0,000000000e+00
      744000000    6,594442576e-02   -6,258863956e-02   -5,639579296e-01    1,064460576e-01    0,000000000e+00    0,000000000e+00    0,000000000e+00    0,000000000e+00
      758000000    6,610643119e-02   -1,523338109e-01   -3,636124432e-01    4,100263417e-01    0,000000000e+00    0,000000000e+00    0,000000000e+00    0,000000000e+00
      772000000   -1,295976061e-02   -2,619763315e-01   -3,519726172e-02    5,154383183e-01    0,000000000e+00    0,000000000e+00    0,000000000e+00    0,000000000e+00
      786000000   -2,070676982e-01   -3,031150699e-01    2,743763328e-01    3,959469795e-01    0,000000000e+00    0,000000000e+00    0,000000000e+00    0,000000000e+00
      800000000   -4,255425036e-01   -1,293510646e-01    4,173613191e-01    9,888574481e-02    0,000000000e+00    0,000000000e+00    0,000000000e+00    0,000000000e+00
      814000000   -3,890410066e-01    2,210823596e-01    2,816365659e-01   -1,732889265e-01    0,000000000e+00    0,000000000e+00    0,000000000e+00    0,000000000e+00
      828000000   -4,877687618e-02    3,681410551e-01    5,498762801e-02   -1,891523898e-01    0,000000000e+00    0,000000000e+00    0,000000000e+00    0,000000000e+00
      842000000    2,355748266e-01    1,857983470e-01   -1,663618162e-02   -7,049737126e-02    0,000000000e+00    0,000000000e+00    0,000000000e+00    0,000000000e+00
      856000000    2,804141343e-01   -1,241269186e-01    4,540806264e-02   -1,286332589e-02    0,000000000e+00    0,000000000e+00    0,000000000e+00    0,000000000e+00
      870000000    7,452140003e-02   -3,760752976e-01    1,136367619e-01   -9,122780710e-02    0,000000000e+00    0,000000000e+00    0,000000000e+00    0,000000000e+00
      884000000   -2,959545255e-01   -3,615304828e-01    2,738934569e-02   -2,456931472e-01    0,000000000e+00    0,000000000e+00    0,000000000e+00    0,000000000e+00
      898000000   -4,720118940e-01    1,002545003e-02   -2,220921516e-01   -2,273942679e-01    0,000000000e+00    0,000000000e+00    0,000000000e+00    0,000000000e+00
      912000000   -2,264540792e-01    2,944209278e-01   -3,544196188e-01    6,729475409e-02    0,000000000e+00    0,000000000e+00    0,000000000e+00    0,000000000e+00
      926000000    6,629939377e-02    2,630781233e-01   -2,165845931e-01    2,621785104e-01    0,000000000e+00    0,000000000e+00    0,000000000e+00    0,000000000e+00
      940000000    2,177757770e-01    7,879332453e-02   -3,535404056e-02    3,301024139e-01    0,000000000e+00    0,000000000e+00    0,000000000e+00    0,000000000e+00
      954000000    2,237183899e-01   -1,270674914e-01    1,319501549e-01    3,089860380e-01    0,000000000e+00    0,000000000e+00    0,000000000e+00    0,000000000e+00
      968000000    1,165403724e-01   -3,020772636e-01    2,722010612e-01    2,193148583e-01    0,000000000e+00    0,000000000e+00    0,000000000e+00    0,000000000e+00
      982000000   -8,256929368e-02   -3,860214055e-01    3,654319942e-01    6,552166492e-02    0,000000000e+00    0,000000000e+00    0,000000000e+00    0,000000000e+00
      996000000   -3,143651485e-01   -3,296177685e-01    3,682704866e-01   -1,453470588e-01    0,000000000e+00    0,000000000e+00    0,000000000e+00    0,000000000e+00
     1010000000   -4,604156017e-01   -1,077795401e-01    2,238928825e-01   -3,404947221e-01    0,000000000e+00    0,000000000e+00    0,000000000e+00    0,000000000e+00
     1024000000   -4,140492678e-01    1,461736858e-01   -3,232903779e-02   -3,929705620e-01    0,000000000e+00    0,000000000e+00    0,000000000e+00    0,000000000e+00
     1038000000   -2,154552191e-01    2,895675302e-01   -2,472269386e-01   -2,594590187e-01    0,000000000e+00    0,000000000e+00    0,000000000e+00    0,000000000e+00
     1052000000   -5,072918255e-03    2,789696455e-01   -3,189129531e-01   -4,553499818e-02    0,000000000e+00    0,000000000e+00    0,000000000e+00    0,000000000e+00
     1066000000    1,358110160e-01    1,615291387e-01   -2,580741644e-01    1,470322758e-01    0,000000000e+00    0,000000000e+00    0,000000000e+00    0,000000000e+00
     1080000000    1,970432252e-01   -5,911740009e-04   -1,190092489e-01    2,631831765e-01    0,000000000e+00    0,000000000e+00    0,000000000e+00    0,000000000e+00
     1094000000    1,517526954e-01   -1,758572906e-01    6,392220408e-02    3,048882782e-01    0,000000000e+00    0,000000000e+00    0,000000000e+00    0,000000000e+00
     1108000000   -1,222503139e-03   -3,028661609e-01    2,788955867e-01    2,447407097e-01    0,000000000e+00    0,000000000e+00    0,000000000e+00    0,000000000e+00
     1122000000   -2,508665621e-01   -2,607033551e-01    4,715103209e-01    1,263546292e-02    0,000000000e+00    0,000000000e+00    0,000000000e+00    0,000000000e+00
     1136000000   -3,236522973e-01    3,340387717e-02    3,993549049e-01   -3,919487596e-01    0,000000000e+00    0,000000000e+00    0,000000000e+00    0,000000000e+00
     1150000000   -4,348111525e-02    1,519073546e-01    5,185156129e-03   -5,429550409e-01    0,000000000e+00    0,000000000e+00    0,000000000e+00    0,000000000e+00
     1164000000    1,244491935e-01   -5,866448954e-02   -2,747750282e-01   -3,778701723e-01    0,000000000e+00    0,000000000e+00    0,000000000e+00    0,000000000e+00
     1178000000    1,537324861e-02   -3,042212129e-01   -3,689388931e-01   -1,493387669e-01    0,000000000e+00    0,000000000e+00    0,000000000e+00    0,000000000e+00
     1192000000   -2,675769329e-01   -3,742105663e-01   -3,215886950e-01    5,468518287e-02    0,000000000e+00    0,000000000e+00    0,000000000e+00    0,000000000e+00
     1206000000   -5,210186839e-01   -1,581763625e-01   -1,655295044e-01    1,806190461e-01    0,000000000e+00    0,000000000e+00    0,000000000e+00    0,000000000e+00
     1220000000   -5,041319728e-01    1,703877598e-01    5,822989624e-03    1,613821387e-01    0,000000000e+00    0,000000000e+00    0,000000000e+00    0,000000000e+00
     1234000000   -2,879362106e-01    3,587744534e-01    6,741431355e-02    5,875373259e-02    0,000000000e+00    0,000000000e+00    0,000000000e+00    0,000000000e+00
     1248000000   -4,600702599e-02    3,697994351e-01    5,485545844e-02   -3,347847378e-03    0,000000000e+00    0,000000000e+00    0,000000000e+00    0,000000000e+00
     1262000000    1,260043830e-01    2,547635734e-01    1,797416620e-02   -2,308918722e-02    0,000000000e+00    0,000000000e+00    0,000000000e+00    0,000000000e+00
     1276000000    2,118994147e-01    1,028671637e-01   -3,046907019e-03    5,969051737e-03    0,000000000e+00    0,000000000e+00    0,000000000e+00    0,000000000e+00
     1290000000    2,217111140e-01   -7,224027067e-02    1,528632082e-02    5,074365065e-02    0,000000000e+00    0,000000000e+00    0,000000000e+00    0,000000000e+00
     1304000000    1,531830579e-01   -2,452718467e-01    1,275275052e-01    6,587659568e-02    0,000000000e+00    0,000000000e+00    0,000000000e+00    0,000000000e+00
     1318000000    3,604245931e-02   -3,351736963e-01    1,371733844e-01   -1,658068597e-01    0,000000000e+00    0,000000000e+00    0,000000000e+00    0,000000000e+00
     1332000000   -1,280413866e-01   -4,399632215e-01   -4,838513955e-02   -4,937947169e-02    0,000000000e+00    0,000000000e+00    0,000000000e+00    0,000000000e+00
     1346000000   -3,890413940e-01   -4,061227441e-01    2,232100070e-02    6,638404727e-02    0,000000000e+00    0,000000000e+00    0,000000000e+00    0,000000000e+00
     1360000000   -6,113019586e-01   -1,898252219e-01    1,302369237e-01    6,527229398e-02    0,000000000e+00    0,000000000e+00    0,000000000e+00    0,000000000e+00
     1374000000   -6,370739341e-01    1,324716061e-01    1,973336935e-01    1,016184408e-02    0,000000000e+00    0,000000000e+00    0,000000000e+00    0,000000000e+00
     1388000000   -4,739580154e-01    3,676999509e-01    1,997694671e-01   -5,831439421e-02    0,000000000e+00    0,000000000e+00    0,000000000e+00    0,000000000e+00
     1402000000   -2,352142334e-01    4,538548887e-01    1,765374094e-01   -1,057851464e-01    0,000000000e+00    0,000000000e+00    0,000000000e+00    0,000000000e+00
     1416000000   -2,546154708e-02    4,116249979e-01    1,750389785e-01   -9,839598089e-02    0,000000000e+00    0,000000000e+00    0,000000000e+00    0,000000000e+00
     1430000000    1,137741506e-01    2,978225648e-01    1,597074717e-01   -9,306663275e-02    0,000000000e+00    0,000000000e+00    0,000000000e+00    0,000000000e+00
     1444000000    2,102378309e-01    1,493388116e-01    1,544352323e-01   -9,551348537e-02    0,000000000e+00    0,000000000e+00    0,000000000e+00    0,000000000e+00
     1458000000    2,368480861e-01   -1,915881783e-02    1,451001912e-01   -7,918105274e-02    0,000000000e+00    0,000000000e+00    0,000000000e+00    0,000000000e+00
     1472000000    1,888537854e-01   -2,055784911e-01    1,397523135e-01   -3,249573335e-02    0,000000000e+00    0,000000000e+00    0,000000000e+00    0,000000000e+00
     1486000000    6,617808342e-02   -3,801346421e-01    1,779995412e-01    2,587526292e-02    0,000000000e+00    0,000000000e+00    0,000000000e+00    0,000000000e+00
     1500000000   -1,772304475e-01   -4,950882494e-01    2,380759269e-01    8,773092180e-02    0,000000000e+00    0,000000000e+00    0,000000000e+00    0,000000000e+00
