! NanoVNA-App
! Date: 2025-09-25 15:33:25
! Start: 100MHz Stop: 1,5GHz Points: 101
! S-Parameter data: F S11 S21 S12 S22
# Hz S RI R 50
!     Frequency           S11_Real           S11_Imag           S21_Real           S21_Imag           S12_Real           S12_Imag           S22_Real           S22_Imag
      100000000   -2,886702679e-02   -4,171556793e-03    3,741550148e-01   -7,218039632e-01    0,000000000e+00    0,000000000e+00    0,000000000e+00    0,000000000e+00
      114000000   -1,649514586e-02    1,150835864e-02   -8,907725662e-02   -8,056784868e-01    0,000000000e+00    0,000000000e+00    0,000000000e+00    0,000000000e+00
      128000000    3,472669050e-03    1,056008879e-02   -5,145101547e-01   -6,203835011e-01    0,000000000e+00    0,000000000e+00    0,000000000e+00    0,000000000e+00
      142000000    1,455268264e-02   -2,954353811e-03   -7,672334313e-01   -2,368024737e-01    0,000000000e+00    0,000000000e+00    0,000000000e+00    0,000000000e+00
      156000000    1,445527934e-02   -1,485510916e-02   -7,647867203e-01    2,179537416e-01    0,000000000e+00    0,000000000e+00    0,000000000e+00    0,000000000e+00
      170000000    1,669527963e-02   -2,260170504e-02   -5,182325840e-01    6,050487161e-01    0,000000000e+00    0,000000000e+00    0,000000000e+00    0,000000000e+00
      184000000    2,100215293e-02   -3,708091378e-02   -1,012102887e-01    7,861321568e-01    0,000000000e+00    0,000000000e+00    0,000000000e+00    0,000000000e+00
      198000000    1,295380667e-02   -6,243966520e-02    3,433705270e-01    7,122175694e-01    0,000000000e+00    0,000000000e+00    0,000000000e+00    0,000000000e+00
      212000000   -1,865107939e-02   -8,133649826e-02    6,780561805e-01    4,098038077e-01    0,000000000e+00    0,000000000e+00    0,000000000e+00    0,000000000e+00
      226000000   -6,171206012e-02   -6,923426688e-02    7,958399057e-01   -3,057924286e-02    0,000000000e+00    0,000000000e+00    0,000000000e+00    0,000000000e+00
      240000000   -8,264172077e-02   -2,563765831e-02    6,462835073e-01   -4,670798481e-01    0,000000000e+00    0,000000000e+00    0,000000000e+00    0,000000000e+00
      254000000   -6,348361820e-02    1,731154695e-02    2,760864198e-01   -7,434251904e-01    0,000000000e+00    0,000000000e+00    0,000000000e+00    0,000000000e+00
      268000000   -2,386271022e-02    2,886902355e-02   -1,777837276e-01   -7,642121315e-01    0,000000000e+00    0,000000000e+00    0,000000000e+00    0,000000000e+00
      282000000    4,245825112e-03    1,189658884e-02   -5,618687868e-01   -5,357913971e-01    0,000000000e+00    0,000000000e+00    0,000000000e+00    0,000000000e+00
      296000000    9,712398984e-03   -7,799369749e-03   -7,598569989e-01   -1,396698356e-01    0,000000000e+00    0,000000000e+00    0,000000000e+00    0,000000000e+00
      310000000    1,126395632e-02   -1,623527147e-02   -7,116945982e-01    2,978511751e-01    0,000000000e+00    0,000000000e+00    0,000000000e+00    0,000000000e+00
      324000000    1,987947896e-02   -2,669978514e-02   -4,275555313e-01    6,378495097e-01    0,000000000e+00    0,000000000e+00    0,000000000e+00    0,000000000e+00
      338000000    2,560391836e-02   -5,235184729e-02   -7,028711028e-03    7,616481185e-01    0,000000000e+00    0,000000000e+00    0,000000000e+00    0,000000000e+00
      352000000    7,593895309e-03   -8,504460007e-02    4,070285261e-01    6,387697458e-01    0,000000000e+00    0,000000000e+00    0,000000000e+00    0,000000000e+00
      366000000   -3,464845940e-02   -9,568191320e-02    6,908623576e-01    3,106374443e-01    0,000000000e+00    0,000000000e+00    0,000000000e+00    0,000000000e+00
      380000000   -7,088184357e-02   -7,100590318e-02    7,471178174e-01   -1,262739003e-01    0,000000000e+00    0,000000000e+00    0,000000000e+00    0,000000000e+00
      394000000   -7,244060189e-02   -3,239225596e-02    5,468066335e-01   -5,222291946e-01    0,000000000e+00    0,000000000e+00    0,000000000e+00    0,000000000e+00
      408000000   -4,651427642e-02   -1,604101248e-02    1,617794633e-01   -7,330585122e-01    0,000000000e+00    0,000000000e+00    0,000000000e+00    0,000000000e+00
      422000000   -2,831534669e-02   -3,222619742e-02   -2,676066160e-01   -6,949984431e-01    0,000000000e+00    0,000000000e+00    0,000000000e+00    0,000000000e+00
      436000000   -4,074330255e-02   -5,162907764e-02   -6,042959690e-01   -4,319059551e-01    0,000000000e+00    0,000000000e+00    0,000000000e+00    0,000000000e+00
      450000000   -6,737259775e-02   -4,367885366e-02   -7,405173182e-01   -2,143146843e-02    0,000000000e+00    0,000000000e+00    0,000000000e+00    0,000000000e+00
      464000000   -7,352472097e-02   -1,191143412e-02   -6,189298034e-01    3,968424499e-01    0,000000000e+00    0,000000000e+00    0,000000000e+00    0,000000000e+00
      478000000   -4,794365540e-02    1,180504076e-02   -2,828690112e-01    6,680460572e-01    0,000000000e+00    0,000000000e+00    0,000000000e+00    0,000000000e+00
      492000000   -1,570012793e-02    6,167575717e-03    1,370089948e-01    7,017670870e-01    0,000000000e+00    0,000000000e+00    0,000000000e+00    0,000000000e+00
      506000000   -2,333437325e-03   -1,578623243e-02    4,988589585e-01    5,028646588e-01    0,000000000e+00    0,000000000e+00    0,000000000e+00    0,000000000e+00
      520000000   -5,323894788e-03   -3,178510815e-02    6,881217957e-01    1,409415305e-01    0,000000000e+00    0,000000000e+00    0,000000000e+00    0,000000000e+00
      534000000   -4,012412857e-03   -3,839182854e-02    6,434546709e-01   -2,627748549e-01    0,000000000e+00    0,000000000e+00    0,000000000e+00    0,000000000e+00
      548000000    6,036823150e-03   -5,423210561e-02    3,817076087e-01   -5,672057271e-01    0,000000000e+00    0,000000000e+00    0,000000000e+00    0,000000000e+00
      562000000    2,908186056e-03   -8,941173553e-02    1,893954119e-03   -6,724619865e-01    0,000000000e+00    0,000000000e+00    0,000000000e+00    0,000000000e+00
      576000000   -3,436782584e-02   -1,244781464e-01   -3,689559102e-01   -5,584349036e-01    0,000000000e+00    0,000000000e+00    0,000000000e+00    0,000000000e+00
      590000000   -9,646499902e-02   -1,226832345e-01   -6,205655932e-01   -2,648774981e-01    0,000000000e+00    0,000000000e+00    0,000000000e+00    0,000000000e+00
      604000000   -1,399199814e-01   -7,169476897e-02   -6,653259993e-01    1,378139704e-01    0,000000000e+00    0,000000000e+00    0,000000000e+00    0,000000000e+00
      618000000   -1,290568858e-01   -8,543446660e-03   -4,649302661e-01    4,953813553e-01    0,000000000e+00    0,000000000e+00    0,000000000e+00    0,000000000e+00
      632000000   -8,410623670e-02    1,621804945e-02   -9,923725575e-02    6,635191441e-01    0,000000000e+00    0,000000000e+00    0,000000000e+00    0,000000000e+00
      646000000   -5,172121525e-02    7,626797887e-04    2,875445485e-01    5,953206420e-01    0,000000000e+00    0,000000000e+00    0,000000000e+00    0,000000000e+00
      660000000   -5,265448987e-02   -2,152200602e-02    5,672321320e-01    3,233525455e-01    0,000000000e+00    0,000000000e+00    0,000000000e+00    0,000000000e+00
      674000000   -7,001392543e-02   -1,712786965e-02    6,427339315e-01   -6,562347710e-02    0,000000000e+00    0,000000000e+00    0,000000000e+00    0,000000000e+00
      688000000   -6,887251139e-02    9,231274948e-03    4,715849161e-01   -4,275631905e-01    0,000000000e+00    0,000000000e+00    0,000000000e+00    0,000000000e+00
      702000000   -3,642018139e-02    2,706194855e-02    1,177765876e-01   -6,080983281e-01    0,000000000e+00    0,000000000e+00    0,000000000e+00    0,000000000e+00
      716000000    2,449842868e-03    1,722041145e-02   -2,643793225e-01   -5,462635159e-01    0,000000000e+00    0,000000000e+00    0,000000000e+00    0,000000000e+00
      730000000    3,731218725e-02   -1,124315895e-02   -5,279251933e-01   -2,684534788e-01    0,000000000e+00    0,000000000e+00    0,000000000e+00    0,000000000e+00
      744000000    6,464519352e-02   -6,268236786e-02   -5,641877651e-01    1,060895920e-01    0,000000000e+00    0,000000000e+00    0,000000000e+00    0,000000000e+00
      758000000    6,676093489e-02   -1,524255276e-01   -3,637972474e-01    4,102159142e-01    0,000000000e+00    0,000000000e+00    0,000000000e+00    0,000000000e+00
      772000000   -1,239126083e-02   -2,624263465e-01   -3,496704623e-02    5,162696838e-01    0,000000000e+00    0,000000000e+00    0,000000000e+00    0,000000000e+00
      786000000   -2,059803605e-01   -3,034384549e-01    2,750185728e-01    3,964560032e-01    0,000000000e+00    0,000000000e+00    0,000000000e+00    0,000000000e+00
      800000000   -4,248383939e-01   -1,299057454e-01    4,170664251e-01    9,857289493e-02    0,000000000e+00    0,000000000e+00    0,000000000e+00    0,000000000e+00
      814000000   -3,890431225e-01    2,207345217e-01    2,820698321e-01   -1,732504666e-01    0,000000000e+00    0,000000000e+00    0,000000000e+00    0,000000000e+00
      828000000   -4,919360951e-02    3,686051965e-01    5,519059300e-02   -1,889859587e-01    0,000000000e+00    0,000000000e+00    0,000000000e+00    0,000000000e+00
      842000000    2,349750251e-01    1,853600889e-01   -1,703128591e-02   -7,074851543e-02    0,000000000e+00    0,000000000e+00    0,000000000e+00    0,000000000e+00
      856000000    2,804768980e-01   -1,247984320e-01    4,541151598e-02   -1,333599444e-02    0,000000000e+00    0,000000000e+00    0,000000000e+00    0,000000000e+00
      870000000    7,506223023e-02   -3,759419322e-01    1,136450917e-01   -9,103836119e-02    0,000000000e+00    0,000000000e+00    0,000000000e+00    0,000000000e+00
      884000000   -2,949353456e-01   -3,610298634e-01    2,863233536e-02   -2,455295324e-01    0,000000000e+00    0,000000000e+00    0,000000000e+00    0,000000000e+00
      898000000   -4,719428420e-01    8,568432182e-03   -2,214146256e-01   -2,275770605e-01    0,000000000e+00    0,000000000e+00    0,000000000e+00    0,000000000e+00
      912000000   -2,260535955e-01    2,941600978e-01   -3,546788096e-01    7,078067958e-02    0,000000000e+00    0,000000000e+00    0,000000000e+00    0,000000000e+00
      926000000    6,620463729e-02    2,631306648e-01   -2,178260684e-01    2,644804120e-01    0,000000000e+00    0,000000000e+00    0,000000000e+00    0,000000000e+00
      940000000    2,158226669e-01    7,800570130e-02   -3,611385450e-02    3,288254738e-01    0,000000000e+00    0,000000000e+00    0,000000000e+00    0,000000000e+00
      954000000    2,222997248e-01   -1,258763671e-01    1,303059012e-01    3,076904118e-01    0,000000000e+00    0,000000000e+00    0,000000000e+00    0,000000000e+00
      968000000    1,154172122e-01   -3,015286326e-01    2,706142366e-01    2,175156176e-01    0,000000000e+00    0,000000000e+00    0,000000000e+00    0,000000000e+00
      982000000   -8,353961259e-02   -3,893173933e-01    3,643044531e-01    6,528023630e-02    0,000000000e+00    0,000000000e+00    0,000000000e+00    0,000000000e+00
      996000000   -3,169913888e-01   -3,318190873e-01    3,688007891e-01   -1,451415569e-01    0,000000000e+00    0,000000000e+00    0,000000000e+00    0,000000000e+00
     1010000000   -4,652252793e-01   -1,080989838e-01    2,205369771e-01   -3,430893719e-01    0,000000000e+00    0,000000000e+00    0,000000000e+00    0,000000000e+00
     1024000000   -4,094803035e-01    1,498651654e-01   -3,260416165e-02   -3,909728527e-01    0,000000000e+00    0,000000000e+00    0,000000000e+00    0,000000000e+00
     1038000000   -2,173628509e-01    2,886581421e-01   -2,484699339e-01   -2,585051656e-01    0,000000000e+00    0,000000000e+00    0,000000000e+00    0,000000000e+00
     1052000000   -6,137551274e-03    2,764967382e-01   -3,166315258e-01   -4,555584490e-02    0,000000000e+00    0,000000000e+00    0,000000000e+00    0,000000000e+00
     1066000000    1,337780952e-01    1,642603576e-01   -2,575219572e-01    1,429023445e-01    0,000000000e+00    0,000000000e+00    0,000000000e+00    0,000000000e+00
     1080000000    1,964040101e-01    6,160767516e-04   -1,204472259e-01    2,628379166e-01    0,000000000e+00    0,000000000e+00    0,000000000e+00    0,000000000e+00
     1094000000    1,552924514e-01   -1,768872887e-01    6,431414187e-02    3,050926030e-01    0,000000000e+00    0,000000000e+00    0,000000000e+00    0,000000000e+00
     1108000000   -4,364460241e-03   -3,048937619e-01    2,772587538e-01    2,449868023e-01    0,000000000e+00    0,000000000e+00    0,000000000e+00    0,000000000e+00
     1122000000   -2,466873676e-01   -2,617815435e-01    4,699539244e-01    1,394086145e-02    0,000000000e+00    0,000000000e+00    0,000000000e+00    0,000000000e+00
     1136000000   -3,230996132e-01    3,485642746e-02    3,970584869e-01   -3,910809159e-01    0,000000000e+00    0,000000000e+00    0,000000000e+00    0,000000000e+00
     1150000000   -3,647484630e-02    1,507754624e-01    5,466622300e-03   -5,427833200e-01    0,000000000e+00    0,000000000e+00    0,000000000e+00    0,000000000e+00
     1164000000    1,193464100e-01   -6,380268186e-02   -2,768498361e-01   -3,792330623e-01    0,000000000e+00    0,000000000e+00    0,000000000e+00    0,000000000e+00
     1178000000    1,841538213e-02   -3,011406362e-01   -3,676063418e-01   -1,516085863e-01    0,000000000e+00    0,000000000e+00    0,000000000e+00    0,000000000e+00
     1192000000   -2,654633820e-01   -3,738037348e-01   -3,232898712e-01    5,582206324e-02    0,000000000e+00    0,000000000e+00    0,000000000e+00    0,000000000e+00
     1206000000   -5,248584747e-01   -1,590721756e-01   -1,672455966e-01    1,797016412e-01    0,000000000e+00    0,000000000e+00    0,000000000e+00    0,000000000e+00
     1220000000   -5,104647875e-01    1,685042530e-01   -2,019145992e-03    1,597878039e-01    0,000000000e+00    0,000000000e+00    0,000000000e+00    0,000000000e+00
     1234000000   -2,884229720e-01    3,688707054e-01    6,939066201e-02    6,706488132e-02    0,000000000e+00    0,000000000e+00    0,000000000e+00    0,000000000e+00
     1248000000   -4,922014102e-02    3,652765751e-01    4,906689748e-02   -3,988852724e-03    0,000000000e+00    0,000000000e+00    0,000000000e+00    0,000000000e+00
     1262000000    1,253900677e-01    2,601577342e-01    1,632279716e-02   -1,702225953e-02    0,000000000e+00    0,000000000e+00    0,000000000e+00    0,000000000e+00
     1276000000    2,098972052e-01    1,017414182e-01   -2,010035096e-03    6,516814698e-03    0,000000000e+00    0,000000000e+00    0,000000000e+00    0,000000000e+00
     1290000000    2,250386775e-01   -7,517644763e-02    2,010555938e-02    5,079358071e-02    0,000000000e+00    0,000000000e+00    0,000000000e+00    0,000000000e+00
     1304000000    1,546586901e-01   -2,414815128e-01    1,277259737e-01    6,562332064e-02    0,000000000e+00    0,000000000e+00    0,000000000e+00    0,000000000e+00
     1318000000    3,358687460e-02   -3,371250033e-01    1,287537962e-01   -1,678975374e-01    0,000000000e+00    0,000000000e+00    0,000000000e+00    0,000000000e+00
     1332000000   -1,303555071e-01   -4,377582073e-01   -4,536625743e-02   -4,152897745e-02    0,000000000e+00    0,000000000e+00    0,000000000e+00    0,000000000e+00
     1346000000   -3,916276395e-01   -4,060415030e-01    2,919718623e-02    6,420766562e-02    0,000000000e+00    0,000000000e+00    0,000000000e+00    0,000000000e+00
     1360000000   -6,091519594e-01   -1,946706623e-01    1,303950101e-01    6,708107144e-02    0,000000000e+00    0,000000000e+00    0,000000000e+00    0,000000000e+00
     1374000000   -6,355272532e-01    1,389962733e-01    2,003040165e-01    4,891676828e-03    0,000000000e+00    0,000000000e+00    0,000000000e+00    0,000000000e+00
     1388000000   -4,672961235e-01    3,672341704e-01    1,993718147e-01   -5,523440242e-02    0,000000000e+00    0,000000000e+00    0,000000000e+00    0,000000000e+00
     1402000000   -2,346021533e-01    4,480226934e-01    1,793884337e-01   -9,802349657e-02    0,000000000e+00    0,000000000e+00    0,000000000e+00    0,000000000e+00
     1416000000   -2,922470123e-02    4,136481881e-01    1,742033064e-01   -1,095570922e-01    0,000000000e+00    0,000000000e+00    0,000000000e+00    0,000000000e+00
     1430000000    1,174515411e-01    3,092957735e-01    1,533463150e-01   -1,013196930e-01    0,000000000e+00    0,000000000e+00    0,000000000e+00    0,000000000e+00
     1444000000    2,111049443e-01    1,498514861e-01    1,643047333e-01   -9,545423836e-02    0,000000000e+00    0,000000000e+00    0,000000000e+00    0,000000000e+00
     1458000000    2,353375852e-01   -1,637311280e-02    1,456555277e-01   -6,550507993e-02    0,000000000e+00    0,000000000e+00    0,000000000e+00    0,000000000e+00
     1472000000    1,869848222e-01   -2,053994983e-01    1,323836297e-01   -2,756712586e-02    0,000000000e+00    0,000000000e+00    0,000000000e+00    0,000000000e+00
     1486000000    5,878393725e-02   -3,781492412e-01    1,751282364e-01    1,858391427e-02    0,000000000e+00    0,000000000e+00    0,000000000e+00    0,000000000e+00
     1500000000   -1,770914942e-01   -4,914864004e-01    2,269327193e-01    9,433997422e-02    0,000000000e+00    0,000000000e+00    0,000000000e+00    0,000000000e+00
