! NanoVNA-App
! Date: 2025-09-25 15:35:02
! Start: 100MHz Stop: 1,5GHz Points: 101
! S-Parameter data: F S11 S21 S12 S22
# Hz S RI R 50
!     Frequency           S11_Real           S11_Imag           S21_Real           S21_Imag           S12_Real           S12_Imag           S22_Real           S22_Imag
      100000000   -2,883481234e-02   -4,171442240e-03    3,741292357e-01   -7,217487097e-01    0,000000000e+00    0,000000000e+00    0,000000000e+00    0,000000000e+00
      114000000   -1,646333002e-02    1,150592510e-02   -8,915906399e-02   -8,055547476e-01    0,000000000e+00    0,000000000e+00    0,000000000e+00    0,000000000e+00
      128000000    3,524258034e-03    1,054129470e-02   -5,146172047e-01   -6,205487847e-01    0,000000000e+00    0,000000000e+00    0,000000000e+00    0,000000000e+00
      142000000    1,457036659e-02   -2,964489395e-03   -7,669066191e-01   -2,364414185e-01    0,000000000e+00    0,000000000e+00    0,000000000e+00    0,000000000e+00
      156000000    1,482564118e-02   -1,481348928e-02   -7,658939362e-01    2,215783596e-01    0,000000000e+00    0,000000000e+00    0,000000000e+00    0,000000000e+00
      170000000    1,674350351e-02   -2,254807577e-02   -5,179886222e-01    6,048575640e-01    0,000000000e+00    0,000000000e+00    0,000000000e+00    0,000000000e+00
      184000000    2,103360370e-02   -3,708745167e-02   -1,013785005e-01    7,861837745e-01    0,000000000e+00    0,000000000e+00    0,000000000e+00    0,000000000e+00
      198000000    1,299257763e-02   -6,244711950e-02    3,433175385e-01    7,123488784e-01    0,000000000e+00    0,000000000e+00    0,000000000e+00    0,000000000e+00
      212000000   -1,865356602e-02   -8,132351935e-02    6,781653762e-01    4,099712372e-01    0,000000000e+00    0,000000000e+00    0,000000000e+00    0,000000000e+00
      226000000   -6,165200472e-02   -6,914889812e-02    7,957792282e-01   -3,062629700e-02    0,000000000e+00    0,000000000e+00    0,000000000e+00    0,000000000e+00
      240000000   -8,259271085e-02   -2,560623921e-02    6,461932063e-01   -4,672214389e-01    0,000000000e+00    0,000000000e+00    0,000000000e+00    0,000000000e+00
      254000000   -6,349511445e-02    1,726043597e-02    2,758797109e-01   -7,433346510e-01    0,000000000e+00    0,000000000e+00    0,000000000e+00    0,000000000e+00
      268000000   -2,389988303e-02    2,892336808e-02   -1,783700287e-01   -7,640535831e-01    0,000000000e+00    0,000000000e+00    0,000000000e+00    0,000000000e+00
      282000000    4,176683724e-03    1,199146453e-02   -5,617054105e-01   -5,356109738e-01    0,000000000e+00    0,000000000e+00    0,000000000e+00    0,000000000e+00
      296000000    9,788381867e-03   -7,810788229e-03   -7,597129345e-01   -1,395776421e-01    0,000000000e+00    0,000000000e+00    0,000000000e+00    0,000000000e+00
      310000000    1,119184587e-02   -1,614354365e-02   -7,118753195e-01    2,990521193e-01    0,000000000e+00    0,000000000e+00    0,000000000e+00    0,000000000e+00
      324000000    1,944666542e-02   -2,672601677e-02   -4,271022081e-01    6,369593740e-01    0,000000000e+00    0,000000000e+00    0,000000000e+00    0,000000000e+00
      338000000    2,540054359e-02   -5,214234442e-02   -7,446555421e-03    7,643946409e-01    0,000000000e+00    0,000000000e+00    0,000000000e+00    0,000000000e+00
      352000000    7,465715986e-03   -8,468781412e-02    4,059658945e-01    6,402484775e-01    0,000000000e+00    0,000000000e+00    0,000000000e+00    0,000000000e+00
      366000000   -3,436582908e-02   -9,558293968e-02    6,909962296e-01    3,108733892e-01    0,000000000e+00    0,000000000e+00    0,000000000e+00    0,000000000e+00
      380000000   -7,068712264e-02   -7,123390585e-02    7,478483915e-01   -1,260749549e-01    0,000000000e+00    0,000000000e+00    0,000000000e+00    0,000000000e+00
      394000000   -7,237806916e-02   -3,246213868e-02    5,461482406e-01   -5,226006508e-01    0,000000000e+00    0,000000000e+00    0,000000000e+00    0,000000000e+00
      408000000   -4,642341286e-02   -1,612785831e-02    1,604319960e-01   -7,331766486e-01    0,000000000e+00    0,000000000e+00    0,000000000e+00    0,000000000e+00
      422000000   -2,833343111e-02   -3,204997256e-02   -2,678078711e-01   -6,941003203e-01    0,000000000e+00    0,000000000e+00    0,000000000e+00    0,000000000e+00
      436000000   -4,089998081e-02   -5,181054771e-02   -6,042250395e-01   -4,320140183e-01    0,000000000e+00    0,000000000e+00    0,000000000e+00    0,000000000e+00
      450000000   -6,731236726e-02   -4,366497695e-02   -7,404919267e-01   -2,167479135e-02    0,000000000e+00    0,000000000e+00    0,000000000e+00    0,000000000e+00
      464000000   -7,343290001e-02   -1,193165593e-02   -6,181993484e-01    3,973109424e-01    0,000000000e+00    0,000000000e+00    0,000000000e+00    0,000000000e+00
      478000000   -4,782995209e-02    1,150670089e-02   -2,825014293e-01    6,669837832e-01    0,000000000e+00    0,000000000e+00    0,000000000e+00    0,000000000e+00
      492000000   -1,579360291e-02    6,073171739e-03    1,371373981e-01    7,021743059e-01    0,000000000e+00    0,000000000e+00    0,000000000e+00    0,000000000e+00
      506000000   -2,544778632e-03   -1,579561085e-02    4,991555810e-01    5,022745728e-01    0,000000000e+00    0,000000000e+00    0,000000000e+00    0,000000000e+00
      520000000   -4,844800569e-03   -3,165766224e-02    6,895496845e-01    1,421452463e-01    0,000000000e+00    0,000000000e+00    0,000000000e+00    0,000000000e+00
      534000000   -3,748026444e-03   -3,802011535e-02    6,434491873e-01   -2,626514733e-01    0,000000000e+00    0,000000000e+00    0,000000000e+00    0,000000000e+00
      548000000    6,046630442e-03   -5,417150259e-02    3,811840117e-01   -5,675933957e-01    0,000000000e+00    0,000000000e+00    0,000000000e+00    0,000000000e+00
      562000000    3,314696718e-03   -8,932966739e-02    2,471405314e-03   -6,723067760e-01    0,000000000e+00    0,000000000e+00    0,000000000e+00    0,000000000e+00
      576000000   -3,432393074e-02   -1,247949898e-01   -3,689699471e-01   -5,579808950e-01    0,000000000e+00    0,000000000e+00    0,000000000e+00    0,000000000e+00
      590000000   -9,657557309e-02   -1,225538552e-01   -6,196987033e-01   -2,619745135e-01    0,000000000e+00    0,000000000e+00    0,000000000e+00    0,000000000e+00
      604000000   -1,392343640e-01   -7,192678750e-02   -6,645961404e-01    1,377077848e-01    0,000000000e+00    0,000000000e+00    0,000000000e+00    0,000000000e+00
      618000000   -1,298451126e-01   -8,960005827e-03   -4,649150074e-01    4,955657125e-01    0,000000000e+00    0,000000000e+00    0,000000000e+00    0,000000000e+00
      632000000   -8,370727301e-02    1,663231850e-02   -9,823384881e-02    6,643608809e-01    0,000000000e+00    0,000000000e+00    0,000000000e+00    0,000000000e+00
      646000000   -5,063021183e-02    1,136741485e-03    2,874882221e-01    5,948216319e-01    0,000000000e+00    0,000000000e+00    0,000000000e+00    0,000000000e+00
      660000000   -5,329950154e-02   -2,223205566e-02    5,683199167e-01    3,232653737e-01    0,000000000e+00    0,000000000e+00    0,000000000e+00    0,000000000e+00
      674000000   -7,004515827e-02   -1,827008277e-02    6,434135437e-01   -6,528224796e-02    0,000000000e+00    0,000000000e+00    0,000000000e+00    0,000000000e+00
      688000000   -6,907937676e-02    8,896600455e-03    4,718130529e-01   -4,279876947e-01    0,000000000e+00    0,000000000e+00    0,000000000e+00    0,000000000e+00
      702000000   -3,670445830e-02    2,742999233e-02    1,168554947e-01   -6,110877991e-01    0,000000000e+00    0,000000000e+00    0,000000000e+00    0,000000000e+00
      716000000    2,676010132e-03    1,834163815e-02   -2,648870945e-01   -5,465175509e-01    0,000000000e+00    0,000000000e+00    0,000000000e+00    0,000000000e+00
      730000000    3,671783209e-02   -1,034322288e-02   -5,286042690e-01   -2,692500949e-01    0,000000000e+00    0,000000000e+00    0,000000000e+00    0,000000000e+00
      744000000    6,555563956e-02   -6,291344762e-02   -5,645965338e-01    1,064196303e-01    0,000000000e+00    0,000000000e+00    0,000000000e+00    0,000000000e+00
      758000000    6,615151465e-02   -1,528340280e-01   -3,627851605e-01    4,098289609e-01    0,000000000e+00    0,000000000e+00    0,000000000e+00    0,000000000e+00
      772000000   -1,224424038e-02   -2,626997530e-01   -3,485686332e-02    5,154844522e-01    0,000000000e+00    0,000000000e+00    0,000000000e+00    0,000000000e+00
      786000000   -2,063530684e-01   -3,022382557e-01    2,742921412e-01    3,956152797e-01    0,000000000e+00    0,000000000e+00    0,000000000e+00    0,000000000e+00
      800000000   -4,258162379e-01   -1,293091178e-01    4,170900285e-01    9,901434183e-02    0,000000000e+00    0,000000000e+00    0,000000000e+00    0,000000000e+00
      814000000   -3,900036812e-01    2,220682055e-01    2,825168669e-01   -1,730656326e-01    0,000000000e+00    0,000000000e+00    0,000000000e+00    0,000000000e+00
      828000000   -4,990866035e-02    3,683722913e-01    5,526530370e-02   -1,889349222e-01    0,000000000e+00    0,000000000e+00    0,000000000e+00    0,000000000e+00
      842000000    2,356109619e-01    1,860312223e-01   -1,735198125e-02   -7,079919428e-02    0,000000000e+00    0,000000000e+00    0,000000000e+00    0,000000000e+00
      856000000    2,803927362e-01   -1,245814115e-01    4,510029405e-02   -1,340913400e-02    0,000000000e+00    0,000000000e+00    0,000000000e+00    0,000000000e+00
      870000000    7,519544661e-02   -3,756471276e-01    1,136028394e-01   -9,094712138e-02    0,000000000e+00    0,000000000e+00    0,000000000e+00    0,000000000e+00
      884000000   -2,960874736e-01   -3,618356884e-01    2,832023241e-02   -2,466240078e-01    0,000000000e+00    0,000000000e+00    0,000000000e+00    0,000000000e+00
      898000000   -4,719899595e-01    8,470029570e-03   -2,219366431e-01   -2,282935232e-01    0,000000000e+00    0,000000000e+00    0,000000000e+00    0,000000000e+00
      912000000   -2,254695743e-01    2,934050262e-01   -3,507321775e-01    7,462126762e-02    0,000000000e+00    0,000000000e+00    0,000000000e+00    0,000000000e+00
      926000000    6,598685682e-02    2,627528608e-01   -2,174346894e-01    2,633628547e-01    0,000000000e+00    0,000000000e+00    0,000000000e+00    0,000000000e+00
      940000000    2,155132443e-01    7,785174251e-02   -3,637770191e-02    3,279935122e-01    0,000000000e+00    0,000000000e+00    0,000000000e+00    0,000000000e+00
      954000000    2,218529731e-01   -1,256336123e-01    1,300361603e-01    3,073959947e-01    0,000000000e+00    0,000000000e+00    0,000000000e+00    0,000000000e+00
      968000000    1,181816608e-01   -2,990044057e-01    2,715333998e-01    2,177391797e-01    0,000000000e+00    0,000000000e+00    0,000000000e+00    0,000000000e+00
      982000000   -8,289050311e-02   -3,851805925e-01    3,660354018e-01    6,586440653e-02    0,000000000e+00    0,000000000e+00    0,000000000e+00    0,000000000e+00
      996000000   -3,147121668e-01   -3,296275139e-01    3,691118658e-01   -1,449970007e-01    0,000000000e+00    0,000000000e+00    0,000000000e+00    0,000000000e+00
     1010000000   -4,612867832e-01   -1,080875918e-01    2,224288434e-01   -3,421201408e-01    0,000000000e+00    0,000000000e+00    0,000000000e+00    0,000000000e+00
     1024000000   -4,157486856e-01    1,510899067e-01   -3,315684572e-02   -3,914570510e-01    0,000000000e+00    0,000000000e+00    0,000000000e+00    0,000000000e+00
     1038000000   -2,214298248e-01    2,900669277e-01   -2,480439544e-01   -2,621226013e-01    0,000000000e+00    0,000000000e+00    0,000000000e+00    0,000000000e+00
     1052000000   -8,074211888e-03    2,806233168e-01   -3,166472912e-01   -4,609309137e-02    0,000000000e+00    0,000000000e+00    0,000000000e+00    0,000000000e+00
     1066000000    1,382783502e-01    1,608795971e-01   -2,562163770e-01    1,432540119e-01    0,000000000e+00    0,000000000e+00    0,000000000e+00    0,000000000e+00
     1080000000    1,978033036e-01    5,381439696e-04   -1,218613088e-01    2,623988390e-01    0,000000000e+00    0,000000000e+00    0,000000000e+00    0,000000000e+00
     1094000000    1,539608985e-01   -1,779063195e-01    6,373690069e-02    3,056357801e-01    0,000000000e+00    0,000000000e+00    0,000000000e+00    0,000000000e+00
     1108000000    5,080606788e-04   -3,072239161e-01    2,738037407e-01    2,465697527e-01    0,000000000e+00    0,000000000e+00    0,000000000e+00    0,000000000e+00
     1122000000   -2,532105744e-01   -2,626363933e-01    4,763416052e-01    1,290185843e-02    0,000000000e+00    0,000000000e+00    0,000000000e+00    0,000000000e+00
     1136000000   -3,183813393e-01    2,835836262e-02    3,990382850e-01   -3,929698765e-01    0,000000000e+00    0,000000000e+00    0,000000000e+00    0,000000000e+00
     1150000000   -4,080487043e-02    1,545854807e-01    2,409077249e-03   -5,412980318e-01    0,000000000e+00    0,000000000e+00    0,000000000e+00    0,000000000e+00
     1164000000    1,202003881e-01   -6,290057302e-02   -2,773110271e-01   -3,771094382e-01    0,000000000e+00    0,000000000e+00    0,000000000e+00    0,000000000e+00
     1178000000    1,719131321e-02   -3,064669967e-01   -3,707134724e-01   -1,511109918e-01    0,000000000e+00    0,000000000e+00    0,000000000e+00    0,000000000e+00
     1192000000   -2,677596807e-01   -3,712003827e-01   -3,213209510e-01    6,116421521e-02    0,000000000e+00    0,000000000e+00    0,000000000e+00    0,000000000e+00
     1206000000   -5,166038275e-01   -1,613081396e-01   -1,629130691e-01    1,794991195e-01    0,000000000e+00    0,000000000e+00    0,000000000e+00    0,000000000e+00
     1220000000   -5,116769671e-01    1,715077311e-01   -1,212546602e-03    1,586298198e-01    0,000000000e+00    0,000000000e+00    0,000000000e+00    0,000000000e+00
     1234000000   -2,844588161e-01    3,670273423e-01    6,775429845e-02    6,647859514e-02    0,000000000e+00    0,000000000e+00    0,000000000e+00    0,000000000e+00
     1248000000   -4,581439495e-02    3,674750030e-01    5,357443541e-02   -3,706816351e-03    0,000000000e+00    0,000000000e+00    0,000000000e+00    0,000000000e+00
     1262000000    1,185793653e-01    2,556817532e-01    1,883004792e-02   -1,962780580e-02    0,000000000e+00    0,000000000e+00    0,000000000e+00    0,000000000e+00
     1276000000    2,091976404e-01    9,755347669e-02   -3,929505474e-04    5,576993572e-04    0,000000000e+00    0,000000000e+00    0,000000000e+00    0,000000000e+00
     1290000000    2,252324671e-01   -7,754956186e-02    2,131743543e-02    4,796087742e-02    0,000000000e+00    0,000000000e+00    0,000000000e+00    0,000000000e+00
     1304000000    1,553903371e-01   -2,415771037e-01    1,278373748e-01    7,396311313e-02    0,000000000e+00    0,000000000e+00    0,000000000e+00    0,000000000e+00
     1318000000    3,799554706e-02   -3,334895074e-01    1,325505525e-01   -1,614696085e-01    0,000000000e+00    0,000000000e+00    0,000000000e+00    0,000000000e+00
     1332000000   -1,342258751e-01   -4,391144216e-01   -4,962544888e-02   -4,428404942e-02    0,000000000e+00    0,000000000e+00    0,000000000e+00    0,000000000e+00
     1346000000   -3,993567824e-01   -4,031857252e-01    2,198510058e-02    7,375499606e-02    0,000000000e+00    0,000000000e+00    0,000000000e+00    0,000000000e+00
     1360000000   -6,078247428e-01   -1,908730567e-01    1,360580921e-01    6,129967794e-02    0,000000000e+00    0,000000000e+00    0,000000000e+00    0,000000000e+00
     1374000000   -6,315903068e-01    1,295370311e-01    2,070199847e-01    9,601778351e-03    0,000000000e+00    0,000000000e+00    0,000000000e+00    0,000000000e+00
     1388000000   -4,681383669e-01    3,709986806e-01    2,136191577e-01   -6,309055537e-02    0,000000000e+00    0,000000000e+00    0,000000000e+00    0,000000000e+00
     1402000000   -2,333439887e-01    4,526017904e-01    1,896843612e-01   -1,000109464e-01    0,000000000e+00    0,000000000e+00    0,000000000e+00    0,000000000e+00
     1416000000   -3,057681955e-02    4,157730341e-01    1,717894971e-01   -9,692925215e-02    0,000000000e+00    0,000000000e+00    0,000000000e+00    0,000000000e+00
     1430000000    1,199403778e-01    3,073388040e-01    1,917796880e-01   -9,603851289e-02    0,000000000e+00    0,000000000e+00    0,000000000e+00    0,000000000e+00
     1444000000    2,056542933e-01    1,525029093e-01    1,497107744e-01   -9,316793084e-02    0,000000000e+00    0,000000000e+00    0,000000000e+00    0,000000000e+00
     1458000000    2,357413322e-01   -1,697297394e-02    1,361766160e-01   -7,186284661e-02    0,000000000e+00    0,000000000e+00    0,000000000e+00    0,000000000e+00
     1472000000    1,914689690e-01   -2,080077231e-01    1,457965672e-01   -4,463746771e-02    0,000000000e+00    0,000000000e+00    0,000000000e+00    0,000000000e+00
     1486000000    6,862894446e-02   -3,788057268e-01    1,810989529e-01    3,838266805e-02    0,000000000e+00    0,000000000e+00    0,000000000e+00    0,000000000e+00
     1500000000   -1,674105525e-01   -5,043812394e-01    2,456259727e-01    8,884339035e-02    0,000000000e+00    0,000000000e+00    0,000000000e+00    0,000000000e+00
