! NanoVNA-App
! Date: 2025-09-25 15:36:00
! Start: 100MHz Stop: 1,5GHz Points: 101
! S-Parameter data: F S11 S21 S12 S22
# Hz S RI R 50
!     Frequency           S11_Real           S11_Imag           S21_Real           S21_Imag           S12_Real           S12_Imag           S22_Real           S22_Imag
      100000000   -2,882219665e-02   -4,169502296e-03    3,740671575e-01   -7,217200398e-01    0,000000000e+00    0,000000000e+00    0,000000000e+00    0,000000000e+00
      114000000   -1,649446599e-02    1,151273493e-02   -8,909384906e-02   -8,054139018e-01    0,000000000e+00    0,000000000e+00    0,000000000e+00    0,000000000e+00
      128000000    3,445961978e-03    1,050737966e-02   -5,144180655e-01   -6,203536391e-01    0,000000000e+00    0,000000000e+00    0,000000000e+00    0,000000000e+00
      142000000    1,457627490e-02   -2,964692190e-03   -7,669880986e-01   -2,365297526e-01    0,000000000e+00    0,000000000e+00    0,000000000e+00    0,000000000e+00
      156000000    1,589743979e-02   -1,441498846e-02   -7,698109746e-01    2,241905183e-01    0,000000000e+00    0,000000000e+00    0,000000000e+00    0,000000000e+00
      170000000    1,667764224e-02   -2,259001322e-02   -5,180444717e-01    6,045771837e-01    0,000000000e+00    0,000000000e+00    0,000000000e+00    0,000000000e+00
      184000000    2,103487961e-02   -3,710106015e-02   -1,015194505e-01    7,855736613e-01    0,000000000e+00    0,000000000e+00    0,000000000e+00    0,000000000e+00
      198000000    1,303727645e-02   -6,245304272e-02    3,432945311e-01    7,125241160e-01    0,000000000e+00    0,000000000e+00    0,000000000e+00    0,000000000e+00
      212000000   -1,864141785e-02   -8,130040020e-02    6,780548692e-01    4,099255800e-01    0,000000000e+00    0,000000000e+00    0,000000000e+00    0,000000000e+00
      226000000   -6,167943776e-02   -6,918969005e-02    7,958295941e-01   -3,060285188e-02    0,000000000e+00    0,000000000e+00    0,000000000e+00    0,000000000e+00
      240000000   -8,259937167e-02   -2,564686164e-02    6,458920240e-01   -4,667177498e-01    0,000000000e+00    0,000000000e+00    0,000000000e+00    0,000000000e+00
      254000000   -6,346829981e-02    1,726385951e-02    2,761411667e-01   -7,432773113e-01    0,000000000e+00    0,000000000e+00    0,000000000e+00    0,000000000e+00
      268000000   -2,386317030e-02    2,899272926e-02   -1,779786199e-01   -7,643530369e-01    0,000000000e+00    0,000000000e+00    0,000000000e+00    0,000000000e+00
      282000000    4,208200611e-03    1,196072716e-02   -5,618765950e-01   -5,355620384e-01    0,000000000e+00    0,000000000e+00    0,000000000e+00    0,000000000e+00
      296000000    9,886151180e-03   -7,850761525e-03   -7,596607208e-01   -1,395177543e-01    0,000000000e+00    0,000000000e+00    0,000000000e+00    0,000000000e+00
      310000000    1,120842714e-02   -1,628581621e-02   -7,115064263e-01    2,981612384e-01    0,000000000e+00    0,000000000e+00    0,000000000e+00    0,000000000e+00
      324000000    1,998139173e-02   -2,663076669e-02   -4,273149967e-01    6,387808323e-01    0,000000000e+00    0,000000000e+00    0,000000000e+00    0,000000000e+00
      338000000    2,567466907e-02   -5,223204941e-02   -9,318611585e-03    7,625147104e-01    0,000000000e+00    0,000000000e+00    0,000000000e+00    0,000000000e+00
      352000000    7,359948941e-03   -8,465710282e-02    4,065667987e-01    6,398723125e-01    0,000000000e+00    0,000000000e+00    0,000000000e+00    0,000000000e+00
      366000000   -3,454332799e-02   -9,542416781e-02    6,906832457e-01    3,113923371e-01    0,000000000e+00    0,000000000e+00    0,000000000e+00    0,000000000e+00
      380000000   -7,087147981e-02   -7,120452076e-02    7,476193905e-01   -1,257987618e-01    0,000000000e+00    0,000000000e+00    0,000000000e+00    0,000000000e+00
      394000000   -7,243026048e-02   -3,232752904e-02    5,462485552e-01   -5,211489797e-01    0,000000000e+00    0,000000000e+00    0,000000000e+00    0,000000000e+00
      408000000   -4,667170718e-02   -1,610740647e-02    1,601982564e-01   -7,334166169e-01    0,000000000e+00    0,000000000e+00    0,000000000e+00    0,000000000e+00
      422000000   -2,832944505e-02   -3,207567707e-02   -2,674594522e-01   -6,948929429e-01    0,000000000e+00    0,000000000e+00    0,000000000e+00    0,000000000e+00
      436000000   -4,076670483e-02   -5,171902105e-02   -6,041779518e-01   -4,317110777e-01    0,000000000e+00    0,000000000e+00    0,000000000e+00    0,000000000e+00
      450000000   -6,753874570e-02   -4,392320663e-02   -7,406767607e-01   -2,170255221e-02    0,000000000e+00    0,000000000e+00    0,000000000e+00    0,000000000e+00
      464000000   -7,345864177e-02   -1,183635555e-02   -6,188743711e-01    3,974528611e-01    0,000000000e+00    0,000000000e+00    0,000000000e+00    0,000000000e+00
      478000000   -4,748252779e-02    1,183727663e-02   -2,821846902e-01    6,681606770e-01    0,000000000e+00    0,000000000e+00    0,000000000e+00    0,000000000e+00
      492000000   -1,541036647e-02    5,913367495e-03    1,377913803e-01    7,019404769e-01    0,000000000e+00    0,000000000e+00    0,000000000e+00    0,000000000e+00
      506000000   -2,592735691e-03   -1,567977108e-02    4,987956285e-01    5,025465488e-01    0,000000000e+00    0,000000000e+00    0,000000000e+00    0,000000000e+00
      520000000   -4,889003001e-03   -3,138663247e-02    6,865325570e-01    1,424227953e-01    0,000000000e+00    0,000000000e+00    0,000000000e+00    0,000000000e+00
      534000000   -4,106984474e-03   -3,813575208e-02    6,432966590e-01   -2,627601624e-01    0,000000000e+00    0,000000000e+00    0,000000000e+00    0,000000000e+00
      548000000    6,223610602e-03   -5,375313386e-02    3,820507526e-01   -5,673936605e-01    0,000000000e+00    0,000000000e+00    0,000000000e+00    0,000000000e+00
      562000000    2,895571990e-03   -8,907214552e-02    2,834641375e-03   -6,725194454e-01    0,000000000e+00    0,000000000e+00    0,000000000e+00    0,000000000e+00
      576000000   -3,378873691e-02   -1,247335076e-01   -3,686875403e-01   -5,581966639e-01    0,000000000e+00    0,000000000e+00    0,000000000e+00    0,000000000e+00
      590000000   -9,627418965e-02   -1,226654649e-01   -6,200578809e-01   -2,654455900e-01    0,000000000e+00    0,000000000e+00    0,000000000e+00    0,000000000e+00
      604000000   -1,398568153e-01   -7,148764282e-02   -6,653543711e-01    1,382441968e-01    0,000000000e+00    0,000000000e+00    0,000000000e+00    0,000000000e+00
      618000000   -1,293827444e-01   -8,480802178e-03   -4,634831548e-01    4,952442050e-01    0,000000000e+00    0,000000000e+00    0,000000000e+00    0,000000000e+00
      632000000   -8,412612975e-02    1,723900251e-02   -9,870866686e-02    6,639836431e-01    0,000000000e+00    0,000000000e+00    0,000000000e+00    0,000000000e+00
      646000000   -5,061852187e-02    4,776126589e-04    2,886321247e-01    5,950796604e-01    0,000000000e+00    0,000000000e+00    0,000000000e+00    0,000000000e+00
      660000000   -5,298755318e-02   -2,123719454e-02    5,668645501e-01    3,223721981e-01    0,000000000e+00    0,000000000e+00    0,000000000e+00    0,000000000e+00
      674000000   -7,066900283e-02   -1,703000627e-02    6,433806419e-01   -6,543537229e-02    0,000000000e+00    0,000000000e+00    0,000000000e+00    0,000000000e+00
      688000000   -6,771902740e-02    8,782848716e-03    4,711921513e-01   -4,279828966e-01    0,000000000e+00    0,000000000e+00    0,000000000e+00    0,000000000e+00
      702000000   -3,665435314e-02    2,658185735e-02    1,180356517e-01   -6,096239686e-01    0,000000000e+00    0,000000000e+00    0,000000000e+00    0,000000000e+00
      716000000    2,073079348e-03    1,730520092e-02   -2,652139664e-01   -5,459641218e-01    0,000000000e+00    0,000000000e+00    0,000000000e+00    0,000000000e+00
      730000000    3,732071072e-02   -1,143663190e-02   -5,279713273e-01   -2,688907087e-01    0,000000000e+00    0,000000000e+00    0,000000000e+00    0,000000000e+00
      744000000    6,595707685e-02   -6,267151237e-02   -5,642640591e-01    1,064316705e-01    0,000000000e+00    0,000000000e+00    0,000000000e+00    0,000000000e+00
      758000000    6,633941829e-02   -1,524951756e-01   -3,629864752e-01    4,102320969e-01    0,000000000e+00    0,000000000e+00    0,000000000e+00    0,000000000e+00
      772000000   -1,299256086e-02   -2,619355917e-01   -3,485162929e-02    5,146508813e-01    0,000000000e+00    0,000000000e+00    0,000000000e+00    0,000000000e+00
      786000000   -2,067984045e-01   -3,023472428e-01    2,746706307e-01    3,959682882e-01    0,000000000e+00    0,000000000e+00    0,000000000e+00    0,000000000e+00
      800000000   -4,263626337e-01   -1,300076544e-01    4,171027541e-01    9,913112968e-02    0,000000000e+00    0,000000000e+00    0,000000000e+00    0,000000000e+00
      814000000   -3,899729550e-01    2,206496447e-01    2,821609676e-01   -1,734327674e-01    0,000000000e+00    0,000000000e+00    0,000000000e+00    0,000000000e+00
      828000000   -4,934079573e-02    3,682070673e-01    5,543089285e-02   -1,897064000e-01    0,000000000e+00    0,000000000e+00    0,000000000e+00    0,000000000e+00
      842000000    2,344603986e-01    1,862258464e-01   -1,704423316e-02   -7,078971714e-02    0,000000000e+00    0,000000000e+00    0,000000000e+00    0,000000000e+00
      856000000    2,805540562e-01   -1,245780140e-01    4,534724355e-02   -1,318597142e-02    0,000000000e+00    0,000000000e+00    0,000000000e+00    0,000000000e+00
      870000000    7,489907742e-02   -3,761823475e-01    1,138278469e-01   -9,103101492e-02    0,000000000e+00    0,000000000e+00    0,000000000e+00    0,000000000e+00
      884000000   -2,952242792e-01   -3,619165719e-01    2,884103358e-02   -2,457853407e-01    0,000000000e+00    0,000000000e+00    0,000000000e+00    0,000000000e+00
      898000000   -4,720152020e-01    8,051378652e-03   -2,216996998e-01   -2,279412001e-01    0,000000000e+00    0,000000000e+00    0,000000000e+00    0,000000000e+00
      912000000   -2,270905226e-01    2,947334349e-01   -3,367688358e-01    7,279993594e-02    0,000000000e+00    0,000000000e+00    0,000000000e+00    0,000000000e+00
      926000000    6,775379926e-02    2,626864612e-01   -2,153679729e-01    2,624713778e-01    0,000000000e+00    0,000000000e+00    0,000000000e+00    0,000000000e+00
      940000000    2,172436416e-01    8,045321703e-02   -3,693178296e-02    3,292958438e-01    0,000000000e+00    0,000000000e+00    0,000000000e+00    0,000000000e+00
      954000000    2,242844850e-01   -1,256017834e-01    1,307770014e-01    3,068144619e-01    0,000000000e+00    0,000000000e+00    0,000000000e+00    0,000000000e+00
      968000000    1,162713096e-01   -2,989342809e-01    2,704453468e-01    2,199414521e-01    0,000000000e+00    0,000000000e+00    0,000000000e+00    0,000000000e+00
      982000000   -8,455459774e-02   -3,847892284e-01    3,649128079e-01    6,494376808e-02    0,000000000e+00    0,000000000e+00    0,000000000e+00    0,000000000e+00
      996000000   -3,188948035e-01   -3,306772709e-01    3,694784939e-01   -1,457368135e-01    0,000000000e+00    0,000000000e+00    0,000000000e+00    0,000000000e+00
     1010000000   -4,611198306e-01   -1,126508415e-01    2,236036211e-01   -3,420045674e-01    0,000000000e+00    0,000000000e+00    0,000000000e+00    0,000000000e+00
     1024000000   -4,181759357e-01    1,497679651e-01   -3,319263831e-02   -3,923604786e-01    0,000000000e+00    0,000000000e+00    0,000000000e+00    0,000000000e+00
     1038000000   -2,155590504e-01    2,925024331e-01   -2,477734238e-01   -2,594811916e-01    0,000000000e+00    0,000000000e+00    0,000000000e+00    0,000000000e+00
     1052000000   -9,705638513e-03    2,753286958e-01   -3,178244531e-01   -4,386841133e-02    0,000000000e+00    0,000000000e+00    0,000000000e+00    0,000000000e+00
     1066000000    1,355504543e-01    1,652513444e-01   -2,603934109e-01    1,454838216e-01    0,000000000e+00    0,000000000e+00    0,000000000e+00    0,000000000e+00
     1080000000    1,919047982e-01   -4,661417333e-04   -1,177804470e-01    2,624778748e-01    0,000000000e+00    0,000000000e+00    0,000000000e+00    0,000000000e+00
     1094000000    1,518617421e-01   -1,756661981e-01    6,348199397e-02    3,050402403e-01    0,000000000e+00    0,000000000e+00    0,000000000e+00    0,000000000e+00
     1108000000   -1,558932126e-03   -3,060276210e-01    2,775044739e-01    2,477732301e-01    0,000000000e+00    0,000000000e+00    0,000000000e+00    0,000000000e+00
     1122000000   -2,468910217e-01   -2,668037713e-01    4,739446342e-01    1,240639389e-02    0,000000000e+00    0,000000000e+00    0,000000000e+00    0,000000000e+00
     1136000000   -3,198659420e-01    3,440228477e-02    3,981685638e-01   -3,944130540e-01    0,000000000e+00    0,000000000e+00    0,000000000e+00    0,000000000e+00
     1150000000   -3,660644591e-02    1,492546201e-01    4,764238372e-03   -5,408843756e-01    0,000000000e+00    0,000000000e+00    0,000000000e+00    0,000000000e+00
     1164000000    1,207890362e-01   -6,330351532e-02   -2,794828117e-01   -3,782256842e-01    0,000000000e+00    0,000000000e+00    0,000000000e+00    0,000000000e+00
     1178000000    1,649594679e-02   -3,021204770e-01   -3,668632805e-01   -1,480073035e-01    0,000000000e+00    0,000000000e+00    0,000000000e+00    0,000000000e+00
     1192000000   -2,698597014e-01   -3,713461459e-01   -3,246657550e-01    5,872143432e-02    0,000000000e+00    0,000000000e+00    0,000000000e+00    0,000000000e+00
     1206000000   -5,226656795e-01   -1,582193524e-01   -1,670478880e-01    1,815914512e-01    0,000000000e+00    0,000000000e+00    0,000000000e+00    0,000000000e+00
     1220000000   -5,074821711e-01    1,784112751e-01    4,880525637e-03    1,591214985e-01    0,000000000e+00    0,000000000e+00    0,000000000e+00    0,000000000e+00
     1234000000   -2,878462076e-01    3,669252098e-01    6,531462073e-02    6,298810989e-02    0,000000000e+00    0,000000000e+00    0,000000000e+00    0,000000000e+00
     1248000000   -4,974528030e-02    3,664388061e-01    5,375705659e-02   -6,317287218e-03    0,000000000e+00    0,000000000e+00    0,000000000e+00    0,000000000e+00
     1262000000    1,232244372e-01    2,582293451e-01    1,662247814e-02   -1,945904084e-02    0,000000000e+00    0,000000000e+00    0,000000000e+00    0,000000000e+00
     1276000000    2,071523070e-01    9,893776476e-02   -7,345048711e-03    3,189561190e-03    0,000000000e+00    0,000000000e+00    0,000000000e+00    0,000000000e+00
     1290000000    2,224498242e-01   -7,521695644e-02    1,724813133e-02    5,205800757e-02    0,000000000e+00    0,000000000e+00    0,000000000e+00    0,000000000e+00
     1304000000    1,572298259e-01   -2,447466850e-01    1,291545182e-01    6,259629875e-02    0,000000000e+00    0,000000000e+00    0,000000000e+00    0,000000000e+00
     1318000000    2,998383529e-02   -3,328647017e-01    1,223903149e-01   -1,689745635e-01    0,000000000e+00    0,000000000e+00    0,000000000e+00    0,000000000e+00
     1332000000   -1,254297793e-01   -4,374834597e-01   -4,648991674e-02   -4,592962191e-02    0,000000000e+00    0,000000000e+00    0,000000000e+00    0,000000000e+00
     1346000000   -3,918580413e-01   -4,128745496e-01    2,600874752e-02    6,302433461e-02    0,000000000e+00    0,000000000e+00    0,000000000e+00    0,000000000e+00
     1360000000   -6,099115610e-01   -1,891822070e-01    1,414644271e-01    7,137989253e-02    0,000000000e+00    0,000000000e+00    0,000000000e+00    0,000000000e+00
     1374000000   -6,254869699e-01    1,322798431e-01    2,131932080e-01    1,048426609e-02    0,000000000e+00    0,000000000e+00    0,000000000e+00    0,000000000e+00
     1388000000   -4,692149162e-01    3,710228205e-01    2,026215643e-01   -5,691172183e-02    0,000000000e+00    0,000000000e+00    0,000000000e+00    0,000000000e+00
     1402000000   -2,366496027e-01    4,531926513e-01    1,773274988e-01   -9,214028716e-02    0,000000000e+00    0,000000000e+00    0,000000000e+00    0,000000000e+00
     1416000000   -2,792660892e-02    4,143369496e-01    1,699140519e-01   -1,054615155e-01    0,000000000e+00    0,000000000e+00    0,000000000e+00    0,000000000e+00
     1430000000    1,281565726e-01    3,004630506e-01    1,770007759e-01   -1,332123876e-01    0,000000000e+00    0,000000000e+00    0,000000000e+00    0,000000000e+00
     1444000000    2,069038451e-01    1,503131092e-01    1,435149014e-01   -9,564518929e-02    0,000000000e+00    0,000000000e+00    0,000000000e+00    0,000000000e+00
     1458000000    2,400152683e-01   -2,471425943e-02    1,474959850e-01   -8,012022078e-02    0,000000000e+00    0,000000000e+00    0,000000000e+00    0,000000000e+00
     1472000000    1,882321090e-01   -2,033238858e-01    1,374160796e-01   -3,685650602e-02    0,000000000e+00    0,000000000e+00    0,000000000e+00    0,000000000e+00
     1486000000    6,071376801e-02   -3,730051219e-01    1,725925356e-01    2,361065522e-02    0,000000000e+00    0,000000000e+00    0,000000000e+00    0,000000000e+00
     1500000000   -1,647993177e-01   -4,958704710e-01    2,597049475e-01    9,058818966e-02    0,000000000e+00    0,000000000e+00    0,000000000e+00    0,000000000e+00
