! NanoVNA-App
! Date: 2025-09-25 15:31:15
! Start: 100MHz Stop: 1,5GHz Points: 101
! S-Parameter data: F S11 S21 S12 S22
# Hz S RI R 50
!     Frequency           S11_Real           S11_Imag           S21_Real           S21_Imag           S12_Real           S12_Imag           S22_Real           S22_Imag
      100000000   -2,887236327e-02   -4,173579626e-03    3,741212189e-01   -7,218262553e-01    0,000000000e+00    0,000000000e+00    0,000000000e+00    0,000000000e+00
      114000000   -1,651327312e-02    1,153453067e-02   -8,915111423e-02   -8,054289222e-01    0,000000000e+00    0,000000000e+00    0,000000000e+00    0,000000000e+00
      128000000    3,428223543e-03    1,058331132e-02   -5,146777034e-01   -6,205642819e-01    0,000000000e+00    0,000000000e+00    0,000000000e+00    0,000000000e+00
      142000000    1,453648228e-02   -2,939296886e-03   -7,672459483e-01   -2,366331518e-01    0,000000000e+00    0,000000000e+00    0,000000000e+00    0,000000000e+00
      156000000    1,515404880e-02   -1,501987502e-02   -7,693011761e-01    2,197062671e-01    0,000000000e+00    0,000000000e+00    0,000000000e+00    0,000000000e+00
      170000000    1,665191911e-02   -2,258406021e-02   -5,183233023e-01    6,048412919e-01    0,000000000e+00    0,000000000e+00    0,000000000e+00    0,000000000e+00
      184000000    2,098789997e-02   -3,703564778e-02   -1,012219042e-01    7,859549522e-01    0,000000000e+00    0,000000000e+00    0,000000000e+00    0,000000000e+00
      198000000    1,299423724e-02   -6,244323775e-02    3,433182538e-01    7,122995853e-01    0,000000000e+00    0,000000000e+00    0,000000000e+00    0,000000000e+00
      212000000   -1,866431534e-02   -8,129215240e-02    6,781383157e-01    4,099382460e-01    0,000000000e+00    0,000000000e+00    0,000000000e+00    0,000000000e+00
      226000000   -6,172321364e-02   -6,925790757e-02    7,958374619e-01   -3,058503009e-02    0,000000000e+00    0,000000000e+00    0,000000000e+00    0,000000000e+00
      240000000   -8,261819929e-02   -2,555592917e-02    6,460269690e-01   -4,670555592e-01    0,000000000e+00    0,000000000e+00    0,000000000e+00    0,000000000e+00
      254000000   -6,353004277e-02    1,724822633e-02    2,761251926e-01   -7,434771657e-01    0,000000000e+00    0,000000000e+00    0,000000000e+00    0,000000000e+00
      268000000   -2,383373119e-02    2,890013531e-02   -1,779875904e-01   -7,642621398e-01    0,000000000e+00    0,000000000e+00    0,000000000e+00    0,000000000e+00
      282000000    4,123501945e-03    1,190158166e-02   -5,621817112e-01   -5,359169841e-01    0,000000000e+00    0,000000000e+00    0,000000000e+00    0,000000000e+00
      296000000    9,759901091e-03   -7,836489938e-03   -7,597741485e-01   -1,395594627e-01    0,000000000e+00    0,000000000e+00    0,000000000e+00    0,000000000e+00
      310000000    1,132489182e-02   -1,622618735e-02   -7,127999067e-01    2,979669273e-01    0,000000000e+00    0,000000000e+00    0,000000000e+00    0,000000000e+00
      324000000    1,968148164e-02   -2,644938976e-02   -4,268406034e-01    6,382412910e-01    0,000000000e+00    0,000000000e+00    0,000000000e+00    0,000000000e+00
      338000000    2,551055327e-02   -5,190327391e-02   -9,078069590e-03    7,600694299e-01    0,000000000e+00    0,000000000e+00    0,000000000e+00    0,000000000e+00
      352000000    7,364548277e-03   -8,479598165e-02    4,067724049e-01    6,397118568e-01    0,000000000e+00    0,000000000e+00    0,000000000e+00    0,000000000e+00
      366000000   -3,477359191e-02   -9,520213306e-02    6,901099086e-01    3,114725053e-01    0,000000000e+00    0,000000000e+00    0,000000000e+00    0,000000000e+00
      380000000   -7,093143463e-02   -7,128690928e-02    7,478412390e-01   -1,264594197e-01    0,000000000e+00    0,000000000e+00    0,000000000e+00    0,000000000e+00
      394000000   -7,267083973e-02   -3,241385520e-02    5,461407900e-01   -5,217251182e-01    0,000000000e+00    0,000000000e+00    0,000000000e+00    0,000000000e+00
      408000000   -4,643529281e-02   -1,602340117e-02    1,616378427e-01   -7,320725918e-01    0,000000000e+00    0,000000000e+00    0,000000000e+00    0,000000000e+00
      422000000   -2,835063450e-02   -3,207054734e-02   -2,675252855e-01   -6,951979399e-01    0,000000000e+00    0,000000000e+00    0,000000000e+00    0,000000000e+00
      436000000   -4,054846242e-02   -5,187084153e-02   -6,042558551e-01   -4,320680499e-01    0,000000000e+00    0,000000000e+00    0,000000000e+00    0,000000000e+00
      450000000   -6,733075529e-02   -4,393921047e-02   -7,403350472e-01   -2,111624368e-02    0,000000000e+00    0,000000000e+00    0,000000000e+00    0,000000000e+00
      464000000   -7,335060835e-02   -1,154636778e-02   -6,180812716e-01    3,972704411e-01    0,000000000e+00    0,000000000e+00    0,000000000e+00    0,000000000e+00
      478000000   -4,791159555e-02    1,172722224e-02   -2,825204134e-01    6,675394177e-01    0,000000000e+00    0,000000000e+00    0,000000000e+00    0,000000000e+00
      492000000   -1,568131335e-02    6,088120863e-03    1,378663182e-01    7,012974024e-01    0,000000000e+00    0,000000000e+00    0,000000000e+00    0,000000000e+00
      506000000   -2,563060727e-03   -1,576738246e-02    4,980096519e-01    5,022637248e-01    0,000000000e+00    0,000000000e+00    0,000000000e+00    0,000000000e+00
      520000000   -4,826218355e-03   -3,134032339e-02    6,872780323e-01    1,432199925e-01    0,000000000e+00    0,000000000e+00    0,000000000e+00    0,000000000e+00
      534000000   -3,681964008e-03   -3,827886656e-02    6,436211467e-01   -2,627551854e-01    0,000000000e+00    0,000000000e+00    0,000000000e+00    0,000000000e+00
      548000000    5,927124526e-03   -5,393701047e-02    3,815524876e-01   -5,675088167e-01    0,000000000e+00    0,000000000e+00    0,000000000e+00    0,000000000e+00
      562000000    2,913167002e-03   -8,947623521e-02    2,604258014e-03   -6,728991866e-01    0,000000000e+00    0,000000000e+00    0,000000000e+00    0,000000000e+00
      576000000   -3,417750448e-02   -1,244883090e-01   -3,685333133e-01   -5,582188368e-01    0,000000000e+00    0,000000000e+00    0,000000000e+00    0,000000000e+00
      590000000   -9,640271962e-02   -1,226334125e-01   -6,224213243e-01   -2,634668648e-01    0,000000000e+00    0,000000000e+00    0,000000000e+00    0,000000000e+00
      604000000   -1,392674893e-01   -7,167258114e-02   -6,645929813e-01    1,379013658e-01    0,000000000e+00    0,000000000e+00    0,000000000e+00    0,000000000e+00
      618000000   -1,294161081e-01   -8,541399613e-03   -4,650341570e-01    4,953109026e-01    0,000000000e+00    0,000000000e+00    0,000000000e+00    0,000000000e+00
      632000000   -8,419884741e-02    1,701768860e-02   -9,961140156e-02    6,632341743e-01    0,000000000e+00    0,000000000e+00    0,000000000e+00    0,000000000e+00
      646000000   -5,039467290e-02    1,366799406e-04    2,882455885e-01    5,948858261e-01    0,000000000e+00    0,000000000e+00    0,000000000e+00    0,000000000e+00
      660000000   -5,355542526e-02   -2,142065577e-02    5,676026940e-01    3,235649765e-01    0,000000000e+00    0,000000000e+00    0,000000000e+00    0,000000000e+00
      674000000   -6,973598152e-02   -1,748625189e-02    6,431767344e-01   -6,538892537e-02    0,000000000e+00    0,000000000e+00    0,000000000e+00    0,000000000e+00
      688000000   -6,859636307e-02    8,220212534e-03    4,711505473e-01   -4,275813997e-01    0,000000000e+00    0,000000000e+00    0,000000000e+00    0,000000000e+00
      702000000   -3,778210655e-02    2,767455019e-02    1,167868450e-01   -6,119170785e-01    0,000000000e+00    0,000000000e+00    0,000000000e+00    0,000000000e+00
      716000000    2,953895368e-03    1,809739508e-02   -2,653889358e-01   -5,465727448e-01    0,000000000e+00    0,000000000e+00    0,000000000e+00    0,000000000e+00
      730000000    3,725413978e-02   -1,037811209e-02   -5,283312798e-01   -2,693208754e-01    0,000000000e+00    0,000000000e+00    0,000000000e+00    0,000000000e+00
      744000000    6,486377120e-02   -6,196281314e-02   -5,644146204e-01    1,064048782e-01    0,000000000e+00    0,000000000e+00    0,000000000e+00    0,000000000e+00
      758000000    6,707432866e-02   -1,521532387e-01   -3,641106188e-01    4,105225205e-01    0,000000000e+00    0,000000000e+00    0,000000000e+00    0,000000000e+00
      772000000   -1,287355553e-02   -2,633730173e-01   -3,469871730e-02    5,159986615e-01    0,000000000e+00    0,000000000e+00    0,000000000e+00    0,000000000e+00
      786000000   -2,074711323e-01   -3,025280237e-01    2,744823098e-01    3,950647414e-01    0,000000000e+00    0,000000000e+00    0,000000000e+00    0,000000000e+00
      800000000   -4,263298512e-01   -1,301168650e-01    4,168066382e-01    9,898751974e-02    0,000000000e+00    0,000000000e+00    0,000000000e+00    0,000000000e+00
      814000000   -3,902517259e-01    2,214210033e-01    2,813949883e-01   -1,731316447e-01    0,000000000e+00    0,000000000e+00    0,000000000e+00    0,000000000e+00
      828000000   -4,954522848e-02    3,688433468e-01    5,493988842e-02   -1,893359125e-01    0,000000000e+00    0,000000000e+00    0,000000000e+00    0,000000000e+00
      842000000    2,352589816e-01    1,855712384e-01   -1,692389697e-02   -7,099986076e-02    0,000000000e+00    0,000000000e+00    0,000000000e+00    0,000000000e+00
      856000000    2,805202305e-01   -1,246740744e-01    4,568076879e-02   -1,311435457e-02    0,000000000e+00    0,000000000e+00    0,000000000e+00    0,000000000e+00
      870000000    7,466825098e-02   -3,766249418e-01    1,136460826e-01   -9,141531587e-02    0,000000000e+00    0,000000000e+00    0,000000000e+00    0,000000000e+00
      884000000   -2,957995832e-01   -3,619956672e-01    2,839098498e-02   -2,462725341e-01    0,000000000e+00    0,000000000e+00    0,000000000e+00    0,000000000e+00
      898000000   -4,724695981e-01    9,840238839e-03   -2,228166908e-01   -2,277600914e-01    0,000000000e+00    0,000000000e+00    0,000000000e+00    0,000000000e+00
      912000000   -2,259155512e-01    2,942480743e-01   -3,362402916e-01    6,969025731e-02    0,000000000e+00    0,000000000e+00    0,000000000e+00    0,000000000e+00
      926000000    6,729125977e-02    2,619672716e-01   -2,163476944e-01    2,626570463e-01    0,000000000e+00    0,000000000e+00    0,000000000e+00    0,000000000e+00
      940000000    2,169955075e-01    7,913102210e-02   -3,639736772e-02    3,292251229e-01    0,000000000e+00    0,000000000e+00    0,000000000e+00    0,000000000e+00
      954000000    2,258034348e-01   -1,269445121e-01    1,305821985e-01    3,072216213e-01    0,000000000e+00    0,000000000e+00    0,000000000e+00    0,000000000e+00
      968000000    1,152376160e-01   -3,020402491e-01    2,706306875e-01    2,176255882e-01    0,000000000e+00    0,000000000e+00    0,000000000e+00    0,000000000e+00
      982000000   -8,470293880e-02   -3,876103163e-01    3,665793240e-01    6,585822254e-02    0,000000000e+00    0,000000000e+00    0,000000000e+00    0,000000000e+00
      996000000   -3,145459294e-01   -3,278621137e-01    3,679399490e-01   -1,444707066e-01    0,000000000e+00    0,000000000e+00    0,000000000e+00    0,000000000e+00
     1010000000   -4,626993835e-01   -1,136238724e-01    2,227513343e-01   -3,410508931e-01    0,000000000e+00    0,000000000e+00    0,000000000e+00    0,000000000e+00
     1024000000   -4,111882448e-01    1,457919776e-01   -3,375215828e-02   -3,916265368e-01    0,000000000e+00    0,000000000e+00    0,000000000e+00    0,000000000e+00
     1038000000   -2,206456959e-01    2,905395925e-01   -2,456924170e-01   -2,626071274e-01    0,000000000e+00    0,000000000e+00    0,000000000e+00    0,000000000e+00
     1052000000   -9,072103538e-03    2,813382149e-01   -3,178423047e-01   -4,553455859e-02    0,000000000e+00    0,000000000e+00    0,000000000e+00    0,000000000e+00
     1066000000    1,391886771e-01    1,628900021e-01   -2,571991384e-01    1,458172053e-01    0,000000000e+00    0,000000000e+00    0,000000000e+00    0,000000000e+00
     1080000000    1,965646446e-01    1,742216526e-03   -1,194051132e-01    2,630875111e-01    0,000000000e+00    0,000000000e+00    0,000000000e+00    0,000000000e+00
     1094000000    1,550474167e-01   -1,763367355e-01    6,320989877e-02    3,058931231e-01    0,000000000e+00    0,000000000e+00    0,000000000e+00    0,000000000e+00
     1108000000    1,767333015e-03   -3,049190640e-01    2,761447430e-01    2,462099940e-01    0,000000000e+00    0,000000000e+00    0,000000000e+00    0,000000000e+00
     1122000000   -2,492609173e-01   -2,680328190e-01    4,720062315e-01    1,483286452e-02    0,000000000e+00    0,000000000e+00    0,000000000e+00    0,000000000e+00
     1136000000   -3,209255934e-01    3,424300626e-02    3,972155452e-01   -3,925108612e-01    0,000000000e+00    0,000000000e+00    0,000000000e+00    0,000000000e+00
     1150000000   -4,502252862e-02    1,524140537e-01    3,936966881e-03   -5,415328741e-01    0,000000000e+00    0,000000000e+00    0,000000000e+00    0,000000000e+00
     1164000000    1,223319396e-01   -6,489992142e-02   -2,814673185e-01   -3,769477308e-01    0,000000000e+00    0,000000000e+00    0,000000000e+00    0,000000000e+00
     1178000000    1,555981021e-02   -3,020521104e-01   -3,723547757e-01   -1,513586640e-01    0,000000000e+00    0,000000000e+00    0,000000000e+00    0,000000000e+00
     1192000000   -2,687459290e-01   -3,705182374e-01   -3,251243830e-01    5,922538042e-02    0,000000000e+00    0,000000000e+00    0,000000000e+00    0,000000000e+00
     1206000000   -5,182756782e-01   -1,575851440e-01   -1,675887853e-01    1,851930320e-01    0,000000000e+00    0,000000000e+00    0,000000000e+00    0,000000000e+00
     1220000000   -5,088101029e-01    1,787177026e-01   -2,146712271e-03    1,574182212e-01    0,000000000e+00    0,000000000e+00    0,000000000e+00    0,000000000e+00
     1234000000   -2,880591154e-01    3,604764938e-01    7,036181539e-02    6,054596603e-02    0,000000000e+00    0,000000000e+00    0,000000000e+00    0,000000000e+00
     1248000000   -4,140591994e-02    3,672161400e-01    5,951293185e-02   -5,594158545e-03    0,000000000e+00    0,000000000e+00    0,000000000e+00    0,000000000e+00
     1262000000    1,189796403e-01    2,533567846e-01    1,742423512e-02   -2,116282098e-02    0,000000000e+00    0,000000000e+00    0,000000000e+00    0,000000000e+00
     1276000000    2,103437185e-01    9,852758795e-02   -6,772129331e-03   -1,060569193e-03    0,000000000e+00    0,000000000e+00    0,000000000e+00    0,000000000e+00
     1290000000    2,268512100e-01   -7,395327836e-02    1,930161007e-02    5,132923275e-02    0,000000000e+00    0,000000000e+00    0,000000000e+00    0,000000000e+00
     1304000000    1,521681100e-01   -2,421878278e-01    1,271283031e-01    6,354220212e-02    0,000000000e+00    0,000000000e+00    0,000000000e+00    0,000000000e+00
     1318000000    3,327268362e-02   -3,338286281e-01    1,306123137e-01   -1,625280827e-01    0,000000000e+00    0,000000000e+00    0,000000000e+00    0,000000000e+00
     1332000000   -1,249792948e-01   -4,379054308e-01   -4,416146129e-02   -4,560101032e-02    0,000000000e+00    0,000000000e+00    0,000000000e+00    0,000000000e+00
     1346000000   -3,958738744e-01   -4,053676426e-01    2,505406365e-02    7,498842478e-02    0,000000000e+00    0,000000000e+00    0,000000000e+00    0,000000000e+00
     1360000000   -6,061996818e-01   -1,910907924e-01    1,334221363e-01    7,290440798e-02    0,000000000e+00    0,000000000e+00    0,000000000e+00    0,000000000e+00
     1374000000   -6,429109573e-01    1,285962909e-01    2,044959217e-01    8,446396329e-03    0,000000000e+00    0,000000000e+00    0,000000000e+00    0,000000000e+00
     1388000000   -4,759097397e-01    3,696453273e-01    2,057554424e-01   -6,346938759e-02    0,000000000e+00    0,000000000e+00    0,000000000e+00    0,000000000e+00
     1402000000   -2,331390381e-01    4,466102123e-01    1,845468730e-01   -1,077567041e-01    0,000000000e+00    0,000000000e+00    0,000000000e+00    0,000000000e+00
     1416000000   -2,693335898e-02    4,071162939e-01    1,677019596e-01   -1,050066948e-01    0,000000000e+00    0,000000000e+00    0,000000000e+00    0,000000000e+00
     1430000000    1,210544482e-01    3,007252216e-01    1,587931514e-01   -1,268241853e-01    0,000000000e+00    0,000000000e+00    0,000000000e+00    0,000000000e+00
     1444000000    2,070546746e-01    1,510149837e-01    1,537816226e-01   -9,041127563e-02    0,000000000e+00    0,000000000e+00    0,000000000e+00    0,000000000e+00
     1458000000    2,359814793e-01   -1,937449910e-02    1,485034823e-01   -7,541842014e-02    0,000000000e+00    0,000000000e+00    0,000000000e+00    0,000000000e+00
     1472000000    1,925447285e-01   -2,016341537e-01    1,416400522e-01   -2,614233270e-02    0,000000000e+00    0,000000000e+00    0,000000000e+00    0,000000000e+00
     1486000000    5,935360864e-02   -3,695594966e-01    1,630120575e-01    4,445289075e-02    0,000000000e+00    0,000000000e+00    0,000000000e+00    0,000000000e+00
     1500000000   -1,776513159e-01   -4,986983538e-01    2,392705679e-01    9,055732191e-02    0,000000000e+00    0,000000000e+00    0,000000000e+00    0,000000000e+00
