! NanoVNA-App
! Date: 2025-09-25 15:36:11
! Start: 100MHz Stop: 1,5GHz Points: 101
! S-Parameter data: F S11 S21 S12 S22
# Hz S RI R 50
!     Frequency           S11_Real           S11_Imag           S21_Real           S21_Imag           S12_Real           S12_Imag           S22_Real           S22_Imag
      100000000   -2,882661298e-02   -4,173566122e-03    3,741241097e-01   -7,217558026e-01    0,000000000e+00    0,000000000e+00    0,000000000e+00    0,000000000e+00
      114000000   -1,645583846e-02    1,150397863e-02   -8,919862658e-02   -8,053604960e-01    0,000000000e+00    0,000000000e+00    0,000000000e+00    0,000000000e+00
      128000000    3,478886094e-03    1,055689529e-02   -5,146872997e-01   -6,204854846e-01    0,000000000e+00    0,000000000e+00    0,000000000e+00    0,000000000e+00
      142000000    1,458134688e-02   -2,964200452e-03   -7,672294378e-01   -2,366030067e-01    0,000000000e+00    0,000000000e+00    0,000000000e+00    0,000000000e+00
      156000000    1,567721181e-02   -1,457360014e-02   -7,688835263e-01    2,237213254e-01    0,000000000e+00    0,000000000e+00    0,000000000e+00    0,000000000e+00
      170000000    1,669417508e-02   -2,257619053e-02   -5,182460546e-01    6,046709418e-01    0,000000000e+00    0,000000000e+00    0,000000000e+00    0,000000000e+00
      184000000    2,103478834e-02   -3,707052395e-02   -1,015305221e-01    7,863377929e-01    0,000000000e+00    0,000000000e+00    0,000000000e+00    0,000000000e+00
      198000000    1,299063675e-02   -6,241983548e-02    3,433210552e-01    7,121576071e-01    0,000000000e+00    0,000000000e+00    0,000000000e+00    0,000000000e+00
      212000000   -1,862651296e-02   -8,133102208e-02    6,781192422e-01    4,099780619e-01    0,000000000e+00    0,000000000e+00    0,000000000e+00    0,000000000e+00
      226000000   -6,164957955e-02   -6,917177886e-02    7,957048416e-01   -3,064604849e-02    0,000000000e+00    0,000000000e+00    0,000000000e+00    0,000000000e+00
      240000000   -8,255360276e-02   -2,558855154e-02    6,459016800e-01   -4,672369361e-01    0,000000000e+00    0,000000000e+00    0,000000000e+00    0,000000000e+00
      254000000   -6,350274384e-02    1,724327542e-02    2,760767639e-01   -7,433094978e-01    0,000000000e+00    0,000000000e+00    0,000000000e+00    0,000000000e+00
      268000000   -2,386113070e-02    2,883855999e-02   -1,780949980e-01   -7,644662857e-01    0,000000000e+00    0,000000000e+00    0,000000000e+00    0,000000000e+00
      282000000    4,177178722e-03    1,195533853e-02   -5,618247986e-01   -5,355781913e-01    0,000000000e+00    0,000000000e+00    0,000000000e+00    0,000000000e+00
      296000000    9,724953212e-03   -7,900391705e-03   -7,597098351e-01   -1,396018714e-01    0,000000000e+00    0,000000000e+00    0,000000000e+00    0,000000000e+00
      310000000    1,105952635e-02   -1,614401303e-02   -7,117729187e-01    2,992912531e-01    0,000000000e+00    0,000000000e+00    0,000000000e+00    0,000000000e+00
      324000000    1,963725686e-02   -2,649514563e-02   -4,273875058e-01    6,385899782e-01    0,000000000e+00    0,000000000e+00    0,000000000e+00    0,000000000e+00
      338000000    2,565141022e-02   -5,235530809e-02   -7,681170944e-03    7,633221745e-01    0,000000000e+00    0,000000000e+00    0,000000000e+00    0,000000000e+00
      352000000    7,504018024e-03   -8,476461470e-02    4,068101048e-01    6,392768621e-01    0,000000000e+00    0,000000000e+00    0,000000000e+00    0,000000000e+00
      366000000   -3,439735994e-02   -9,545797110e-02    6,908818483e-01    3,115729988e-01    0,000000000e+00    0,000000000e+00    0,000000000e+00    0,000000000e+00
      380000000   -7,059440017e-02   -7,146909833e-02    7,478523254e-01   -1,264775097e-01    0,000000000e+00    0,000000000e+00    0,000000000e+00    0,000000000e+00
      394000000   -7,232256979e-02   -3,230363131e-02    5,465230942e-01   -5,221378803e-01    0,000000000e+00    0,000000000e+00    0,000000000e+00    0,000000000e+00
      408000000   -4,652312025e-02   -1,623103209e-02    1,620351970e-01   -7,317324877e-01    0,000000000e+00    0,000000000e+00    0,000000000e+00    0,000000000e+00
      422000000   -2,836325392e-02   -3,212559596e-02   -2,681811750e-01   -6,952005625e-01    0,000000000e+00    0,000000000e+00    0,000000000e+00    0,000000000e+00
      436000000   -4,062607139e-02   -5,182519183e-02   -6,041365266e-01   -4,321865439e-01    0,000000000e+00    0,000000000e+00    0,000000000e+00    0,000000000e+00
      450000000   -6,721685082e-02   -4,395198822e-02   -7,406720519e-01   -2,129962668e-02    0,000000000e+00    0,000000000e+00    0,000000000e+00    0,000000000e+00
      464000000   -7,350616902e-02   -1,151578594e-02   -6,185026765e-01    3,981060684e-01    0,000000000e+00    0,000000000e+00    0,000000000e+00    0,000000000e+00
      478000000   -4,767896980e-02    1,181622595e-02   -2,825008631e-01    6,685767174e-01    0,000000000e+00    0,000000000e+00    0,000000000e+00    0,000000000e+00
      492000000   -1,545133721e-02    5,800241604e-03    1,375942677e-01    7,015579939e-01    0,000000000e+00    0,000000000e+00    0,000000000e+00    0,000000000e+00
      506000000   -2,115155337e-03   -1,573272049e-02    4,988448024e-01    5,018895268e-01    0,000000000e+00    0,000000000e+00    0,000000000e+00    0,000000000e+00
      520000000   -4,628215916e-03   -3,119415790e-02    6,882625222e-01    1,425928026e-01    0,000000000e+00    0,000000000e+00    0,000000000e+00    0,000000000e+00
      534000000   -3,980701324e-03   -3,841560334e-02    6,430895329e-01   -2,627902925e-01    0,000000000e+00    0,000000000e+00    0,000000000e+00    0,000000000e+00
      548000000    6,057782564e-03   -5,364684761e-02    3,817788064e-01   -5,680365562e-01    0,000000000e+00    0,000000000e+00    0,000000000e+00    0,000000000e+00
      562000000    3,379406407e-03   -8,943524957e-02    2,169526182e-03   -6,731017232e-01    0,000000000e+00    0,000000000e+00    0,000000000e+00    0,000000000e+00
      576000000   -3,431736305e-02   -1,248560250e-01   -3,690552115e-01   -5,574522614e-01    0,000000000e+00    0,000000000e+00    0,000000000e+00    0,000000000e+00
      590000000   -9,664302319e-02   -1,226005182e-01   -6,228410006e-01   -2,634847462e-01    0,000000000e+00    0,000000000e+00    0,000000000e+00    0,000000000e+00
      604000000   -1,397850960e-01   -7,186540216e-02   -6,652806997e-01    1,378320158e-01    0,000000000e+00    0,000000000e+00    0,000000000e+00    0,000000000e+00
      618000000   -1,291397959e-01   -8,771113120e-03   -4,644099176e-01    4,953364134e-01    0,000000000e+00    0,000000000e+00    0,000000000e+00    0,000000000e+00
      632000000   -8,456302434e-02    1,716200635e-02   -9,758596122e-02    6,638087034e-01    0,000000000e+00    0,000000000e+00    0,000000000e+00    0,000000000e+00
      646000000   -5,058621243e-02    6,228829734e-04    2,878221869e-01    5,943374634e-01    0,000000000e+00    0,000000000e+00    0,000000000e+00    0,000000000e+00
      660000000   -5,331063271e-02   -2,226279117e-02    5,680178404e-01    3,226325810e-01    0,000000000e+00    0,000000000e+00    0,000000000e+00    0,000000000e+00
      674000000   -7,019097358e-02   -1,691458188e-02    6,433641911e-01   -6,532452255e-02    0,000000000e+00    0,000000000e+00    0,000000000e+00    0,000000000e+00
      688000000   -6,788492203e-02    8,566088974e-03    4,714768827e-01   -4,276590347e-01    0,000000000e+00    0,000000000e+00    0,000000000e+00    0,000000000e+00
      702000000   -3,754194826e-02    2,679992840e-02    1,176670119e-01   -6,110464931e-01    0,000000000e+00    0,000000000e+00    0,000000000e+00    0,000000000e+00
      716000000    2,659999765e-03    1,845849305e-02   -2,649944723e-01   -5,469059944e-01    0,000000000e+00    0,000000000e+00    0,000000000e+00    0,000000000e+00
      730000000    3,630293533e-02   -1,065433305e-02   -5,282044411e-01   -2,691581249e-01    0,000000000e+00    0,000000000e+00    0,000000000e+00    0,000000000e+00
      744000000    6,496090442e-02   -6,278777122e-02   -5,644652247e-01    1,065540984e-01    0,000000000e+00    0,000000000e+00    0,000000000e+00    0,000000000e+00
      758000000    6,678001583e-02   -1,523676515e-01   -3,635120392e-01    4,113046229e-01    0,000000000e+00    0,000000000e+00    0,000000000e+00    0,000000000e+00
      772000000   -1,293771714e-02   -2,630326152e-01   -3,527677059e-02    5,156975985e-01    0,000000000e+00    0,000000000e+00    0,000000000e+00    0,000000000e+00
      786000000   -2,064409256e-01   -3,019477129e-01    2,743130028e-01    3,949501812e-01    0,000000000e+00    0,000000000e+00    0,000000000e+00    0,000000000e+00
      800000000   -4,263138473e-01   -1,306382120e-01    4,178951979e-01    9,906405210e-02    0,000000000e+00    0,000000000e+00    0,000000000e+00    0,000000000e+00
      814000000   -3,890950680e-01    2,217926979e-01    2,822436988e-01   -1,732323915e-01    0,000000000e+00    0,000000000e+00    0,000000000e+00    0,000000000e+00
      828000000   -4,970511422e-02    3,669815063e-01    5,511279777e-02   -1,896001995e-01    0,000000000e+00    0,000000000e+00    0,000000000e+00    0,000000000e+00
      842000000    2,352222502e-01    1,857592314e-01   -1,698608138e-02   -7,101472467e-02    0,000000000e+00    0,000000000e+00    0,000000000e+00    0,000000000e+00
      856000000    2,806406319e-01   -1,242760420e-01    4,478957877e-02   -1,302870642e-02    0,000000000e+00    0,000000000e+00    0,000000000e+00    0,000000000e+00
      870000000    7,446865737e-02   -3,755688369e-01    1,135384589e-01   -9,092010558e-02    0,000000000e+00    0,000000000e+00    0,000000000e+00    0,000000000e+00
      884000000   -2,959441543e-01   -3,613916337e-01    2,798887528e-02   -2,453345805e-01    0,000000000e+00    0,000000000e+00    0,000000000e+00    0,000000000e+00
      898000000   -4,722752571e-01    7,900315337e-03   -2,215115428e-01   -2,273731977e-01    0,000000000e+00    0,000000000e+00    0,000000000e+00    0,000000000e+00
      912000000   -2,261040509e-01    2,941743731e-01   -3,431517482e-01    7,612375915e-02    0,000000000e+00    0,000000000e+00    0,000000000e+00    0,000000000e+00
      926000000    6,705448031e-02    2,651129067e-01   -2,167888284e-01    2,654794753e-01    0,000000000e+00    0,000000000e+00    0,000000000e+00    0,000000000e+00
      940000000    2,191693932e-01    8,009372652e-02   -3,562711552e-02    3,289726079e-01    0,000000000e+00    0,000000000e+00    0,000000000e+00    0,000000000e+00
      954000000    2,252835482e-01   -1,266005039e-01    1,312933862e-01    3,049193621e-01    0,000000000e+00    0,000000000e+00    0,000000000e+00    0,000000000e+00
      968000000    1,148400009e-01   -3,014956713e-01    2,703696191e-01    2,172965407e-01    0,000000000e+00    0,000000000e+00    0,000000000e+00    0,000000000e+00
      982000000   -8,362184465e-02   -3,846496046e-01    3,666496873e-01    6,500094384e-02    0,000000000e+00    0,000000000e+00    0,000000000e+00    0,000000000e+00
      996000000   -3,140094578e-01   -3,286361992e-01    3,680617213e-01   -1,449203491e-01    0,000000000e+00    0,000000000e+00    0,000000000e+00    0,000000000e+00
     1010000000   -4,635368586e-01   -1,076220721e-01    2,227745205e-01   -3,422611356e-01    0,000000000e+00    0,000000000e+00    0,000000000e+00    0,000000000e+00
     1024000000   -4,124091268e-01    1,475694031e-01   -3,465827182e-02   -3,940461278e-01    0,000000000e+00    0,000000000e+00    0,000000000e+00    0,000000000e+00
     1038000000   -2,143282145e-01    2,925280035e-01   -2,472764552e-01   -2,621223330e-01    0,000000000e+00    0,000000000e+00    0,000000000e+00    0,000000000e+00
     1052000000   -7,972533815e-03    2,755794823e-01   -3,189922869e-01   -4,590951279e-02    0,000000000e+00    0,000000000e+00    0,000000000e+00    0,000000000e+00
     1066000000    1,333742738e-01    1,650553495e-01   -2,560040355e-01    1,408402324e-01    0,000000000e+00    0,000000000e+00    0,000000000e+00    0,000000000e+00
     1080000000    1,928894073e-01   -2,576154890e-03   -1,182918474e-01    2,648828924e-01    0,000000000e+00    0,000000000e+00    0,000000000e+00    0,000000000e+00
     1094000000    1,548626423e-01   -1,781177819e-01    6,505130231e-02    3,048236966e-01    0,000000000e+00    0,000000000e+00    0,000000000e+00    0,000000000e+00
     1108000000   -5,188311916e-03   -3,082381189e-01    2,775361240e-01    2,452082485e-01    0,000000000e+00    0,000000000e+00    0,000000000e+00    0,000000000e+00
     1122000000   -2,503235638e-01   -2,587541640e-01    4,703141749e-01    1,169186644e-02    0,000000000e+00    0,000000000e+00    0,000000000e+00    0,000000000e+00
     1136000000   -3,208396435e-01    3,558896482e-02    3,995295465e-01   -3,937308490e-01    0,000000000e+00    0,000000000e+00    0,000000000e+00    0,000000000e+00
     1150000000   -4,357947782e-02    1,534712762e-01    5,132277030e-03   -5,433629155e-01    0,000000000e+00    0,000000000e+00    0,000000000e+00    0,000000000e+00
     1164000000    1,250599176e-01   -6,189678609e-02   -2,762555778e-01   -3,777117431e-01    0,000000000e+00    0,000000000e+00    0,000000000e+00    0,000000000e+00
     1178000000    1,600417867e-02   -3,043294549e-01   -3,703568876e-01   -1,502449661e-01    0,000000000e+00    0,000000000e+00    0,000000000e+00    0,000000000e+00
     1192000000   -2,660310566e-01   -3,719623983e-01   -3,229705095e-01    5,702889338e-02    0,000000000e+00    0,000000000e+00    0,000000000e+00    0,000000000e+00
     1206000000   -5,196191669e-01   -1,562929004e-01   -1,664886475e-01    1,865481585e-01    0,000000000e+00    0,000000000e+00    0,000000000e+00    0,000000000e+00
     1220000000   -5,072673559e-01    1,698651314e-01   -3,809054033e-04    1,596827358e-01    0,000000000e+00    0,000000000e+00    0,000000000e+00    0,000000000e+00
     1234000000   -2,808194458e-01    3,602817953e-01    7,047061622e-02    6,159537658e-02    0,000000000e+00    0,000000000e+00    0,000000000e+00    0,000000000e+00
     1248000000   -4,023553804e-02    3,653618693e-01    5,980138481e-02   -3,540586331e-04    0,000000000e+00    0,000000000e+00    0,000000000e+00    0,000000000e+00
     1262000000    1,225707754e-01    2,601623237e-01    1,792289317e-02   -2,106230892e-02    0,000000000e+00    0,000000000e+00    0,000000000e+00    0,000000000e+00
     1276000000    2,129164636e-01    9,942556173e-02   -3,220782615e-03   -3,968574456e-04    0,000000000e+00    0,000000000e+00    0,000000000e+00    0,000000000e+00
     1290000000    2,255724818e-01   -7,163591683e-02    1,949013770e-02    5,391418561e-02    0,000000000e+00    0,000000000e+00    0,000000000e+00    0,000000000e+00
     1304000000    1,559952945e-01   -2,404437810e-01    1,331235170e-01    6,714113802e-02    0,000000000e+00    0,000000000e+00    0,000000000e+00    0,000000000e+00
     1318000000    3,630666435e-02   -3,340252340e-01    1,278761029e-01   -1,655495465e-01    0,000000000e+00    0,000000000e+00    0,000000000e+00    0,000000000e+00
     1332000000   -1,294686049e-01   -4,401360452e-01   -4,409541190e-02   -4,725297540e-02    0,000000000e+00    0,000000000e+00    0,000000000e+00    0,000000000e+00
     1346000000   -3,926394880e-01   -4,113983512e-01    2,603672817e-02    7,045388967e-02    0,000000000e+00    0,000000000e+00    0,000000000e+00    0,000000000e+00
     1360000000   -6,097557545e-01   -1,939144582e-01    1,399880350e-01    7,088164985e-02    0,000000000e+00    0,000000000e+00    0,000000000e+00    0,000000000e+00
     1374000000   -6,349404454e-01    1,346862614e-01    1,925125420e-01    3,000371624e-03    0,000000000e+00    0,000000000e+00    0,000000000e+00    0,000000000e+00
     1388000000   -4,603531659e-01    3,661453724e-01    2,222065330e-01   -5,693170056e-02    0,000000000e+00    0,000000000e+00    0,000000000e+00    0,000000000e+00
     1402000000   -2,341805845e-01    4,547463655e-01    1,914039999e-01   -8,548244834e-02    0,000000000e+00    0,000000000e+00    0,000000000e+00    0,000000000e+00
     1416000000   -2,546830848e-02    4,163101912e-01    1,792642027e-01   -1,012145579e-01    0,000000000e+00    0,000000000e+00    0,000000000e+00    0,000000000e+00
     1430000000    1,201654226e-01    2,955119610e-01    1,600718796e-01   -1,031388938e-01    0,000000000e+00    0,000000000e+00    0,000000000e+00    0,000000000e+00
     1444000000    2,094954997e-01    1,483386755e-01    1,535251141e-01   -1,036318764e-01    0,000000000e+00    0,000000000e+00    0,000000000e+00    0,000000000e+00
     1458000000    2,322232574e-01   -1,945809834e-02    1,411915720e-01   -6,725069880e-02    0,000000000e+00    0,000000000e+00    0,000000000e+00    0,000000000e+00
     1472000000    1,936603040e-01   -2,005910128e-01    1,432869881e-01   -2,380807884e-02    0,000000000e+00    0,000000000e+00    0,000000000e+00    0,000000000e+00
     1486000000    5,887184292e-02   -3,678395152e-01    1,616585851e-01    3,474282101e-02    0,000000000e+00    0,000000000e+00    0,000000000e+00    0,000000000e+00
     1500000000   -1,697797030e-01   -4,913620353e-01    2,582853138e-01    1,080170199e-01    0,000000000e+00    0,000000000e+00    0,000000000e+00    0,000000000e+00
