! NanoVNA-App
! Date: 2025-09-25 15:34:42
! Start: 100MHz Stop: 1,5GHz Points: 101
! S-Parameter data: F S11 S21 S12 S22
# Hz S RI R 50
!     Frequency           S11_Real           S11_Imag           S21_Real           S21_Imag           S12_Real           S12_Imag           S22_Real           S22_Imag
      100000000   -2,884789743e-02   -4,165252671e-03    3,740824163e-01   -7,217757106e-01    0,000000000e+00    0,000000000e+00    0,000000000e+00    0,000000000e+00
      114000000   -1,646229811e-02    1,151807234e-02   -8,892886341e-02   -8,055689931e-01    0,000000000e+00    0,000000000e+00    0,000000000e+00    0,000000000e+00
      128000000    3,519724356e-03    1,054987125e-02   -5,144981742e-01   -6,205258369e-01    0,000000000e+00    0,000000000e+00    0,000000000e+00    0,000000000e+00
      142000000    1,457046252e-02   -2,956246724e-03   -7,673358321e-01   -2,367019504e-01    0,000000000e+00    0,000000000e+00    0,000000000e+00    0,000000000e+00
      156000000    1,437950693e-02   -1,484572235e-02   -7,643511295e-01    2,201941013e-01    0,000000000e+00    0,000000000e+00    0,000000000e+00    0,000000000e+00
      170000000    1,671131141e-02   -2,257630415e-02   -5,183651447e-01    6,048393250e-01    0,000000000e+00    0,000000000e+00    0,000000000e+00    0,000000000e+00
      184000000    2,106889710e-02   -3,710436821e-02   -1,014978141e-01    7,865202427e-01    0,000000000e+00    0,000000000e+00    0,000000000e+00    0,000000000e+00
      198000000    1,302654110e-02   -6,244188547e-02    3,433780372e-01    7,123773694e-01    0,000000000e+00    0,000000000e+00    0,000000000e+00    0,000000000e+00
      212000000   -1,866880432e-02   -8,130934089e-02    6,779627204e-01    4,098914266e-01    0,000000000e+00    0,000000000e+00    0,000000000e+00    0,000000000e+00
      226000000   -6,166696548e-02   -6,918944418e-02    7,957899570e-01   -3,060741350e-02    0,000000000e+00    0,000000000e+00    0,000000000e+00    0,000000000e+00
      240000000   -8,258186281e-02   -2,560099028e-02    6,459812522e-01   -4,671094418e-01    0,000000000e+00    0,000000000e+00    0,000000000e+00    0,000000000e+00
      254000000   -6,349977106e-02    1,730567962e-02    2,760431468e-01   -7,430512309e-01    0,000000000e+00    0,000000000e+00    0,000000000e+00    0,000000000e+00
      268000000   -2,384907752e-02    2,895623632e-02   -1,782404780e-01   -7,640457749e-01    0,000000000e+00    0,000000000e+00    0,000000000e+00    0,000000000e+00
      282000000    4,149136599e-03    1,199296210e-02   -5,619017482e-01   -5,358559489e-01    0,000000000e+00    0,000000000e+00    0,000000000e+00    0,000000000e+00
      296000000    9,789090604e-03   -7,838898338e-03   -7,596961856e-01   -1,396391988e-01    0,000000000e+00    0,000000000e+00    0,000000000e+00    0,000000000e+00
      310000000    1,132621244e-02   -1,600525342e-02   -7,113839388e-01    2,982106507e-01    0,000000000e+00    0,000000000e+00    0,000000000e+00    0,000000000e+00
      324000000    1,944780536e-02   -2,662938088e-02   -4,280200601e-01    6,378138065e-01    0,000000000e+00    0,000000000e+00    0,000000000e+00    0,000000000e+00
      338000000    2,566611767e-02   -5,230271071e-02   -9,995860979e-03    7,619466186e-01    0,000000000e+00    0,000000000e+00    0,000000000e+00    0,000000000e+00
      352000000    7,606482133e-03   -8,449797332e-02    4,067634344e-01    6,402658820e-01    0,000000000e+00    0,000000000e+00    0,000000000e+00    0,000000000e+00
      366000000   -3,485076129e-02   -9,534208477e-02    6,906778812e-01    3,113390505e-01    0,000000000e+00    0,000000000e+00    0,000000000e+00    0,000000000e+00
      380000000   -7,084342837e-02   -7,105761766e-02    7,474392056e-01   -1,258814484e-01    0,000000000e+00    0,000000000e+00    0,000000000e+00    0,000000000e+00
      394000000   -7,272704691e-02   -3,250513598e-02    5,467605591e-01   -5,220553279e-01    0,000000000e+00    0,000000000e+00    0,000000000e+00    0,000000000e+00
      408000000   -4,649511352e-02   -1,608222537e-02    1,602515727e-01   -7,312861085e-01    0,000000000e+00    0,000000000e+00    0,000000000e+00    0,000000000e+00
      422000000   -2,830785327e-02   -3,207601234e-02   -2,678092420e-01   -6,954188347e-01    0,000000000e+00    0,000000000e+00    0,000000000e+00    0,000000000e+00
      436000000   -4,063910246e-02   -5,210670456e-02   -6,039261818e-01   -4,328757823e-01    0,000000000e+00    0,000000000e+00    0,000000000e+00    0,000000000e+00
      450000000   -6,729134172e-02   -4,393357038e-02   -7,400659323e-01   -2,154848911e-02    0,000000000e+00    0,000000000e+00    0,000000000e+00    0,000000000e+00
      464000000   -7,329250127e-02   -1,170741580e-02   -6,180939674e-01    3,979688883e-01    0,000000000e+00    0,000000000e+00    0,000000000e+00    0,000000000e+00
      478000000   -4,778639600e-02    1,137247495e-02   -2,831268311e-01    6,673017740e-01    0,000000000e+00    0,000000000e+00    0,000000000e+00    0,000000000e+00
      492000000   -1,528736111e-02    5,648976192e-03    1,377058476e-01    7,017478347e-01    0,000000000e+00    0,000000000e+00    0,000000000e+00    0,000000000e+00
      506000000   -2,217712812e-03   -1,617242396e-02    4,985153973e-01    5,014349222e-01    0,000000000e+00    0,000000000e+00    0,000000000e+00    0,000000000e+00
      520000000   -5,002843682e-03   -3,153655678e-02    6,881191134e-01    1,416778415e-01    0,000000000e+00    0,000000000e+00    0,000000000e+00    0,000000000e+00
      534000000   -3,781172447e-03   -3,805401921e-02    6,442913413e-01   -2,625166178e-01    0,000000000e+00    0,000000000e+00    0,000000000e+00    0,000000000e+00
      548000000    6,264006719e-03   -5,404703319e-02    3,815904856e-01   -5,670190454e-01    0,000000000e+00    0,000000000e+00    0,000000000e+00    0,000000000e+00
      562000000    3,125517629e-03   -8,907669038e-02    3,321495140e-03   -6,718584299e-01    0,000000000e+00    0,000000000e+00    0,000000000e+00    0,000000000e+00
      576000000   -3,437587991e-02   -1,244917884e-01   -3,690308630e-01   -5,575271249e-01    0,000000000e+00    0,000000000e+00    0,000000000e+00    0,000000000e+00
      590000000   -9,636532515e-02   -1,225897074e-01   -6,209990978e-01   -2,618852854e-01    0,000000000e+00    0,000000000e+00    0,000000000e+00    0,000000000e+00
      604000000   -1,393374801e-01   -7,172720879e-02   -6,646572948e-01    1,379738599e-01    0,000000000e+00    0,000000000e+00    0,000000000e+00    0,000000000e+00
      618000000   -1,289620399e-01   -9,011878632e-03   -4,642577767e-01    4,951973557e-01    0,000000000e+00    0,000000000e+00    0,000000000e+00    0,000000000e+00
      632000000   -8,405983448e-02    1,740578189e-02   -9,851463139e-02    6,621203423e-01    0,000000000e+00    0,000000000e+00    0,000000000e+00    0,000000000e+00
      646000000   -5,085724592e-02    1,123735565e-04    2,877817154e-01    5,960398912e-01    0,000000000e+00    0,000000000e+00    0,000000000e+00    0,000000000e+00
      660000000   -5,371530354e-02   -2,134691551e-02    5,675389767e-01    3,226733804e-01    0,000000000e+00    0,000000000e+00    0,000000000e+00    0,000000000e+00
      674000000   -6,948325038e-02   -1,746678725e-02    6,430386901e-01   -6,559080631e-02    0,000000000e+00    0,000000000e+00    0,000000000e+00    0,000000000e+00
      688000000   -6,786685437e-02    9,242615663e-03    4,717395306e-01   -4,277834296e-01    0,000000000e+00    0,000000000e+00    0,000000000e+00    0,000000000e+00
      702000000   -3,780455887e-02    2,753621712e-02    1,177086234e-01   -6,145563722e-01    0,000000000e+00    0,000000000e+00    0,000000000e+00    0,000000000e+00
      716000000    2,536145039e-03    1,756459288e-02   -2,639955878e-01   -5,474071503e-01    0,000000000e+00    0,000000000e+00    0,000000000e+00    0,000000000e+00
      730000000    3,625467792e-02   -1,142728794e-02   -5,286570787e-01   -2,690676153e-01    0,000000000e+00    0,000000000e+00    0,000000000e+00    0,000000000e+00
      744000000    6,500510126e-02   -6,277848035e-02   -5,645074248e-01    1,065107957e-01    0,000000000e+00    0,000000000e+00    0,000000000e+00    0,000000000e+00
      758000000    6,653516740e-02   -1,526413560e-01   -3,625347316e-01    4,107066691e-01    0,000000000e+00    0,000000000e+00    0,000000000e+00    0,000000000e+00
      772000000   -1,261842810e-02   -2,625793517e-01   -3,435986862e-02    5,160792470e-01    0,000000000e+00    0,000000000e+00    0,000000000e+00    0,000000000e+00
      786000000   -2,062565684e-01   -3,026478291e-01    2,741052508e-01    3,950868547e-01    0,000000000e+00    0,000000000e+00    0,000000000e+00    0,000000000e+00
      800000000   -4,256140292e-01   -1,296967119e-01    4,170080721e-01    9,872467071e-02    0,000000000e+00    0,000000000e+00    0,000000000e+00    0,000000000e+00
      814000000   -3,902561069e-01    2,217487395e-01    2,823798060e-01   -1,734502763e-01    0,000000000e+00    0,000000000e+00    0,000000000e+00    0,000000000e+00
      828000000   -5,046967044e-02    3,673828244e-01    5,565620586e-02   -1,898214966e-01    0,000000000e+00    0,000000000e+00    0,000000000e+00    0,000000000e+00
      842000000    2,348888814e-01    1,863406152e-01   -1,767532527e-02   -7,037995756e-02    0,000000000e+00    0,000000000e+00    0,000000000e+00    0,000000000e+00
      856000000    2,805004120e-01   -1,239616722e-01    4,543098435e-02   -1,300784480e-02    0,000000000e+00    0,000000000e+00    0,000000000e+00    0,000000000e+00
      870000000    7,432736456e-02   -3,761851192e-01    1,135709286e-01   -9,086570144e-02    0,000000000e+00    0,000000000e+00    0,000000000e+00    0,000000000e+00
      884000000   -2,955525517e-01   -3,619358540e-01    2,900118940e-02   -2,456173152e-01    0,000000000e+00    0,000000000e+00    0,000000000e+00    0,000000000e+00
      898000000   -4,725378752e-01    9,271698073e-03   -2,218102068e-01   -2,271625400e-01    0,000000000e+00    0,000000000e+00    0,000000000e+00    0,000000000e+00
      912000000   -2,272844613e-01    2,945067883e-01   -3,425350487e-01    7,589466125e-02    0,000000000e+00    0,000000000e+00    0,000000000e+00    0,000000000e+00
      926000000    6,757183373e-02    2,620584369e-01   -2,155819535e-01    2,629313171e-01    0,000000000e+00    0,000000000e+00    0,000000000e+00    0,000000000e+00
      940000000    2,180887014e-01    7,986629009e-02   -3,513392806e-02    3,294942379e-01    0,000000000e+00    0,000000000e+00    0,000000000e+00    0,000000000e+00
      954000000    2,240278870e-01   -1,268139631e-01    1,285008192e-01    3,067310750e-01    0,000000000e+00    0,000000000e+00    0,000000000e+00    0,000000000e+00
      968000000    1,149197295e-01   -2,985824943e-01    2,727202475e-01    2,194174081e-01    0,000000000e+00    0,000000000e+00    0,000000000e+00    0,000000000e+00
      982000000   -8,389613032e-02   -3,871473968e-01    3,661688268e-01    6,631447375e-02    0,000000000e+00    0,000000000e+00    0,000000000e+00    0,000000000e+00
      996000000   -3,144626319e-01   -3,282502294e-01    3,695091009e-01   -1,464018226e-01    0,000000000e+00    0,000000000e+00    0,000000000e+00    0,000000000e+00
     1010000000   -4,610029459e-01   -1,137974635e-01    2,235172540e-01   -3,413244784e-01    0,000000000e+00    0,000000000e+00    0,000000000e+00    0,000000000e+00
     1024000000   -4,166404009e-01    1,503428668e-01   -3,401984274e-02   -3,929765821e-01    0,000000000e+00    0,000000000e+00    0,000000000e+00    0,000000000e+00
     1038000000   -2,178127617e-01    2,947939932e-01   -2,475385219e-01   -2,599236071e-01    0,000000000e+00    0,000000000e+00    0,000000000e+00    0,000000000e+00
     1052000000   -8,352191187e-03    2,798608840e-01   -3,162246943e-01   -4,756694287e-02    0,000000000e+00    0,000000000e+00    0,000000000e+00    0,000000000e+00
     1066000000    1,390805990e-01    1,631021053e-01   -2,605643272e-01    1,423327625e-01    0,000000000e+00    0,000000000e+00    0,000000000e+00    0,000000000e+00
     1080000000    1,924810857e-01   -2,357634483e-03   -1,212456822e-01    2,646204829e-01    0,000000000e+00    0,000000000e+00    0,000000000e+00    0,000000000e+00
     1094000000    1,547389925e-01   -1,765834689e-01    6,360146403e-02    3,069793880e-01    0,000000000e+00    0,000000000e+00    0,000000000e+00    0,000000000e+00
     1108000000    1,570004824e-04   -3,054422140e-01    2,771777511e-01    2,445544004e-01    0,000000000e+00    0,000000000e+00    0,000000000e+00    0,000000000e+00
     1122000000   -2,483649552e-01   -2,611885369e-01    4,740113616e-01    1,107814722e-02    0,000000000e+00    0,000000000e+00    0,000000000e+00    0,000000000e+00
     1136000000   -3,189203441e-01    2,930535749e-02    3,982501626e-01   -3,935252130e-01    0,000000000e+00    0,000000000e+00    0,000000000e+00    0,000000000e+00
     1150000000   -4,468647763e-02    1,547866613e-01    4,785843659e-03   -5,406200290e-01    0,000000000e+00    0,000000000e+00    0,000000000e+00    0,000000000e+00
     1164000000    1,200982407e-01   -6,462776661e-02   -2,791268528e-01   -3,802588582e-01    0,000000000e+00    0,000000000e+00    0,000000000e+00    0,000000000e+00
     1178000000    1,598460600e-02   -3,024968803e-01   -3,674914837e-01   -1,506848186e-01    0,000000000e+00    0,000000000e+00    0,000000000e+00    0,000000000e+00
     1192000000   -2,661666274e-01   -3,716433048e-01   -3,219333887e-01    5,871007219e-02    0,000000000e+00    0,000000000e+00    0,000000000e+00    0,000000000e+00
     1206000000   -5,202484131e-01   -1,570086479e-01   -1,635739356e-01    1,831572056e-01    0,000000000e+00    0,000000000e+00    0,000000000e+00    0,000000000e+00
     1220000000   -5,107431412e-01    1,738276780e-01    3,174119163e-03    1,612734944e-01    0,000000000e+00    0,000000000e+00    0,000000000e+00    0,000000000e+00
     1234000000   -2,823706567e-01    3,616331220e-01    6,952793151e-02    6,156462803e-02    0,000000000e+00    0,000000000e+00    0,000000000e+00    0,000000000e+00
     1248000000   -4,816827923e-02    3,630646765e-01    5,302660167e-02   -5,207309499e-03    0,000000000e+00    0,000000000e+00    0,000000000e+00    0,000000000e+00
     1262000000    1,229114011e-01    2,522918284e-01    1,539127715e-02   -2,366941981e-02    0,000000000e+00    0,000000000e+00    0,000000000e+00    0,000000000e+00
     1276000000    2,138941437e-01    9,659099579e-02   -1,195792902e-05   -7,587258588e-04    0,000000000e+00    0,000000000e+00    0,000000000e+00    0,000000000e+00
     1290000000    2,242500931e-01   -7,192678005e-02    1,850476861e-02    4,868439585e-02    0,000000000e+00    0,000000000e+00    0,000000000e+00    0,000000000e+00
     1304000000    1,566453129e-01   -2,439692318e-01    1,259484142e-01    6,576048583e-02    0,000000000e+00    0,000000000e+00    0,000000000e+00    0,000000000e+00
     1318000000    3,614708409e-02   -3,398141265e-01    1,377516836e-01   -1,626528054e-01    0,000000000e+00    0,000000000e+00    0,000000000e+00    0,000000000e+00
     1332000000   -1,258193702e-01   -4,360865951e-01   -4,068043083e-02   -4,503636807e-02    0,000000000e+00    0,000000000e+00    0,000000000e+00    0,000000000e+00
     1346000000   -3,910061121e-01   -4,142915308e-01    2,218692563e-02    6,344331801e-02    0,000000000e+00    0,000000000e+00    0,000000000e+00    0,000000000e+00
     1360000000   -6,040725708e-01   -1,908402592e-01    1,341038048e-01    6,421655416e-02    0,000000000e+00    0,000000000e+00    0,000000000e+00    0,000000000e+00
     1374000000   -6,336730123e-01    1,282925159e-01    1,992381662e-01    5,346722901e-03    0,000000000e+00    0,000000000e+00    0,000000000e+00    0,000000000e+00
     1388000000   -4,714962542e-01    3,760725856e-01    2,150067985e-01   -6,730880588e-02    0,000000000e+00    0,000000000e+00    0,000000000e+00    0,000000000e+00
     1402000000   -2,334622592e-01    4,574429095e-01    1,921808422e-01   -8,635143191e-02    0,000000000e+00    0,000000000e+00    0,000000000e+00    0,000000000e+00
     1416000000   -2,217594534e-02    4,111485183e-01    1,723687202e-01   -1,099639237e-01    0,000000000e+00    0,000000000e+00    0,000000000e+00    0,000000000e+00
     1430000000    1,194210649e-01    2,940114737e-01    1,569267660e-01   -9,708276391e-02    0,000000000e+00    0,000000000e+00    0,000000000e+00    0,000000000e+00
     1444000000    2,081068158e-01    1,454288661e-01    1,535460949e-01   -1,028539464e-01    0,000000000e+00    0,000000000e+00    0,000000000e+00    0,000000000e+00
     1458000000    2,355521321e-01   -2,737837657e-02    1,498134136e-01   -8,064315468e-02    0,000000000e+00    0,000000000e+00    0,000000000e+00    0,000000000e+00
     1472000000    1,936763674e-01   -2,049973607e-01    1,357301027e-01   -2,786656283e-02    0,000000000e+00    0,000000000e+00    0,000000000e+00    0,000000000e+00
     1486000000    6,664241105e-02   -3,720415533e-01    1,746419370e-01    4,081311449e-02    0,000000000e+00    0,000000000e+00    0,000000000e+00    0,000000000e+00
     1500000000   -1,654921323e-01   -4,996431470e-01    2,501703203e-01    7,814883441e-02    0,000000000e+00    0,000000000e+00    0,000000000e+00    0,000000000e+00
