! NanoVNA-App
! Date: 2025-09-25 15:33:13
! Start: 100MHz Stop: 1,5GHz Points: 101
! S-Parameter data: F S11 S21 S12 S22
# Hz S RI R 50
!     Frequency           S11_Real           S11_Imag           S21_Real           S21_Imag           S12_Real           S12_Imag           S22_Real           S22_Imag
      100000000   -2,887497842e-02   -4,171864595e-03    3,741194010e-01   -7,217590213e-01    0,000000000e+00    0,000000000e+00    0,000000000e+00    0,000000000e+00
      114000000   -1,653725281e-02    1,154651027e-02   -8,913524449e-02   -8,055028915e-01    0,000000000e+00    0,000000000e+00    0,000000000e+00    0,000000000e+00
      128000000    3,504201770e-03    1,059078891e-02   -5,147035122e-01   -6,204736233e-01    0,000000000e+00    0,000000000e+00    0,000000000e+00    0,000000000e+00
      142000000    1,455081534e-02   -2,962536179e-03   -7,671845555e-01   -2,367088944e-01    0,000000000e+00    0,000000000e+00    0,000000000e+00    0,000000000e+00
      156000000    1,593707688e-02   -1,435413212e-02   -7,699644566e-01    2,242015451e-01    0,000000000e+00    0,000000000e+00    0,000000000e+00    0,000000000e+00
      170000000    1,665567234e-02   -2,259904519e-02   -5,180944800e-01    6,046548486e-01    0,000000000e+00    0,000000000e+00    0,000000000e+00    0,000000000e+00
      184000000    2,099708281e-02   -3,702934086e-02   -1,014561057e-01    7,862557173e-01    0,000000000e+00    0,000000000e+00    0,000000000e+00    0,000000000e+00
      198000000    1,300897356e-02   -6,246214733e-02    3,433475196e-01    7,124316096e-01    0,000000000e+00    0,000000000e+00    0,000000000e+00    0,000000000e+00
      212000000   -1,867360435e-02   -8,129554987e-02    6,780878901e-01    4,100510776e-01    0,000000000e+00    0,000000000e+00    0,000000000e+00    0,000000000e+00
      226000000   -6,170743331e-02   -6,918474287e-02    7,958379388e-01   -3,057899140e-02    0,000000000e+00    0,000000000e+00    0,000000000e+00    0,000000000e+00
      240000000   -8,261109143e-02   -2,563262545e-02    6,461984515e-01   -4,671775699e-01    0,000000000e+00    0,000000000e+00    0,000000000e+00    0,000000000e+00
      254000000   -6,351835281e-02    1,726694033e-02    2,761175036e-01   -7,433431745e-01    0,000000000e+00    0,000000000e+00    0,000000000e+00    0,000000000e+00
      268000000   -2,388723753e-02    2,892547660e-02   -1,784899682e-01   -7,640642524e-01    0,000000000e+00    0,000000000e+00    0,000000000e+00    0,000000000e+00
      282000000    4,199177027e-03    1,198182441e-02   -5,616757870e-01   -5,357103348e-01    0,000000000e+00    0,000000000e+00    0,000000000e+00    0,000000000e+00
      296000000    9,625813924e-03   -7,872463204e-03   -7,597190142e-01   -1,394363195e-01    0,000000000e+00    0,000000000e+00    0,000000000e+00    0,000000000e+00
      310000000    1,116241142e-02   -1,596446708e-02   -7,124746442e-01    2,993271351e-01    0,000000000e+00    0,000000000e+00    0,000000000e+00    0,000000000e+00
      324000000    1,976321265e-02   -2,665791847e-02   -4,270643294e-01    6,391751170e-01    0,000000000e+00    0,000000000e+00    0,000000000e+00    0,000000000e+00
      338000000    2,563050948e-02   -5,222651735e-02   -1,010471117e-02    7,627916336e-01    0,000000000e+00    0,000000000e+00    0,000000000e+00    0,000000000e+00
      352000000    7,509708870e-03   -8,498625457e-02    4,074175656e-01    6,392909884e-01    0,000000000e+00    0,000000000e+00    0,000000000e+00    0,000000000e+00
      366000000   -3,482846916e-02   -9,542237967e-02    6,911907196e-01    3,109764159e-01    0,000000000e+00    0,000000000e+00    0,000000000e+00    0,000000000e+00
      380000000   -7,085840404e-02   -7,119985670e-02    7,471871972e-01   -1,261969507e-01    0,000000000e+00    0,000000000e+00    0,000000000e+00    0,000000000e+00
      394000000   -7,259695977e-02   -3,225668147e-02    5,477277040e-01   -5,210637450e-01    0,000000000e+00    0,000000000e+00    0,000000000e+00    0,000000000e+00
      408000000   -4,648537189e-02   -1,616304182e-02    1,609759033e-01   -7,319624424e-01    0,000000000e+00    0,000000000e+00    0,000000000e+00    0,000000000e+00
      422000000   -2,836070210e-02   -3,209393099e-02   -2,668251097e-01   -6,951830387e-01    0,000000000e+00    0,000000000e+00    0,000000000e+00    0,000000000e+00
      436000000   -4,068982974e-02   -5,186498538e-02   -6,038153768e-01   -4,310292900e-01    0,000000000e+00    0,000000000e+00    0,000000000e+00    0,000000000e+00
      450000000   -6,735794246e-02   -4,374136031e-02   -7,407562733e-01   -2,119653486e-02    0,000000000e+00    0,000000000e+00    0,000000000e+00    0,000000000e+00
      464000000   -7,369245589e-02   -1,162317395e-02   -6,188148856e-01    3,969973326e-01    0,000000000e+00    0,000000000e+00    0,000000000e+00    0,000000000e+00
      478000000   -4,754314199e-02    1,208427921e-02   -2,821407318e-01    6,683327556e-01    0,000000000e+00    0,000000000e+00    0,000000000e+00    0,000000000e+00
      492000000   -1,565816626e-02    6,352176424e-03    1,378410757e-01    7,016493082e-01    0,000000000e+00    0,000000000e+00    0,000000000e+00    0,000000000e+00
      506000000   -2,157692797e-03   -1,586278155e-02    4,985838234e-01    5,018864870e-01    0,000000000e+00    0,000000000e+00    0,000000000e+00    0,000000000e+00
      520000000   -4,932864103e-03   -3,148556501e-02    6,877334118e-01    1,397804022e-01    0,000000000e+00    0,000000000e+00    0,000000000e+00    0,000000000e+00
      534000000   -4,112888593e-03   -3,793252632e-02    6,435418129e-01   -2,625642419e-01    0,000000000e+00    0,000000000e+00    0,000000000e+00    0,000000000e+00
      548000000    6,105451845e-03   -5,380688235e-02    3,816339672e-01   -5,672563314e-01    0,000000000e+00    0,000000000e+00    0,000000000e+00    0,000000000e+00
      562000000    3,031302942e-03   -8,970517665e-02    1,993049402e-03   -6,722422242e-01    0,000000000e+00    0,000000000e+00    0,000000000e+00    0,000000000e+00
      576000000   -3,413899988e-02   -1,245616898e-01   -3,695103824e-01   -5,569345951e-01    0,000000000e+00    0,000000000e+00    0,000000000e+00    0,000000000e+00
      590000000   -9,631357342e-02   -1,227122545e-01   -6,213887930e-01   -2,613812089e-01    0,000000000e+00    0,000000000e+00    0,000000000e+00    0,000000000e+00
      604000000   -1,393298656e-01   -7,177566737e-02   -6,647171378e-01    1,377658546e-01    0,000000000e+00    0,000000000e+00    0,000000000e+00    0,000000000e+00
      618000000   -1,291836053e-01   -9,032225236e-03   -4,646849334e-01    4,957041442e-01    0,000000000e+00    0,000000000e+00    0,000000000e+00    0,000000000e+00
      632000000   -8,379060775e-02    1,726194657e-02   -9,867853671e-02    6,639699340e-01    0,000000000e+00    0,000000000e+00    0,000000000e+00    0,000000000e+00
      646000000   -5,066220835e-02   -2,512797982e-05    2,877992690e-01    5,956673026e-01    0,000000000e+00    0,000000000e+00    0,000000000e+00    0,000000000e+00
      660000000   -5,265600234e-02   -2,154967934e-02    5,674926043e-01    3,226104677e-01    0,000000000e+00    0,000000000e+00    0,000000000e+00    0,000000000e+00
      674000000   -7,052303851e-02   -1,826402731e-02    6,431332827e-01   -6,535480171e-02    0,000000000e+00    0,000000000e+00    0,000000000e+00    0,000000000e+00
      688000000   -6,895308197e-02    9,333596565e-03    4,706126153e-01   -4,279284775e-01    0,000000000e+00    0,000000000e+00    0,000000000e+00    0,000000000e+00
      702000000   -3,845954686e-02    2,597397752e-02    1,205277517e-01   -6,084607244e-01    0,000000000e+00    0,000000000e+00    0,000000000e+00    0,000000000e+00
      716000000    2,339899307e-03    1,718577370e-02   -2,638907135e-01   -5,467084646e-01    0,000000000e+00    0,000000000e+00    0,000000000e+00    0,000000000e+00
      730000000    3,718746454e-02   -1,142205205e-02   -5,288511515e-01   -2,689771652e-01    0,000000000e+00    0,000000000e+00    0,000000000e+00    0,000000000e+00
      744000000    6,572288275e-02   -6,274905056e-02   -5,645754933e-01    1,064243913e-01    0,000000000e+00    0,000000000e+00    0,000000000e+00    0,000000000e+00
      758000000    6,715504080e-02   -1,522967517e-01   -3,632760346e-01    4,103120267e-01    0,000000000e+00    0,000000000e+00    0,000000000e+00    0,000000000e+00
      772000000   -1,288411114e-02   -2,619607151e-01   -3,497058526e-02    5,151653886e-01    0,000000000e+00    0,000000000e+00    0,000000000e+00    0,000000000e+00
      786000000   -2,068924308e-01   -3,017453849e-01    2,740331590e-01    3,957380652e-01    0,000000000e+00    0,000000000e+00    0,000000000e+00    0,000000000e+00
      800000000   -4,262132943e-01   -1,304979026e-01    4,177559316e-01    9,913477302e-02    0,000000000e+00    0,000000000e+00    0,000000000e+00    0,000000000e+00
      814000000   -3,900606334e-01    2,207175046e-01    2,819897234e-01   -1,733552366e-01    0,000000000e+00    0,000000000e+00    0,000000000e+00    0,000000000e+00
      828000000   -5,006987602e-02    3,679427207e-01    5,485356599e-02   -1,897198707e-01    0,000000000e+00    0,000000000e+00    0,000000000e+00    0,000000000e+00
      842000000    2,351648062e-01    1,861322075e-01   -1,723795570e-02   -7,081913948e-02    0,000000000e+00    0,000000000e+00    0,000000000e+00    0,000000000e+00
      856000000    2,804340124e-01   -1,241893843e-01    4,542023316e-02   -1,314930152e-02    0,000000000e+00    0,000000000e+00    0,000000000e+00    0,000000000e+00
      870000000    7,477919012e-02   -3,759859204e-01    1,138126776e-01   -9,151332825e-02    0,000000000e+00    0,000000000e+00    0,000000000e+00    0,000000000e+00
      884000000   -2,958660722e-01   -3,627862632e-01    2,837384865e-02   -2,460785657e-01    0,000000000e+00    0,000000000e+00    0,000000000e+00    0,000000000e+00
      898000000   -4,727188647e-01    8,944908157e-03   -2,225138992e-01   -2,272880673e-01    0,000000000e+00    0,000000000e+00    0,000000000e+00    0,000000000e+00
      912000000   -2,241983563e-01    2,956279516e-01   -3,506221473e-01    6,018568948e-02    0,000000000e+00    0,000000000e+00    0,000000000e+00    0,000000000e+00
      926000000    6,745634973e-02    2,627425492e-01   -2,147873044e-01    2,627788484e-01    0,000000000e+00    0,000000000e+00    0,000000000e+00    0,000000000e+00
      940000000    2,148601562e-01    8,096438646e-02   -3,761086613e-02    3,306927681e-01    0,000000000e+00    0,000000000e+00    0,000000000e+00    0,000000000e+00
      954000000    2,207972258e-01   -1,296167374e-01    1,294862926e-01    3,066592216e-01    0,000000000e+00    0,000000000e+00    0,000000000e+00    0,000000000e+00
      968000000    1,175137535e-01   -3,026027977e-01    2,716552913e-01    2,183446586e-01    0,000000000e+00    0,000000000e+00    0,000000000e+00    0,000000000e+00
      982000000   -8,354771137e-02   -3,853746057e-01    3,655159473e-01    6,522513926e-02    0,000000000e+00    0,000000000e+00    0,000000000e+00    0,000000000e+00
      996000000   -3,189681768e-01   -3,293257654e-01    3,695510328e-01   -1,462361217e-01    0,000000000e+00    0,000000000e+00    0,000000000e+00    0,000000000e+00
     1010000000   -4,639957249e-01   -1,132879555e-01    2,215045094e-01   -3,402211666e-01    0,000000000e+00    0,000000000e+00    0,000000000e+00    0,000000000e+00
     1024000000   -4,124928415e-01    1,463260502e-01   -3,430383280e-02   -3,939305246e-01    0,000000000e+00    0,000000000e+00    0,000000000e+00    0,000000000e+00
     1038000000   -2,227492481e-01    2,923040092e-01   -2,456056476e-01   -2,603459060e-01    0,000000000e+00    0,000000000e+00    0,000000000e+00    0,000000000e+00
     1052000000   -5,141016562e-03    2,804149091e-01   -3,191000223e-01   -4,594468325e-02    0,000000000e+00    0,000000000e+00    0,000000000e+00    0,000000000e+00
     1066000000    1,393883526e-01    1,654752493e-01   -2,578240931e-01    1,421339661e-01    0,000000000e+00    0,000000000e+00    0,000000000e+00    0,000000000e+00
     1080000000    1,952751577e-01   -4,242227413e-03   -1,193935424e-01    2,651540935e-01    0,000000000e+00    0,000000000e+00    0,000000000e+00    0,000000000e+00
     1094000000    1,573282182e-01   -1,742992252e-01    6,268142164e-02    3,044831455e-01    0,000000000e+00    0,000000000e+00    0,000000000e+00    0,000000000e+00
     1108000000   -3,257282544e-03   -3,084796071e-01    2,768696249e-01    2,473780066e-01    0,000000000e+00    0,000000000e+00    0,000000000e+00    0,000000000e+00
     1122000000   -2,498165518e-01   -2,685892582e-01    4,714337289e-01    1,325013302e-02    0,000000000e+00    0,000000000e+00    0,000000000e+00    0,000000000e+00
     1136000000   -3,133378327e-01    3,045894951e-02    3,977413476e-01   -3,923838735e-01    0,000000000e+00    0,000000000e+00    0,000000000e+00    0,000000000e+00
     1150000000   -4,420427978e-02    1,489659399e-01    9,283785708e-03   -5,437411666e-01    0,000000000e+00    0,000000000e+00    0,000000000e+00    0,000000000e+00
     1164000000    1,258201897e-01   -6,568669528e-02   -2,760352492e-01   -3,790903389e-01    0,000000000e+00    0,000000000e+00    0,000000000e+00    0,000000000e+00
     1178000000    1,537016779e-02   -3,029591143e-01   -3,717038929e-01   -1,504272670e-01    0,000000000e+00    0,000000000e+00    0,000000000e+00    0,000000000e+00
     1192000000   -2,692234814e-01   -3,708915114e-01   -3,237533569e-01    5,878654495e-02    0,000000000e+00    0,000000000e+00    0,000000000e+00    0,000000000e+00
     1206000000   -5,239535570e-01   -1,590866297e-01   -1,666483879e-01    1,798937917e-01    0,000000000e+00    0,000000000e+00    0,000000000e+00    0,000000000e+00
     1220000000   -5,092339516e-01    1,716520935e-01   -1,316560083e-04    1,590985060e-01    0,000000000e+00    0,000000000e+00    0,000000000e+00    0,000000000e+00
     1234000000   -2,892630100e-01    3,644154072e-01    6,743667275e-02    6,152256206e-02    0,000000000e+00    0,000000000e+00    0,000000000e+00    0,000000000e+00
     1248000000   -4,868326709e-02    3,639591336e-01    4,918833077e-02   -7,805401459e-03    0,000000000e+00    0,000000000e+00    0,000000000e+00    0,000000000e+00
     1262000000    1,204755828e-01    2,536725104e-01    1,888077892e-02   -2,777532861e-02    0,000000000e+00    0,000000000e+00    0,000000000e+00    0,000000000e+00
     1276000000    2,113837451e-01    1,048386022e-01   -1,864054822e-03    8,267140016e-03    0,000000000e+00    0,000000000e+00    0,000000000e+00    0,000000000e+00
     1290000000    2,253013551e-01   -7,516685128e-02    2,217734233e-02    5,073224381e-02    0,000000000e+00    0,000000000e+00    0,000000000e+00    0,000000000e+00
     1304000000    1,571945101e-01   -2,396446019e-01    1,324811280e-01    7,007969916e-02    0,000000000e+00    0,000000000e+00    0,000000000e+00    0,000000000e+00
     1318000000    3,601975366e-02   -3,345192671e-01    1,279617548e-01   -1,574595273e-01    0,000000000e+00    0,000000000e+00    0,000000000e+00    0,000000000e+00
     1332000000   -1,293112636e-01   -4,354966283e-01   -5,179069936e-02   -4,386122525e-02    0,000000000e+00    0,000000000e+00    0,000000000e+00    0,000000000e+00
     1346000000   -3,910474777e-01   -4,064190090e-01    2,821842767e-02    7,021443546e-02    0,000000000e+00    0,000000000e+00    0,000000000e+00    0,000000000e+00
     1360000000   -6,058027744e-01   -1,822663099e-01    1,378328055e-01    7,736217231e-02    0,000000000e+00    0,000000000e+00    0,000000000e+00    0,000000000e+00
     1374000000   -6,313018203e-01    1,268182397e-01    2,035625577e-01    2,314816229e-03    0,000000000e+00    0,000000000e+00    0,000000000e+00    0,000000000e+00
     1388000000   -4,740804732e-01    3,700043857e-01    2,007764727e-01   -5,959681422e-02    0,000000000e+00    0,000000000e+00    0,000000000e+00    0,000000000e+00
     1402000000   -2,286692560e-01    4,513394833e-01    1,920579970e-01   -9,149426222e-02    0,000000000e+00    0,000000000e+00    0,000000000e+00    0,000000000e+00
     1416000000   -2,466281317e-02    4,082000554e-01    1,688398719e-01   -1,077489257e-01    0,000000000e+00    0,000000000e+00    0,000000000e+00    0,000000000e+00
     1430000000    1,316965371e-01    3,104918599e-01    1,907480061e-01   -1,123200282e-01    0,000000000e+00    0,000000000e+00    0,000000000e+00    0,000000000e+00
     1444000000    2,043801397e-01    1,492385119e-01    1,451038718e-01   -9,376457334e-02    0,000000000e+00    0,000000000e+00    0,000000000e+00    0,000000000e+00
     1458000000    2,366021127e-01   -1,760089025e-02    1,487654299e-01   -7,768736035e-02    0,000000000e+00    0,000000000e+00    0,000000000e+00    0,000000000e+00
     1472000000    1,916122139e-01   -2,034210414e-01    1,435595602e-01   -3,747208789e-02    0,000000000e+00    0,000000000e+00    0,000000000e+00    0,000000000e+00
     1486000000    6,424036622e-02   -3,757951856e-01    1,746576726e-01    3,077032976e-02    0,000000000e+00    0,000000000e+00    0,000000000e+00    0,000000000e+00
     1500000000   -1,761623174e-01   -4,972965419e-01    2,379389256e-01    9,127797186e-02    0,000000000e+00    0,000000000e+00    0,000000000e+00    0,000000000e+00
