! NanoVNA-App
! Date: 2025-09-25 15:31:57
! Start: 100MHz Stop: 1,5GHz Points: 101
! S-Parameter data: F S11 S21 S12 S22
# Hz S RI R 50
!     Frequency           S11_Real           S11_Imag           S21_Real           S21_Imag           S12_Real           S12_Imag           S22_Real           S22_Imag
      100000000   -2,887888812e-02   -4,176294431e-03    3,741176128e-01   -7,217904329e-01    0,000000000e+00    0,000000000e+00    0,000000000e+00    0,000000000e+00
      114000000   -1,652260497e-02    1,154050883e-02   -8,917017281e-02   -8,055327535e-01    0,000000000e+00    0,000000000e+00    0,000000000e+00    0,000000000e+00
      128000000    3,500880441e-03    1,055161189e-02   -5,144165158e-01   -6,204028130e-01    0,000000000e+00    0,000000000e+00    0,000000000e+00    0,000000000e+00
      142000000    1,455883775e-02   -2,952962415e-03   -7,671755552e-01   -2,365913391e-01    0,000000000e+00    0,000000000e+00    0,000000000e+00    0,000000000e+00
      156000000    1,447221730e-02   -1,486397535e-02   -7,648077607e-01    2,182119191e-01    0,000000000e+00    0,000000000e+00    0,000000000e+00    0,000000000e+00
      170000000    1,673360355e-02   -2,249687538e-02   -5,181814432e-01    6,046715379e-01    0,000000000e+00    0,000000000e+00    0,000000000e+00    0,000000000e+00
      184000000    2,101687901e-02   -3,700111061e-02   -1,013645604e-01    7,861514091e-01    0,000000000e+00    0,000000000e+00    0,000000000e+00    0,000000000e+00
      198000000    1,297313161e-02   -6,244180351e-02    3,432107270e-01    7,125293612e-01    0,000000000e+00    0,000000000e+00    0,000000000e+00    0,000000000e+00
      212000000   -1,868417300e-02   -8,129676431e-02    6,781218648e-01    4,097749293e-01    0,000000000e+00    0,000000000e+00    0,000000000e+00    0,000000000e+00
      226000000   -6,172790378e-02   -6,919198483e-02    7,958226204e-01   -3,062768094e-02    0,000000000e+00    0,000000000e+00    0,000000000e+00    0,000000000e+00
      240000000   -8,261432499e-02   -2,562370151e-02    6,459462047e-01   -4,670943916e-01    0,000000000e+00    0,000000000e+00    0,000000000e+00    0,000000000e+00
      254000000   -6,348785758e-02    1,724408567e-02    2,761657238e-01   -7,433971167e-01    0,000000000e+00    0,000000000e+00    0,000000000e+00    0,000000000e+00
      268000000   -2,393743955e-02    2,892624587e-02   -1,782510430e-01   -7,639040351e-01    0,000000000e+00    0,000000000e+00    0,000000000e+00    0,000000000e+00
      282000000    4,098301288e-03    1,197838131e-02   -5,616475344e-01   -5,357503891e-01    0,000000000e+00    0,000000000e+00    0,000000000e+00    0,000000000e+00
      296000000    9,741060436e-03   -7,850501686e-03   -7,596703172e-01   -1,395028979e-01    0,000000000e+00    0,000000000e+00    0,000000000e+00    0,000000000e+00
      310000000    1,139497478e-02   -1,622484252e-02   -7,109594941e-01    2,980452478e-01    0,000000000e+00    0,000000000e+00    0,000000000e+00    0,000000000e+00
      324000000    1,971597970e-02   -2,651261166e-02   -4,272179604e-01    6,378378272e-01    0,000000000e+00    0,000000000e+00    0,000000000e+00    0,000000000e+00
      338000000    2,554062009e-02   -5,212485418e-02   -6,767467596e-03    7,639589906e-01    0,000000000e+00    0,000000000e+00    0,000000000e+00    0,000000000e+00
      352000000    7,686997764e-03   -8,467981219e-02    4,066822827e-01    6,394265294e-01    0,000000000e+00    0,000000000e+00    0,000000000e+00    0,000000000e+00
      366000000   -3,482120857e-02   -9,568554163e-02    6,908736229e-01    3,107430339e-01    0,000000000e+00    0,000000000e+00    0,000000000e+00    0,000000000e+00
      380000000   -7,068938762e-02   -7,148048282e-02    7,474554181e-01   -1,266329437e-01    0,000000000e+00    0,000000000e+00    0,000000000e+00    0,000000000e+00
      394000000   -7,251168787e-02   -3,254117444e-02    5,471343398e-01   -5,220510364e-01    0,000000000e+00    0,000000000e+00    0,000000000e+00    0,000000000e+00
      408000000   -4,654353485e-02   -1,588881761e-02    1,599486023e-01   -7,333020568e-01    0,000000000e+00    0,000000000e+00    0,000000000e+00    0,000000000e+00
      422000000   -2,823020890e-02   -3,199399263e-02   -2,672681212e-01   -6,954845190e-01    0,000000000e+00    0,000000000e+00    0,000000000e+00    0,000000000e+00
      436000000   -4,068091139e-02   -5,178533494e-02   -6,041482687e-01   -4,315775335e-01    0,000000000e+00    0,000000000e+00    0,000000000e+00    0,000000000e+00
      450000000   -6,778827310e-02   -4,363374412e-02   -7,406619191e-01   -2,126341499e-02    0,000000000e+00    0,000000000e+00    0,000000000e+00    0,000000000e+00
      464000000   -7,339257002e-02   -1,167218853e-02   -6,180593371e-01    3,975686133e-01    0,000000000e+00    0,000000000e+00    0,000000000e+00    0,000000000e+00
      478000000   -4,751901701e-02    1,152673364e-02   -2,822695673e-01    6,675751805e-01    0,000000000e+00    0,000000000e+00    0,000000000e+00    0,000000000e+00
      492000000   -1,564464159e-02    6,236666348e-03    1,377655417e-01    7,018892765e-01    0,000000000e+00    0,000000000e+00    0,000000000e+00    0,000000000e+00
      506000000   -2,652370604e-03   -1,599556021e-02    4,988163710e-01    5,027944446e-01    0,000000000e+00    0,000000000e+00    0,000000000e+00    0,000000000e+00
      520000000   -5,033983849e-03   -3,141244873e-02    6,863213778e-01    1,432145089e-01    0,000000000e+00    0,000000000e+00    0,000000000e+00    0,000000000e+00
      534000000   -3,945546690e-03   -3,794175759e-02    6,432459354e-01   -2,619751394e-01    0,000000000e+00    0,000000000e+00    0,000000000e+00    0,000000000e+00
      548000000    6,242596544e-03   -5,372117087e-02    3,816477656e-01   -5,666998029e-01    0,000000000e+00    0,000000000e+00    0,000000000e+00    0,000000000e+00
      562000000    3,272220260e-03   -8,945216238e-02    2,709835302e-03   -6,721598506e-01    0,000000000e+00    0,000000000e+00    0,000000000e+00    0,000000000e+00
      576000000   -3,476162255e-02   -1,241185293e-01   -3,686072528e-01   -5,571760535e-01    0,000000000e+00    0,000000000e+00    0,000000000e+00    0,000000000e+00
      590000000   -9,626723081e-02   -1,228446290e-01   -6,192728877e-01   -2,648312151e-01    0,000000000e+00    0,000000000e+00    0,000000000e+00    0,000000000e+00
      604000000   -1,392527968e-01   -7,177530974e-02   -6,646031141e-01    1,381382942e-01    0,000000000e+00    0,000000000e+00    0,000000000e+00    0,000000000e+00
      618000000   -1,295832992e-01   -9,394901805e-03   -4,636711478e-01    4,948933423e-01    0,000000000e+00    0,000000000e+00    0,000000000e+00    0,000000000e+00
      632000000   -8,387427032e-02    1,632990316e-02   -9,877892584e-02    6,645457149e-01    0,000000000e+00    0,000000000e+00    0,000000000e+00    0,000000000e+00
      646000000   -5,152798444e-02    8,152590017e-04    2,876502872e-01    5,950682759e-01    0,000000000e+00    0,000000000e+00    0,000000000e+00    0,000000000e+00
      660000000   -5,271660164e-02   -2,125003934e-02    5,678329468e-01    3,231683671e-01    0,000000000e+00    0,000000000e+00    0,000000000e+00    0,000000000e+00
      674000000   -6,986805052e-02   -1,717285998e-02    6,430484653e-01   -6,589738280e-02    0,000000000e+00    0,000000000e+00    0,000000000e+00    0,000000000e+00
      688000000   -6,809320301e-02    8,453324437e-03    4,715135694e-01   -4,286590815e-01    0,000000000e+00    0,000000000e+00    0,000000000e+00    0,000000000e+00
      702000000   -3,841176257e-02    2,677947097e-02    1,185223386e-01   -6,142017245e-01    0,000000000e+00    0,000000000e+00    0,000000000e+00    0,000000000e+00
      716000000    2,926137997e-03    1,839798130e-02   -2,659302056e-01   -5,469424129e-01    0,000000000e+00    0,000000000e+00    0,000000000e+00    0,000000000e+00
      730000000    3,660211340e-02   -1,138125360e-02   -5,289599895e-01   -2,690883279e-01    0,000000000e+00    0,000000000e+00    0,000000000e+00    0,000000000e+00
      744000000    6,542986631e-02   -6,305950880e-02   -5,642653108e-01    1,070616245e-01    0,000000000e+00    0,000000000e+00    0,000000000e+00    0,000000000e+00
      758000000    6,710816920e-02   -1,523749679e-01   -3,629622459e-01    4,105199277e-01    0,000000000e+00    0,000000000e+00    0,000000000e+00    0,000000000e+00
      772000000   -1,335611194e-02   -2,627753019e-01   -3,449530900e-02    5,156941414e-01    0,000000000e+00    0,000000000e+00    0,000000000e+00    0,000000000e+00
      786000000   -2,062430829e-01   -3,036426008e-01    2,745026350e-01    3,956541121e-01    0,000000000e+00    0,000000000e+00    0,000000000e+00    0,000000000e+00
      800000000   -4,251987934e-01   -1,308204681e-01    4,175148904e-01    9,889513254e-02    0,000000000e+00    0,000000000e+00    0,000000000e+00    0,000000000e+00
      814000000   -3,888115883e-01    2,217601836e-01    2,825319469e-01   -1,727391779e-01    0,000000000e+00    0,000000000e+00    0,000000000e+00    0,000000000e+00
      828000000   -4,873260483e-02    3,684210777e-01    5,510283634e-02   -1,889235526e-01    0,000000000e+00    0,000000000e+00    0,000000000e+00    0,000000000e+00
      842000000    2,350306362e-01    1,859409958e-01   -1,737047359e-02   -7,013943791e-02    0,000000000e+00    0,000000000e+00    0,000000000e+00    0,000000000e+00
      856000000    2,806247175e-01   -1,243057698e-01    4,570765793e-02   -1,287520397e-02    0,000000000e+00    0,000000000e+00    0,000000000e+00    0,000000000e+00
      870000000    7,540921867e-02   -3,768343925e-01    1,132654846e-01   -9,158631414e-02    0,000000000e+00    0,000000000e+00    0,000000000e+00    0,000000000e+00
      884000000   -2,951675057e-01   -3,622724116e-01    2,908706665e-02   -2,454266101e-01    0,000000000e+00    0,000000000e+00    0,000000000e+00    0,000000000e+00
      898000000   -4,730077982e-01    8,504833095e-03   -2,223281115e-01   -2,273012698e-01    0,000000000e+00    0,000000000e+00    0,000000000e+00    0,000000000e+00
      912000000   -2,256057411e-01    2,944789231e-01   -3,496687114e-01    6,034728140e-02    0,000000000e+00    0,000000000e+00    0,000000000e+00    0,000000000e+00
      926000000    6,738283485e-02    2,627126873e-01   -2,163431048e-01    2,620479763e-01    0,000000000e+00    0,000000000e+00    0,000000000e+00    0,000000000e+00
      940000000    2,177345306e-01    8,023490012e-02   -3,472169489e-02    3,288635612e-01    0,000000000e+00    0,000000000e+00    0,000000000e+00    0,000000000e+00
      954000000    2,243504077e-01   -1,261810958e-01    1,315119565e-01    3,078258336e-01    0,000000000e+00    0,000000000e+00    0,000000000e+00    0,000000000e+00
      968000000    1,168423742e-01   -3,014961481e-01    2,706510127e-01    2,182464004e-01    0,000000000e+00    0,000000000e+00    0,000000000e+00    0,000000000e+00
      982000000   -7,962007821e-02   -3,863344491e-01    3,665482700e-01    6,483508646e-02    0,000000000e+00    0,000000000e+00    0,000000000e+00    0,000000000e+00
      996000000   -3,160550296e-01   -3,254040778e-01    3,693777919e-01   -1,439187974e-01    0,000000000e+00    0,000000000e+00    0,000000000e+00    0,000000000e+00
     1010000000   -4,590435028e-01   -1,128071174e-01    2,217369229e-01   -3,416619301e-01    0,000000000e+00    0,000000000e+00    0,000000000e+00    0,000000000e+00
     1024000000   -4,105108380e-01    1,512204707e-01   -3,398685530e-02   -3,940319717e-01    0,000000000e+00    0,000000000e+00    0,000000000e+00    0,000000000e+00
     1038000000   -2,198142558e-01    2,884098887e-01   -2,460907251e-01   -2,609429061e-01    0,000000000e+00    0,000000000e+00    0,000000000e+00    0,000000000e+00
     1052000000   -9,669758379e-03    2,824766040e-01   -3,185028732e-01   -4,552706331e-02    0,000000000e+00    0,000000000e+00    0,000000000e+00    0,000000000e+00
     1066000000    1,396136880e-01    1,651202887e-01   -2,580905855e-01    1,432448626e-01    0,000000000e+00    0,000000000e+00    0,000000000e+00    0,000000000e+00
     1080000000    1,937824935e-01    1,226223190e-03   -1,199009269e-01    2,635720074e-01    0,000000000e+00    0,000000000e+00    0,000000000e+00    0,000000000e+00
     1094000000    1,512534022e-01   -1,738561839e-01    6,436218321e-02    3,045971096e-01    0,000000000e+00    0,000000000e+00    0,000000000e+00    0,000000000e+00
     1108000000   -4,691496026e-03   -3,049766719e-01    2,784947455e-01    2,460364252e-01    0,000000000e+00    0,000000000e+00    0,000000000e+00    0,000000000e+00
     1122000000   -2,495655715e-01   -2,687438130e-01    4,735532701e-01    1,257223077e-02    0,000000000e+00    0,000000000e+00    0,000000000e+00    0,000000000e+00
     1136000000   -3,153295219e-01    3,021294996e-02    3,987764418e-01   -3,924007714e-01    0,000000000e+00    0,000000000e+00    0,000000000e+00    0,000000000e+00
     1150000000   -4,481447861e-02    1,516953856e-01    7,473041769e-03   -5,441159010e-01    0,000000000e+00    0,000000000e+00    0,000000000e+00    0,000000000e+00
     1164000000    1,236557215e-01   -6,533167511e-02   -2,777585685e-01   -3,765152395e-01    0,000000000e+00    0,000000000e+00    0,000000000e+00    0,000000000e+00
     1178000000    1,683340035e-02   -3,067223430e-01   -3,651266992e-01   -1,522386968e-01    0,000000000e+00    0,000000000e+00    0,000000000e+00    0,000000000e+00
     1192000000   -2,698689103e-01   -3,713560104e-01   -3,256306052e-01    5,804861709e-02    0,000000000e+00    0,000000000e+00    0,000000000e+00    0,000000000e+00
     1206000000   -5,190421343e-01   -1,586449444e-01   -1,623619199e-01    1,776626259e-01    0,000000000e+00    0,000000000e+00    0,000000000e+00    0,000000000e+00
     1220000000   -5,088401437e-01    1,668478847e-01    2,684149193e-03    1,551344693e-01    0,000000000e+00    0,000000000e+00    0,000000000e+00    0,000000000e+00
     1234000000   -2,826621830e-01    3,633455038e-01    7,161176950e-02    6,653186679e-02    0,000000000e+00    0,000000000e+00    0,000000000e+00    0,000000000e+00
     1248000000   -5,002500489e-02    3,635487854e-01    5,427258089e-02   -3,633306827e-03    0,000000000e+00    0,000000000e+00    0,000000000e+00    0,000000000e+00
     1262000000    1,210281774e-01    2,590733767e-01    1,894672960e-02   -1,930355467e-02    0,000000000e+00    0,000000000e+00    0,000000000e+00    0,000000000e+00
     1276000000    2,083338797e-01    9,916032851e-02   -5,163169000e-03    3,043064149e-03    0,000000000e+00    0,000000000e+00    0,000000000e+00    0,000000000e+00
     1290000000    2,255466431e-01   -7,577257603e-02    1,464404445e-02    4,956337065e-02    0,000000000e+00    0,000000000e+00    0,000000000e+00    0,000000000e+00
     1304000000    1,558935791e-01   -2,449183017e-01    1,325169951e-01    6,861504167e-02    0,000000000e+00    0,000000000e+00    0,000000000e+00    0,000000000e+00
     1318000000    3,683209047e-02   -3,350167871e-01    1,307910234e-01   -1,626623422e-01    0,000000000e+00    0,000000000e+00    0,000000000e+00    0,000000000e+00
     1332000000   -1,280991435e-01   -4,425224364e-01   -4,690792039e-02   -4,652096331e-02    0,000000000e+00    0,000000000e+00    0,000000000e+00    0,000000000e+00
     1346000000   -4,030077159e-01   -4,100002646e-01    1,458538044e-02    7,421883941e-02    0,000000000e+00    0,000000000e+00    0,000000000e+00    0,000000000e+00
     1360000000   -5,996147394e-01   -1,878543347e-01    1,342788637e-01    7,365117222e-02    0,000000000e+00    0,000000000e+00    0,000000000e+00    0,000000000e+00
     1374000000   -6,383752227e-01    1,213992536e-01    2,039742619e-01   -3,979085013e-03    0,000000000e+00    0,000000000e+00    0,000000000e+00    0,000000000e+00
     1388000000   -4,652194679e-01    3,600599468e-01    2,105774730e-01   -6,708255410e-02    0,000000000e+00    0,000000000e+00    0,000000000e+00    0,000000000e+00
     1402000000   -2,301122397e-01    4,581106901e-01    1,914533973e-01   -9,332615882e-02    0,000000000e+00    0,000000000e+00    0,000000000e+00    0,000000000e+00
     1416000000   -2,868892998e-02    4,164386988e-01    1,730504781e-01   -9,670560062e-02    0,000000000e+00    0,000000000e+00    0,000000000e+00    0,000000000e+00
     1430000000    1,349021047e-01    3,090080619e-01    1,875089109e-01   -1,202628613e-01    0,000000000e+00    0,000000000e+00    0,000000000e+00    0,000000000e+00
     1444000000    2,039369047e-01    1,528293192e-01    1,472839117e-01   -1,031850129e-01    0,000000000e+00    0,000000000e+00    0,000000000e+00    0,000000000e+00
     1458000000    2,394044846e-01   -2,186928503e-02    1,447717249e-01   -8,560582250e-02    0,000000000e+00    0,000000000e+00    0,000000000e+00    0,000000000e+00
     1472000000    1,976374686e-01   -2,089807689e-01    1,458806843e-01   -2,334618941e-02    0,000000000e+00    0,000000000e+00    0,000000000e+00    0,000000000e+00
     1486000000    6,859227270e-02   -3,735959828e-01    1,771662086e-01    3,452522308e-02    0,000000000e+00    0,000000000e+00    0,000000000e+00    0,000000000e+00
     1500000000   -1,723935604e-01   -4,913724959e-01    2,380855978e-01    1,021158397e-01    0,000000000e+00    0,000000000e+00    0,000000000e+00    0,000000000e+00
