! NanoVNA-App
! Date: 2025-09-25 15:34:05
! Start: 100MHz Stop: 1,5GHz Points: 101
! S-Parameter data: F S11 S21 S12 S22
# Hz S RI R 50
!     Frequency           S11_Real           S11_Imag           S21_Real           S21_Imag           S12_Real           S12_Imag           S22_Real           S22_Imag
      100000000   -2,886148542e-02   -4,181372933e-03    3,741778731e-01   -7,217963934e-01    0,000000000e+00    0,000000000e+00    0,000000000e+00    0,000000000e+00
      114000000   -1,651433669e-02    1,152077410e-02   -8,911258727e-02   -8,055155277e-01    0,000000000e+00    0,000000000e+00    0,000000000e+00    0,000000000e+00
      128000000    3,520831000e-03    1,053798292e-02   -5,144424438e-01   -6,204612851e-01    0,000000000e+00    0,000000000e+00    0,000000000e+00    0,000000000e+00
      142000000    1,455174293e-02   -2,945407759e-03   -7,671936750e-01   -2,366144508e-01    0,000000000e+00    0,000000000e+00    0,000000000e+00    0,000000000e+00
      156000000    1,440624055e-02   -1,495547686e-02   -7,647258043e-01    2,180338800e-01    0,000000000e+00    0,000000000e+00    0,000000000e+00    0,000000000e+00
      170000000    1,664998569e-02   -2,256780304e-02   -5,181941390e-01    6,047060490e-01    0,000000000e+00    0,000000000e+00    0,000000000e+00    0,000000000e+00
      184000000    2,098080330e-02   -3,708282113e-02   -1,015134603e-01    7,863476872e-01    0,000000000e+00    0,000000000e+00    0,000000000e+00    0,000000000e+00
      198000000    1,301297545e-02   -6,246487051e-02    3,434703052e-01    7,124708295e-01    0,000000000e+00    0,000000000e+00    0,000000000e+00    0,000000000e+00
      212000000   -1,865127310e-02   -8,132984489e-02    6,780435443e-01    4,100030363e-01    0,000000000e+00    0,000000000e+00    0,000000000e+00    0,000000000e+00
      226000000   -6,168874726e-02   -6,916362047e-02    7,958179116e-01   -3,057849780e-02    0,000000000e+00    0,000000000e+00    0,000000000e+00    0,000000000e+00
      240000000   -8,261567354e-02   -2,560267784e-02    6,461938620e-01   -4,667767882e-01    0,000000000e+00    0,000000000e+00    0,000000000e+00    0,000000000e+00
      254000000   -6,349468231e-02    1,728449017e-02    2,762895525e-01   -7,434079051e-01    0,000000000e+00    0,000000000e+00    0,000000000e+00    0,000000000e+00
      268000000   -2,392150834e-02    2,893630788e-02   -1,780786216e-01   -7,647309303e-01    0,000000000e+00    0,000000000e+00    0,000000000e+00    0,000000000e+00
      282000000    4,159239121e-03    1,199137419e-02   -5,620974302e-01   -5,354811549e-01    0,000000000e+00    0,000000000e+00    0,000000000e+00    0,000000000e+00
      296000000    9,691543877e-03   -7,843585685e-03   -7,596616745e-01   -1,396093071e-01    0,000000000e+00    0,000000000e+00    0,000000000e+00    0,000000000e+00
      310000000    1,114075538e-02   -1,613555290e-02   -7,137995362e-01    2,982589602e-01    0,000000000e+00    0,000000000e+00    0,000000000e+00    0,000000000e+00
      324000000    1,973267272e-02   -2,630151063e-02   -4,277541935e-01    6,370546222e-01    0,000000000e+00    0,000000000e+00    0,000000000e+00    0,000000000e+00
      338000000    2,557140402e-02   -5,214277655e-02   -6,982970517e-03    7,621503472e-01    0,000000000e+00    0,000000000e+00    0,000000000e+00    0,000000000e+00
      352000000    7,084657438e-03   -8,451920748e-02    4,061908424e-01    6,390631795e-01    0,000000000e+00    0,000000000e+00    0,000000000e+00    0,000000000e+00
      366000000   -3,443899378e-02   -9,557749331e-02    6,905789971e-01    3,109234273e-01    0,000000000e+00    0,000000000e+00    0,000000000e+00    0,000000000e+00
      380000000   -7,091261446e-02   -7,107087225e-02    7,478643656e-01   -1,256380230e-01    0,000000000e+00    0,000000000e+00    0,000000000e+00    0,000000000e+00
      394000000   -7,284890860e-02   -3,228934109e-02    5,470271111e-01   -5,218609571e-01    0,000000000e+00    0,000000000e+00    0,000000000e+00    0,000000000e+00
      408000000   -4,638685659e-02   -1,606313325e-02    1,612089127e-01   -7,322316170e-01    0,000000000e+00    0,000000000e+00    0,000000000e+00    0,000000000e+00
      422000000   -2,822260000e-02   -3,221111745e-02   -2,679557204e-01   -6,946583986e-01    0,000000000e+00    0,000000000e+00    0,000000000e+00    0,000000000e+00
      436000000   -4,050634429e-02   -5,205291510e-02   -6,035242677e-01   -4,326432347e-01    0,000000000e+00    0,000000000e+00    0,000000000e+00    0,000000000e+00
      450000000   -6,751474738e-02   -4,410028830e-02   -7,404629588e-01   -2,153914794e-02    0,000000000e+00    0,000000000e+00    0,000000000e+00    0,000000000e+00
      464000000   -7,342775911e-02   -1,151041500e-02   -6,178838611e-01    3,972858787e-01    0,000000000e+00    0,000000000e+00    0,000000000e+00    0,000000000e+00
      478000000   -4,745161161e-02    1,169444155e-02   -2,824908495e-01    6,673207879e-01    0,000000000e+00    0,000000000e+00    0,000000000e+00    0,000000000e+00
      492000000   -1,563418843e-02    5,723414477e-03    1,375191361e-01    7,010710835e-01    0,000000000e+00    0,000000000e+00    0,000000000e+00    0,000000000e+00
      506000000   -2,778450726e-03   -1,544439234e-02    4,982961714e-01    5,025647283e-01    0,000000000e+00    0,000000000e+00    0,000000000e+00    0,000000000e+00
      520000000   -5,205951165e-03   -3,153060377e-02    6,890573502e-01    1,405385882e-01    0,000000000e+00    0,000000000e+00    0,000000000e+00    0,000000000e+00
      534000000   -3,721999703e-03   -3,814875707e-02    6,435636282e-01   -2,624010146e-01    0,000000000e+00    0,000000000e+00    0,000000000e+00    0,000000000e+00
      548000000    6,244171411e-03   -5,373176932e-02    3,808407485e-01   -5,671069026e-01    0,000000000e+00    0,000000000e+00    0,000000000e+00    0,000000000e+00
      562000000    3,459705273e-03   -8,932858706e-02    2,344345674e-03   -6,727654934e-01    0,000000000e+00    0,000000000e+00    0,000000000e+00    0,000000000e+00
      576000000   -3,432726860e-02   -1,243185848e-01   -3,692716956e-01   -5,574156046e-01    0,000000000e+00    0,000000000e+00    0,000000000e+00    0,000000000e+00
      590000000   -9,623474628e-02   -1,224962994e-01   -6,207524538e-01   -2,620376050e-01    0,000000000e+00    0,000000000e+00    0,000000000e+00    0,000000000e+00
      604000000   -1,394069791e-01   -7,164708525e-02   -6,647398472e-01    1,379407346e-01    0,000000000e+00    0,000000000e+00    0,000000000e+00    0,000000000e+00
      618000000   -1,297393590e-01   -8,959930390e-03   -4,649190605e-01    4,947063625e-01    0,000000000e+00    0,000000000e+00    0,000000000e+00    0,000000000e+00
      632000000   -8,452221751e-02    1,657619514e-02   -9,784639627e-02    6,636061668e-01    0,000000000e+00    0,000000000e+00    0,000000000e+00    0,000000000e+00
      646000000   -5,110950395e-02    1,263100537e-03    2,881493270e-01    5,960658193e-01    0,000000000e+00    0,000000000e+00    0,000000000e+00    0,000000000e+00
      660000000   -5,400034413e-02   -2,126815543e-02    5,683324933e-01    3,231109083e-01    0,000000000e+00    0,000000000e+00    0,000000000e+00    0,000000000e+00
      674000000   -6,972610950e-02   -1,704517938e-02    6,432006955e-01   -6,547887623e-02    0,000000000e+00    0,000000000e+00    0,000000000e+00    0,000000000e+00
      688000000   -6,825768203e-02    8,213415742e-03    4,712935984e-01   -4,282491505e-01    0,000000000e+00    0,000000000e+00    0,000000000e+00    0,000000000e+00
      702000000   -3,790736571e-02    2,605415508e-02    1,234895959e-01   -6,116781235e-01    0,000000000e+00    0,000000000e+00    0,000000000e+00    0,000000000e+00
      716000000    1,698401873e-03    1,808553375e-02   -2,651799321e-01   -5,468351841e-01    0,000000000e+00    0,000000000e+00    0,000000000e+00    0,000000000e+00
      730000000    3,693223372e-02   -1,024846081e-02   -5,280444026e-01   -2,685472965e-01    0,000000000e+00    0,000000000e+00    0,000000000e+00    0,000000000e+00
      744000000    6,467793137e-02   -6,198647991e-02   -5,642949939e-01    1,064573228e-01    0,000000000e+00    0,000000000e+00    0,000000000e+00    0,000000000e+00
      758000000    6,597023457e-02   -1,528164893e-01   -3,640307486e-01    4,101833701e-01    0,000000000e+00    0,000000000e+00    0,000000000e+00    0,000000000e+00
      772000000   -1,289902255e-02   -2,620567083e-01   -3,544308990e-02    5,152816176e-01    0,000000000e+00    0,000000000e+00    0,000000000e+00    0,000000000e+00
      786000000   -2,069211751e-01   -3,025627434e-01    2,739956975e-01    3,954278231e-01    0,000000000e+00    0,000000000e+00    0,000000000e+00    0,000000000e+00
      800000000   -4,267643392e-01   -1,305676103e-01    4,171452522e-01    9,908003360e-02    0,000000000e+00    0,000000000e+00    0,000000000e+00    0,000000000e+00
      814000000   -3,901003897e-01    2,208533585e-01    2,817023695e-01   -1,730058640e-01    0,000000000e+00    0,000000000e+00    0,000000000e+00    0,000000000e+00
      828000000   -4,905085266e-02    3,675945401e-01    5,500586703e-02   -1,888730675e-01    0,000000000e+00    0,000000000e+00    0,000000000e+00    0,000000000e+00
      842000000    2,352941036e-01    1,855998486e-01   -1,710628904e-02   -7,064457983e-02    0,000000000e+00    0,000000000e+00    0,000000000e+00    0,000000000e+00
      856000000    2,805373669e-01   -1,246308088e-01    4,539108649e-02   -1,272660494e-02    0,000000000e+00    0,000000000e+00    0,000000000e+00    0,000000000e+00
      870000000    7,460291684e-02   -3,768172264e-01    1,141571328e-01   -9,098489583e-02    0,000000000e+00    0,000000000e+00    0,000000000e+00    0,000000000e+00
      884000000   -2,949181199e-01   -3,611832559e-01    2,849387564e-02   -2,449232191e-01    0,000000000e+00    0,000000000e+00    0,000000000e+00    0,000000000e+00
      898000000   -4,713770449e-01    9,527641349e-03   -2,219740301e-01   -2,267257422e-01    0,000000000e+00    0,000000000e+00    0,000000000e+00    0,000000000e+00
      912000000   -2,250016034e-01    2,956013680e-01   -3,431792855e-01    7,652521133e-02    0,000000000e+00    0,000000000e+00    0,000000000e+00    0,000000000e+00
      926000000    6,500016153e-02    2,647454441e-01   -2,178444266e-01    2,644353509e-01    0,000000000e+00    0,000000000e+00    0,000000000e+00    0,000000000e+00
      940000000    2,182874084e-01    8,040522039e-02   -3,715657070e-02    3,304520547e-01    0,000000000e+00    0,000000000e+00    0,000000000e+00    0,000000000e+00
      954000000    2,236291170e-01   -1,296693981e-01    1,313939691e-01    3,080082238e-01    0,000000000e+00    0,000000000e+00    0,000000000e+00    0,000000000e+00
      968000000    1,183214858e-01   -3,006507754e-01    2,710658908e-01    2,180155665e-01    0,000000000e+00    0,000000000e+00    0,000000000e+00    0,000000000e+00
      982000000   -8,144114166e-02   -3,852092922e-01    3,673704267e-01    6,586138904e-02    0,000000000e+00    0,000000000e+00    0,000000000e+00    0,000000000e+00
      996000000   -3,187389672e-01   -3,272362649e-01    3,697088957e-01   -1,469982713e-01    0,000000000e+00    0,000000000e+00    0,000000000e+00    0,000000000e+00
     1010000000   -4,607492089e-01   -1,080979332e-01    2,234228998e-01   -3,425951600e-01    0,000000000e+00    0,000000000e+00    0,000000000e+00    0,000000000e+00
     1024000000   -4,120403826e-01    1,527801454e-01   -3,547554463e-02   -3,917755783e-01    0,000000000e+00    0,000000000e+00    0,000000000e+00    0,000000000e+00
     1038000000   -2,203554511e-01    2,951559722e-01   -2,478723228e-01   -2,619765699e-01    0,000000000e+00    0,000000000e+00    0,000000000e+00    0,000000000e+00
     1052000000   -4,852752667e-03    2,796977162e-01   -3,186182082e-01   -4,487266392e-02    0,000000000e+00    0,000000000e+00    0,000000000e+00    0,000000000e+00
     1066000000    1,355031282e-01    1,671970040e-01   -2,552675903e-01    1,437064856e-01    0,000000000e+00    0,000000000e+00    0,000000000e+00    0,000000000e+00
     1080000000    1,966904700e-01   -2,815495012e-03   -1,199538708e-01    2,633669972e-01    0,000000000e+00    0,000000000e+00    0,000000000e+00    0,000000000e+00
     1094000000    1,506506801e-01   -1,747801751e-01    6,413668394e-02    3,038602769e-01    0,000000000e+00    0,000000000e+00    0,000000000e+00    0,000000000e+00
     1108000000   -1,071106875e-03   -3,030367792e-01    2,761823535e-01    2,447835356e-01    0,000000000e+00    0,000000000e+00    0,000000000e+00    0,000000000e+00
     1122000000   -2,446036786e-01   -2,632628679e-01    4,739898741e-01    1,310902648e-02    0,000000000e+00    0,000000000e+00    0,000000000e+00    0,000000000e+00
     1136000000   -3,142552972e-01    3,250114247e-02    3,989599943e-01   -3,903315365e-01    0,000000000e+00    0,000000000e+00    0,000000000e+00    0,000000000e+00
     1150000000   -3,614686430e-02    1,516849995e-01    3,887533676e-03   -5,385516286e-01    0,000000000e+00    0,000000000e+00    0,000000000e+00    0,000000000e+00
     1164000000    1,257178485e-01   -6,342064589e-02   -2,761067450e-01   -3,785397410e-01    0,000000000e+00    0,000000000e+00    0,000000000e+00    0,000000000e+00
     1178000000    1,361092646e-02   -3,059880435e-01   -3,687095344e-01   -1,497134417e-01    0,000000000e+00    0,000000000e+00    0,000000000e+00    0,000000000e+00
     1192000000   -2,677884996e-01   -3,697251976e-01   -3,244080842e-01    5,889780447e-02    0,000000000e+00    0,000000000e+00    0,000000000e+00    0,000000000e+00
     1206000000   -5,170084834e-01   -1,599266231e-01   -1,654482335e-01    1,800450683e-01    0,000000000e+00    0,000000000e+00    0,000000000e+00    0,000000000e+00
     1220000000   -5,100935102e-01    1,786070764e-01    1,459839754e-03    1,575754732e-01    0,000000000e+00    0,000000000e+00    0,000000000e+00    0,000000000e+00
     1234000000   -2,911486924e-01    3,690204918e-01    6,813355535e-02    6,354429573e-02    0,000000000e+00    0,000000000e+00    0,000000000e+00    0,000000000e+00
     1248000000   -4,883472621e-02    3,632867634e-01    5,193717778e-02   -6,509957369e-03    0,000000000e+00    0,000000000e+00    0,000000000e+00    0,000000000e+00
     1262000000    1,262813359e-01    2,599303126e-01    2,113242634e-02   -2,096178010e-02    0,000000000e+00    0,000000000e+00    0,000000000e+00    0,000000000e+00
     1276000000    2,156438082e-01    1,003543586e-01    8,623139584e-04    5,256498232e-03    0,000000000e+00    0,000000000e+00    0,000000000e+00    0,000000000e+00
     1290000000    2,227580547e-01   -7,375726104e-02    1,768468693e-02    5,661838129e-02    0,000000000e+00    0,000000000e+00    0,000000000e+00    0,000000000e+00
     1304000000    1,576912105e-01   -2,389244139e-01    1,331153810e-01    7,292962819e-02    0,000000000e+00    0,000000000e+00    0,000000000e+00    0,000000000e+00
     1318000000    3,303584456e-02   -3,330714405e-01    1,258362234e-01   -1,583134383e-01    0,000000000e+00    0,000000000e+00    0,000000000e+00    0,000000000e+00
     1332000000   -1,261715293e-01   -4,361295402e-01   -4,216854647e-02   -4,801059514e-02    0,000000000e+00    0,000000000e+00    0,000000000e+00    0,000000000e+00
     1346000000   -3,925774693e-01   -4,049438834e-01    2,879062295e-02    7,264005393e-02    0,000000000e+00    0,000000000e+00    0,000000000e+00    0,000000000e+00
     1360000000   -6,041468382e-01   -1,892293245e-01    1,381660849e-01    6,534490734e-02    0,000000000e+00    0,000000000e+00    0,000000000e+00    0,000000000e+00
     1374000000   -6,283980608e-01    1,317071915e-01    2,082487196e-01    4,871234763e-03    0,000000000e+00    0,000000000e+00    0,000000000e+00    0,000000000e+00
     1388000000   -4,628029168e-01    3,616719842e-01    2,078639120e-01   -7,557465136e-02    0,000000000e+00    0,000000000e+00    0,000000000e+00    0,000000000e+00
     1402000000   -2,312272042e-01    4,476456642e-01    1,844601780e-01   -1,076221541e-01    0,000000000e+00    0,000000000e+00    0,000000000e+00    0,000000000e+00
     1416000000   -2,890699357e-02    4,103289247e-01    1,655774266e-01   -1,099749804e-01    0,000000000e+00    0,000000000e+00    0,000000000e+00    0,000000000e+00
     1430000000    1,172443479e-01    3,067709208e-01    1,518900543e-01   -9,740199894e-02    0,000000000e+00    0,000000000e+00    0,000000000e+00    0,000000000e+00
     1444000000    2,075256109e-01    1,536463648e-01    1,573442519e-01   -9,636440873e-02    0,000000000e+00    0,000000000e+00    0,000000000e+00    0,000000000e+00
     1458000000    2,360395044e-01   -1,537426934e-02    1,439242810e-01   -6,663785875e-02    0,000000000e+00    0,000000000e+00    0,000000000e+00    0,000000000e+00
     1472000000    1,882438362e-01   -2,113231272e-01    1,431482434e-01   -3,471630439e-02    0,000000000e+00    0,000000000e+00    0,000000000e+00    0,000000000e+00
     1486000000    6,650594622e-02   -3,691802621e-01    1,646978259e-01    4,162678868e-02    0,000000000e+00    0,000000000e+00    0,000000000e+00    0,000000000e+00
     1500000000   -1,854139119e-01   -4,969774485e-01    2,348659933e-01    9,316869825e-02    0,000000000e+00    0,000000000e+00    0,000000000e+00    0,000000000e+00
