! NanoVNA-App
! Date: 2025-09-25 15:29:56
! Start: 100MHz Stop: 1,5GHz Points: 101
! S-Parameter data: F S11 S21 S12 S22
# Hz S RI R 50
!     Frequency           S11_Real           S11_Imag           S21_Real           S21_Imag           S12_Real           S12_Imag           S22_Real           S22_Imag
      100000000   -2,887469344e-02   -4,176035058e-03    3,741160333e-01   -7,217748165e-01    0,000000000e+00    0,000000000e+00    0,000000000e+00    0,000000000e+00
      114000000   -1,653905772e-02    1,152747218e-02   -8,902933449e-02   -8,054466844e-01    0,000000000e+00    0,000000000e+00    0,000000000e+00    0,000000000e+00
      128000000    3,457501298e-03    1,049572695e-02   -5,147833824e-01   -6,205593944e-01    0,000000000e+00    0,000000000e+00    0,000000000e+00    0,000000000e+00
      142000000    1,455005445e-02   -2,924712840e-03   -7,670604587e-01   -2,365106195e-01    0,000000000e+00    0,000000000e+00    0,000000000e+00    0,000000000e+00
      156000000    1,586802676e-02   -1,466730703e-02   -7,721774578e-01    2,236221731e-01    0,000000000e+00    0,000000000e+00    0,000000000e+00    0,000000000e+00
      170000000    1,665974222e-02   -2,250809595e-02   -5,178733468e-01    6,046366692e-01    0,000000000e+00    0,000000000e+00    0,000000000e+00    0,000000000e+00
      184000000    2,102300152e-02   -3,709118441e-02   -1,014366373e-01    7,863868475e-01    0,000000000e+00    0,000000000e+00    0,000000000e+00    0,000000000e+00
      198000000    1,300307736e-02   -6,245245039e-02    3,433667719e-01    7,125454545e-01    0,000000000e+00    0,000000000e+00    0,000000000e+00    0,000000000e+00
      212000000   -1,862829924e-02   -8,129148185e-02    6,778768301e-01    4,097283483e-01    0,000000000e+00    0,000000000e+00    0,000000000e+00    0,000000000e+00
      226000000   -6,163733453e-02   -6,912590563e-02    7,958049774e-01   -3,062702902e-02    0,000000000e+00    0,000000000e+00    0,000000000e+00    0,000000000e+00
      240000000   -8,253628016e-02   -2,575411461e-02    6,460000277e-01   -4,671150446e-01    0,000000000e+00    0,000000000e+00    0,000000000e+00    0,000000000e+00
      254000000   -6,360204518e-02    1,732106134e-02    2,759747505e-01   -7,430456877e-01    0,000000000e+00    0,000000000e+00    0,000000000e+00    0,000000000e+00
      268000000   -2,377967350e-02    2,881090157e-02   -1,778707504e-01   -7,644386292e-01    0,000000000e+00    0,000000000e+00    0,000000000e+00    0,000000000e+00
      282000000    4,051742610e-03    1,193425432e-02   -5,621125102e-01   -5,352056026e-01    0,000000000e+00    0,000000000e+00    0,000000000e+00    0,000000000e+00
      296000000    9,755065665e-03   -7,833649404e-03   -7,598354220e-01   -1,395666301e-01    0,000000000e+00    0,000000000e+00    0,000000000e+00    0,000000000e+00
      310000000    1,113481633e-02   -1,622411050e-02   -7,115258574e-01    2,988371253e-01    0,000000000e+00    0,000000000e+00    0,000000000e+00    0,000000000e+00
      324000000    1,983415149e-02   -2,659520134e-02   -4,262898564e-01    6,380391717e-01    0,000000000e+00    0,000000000e+00    0,000000000e+00    0,000000000e+00
      338000000    2,562109195e-02   -5,193822458e-02   -6,066523958e-03    7,623070478e-01    0,000000000e+00    0,000000000e+00    0,000000000e+00    0,000000000e+00
      352000000    7,485952694e-03   -8,460403979e-02    4,064595103e-01    6,397603750e-01    0,000000000e+00    0,000000000e+00    0,000000000e+00    0,000000000e+00
      366000000   -3,447043523e-02   -9,538301080e-02    6,905626059e-01    3,112836182e-01    0,000000000e+00    0,000000000e+00    0,000000000e+00    0,000000000e+00
      380000000   -7,065708190e-02   -7,133150101e-02    7,481243014e-01   -1,260446906e-01    0,000000000e+00    0,000000000e+00    0,000000000e+00    0,000000000e+00
      394000000   -7,253745198e-02   -3,242762759e-02    5,454086065e-01   -5,234117508e-01    0,000000000e+00    0,000000000e+00    0,000000000e+00    0,000000000e+00
      408000000   -4,651749134e-02   -1,594034582e-02    1,615018845e-01   -7,312836051e-01    0,000000000e+00    0,000000000e+00    0,000000000e+00    0,000000000e+00
      422000000   -2,829411067e-02   -3,207925707e-02   -2,676011920e-01   -6,956719160e-01    0,000000000e+00    0,000000000e+00    0,000000000e+00    0,000000000e+00
      436000000   -4,063161835e-02   -5,179004744e-02   -6,038668752e-01   -4,319615066e-01    0,000000000e+00    0,000000000e+00    0,000000000e+00    0,000000000e+00
      450000000   -6,768109649e-02   -4,365950078e-02   -7,406955957e-01   -2,119435742e-02    0,000000000e+00    0,000000000e+00    0,000000000e+00    0,000000000e+00
      464000000   -7,335555553e-02   -1,174866129e-02   -6,188766956e-01    3,970764577e-01    0,000000000e+00    0,000000000e+00    0,000000000e+00    0,000000000e+00
      478000000   -4,778455943e-02    1,169568859e-02   -2,820276022e-01    6,670845151e-01    0,000000000e+00    0,000000000e+00    0,000000000e+00    0,000000000e+00
      492000000   -1,537778229e-02    5,946531426e-03    1,380704492e-01    7,021571398e-01    0,000000000e+00    0,000000000e+00    0,000000000e+00    0,000000000e+00
      506000000   -2,700306475e-03   -1,571998559e-02    4,980872869e-01    5,027160048e-01    0,000000000e+00    0,000000000e+00    0,000000000e+00    0,000000000e+00
      520000000   -4,905469250e-03   -3,165851161e-02    6,890656352e-01    1,424077004e-01    0,000000000e+00    0,000000000e+00    0,000000000e+00    0,000000000e+00
      534000000   -3,841496771e-03   -3,811529279e-02    6,435315013e-01   -2,625466287e-01    0,000000000e+00    0,000000000e+00    0,000000000e+00    0,000000000e+00
      548000000    6,139893550e-03   -5,397191271e-02    3,817177117e-01   -5,679104328e-01    0,000000000e+00    0,000000000e+00    0,000000000e+00    0,000000000e+00
      562000000    3,391830251e-03   -8,971507102e-02    2,848740900e-03   -6,726233959e-01    0,000000000e+00    0,000000000e+00    0,000000000e+00    0,000000000e+00
      576000000   -3,454604372e-02   -1,242084131e-01   -3,693095744e-01   -5,572869778e-01    0,000000000e+00    0,000000000e+00    0,000000000e+00    0,000000000e+00
      590000000   -9,623324871e-02   -1,228197962e-01   -6,208040118e-01   -2,621077299e-01    0,000000000e+00    0,000000000e+00    0,000000000e+00    0,000000000e+00
      604000000   -1,394471377e-01   -7,221174240e-02   -6,646906734e-01    1,376453638e-01    0,000000000e+00    0,000000000e+00    0,000000000e+00    0,000000000e+00
      618000000   -1,290939152e-01   -9,182902984e-03   -4,641421139e-01    4,940345883e-01    0,000000000e+00    0,000000000e+00    0,000000000e+00    0,000000000e+00
      632000000   -8,453889936e-02    1,653406397e-02   -9,877496958e-02    6,637758613e-01    0,000000000e+00    0,000000000e+00    0,000000000e+00    0,000000000e+00
      646000000   -5,162730440e-02    3,445648181e-04    2,881710827e-01    5,961092114e-01    0,000000000e+00    0,000000000e+00    0,000000000e+00    0,000000000e+00
      660000000   -5,271178111e-02   -2,085153386e-02    5,675186515e-01    3,232268691e-01    0,000000000e+00    0,000000000e+00    0,000000000e+00    0,000000000e+00
      674000000   -6,992368400e-02   -1,810838841e-02    6,430298090e-01   -6,540364027e-02    0,000000000e+00    0,000000000e+00    0,000000000e+00    0,000000000e+00
      688000000   -6,927696615e-02    9,236571379e-03    4,711500108e-01   -4,282264709e-01    0,000000000e+00    0,000000000e+00    0,000000000e+00    0,000000000e+00
      702000000   -3,765223175e-02    2,621300891e-02    1,250321567e-01   -6,073590517e-01    0,000000000e+00    0,000000000e+00    0,000000000e+00    0,000000000e+00
      716000000    1,718490734e-03    1,786814444e-02   -2,656077147e-01   -5,461715460e-01    0,000000000e+00    0,000000000e+00    0,000000000e+00    0,000000000e+00
      730000000    3,701437637e-02   -1,012833882e-02   -5,283581614e-01   -2,689686120e-01    0,000000000e+00    0,000000000e+00    0,000000000e+00    0,000000000e+00
      744000000    6,565209478e-02   -6,317109615e-02   -5,641974211e-01    1,069280431e-01    0,000000000e+00    0,000000000e+00    0,000000000e+00    0,000000000e+00
      758000000    6,718362868e-02   -1,526464522e-01   -3,629894555e-01    4,103845656e-01    0,000000000e+00    0,000000000e+00    0,000000000e+00    0,000000000e+00
      772000000   -1,319496240e-02   -2,630788088e-01   -3,342027217e-02    5,150139332e-01    0,000000000e+00    0,000000000e+00    0,000000000e+00    0,000000000e+00
      786000000   -2,073102295e-01   -3,025307655e-01    2,745804191e-01    3,940950632e-01    0,000000000e+00    0,000000000e+00    0,000000000e+00    0,000000000e+00
      800000000   -4,256983697e-01   -1,297499537e-01    4,158398211e-01    9,804300964e-02    0,000000000e+00    0,000000000e+00    0,000000000e+00    0,000000000e+00
      814000000   -3,884020150e-01    2,228939235e-01    2,805435359e-01   -1,726863831e-01    0,000000000e+00    0,000000000e+00    0,000000000e+00    0,000000000e+00
      828000000   -4,817707092e-02    3,689358234e-01    5,478251353e-02   -1,877301782e-01    0,000000000e+00    0,000000000e+00    0,000000000e+00    0,000000000e+00
      842000000    2,357624769e-01    1,848793626e-01   -1,658358611e-02   -6,945714355e-02    0,000000000e+00    0,000000000e+00    0,000000000e+00    0,000000000e+00
      856000000    2,800772488e-01   -1,253221780e-01    4,688239098e-02   -1,280966215e-02    0,000000000e+00    0,000000000e+00    0,000000000e+00    0,000000000e+00
      870000000    7,362613827e-02   -3,773436546e-01    1,149725541e-01   -9,159967303e-02    0,000000000e+00    0,000000000e+00    0,000000000e+00    0,000000000e+00
      884000000   -2,954545319e-01   -3,616422713e-01    2,869846672e-02   -2,469791323e-01    0,000000000e+00    0,000000000e+00    0,000000000e+00    0,000000000e+00
      898000000   -4,709644616e-01    1,001530234e-02   -2,229613662e-01   -2,275778949e-01    0,000000000e+00    0,000000000e+00    0,000000000e+00    0,000000000e+00
      912000000   -2,250256240e-01    2,948698699e-01   -3,372201324e-01    6,877078116e-02    0,000000000e+00    0,000000000e+00    0,000000000e+00    0,000000000e+00
      926000000    6,627257168e-02    2,620812356e-01   -2,189182490e-01    2,637343109e-01    0,000000000e+00    0,000000000e+00    0,000000000e+00    0,000000000e+00
      940000000    2,151646763e-01    8,126185089e-02   -3,584956378e-02    3,307953477e-01    0,000000000e+00    0,000000000e+00    0,000000000e+00    0,000000000e+00
      954000000    2,242411673e-01   -1,306274980e-01    1,314903349e-01    3,083171844e-01    0,000000000e+00    0,000000000e+00    0,000000000e+00    0,000000000e+00
      968000000    1,147964746e-01   -2,999805808e-01    2,708905339e-01    2,178371549e-01    0,000000000e+00    0,000000000e+00    0,000000000e+00    0,000000000e+00
      982000000   -8,098847419e-02   -3,849256337e-01    3,673370481e-01    6,492500752e-02    0,000000000e+00    0,000000000e+00    0,000000000e+00    0,000000000e+00
      996000000   -3,176716864e-01   -3,273014426e-01    3,698452413e-01   -1,448206306e-01    0,000000000e+00    0,000000000e+00    0,000000000e+00    0,000000000e+00
     1010000000   -4,666136801e-01   -1,092869118e-01    2,242184281e-01   -3,425608873e-01    0,000000000e+00    0,000000000e+00    0,000000000e+00    0,000000000e+00
     1024000000   -4,148330092e-01    1,457857937e-01   -3,475972638e-02   -3,915346861e-01    0,000000000e+00    0,000000000e+00    0,000000000e+00    0,000000000e+00
     1038000000   -2,182491571e-01    2,953652740e-01   -2,462899238e-01   -2,613504231e-01    0,000000000e+00    0,000000000e+00    0,000000000e+00    0,000000000e+00
     1052000000   -1,055763755e-02    2,818571329e-01   -3,161579967e-01   -4,692529142e-02    0,000000000e+00    0,000000000e+00    0,000000000e+00    0,000000000e+00
     1066000000    1,324331611e-01    1,639652997e-01   -2,569671571e-01    1,426430792e-01    0,000000000e+00    0,000000000e+00    0,000000000e+00    0,000000000e+00
     1080000000    1,918600202e-01   -1,200571423e-03   -1,178088859e-01    2,627252638e-01    0,000000000e+00    0,000000000e+00    0,000000000e+00    0,000000000e+00
     1094000000    1,566731334e-01   -1,734497398e-01    6,495086104e-02    3,047547638e-01    0,000000000e+00    0,000000000e+00    0,000000000e+00    0,000000000e+00
     1108000000    1,504368411e-04   -3,063047528e-01    2,767909765e-01    2,472157031e-01    0,000000000e+00    0,000000000e+00    0,000000000e+00    0,000000000e+00
     1122000000   -2,444442958e-01   -2,665088773e-01    4,689684212e-01    1,274954434e-02    0,000000000e+00    0,000000000e+00    0,000000000e+00    0,000000000e+00
     1136000000   -3,242993653e-01    3,077113628e-02    3,987822235e-01   -3,939410746e-01    0,000000000e+00    0,000000000e+00    0,000000000e+00    0,000000000e+00
     1150000000   -4,588897526e-02    1,480330974e-01    6,872907281e-03   -5,421875715e-01    0,000000000e+00    0,000000000e+00    0,000000000e+00    0,000000000e+00
     1164000000    1,200603247e-01   -5,739903823e-02   -2,802180350e-01   -3,808190525e-01    0,000000000e+00    0,000000000e+00    0,000000000e+00    0,000000000e+00
     1178000000    2,158765309e-02   -3,030251861e-01   -3,674695194e-01   -1,481947899e-01    0,000000000e+00    0,000000000e+00    0,000000000e+00    0,000000000e+00
     1192000000   -2,629744112e-01   -3,673008084e-01   -3,228870034e-01    6,222550571e-02    0,000000000e+00    0,000000000e+00    0,000000000e+00    0,000000000e+00
     1206000000   -5,189242959e-01   -1,633708328e-01   -1,674712002e-01    1,806662232e-01    0,000000000e+00    0,000000000e+00    0,000000000e+00    0,000000000e+00
     1220000000   -5,149939656e-01    1,682781279e-01    5,017486867e-03    1,617697179e-01    0,000000000e+00    0,000000000e+00    0,000000000e+00    0,000000000e+00
     1234000000   -2,878418565e-01    3,588296771e-01    6,736832112e-02    6,154799834e-02    0,000000000e+00    0,000000000e+00    0,000000000e+00    0,000000000e+00
     1248000000   -4,900999367e-02    3,661789596e-01    5,872951075e-02   -7,674062159e-03    0,000000000e+00    0,000000000e+00    0,000000000e+00    0,000000000e+00
     1262000000    1,278398186e-01    2,602832317e-01    2,158132754e-02   -1,931332238e-02    0,000000000e+00    0,000000000e+00    0,000000000e+00    0,000000000e+00
     1276000000    2,112737149e-01    1,034297049e-01   -1,487132511e-03    2,671412192e-03    0,000000000e+00    0,000000000e+00    0,000000000e+00    0,000000000e+00
     1290000000    2,226699144e-01   -7,399626076e-02    1,532933582e-02    5,033465847e-02    0,000000000e+00    0,000000000e+00    0,000000000e+00    0,000000000e+00
     1304000000    1,582366973e-01   -2,420098484e-01    1,308873594e-01    6,868856400e-02    0,000000000e+00    0,000000000e+00    0,000000000e+00    0,000000000e+00
     1318000000    3,530132771e-02   -3,373799622e-01    1,324624866e-01   -1,551729590e-01    0,000000000e+00    0,000000000e+00    0,000000000e+00    0,000000000e+00
     1332000000   -1,306711137e-01   -4,432651401e-01   -4,348214343e-02   -5,229988322e-02    0,000000000e+00    0,000000000e+00    0,000000000e+00    0,000000000e+00
     1346000000   -3,994212151e-01   -4,121407568e-01    1,693521999e-02    7,104223967e-02    0,000000000e+00    0,000000000e+00    0,000000000e+00    0,000000000e+00
     1360000000   -6,052462459e-01   -1,929527670e-01    1,372872293e-01    7,874982059e-02    0,000000000e+00    0,000000000e+00    0,000000000e+00    0,000000000e+00
     1374000000   -6,270496845e-01    1,326075494e-01    2,046921849e-01    1,253590733e-02    0,000000000e+00    0,000000000e+00    0,000000000e+00    0,000000000e+00
     1388000000   -4,703601301e-01    3,622258902e-01    2,061800361e-01   -7,334161550e-02    0,000000000e+00    0,000000000e+00    0,000000000e+00    0,000000000e+00
     1402000000   -2,305084020e-01    4,567859769e-01    1,808564961e-01   -9,428825974e-02    0,000000000e+00    0,000000000e+00    0,000000000e+00    0,000000000e+00
     1416000000   -3,090325557e-02    4,089095891e-01    1,610501856e-01   -1,115745977e-01    0,000000000e+00    0,000000000e+00    0,000000000e+00    0,000000000e+00
     1430000000    1,162148640e-01    2,946263552e-01    1,591459662e-01   -9,825308621e-02    0,000000000e+00    0,000000000e+00    0,000000000e+00    0,000000000e+00
     1444000000    2,081215531e-01    1,528262347e-01    1,702931672e-01   -1,048333943e-01    0,000000000e+00    0,000000000e+00    0,000000000e+00    0,000000000e+00
     1458000000    2,334579378e-01   -2,045235783e-02    1,391287297e-01   -8,033900708e-02    0,000000000e+00    0,000000000e+00    0,000000000e+00    0,000000000e+00
     1472000000    1,909779161e-01   -2,063515335e-01    1,422095597e-01   -4,068763927e-02    0,000000000e+00    0,000000000e+00    0,000000000e+00    0,000000000e+00
     1486000000    5,814892054e-02   -3,731177449e-01    1,662278026e-01    3,269203380e-02    0,000000000e+00    0,000000000e+00    0,000000000e+00    0,000000000e+00
     1500000000   -1,703156531e-01   -4,947370589e-01    2,583212852e-01    1,002970710e-01    0,000000000e+00    0,000000000e+00    0,000000000e+00    0,000000000e+00
