! NanoVNA-App
! Date: 2025-09-25 15:36:12
! Start: 100MHz Stop: 1,5GHz Points: 101
! S-Parameter data: F S11 S21 S12 S22
# Hz S RI R 50
!     Frequency           S11_Real           S11_Imag           S21_Real           S21_Imag           S12_Real           S12_Imag           S22_Real           S22_Imag
      100000000   -2,882655710e-02   -4,169937689e-03    3,740979135e-01   -7,217662930e-01    0,000000000e+00    0,000000000e+00    0,000000000e+00    0,000000000e+00
      114000000   -1,645967923e-02    1,151310932e-02   -8,921404183e-02   -8,054314852e-01    0,000000000e+00    0,000000000e+00    0,000000000e+00    0,000000000e+00
      128000000    3,528379137e-03    1,055170689e-02   -5,145114660e-01   -6,203935146e-01    0,000000000e+00    0,000000000e+00    0,000000000e+00    0,000000000e+00
      142000000    1,458420884e-02   -2,964829560e-03   -7,671108842e-01   -2,364845872e-01    0,000000000e+00    0,000000000e+00    0,000000000e+00    0,000000000e+00
      156000000    1,436061691e-02   -1,492274739e-02   -7,638800740e-01    2,188198566e-01    0,000000000e+00    0,000000000e+00    0,000000000e+00    0,000000000e+00
      170000000    1,670778543e-02   -2,259082347e-02   -5,183461905e-01    6,048305631e-01    0,000000000e+00    0,000000000e+00    0,000000000e+00    0,000000000e+00
      184000000    2,105682343e-02   -3,706086427e-02   -1,013894156e-01    7,862616181e-01    0,000000000e+00    0,000000000e+00    0,000000000e+00    0,000000000e+00
      198000000    1,302885823e-02   -6,243745238e-02    3,433542848e-01    7,122719884e-01    0,000000000e+00    0,000000000e+00    0,000000000e+00    0,000000000e+00
      212000000   -1,860264875e-02   -8,134297282e-02    6,782179475e-01    4,098404646e-01    0,000000000e+00    0,000000000e+00    0,000000000e+00    0,000000000e+00
      226000000   -6,163772941e-02   -6,919614971e-02    7,957850695e-01   -3,059164248e-02    0,000000000e+00    0,000000000e+00    0,000000000e+00    0,000000000e+00
      240000000   -8,254642040e-02   -2,560360171e-02    6,460038424e-01   -4,670869410e-01    0,000000000e+00    0,000000000e+00    0,000000000e+00    0,000000000e+00
      254000000   -6,348573416e-02    1,726058684e-02    2,760163248e-01   -7,435144782e-01    0,000000000e+00    0,000000000e+00    0,000000000e+00    0,000000000e+00
      268000000   -2,384855412e-02    2,896861546e-02   -1,780489534e-01   -7,643701434e-01    0,000000000e+00    0,000000000e+00    0,000000000e+00    0,000000000e+00
      282000000    4,172598943e-03    1,197144855e-02   -5,619627237e-01   -5,354592204e-01    0,000000000e+00    0,000000000e+00    0,000000000e+00    0,000000000e+00
      296000000    9,657801129e-03   -7,817978971e-03   -7,598851323e-01   -1,398130059e-01    0,000000000e+00    0,000000000e+00    0,000000000e+00    0,000000000e+00
      310000000    1,125122886e-02   -1,615907438e-02   -7,119433284e-01    2,975763083e-01    0,000000000e+00    0,000000000e+00    0,000000000e+00    0,000000000e+00
      324000000    1,982330531e-02   -2,650540136e-02   -4,267560244e-01    6,380264163e-01    0,000000000e+00    0,000000000e+00    0,000000000e+00    0,000000000e+00
      338000000    2,565286681e-02   -5,208564922e-02   -8,911470883e-03    7,617648244e-01    0,000000000e+00    0,000000000e+00    0,000000000e+00    0,000000000e+00
      352000000    7,374865003e-03   -8,477541804e-02    4,059921801e-01    6,398127675e-01    0,000000000e+00    0,000000000e+00    0,000000000e+00    0,000000000e+00
      366000000   -3,479761258e-02   -9,543000162e-02    6,905905604e-01    3,106394410e-01    0,000000000e+00    0,000000000e+00    0,000000000e+00    0,000000000e+00
      380000000   -7,088872790e-02   -7,096201181e-02    7,476425767e-01   -1,265602112e-01    0,000000000e+00    0,000000000e+00    0,000000000e+00    0,000000000e+00
      394000000   -7,245692611e-02   -3,254444152e-02    5,461847782e-01   -5,221908092e-01    0,000000000e+00    0,000000000e+00    0,000000000e+00    0,000000000e+00
      408000000   -4,622486606e-02   -1,631775871e-02    1,605204493e-01   -7,330924273e-01    0,000000000e+00    0,000000000e+00    0,000000000e+00    0,000000000e+00
      422000000   -2,802445740e-02   -3,212260827e-02   -2,676174939e-01   -6,954818368e-01    0,000000000e+00    0,000000000e+00    0,000000000e+00    0,000000000e+00
      436000000   -4,070329294e-02   -5,200326815e-02   -6,044206023e-01   -4,322881401e-01    0,000000000e+00    0,000000000e+00    0,000000000e+00    0,000000000e+00
      450000000   -6,748826057e-02   -4,375783727e-02   -7,405067086e-01   -2,072377317e-02    0,000000000e+00    0,000000000e+00    0,000000000e+00    0,000000000e+00
      464000000   -7,356060296e-02   -1,178448275e-02   -6,186639071e-01    3,974908888e-01    0,000000000e+00    0,000000000e+00    0,000000000e+00    0,000000000e+00
      478000000   -4,765326902e-02    1,144406758e-02   -2,823036909e-01    6,686360836e-01    0,000000000e+00    0,000000000e+00    0,000000000e+00    0,000000000e+00
      492000000   -1,594639011e-02    5,789249204e-03    1,380035728e-01    7,011837959e-01    0,000000000e+00    0,000000000e+00    0,000000000e+00    0,000000000e+00
      506000000   -2,498956630e-03   -1,559919864e-02    4,976826906e-01    5,032003522e-01    0,000000000e+00    0,000000000e+00    0,000000000e+00    0,000000000e+00
      520000000   -4,838358611e-03   -3,125205263e-02    6,875597239e-01    1,419172436e-01    0,000000000e+00    0,000000000e+00    0,000000000e+00    0,000000000e+00
      534000000   -3,811611328e-03   -3,831196949e-02    6,437983513e-01   -2,629209161e-01    0,000000000e+00    0,000000000e+00    0,000000000e+00    0,000000000e+00
      548000000    5,932404194e-03   -5,424089730e-02    3,811628222e-01   -5,674127936e-01    0,000000000e+00    0,000000000e+00    0,000000000e+00    0,000000000e+00
      562000000    3,157052444e-03   -8,910971880e-02    2,636873862e-03   -6,731640100e-01    0,000000000e+00    0,000000000e+00    0,000000000e+00    0,000000000e+00
      576000000   -3,391778842e-02   -1,244582161e-01   -3,697009683e-01   -5,564579368e-01    0,000000000e+00    0,000000000e+00    0,000000000e+00    0,000000000e+00
      590000000   -9,623841196e-02   -1,226530001e-01   -6,192446351e-01   -2,647058368e-01    0,000000000e+00    0,000000000e+00    0,000000000e+00    0,000000000e+00
      604000000   -1,399629414e-01   -7,175223529e-02   -6,654801965e-01    1,382555068e-01    0,000000000e+00    0,000000000e+00    0,000000000e+00    0,000000000e+00
      618000000   -1,290974766e-01   -8,756804280e-03   -4,646077752e-01    4,945353270e-01    0,000000000e+00    0,000000000e+00    0,000000000e+00    0,000000000e+00
      632000000   -8,371377736e-02    1,714820787e-02   -9,921547771e-02    6,644263268e-01    0,000000000e+00    0,000000000e+00    0,000000000e+00    0,000000000e+00
      646000000   -5,091942847e-02    1,149289194e-03    2,879019082e-01    5,956532359e-01    0,000000000e+00    0,000000000e+00    0,000000000e+00    0,000000000e+00
      660000000   -5,340654776e-02   -2,127435990e-02    5,677968264e-01    3,231422007e-01    0,000000000e+00    0,000000000e+00    0,000000000e+00    0,000000000e+00
      674000000   -7,078722864e-02   -1,785885543e-02    6,429045796e-01   -6,583645940e-02    0,000000000e+00    0,000000000e+00    0,000000000e+00    0,000000000e+00
      688000000   -6,852766871e-02    8,279465139e-03    4,709698558e-01   -4,274362922e-01    0,000000000e+00    0,000000000e+00    0,000000000e+00    0,000000000e+00
      702000000   -3,806956857e-02    2,701697871e-02    1,223350540e-01   -6,069498062e-01    0,000000000e+00    0,000000000e+00    0,000000000e+00    0,000000000e+00
      716000000    1,595439739e-03    1,780668646e-02   -2,649384141e-01   -5,466011763e-01    0,000000000e+00    0,000000000e+00    0,000000000e+00    0,000000000e+00
      730000000    3,640345857e-02   -1,162132062e-02   -5,288406610e-01   -2,689024806e-01    0,000000000e+00    0,000000000e+00    0,000000000e+00    0,000000000e+00
      744000000    6,525550038e-02   -6,294924766e-02   -5,643861890e-01    1,063288078e-01    0,000000000e+00    0,000000000e+00    0,000000000e+00    0,000000000e+00
      758000000    6,620424241e-02   -1,525183618e-01   -3,632760048e-01    4,104348719e-01    0,000000000e+00    0,000000000e+00    0,000000000e+00    0,000000000e+00
      772000000   -1,256514154e-02   -2,622700334e-01   -3,512755409e-02    5,147028565e-01    0,000000000e+00    0,000000000e+00    0,000000000e+00    0,000000000e+00
      786000000   -2,072256207e-01   -3,029763997e-01    2,742841542e-01    3,955045938e-01    0,000000000e+00    0,000000000e+00    0,000000000e+00    0,000000000e+00
      800000000   -4,264470637e-01   -1,303237081e-01    4,173909426e-01    9,914388508e-02    0,000000000e+00    0,000000000e+00    0,000000000e+00    0,000000000e+00
      814000000   -3,903854191e-01    2,207488716e-01    2,824962139e-01   -1,731422693e-01    0,000000000e+00    0,000000000e+00    0,000000000e+00    0,000000000e+00
      828000000   -4,999009520e-02    3,694852591e-01    5,509558320e-02   -1,897106171e-01    0,000000000e+00    0,000000000e+00    0,000000000e+00    0,000000000e+00
      842000000    2,348053306e-01    1,861625761e-01   -1,700702682e-02   -7,031694800e-02    0,000000000e+00    0,000000000e+00    0,000000000e+00    0,000000000e+00
      856000000    2,808031738e-01   -1,243038028e-01    4,504795372e-02   -1,296745613e-02    0,000000000e+00    0,000000000e+00    0,000000000e+00    0,000000000e+00
      870000000    7,497331500e-02   -3,766180575e-01    1,137057915e-01   -9,095326066e-02    0,000000000e+00    0,000000000e+00    0,000000000e+00    0,000000000e+00
      884000000   -2,953608334e-01   -3,617870808e-01    2,794538438e-02   -2,457970679e-01    0,000000000e+00    0,000000000e+00    0,000000000e+00    0,000000000e+00
      898000000   -4,713321626e-01    8,573111147e-03   -2,220979035e-01   -2,287013978e-01    0,000000000e+00    0,000000000e+00    0,000000000e+00    0,000000000e+00
      912000000   -2,254185528e-01    2,934447527e-01   -3,406496644e-01    6,105773896e-02    0,000000000e+00    0,000000000e+00    0,000000000e+00    0,000000000e+00
      926000000    6,838298589e-02    2,636228204e-01   -2,152819037e-01    2,626971900e-01    0,000000000e+00    0,000000000e+00    0,000000000e+00    0,000000000e+00
      940000000    2,171336412e-01    8,228178322e-02   -3,620859608e-02    3,296270669e-01    0,000000000e+00    0,000000000e+00    0,000000000e+00    0,000000000e+00
      954000000    2,222808748e-01   -1,287616640e-01    1,295152009e-01    3,052331805e-01    0,000000000e+00    0,000000000e+00    0,000000000e+00    0,000000000e+00
      968000000    1,145458072e-01   -2,999880314e-01    2,708551884e-01    2,192248851e-01    0,000000000e+00    0,000000000e+00    0,000000000e+00    0,000000000e+00
      982000000   -7,982188463e-02   -3,882630765e-01    3,668904006e-01    6,363451481e-02    0,000000000e+00    0,000000000e+00    0,000000000e+00    0,000000000e+00
      996000000   -3,193067610e-01   -3,315641582e-01    3,687872887e-01   -1,453320682e-01    0,000000000e+00    0,000000000e+00    0,000000000e+00    0,000000000e+00
     1010000000   -4,636287689e-01   -1,066732556e-01    2,233138978e-01   -3,414367735e-01    0,000000000e+00    0,000000000e+00    0,000000000e+00    0,000000000e+00
     1024000000   -4,109480977e-01    1,489771903e-01   -3,218276054e-02   -3,934641480e-01    0,000000000e+00    0,000000000e+00    0,000000000e+00    0,000000000e+00
     1038000000   -2,194585800e-01    2,898451388e-01   -2,471789420e-01   -2,593427300e-01    0,000000000e+00    0,000000000e+00    0,000000000e+00    0,000000000e+00
     1052000000   -5,864497274e-03    2,807451487e-01   -3,187294602e-01   -4,673178494e-02    0,000000000e+00    0,000000000e+00    0,000000000e+00    0,000000000e+00
     1066000000    1,379599273e-01    1,614740193e-01   -2,571171522e-01    1,446631104e-01    0,000000000e+00    0,000000000e+00    0,000000000e+00    0,000000000e+00
     1080000000    1,956838071e-01   -2,469386207e-03   -1,202620119e-01    2,627428472e-01    0,000000000e+00    0,000000000e+00    0,000000000e+00    0,000000000e+00
     1094000000    1,521060914e-01   -1,737987399e-01    6,388045102e-02    3,056692183e-01    0,000000000e+00    0,000000000e+00    0,000000000e+00    0,000000000e+00
     1108000000   -3,614978166e-03   -3,075417578e-01    2,772318721e-01    2,474261969e-01    0,000000000e+00    0,000000000e+00    0,000000000e+00    0,000000000e+00
     1122000000   -2,481577992e-01   -2,677139044e-01    4,698261917e-01    1,325043105e-02    0,000000000e+00    0,000000000e+00    0,000000000e+00    0,000000000e+00
     1136000000   -3,238745034e-01    3,393249959e-02    4,026877284e-01   -3,944765627e-01    0,000000000e+00    0,000000000e+00    0,000000000e+00    0,000000000e+00
     1150000000   -4,113592580e-02    1,484903693e-01    4,835749976e-03   -5,429550409e-01    0,000000000e+00    0,000000000e+00    0,000000000e+00    0,000000000e+00
     1164000000    1,212196499e-01   -6,152057648e-02   -2,795072496e-01   -3,747735620e-01    0,000000000e+00    0,000000000e+00    0,000000000e+00    0,000000000e+00
     1178000000    1,532371063e-02   -3,057420254e-01   -3,694075942e-01   -1,508628726e-01    0,000000000e+00    0,000000000e+00    0,000000000e+00    0,000000000e+00
     1192000000   -2,674005032e-01   -3,735660017e-01   -3,213358223e-01    5,718358979e-02    0,000000000e+00    0,000000000e+00    0,000000000e+00    0,000000000e+00
     1206000000   -5,209822059e-01   -1,622346193e-01   -1,666101813e-01    1,818405241e-01    0,000000000e+00    0,000000000e+00    0,000000000e+00    0,000000000e+00
     1220000000   -5,030934215e-01    1,705212593e-01    1,992154866e-03    1,604080498e-01    0,000000000e+00    0,000000000e+00    0,000000000e+00    0,000000000e+00
     1234000000   -2,910109460e-01    3,616896868e-01    6,945840269e-02    6,228626519e-02    0,000000000e+00    0,000000000e+00    0,000000000e+00    0,000000000e+00
     1248000000   -4,314199090e-02    3,697708845e-01    5,955541134e-02   -3,739238018e-03    0,000000000e+00    0,000000000e+00    0,000000000e+00    0,000000000e+00
     1262000000    1,248677745e-01    2,540201545e-01    1,906876452e-02   -2,538203262e-02    0,000000000e+00    0,000000000e+00    0,000000000e+00    0,000000000e+00
     1276000000    2,110228390e-01    9,839094430e-02   -7,712189574e-03    2,327678958e-03    0,000000000e+00    0,000000000e+00    0,000000000e+00    0,000000000e+00
     1290000000    2,231192440e-01   -7,675093412e-02    2,169401385e-02    4,952425882e-02    0,000000000e+00    0,000000000e+00    0,000000000e+00    0,000000000e+00
     1304000000    1,536129266e-01   -2,426900119e-01    1,286617965e-01    7,139087468e-02    0,000000000e+00    0,000000000e+00    0,000000000e+00    0,000000000e+00
     1318000000    3,405516595e-02   -3,322410583e-01    1,235683188e-01   -1,634498686e-01    0,000000000e+00    0,000000000e+00    0,000000000e+00    0,000000000e+00
     1332000000   -1,320010424e-01   -4,360329211e-01   -4,158936441e-02   -4,617175087e-02    0,000000000e+00    0,000000000e+00    0,000000000e+00    0,000000000e+00
     1346000000   -3,952302933e-01   -4,054323435e-01    2,490556426e-02    7,184701413e-02    0,000000000e+00    0,000000000e+00    0,000000000e+00    0,000000000e+00
     1360000000   -6,041088104e-01   -1,891456842e-01    1,373257786e-01    7,407099009e-02    0,000000000e+00    0,000000000e+00    0,000000000e+00    0,000000000e+00
     1374000000   -6,354101300e-01    1,242725402e-01    2,023722678e-01   -7,992306724e-03    0,000000000e+00    0,000000000e+00    0,000000000e+00    0,000000000e+00
     1388000000   -4,683595002e-01    3,666734099e-01    2,048924565e-01   -6,914377958e-02    0,000000000e+00    0,000000000e+00    0,000000000e+00    0,000000000e+00
     1402000000   -2,303883433e-01    4,539768100e-01    1,965187639e-01   -9,964228421e-02    0,000000000e+00    0,000000000e+00    0,000000000e+00    0,000000000e+00
     1416000000   -2,604405768e-02    4,169380069e-01    1,708877683e-01   -9,740152210e-02    0,000000000e+00    0,000000000e+00    0,000000000e+00    0,000000000e+00
     1430000000    1,187023297e-01    3,072445691e-01    1,881414503e-01   -9,742718935e-02    0,000000000e+00    0,000000000e+00    0,000000000e+00    0,000000000e+00
     1444000000    2,111378163e-01    1,504469961e-01    1,535466313e-01   -8,905549347e-02    0,000000000e+00    0,000000000e+00    0,000000000e+00    0,000000000e+00
     1458000000    2,346955687e-01   -1,865717396e-02    1,404588223e-01   -6,976130605e-02    0,000000000e+00    0,000000000e+00    0,000000000e+00    0,000000000e+00
     1472000000    1,897858530e-01   -2,037991583e-01    1,423369795e-01   -2,081201784e-02    0,000000000e+00    0,000000000e+00    0,000000000e+00    0,000000000e+00
     1486000000    5,972826481e-02   -3,756174445e-01    1,570719928e-01    2,965931036e-02    0,000000000e+00    0,000000000e+00    0,000000000e+00    0,000000000e+00
     1500000000   -1,734840423e-01   -5,000480413e-01    2,437136471e-01    8,622966707e-02    0,000000000e+00    0,000000000e+00    0,000000000e+00    0,000000000e+00
