! NanoVNA-App
! Date: 2025-09-25 15:31:35
! Start: 100MHz Stop: 1,5GHz Points: 101
! S-Parameter data: F S11 S21 S12 S22
# Hz S RI R 50
!     Frequency           S11_Real           S11_Imag           S21_Real           S21_Imag           S12_Real           S12_Imag           S22_Real           S22_Imag
      100000000   -2,885579877e-02   -4,188480321e-03    3,740910292e-01   -7,217992544e-01    0,000000000e+00    0,000000000e+00    0,000000000e+00    0,000000000e+00
      114000000   -1,652705856e-02    1,155301183e-02   -8,919773251e-02   -8,054909110e-01    0,000000000e+00    0,000000000e+00    0,000000000e+00    0,000000000e+00
      128000000    3,411069512e-03    1,055465732e-02   -5,144676566e-01   -6,204251051e-01    0,000000000e+00    0,000000000e+00    0,000000000e+00    0,000000000e+00
      142000000    1,455522981e-02   -2,950527007e-03   -7,670784593e-01   -2,366884351e-01    0,000000000e+00    0,000000000e+00    0,000000000e+00    0,000000000e+00
      156000000    1,477581263e-02   -1,503403019e-02   -7,667887807e-01    2,183628231e-01    0,000000000e+00    0,000000000e+00    0,000000000e+00    0,000000000e+00
      170000000    1,670278423e-02   -2,255246602e-02   -5,178678036e-01    6,046423316e-01    0,000000000e+00    0,000000000e+00    0,000000000e+00    0,000000000e+00
      184000000    2,102920040e-02   -3,705548495e-02   -1,014988944e-01    7,862347364e-01    0,000000000e+00    0,000000000e+00    0,000000000e+00    0,000000000e+00
      198000000    1,306966506e-02   -6,246144697e-02    3,434646428e-01    7,124680877e-01    0,000000000e+00    0,000000000e+00    0,000000000e+00    0,000000000e+00
      212000000   -1,869308576e-02   -8,129639179e-02    6,780738831e-01    4,097179174e-01    0,000000000e+00    0,000000000e+00    0,000000000e+00    0,000000000e+00
      226000000   -6,171801314e-02   -6,916930526e-02    7,958475351e-01   -3,059754148e-02    0,000000000e+00    0,000000000e+00    0,000000000e+00    0,000000000e+00
      240000000   -8,262250572e-02   -2,559912018e-02    6,461840272e-01   -4,671393335e-01    0,000000000e+00    0,000000000e+00    0,000000000e+00    0,000000000e+00
      254000000   -6,350747496e-02    1,725943200e-02    2,760566771e-01   -7,432331443e-01    0,000000000e+00    0,000000000e+00    0,000000000e+00    0,000000000e+00
      268000000   -2,390333079e-02    2,894073166e-02   -1,784924865e-01   -7,641743422e-01    0,000000000e+00    0,000000000e+00    0,000000000e+00    0,000000000e+00
      282000000    4,248785321e-03    1,196572371e-02   -5,617236495e-01   -5,354964137e-01    0,000000000e+00    0,000000000e+00    0,000000000e+00    0,000000000e+00
      296000000    9,777781554e-03   -7,765824907e-03   -7,597247958e-01   -1,395170242e-01    0,000000000e+00    0,000000000e+00    0,000000000e+00    0,000000000e+00
      310000000    1,111053303e-02   -1,625545695e-02   -7,116147876e-01    2,994191945e-01    0,000000000e+00    0,000000000e+00    0,000000000e+00    0,000000000e+00
      324000000    1,952430978e-02   -2,640471421e-02   -4,271892607e-01    6,374514103e-01    0,000000000e+00    0,000000000e+00    0,000000000e+00    0,000000000e+00
      338000000    2,540766634e-02   -5,204290152e-02   -7,517459802e-03    7,601925135e-01    0,000000000e+00    0,000000000e+00    0,000000000e+00    0,000000000e+00
      352000000    7,406797260e-03   -8,487403393e-02    4,056208134e-01    6,386746764e-01    0,000000000e+00    0,000000000e+00    0,000000000e+00    0,000000000e+00
      366000000   -3,447519615e-02   -9,579201043e-02    6,910678744e-01    3,109619617e-01    0,000000000e+00    0,000000000e+00    0,000000000e+00    0,000000000e+00
      380000000   -7,076826692e-02   -7,110951096e-02    7,474322915e-01   -1,258599907e-01    0,000000000e+00    0,000000000e+00    0,000000000e+00    0,000000000e+00
      394000000   -7,235717028e-02   -3,239277005e-02    5,468925238e-01   -5,213919878e-01    0,000000000e+00    0,000000000e+00    0,000000000e+00    0,000000000e+00
      408000000   -4,645666480e-02   -1,622558199e-02    1,599482596e-01   -7,323878407e-01    0,000000000e+00    0,000000000e+00    0,000000000e+00    0,000000000e+00
      422000000   -2,845806628e-02   -3,214875981e-02   -2,680897415e-01   -6,953075528e-01    0,000000000e+00    0,000000000e+00    0,000000000e+00    0,000000000e+00
      436000000   -4,050618410e-02   -5,134448037e-02   -6,037956476e-01   -4,318265319e-01    0,000000000e+00    0,000000000e+00    0,000000000e+00    0,000000000e+00
      450000000   -6,716553867e-02   -4,403130710e-02   -7,404121161e-01   -2,109384350e-02    0,000000000e+00    0,000000000e+00    0,000000000e+00    0,000000000e+00
      464000000   -7,351970673e-02   -1,171725802e-02   -6,186110377e-01    3,979647160e-01    0,000000000e+00    0,000000000e+00    0,000000000e+00    0,000000000e+00
      478000000   -4,766418040e-02    1,174523588e-02   -2,826896608e-01    6,674873233e-01    0,000000000e+00    0,000000000e+00    0,000000000e+00    0,000000000e+00
      492000000   -1,580626518e-02    5,881085526e-03    1,386253536e-01    7,029623389e-01    0,000000000e+00    0,000000000e+00    0,000000000e+00    0,000000000e+00
      506000000   -2,353805350e-03   -1,560645457e-02    4,986527562e-01    5,029419661e-01    0,000000000e+00    0,000000000e+00    0,000000000e+00    0,000000000e+00
      520000000   -5,281004589e-03   -3,169266507e-02    6,883709431e-01    1,405055821e-01    0,000000000e+00    0,000000000e+00    0,000000000e+00    0,000000000e+00
      534000000   -4,152073525e-03   -3,824064508e-02    6,432757378e-01   -2,627641559e-01    0,000000000e+00    0,000000000e+00    0,000000000e+00    0,000000000e+00
      548000000    5,956393201e-03   -5,411310494e-02    3,817829192e-01   -5,678583980e-01    0,000000000e+00    0,000000000e+00    0,000000000e+00    0,000000000e+00
      562000000    3,127906239e-03   -8,891622722e-02    2,753510140e-03   -6,717146635e-01    0,000000000e+00    0,000000000e+00    0,000000000e+00    0,000000000e+00
      576000000   -3,483832255e-02   -1,242107898e-01   -3,700903952e-01   -5,575333238e-01    0,000000000e+00    0,000000000e+00    0,000000000e+00    0,000000000e+00
      590000000   -9,659519047e-02   -1,225900203e-01   -6,204826832e-01   -2,620861232e-01    0,000000000e+00    0,000000000e+00    0,000000000e+00    0,000000000e+00
      604000000   -1,394609064e-01   -7,205300033e-02   -6,650033593e-01    1,374618411e-01    0,000000000e+00    0,000000000e+00    0,000000000e+00    0,000000000e+00
      618000000   -1,299343854e-01   -9,192740545e-03   -4,648243785e-01    4,943467975e-01    0,000000000e+00    0,000000000e+00    0,000000000e+00    0,000000000e+00
      632000000   -8,361639827e-02    1,719998941e-02   -9,912206233e-02    6,637579203e-01    0,000000000e+00    0,000000000e+00    0,000000000e+00    0,000000000e+00
      646000000   -5,106434971e-02    1,119448454e-03    2,875880301e-01    5,945572257e-01    0,000000000e+00    0,000000000e+00    0,000000000e+00    0,000000000e+00
      660000000   -5,306244642e-02   -2,218770981e-02    5,676643252e-01    3,225963712e-01    0,000000000e+00    0,000000000e+00    0,000000000e+00    0,000000000e+00
      674000000   -7,083679736e-02   -1,720549539e-02    6,432439089e-01   -6,542642415e-02    0,000000000e+00    0,000000000e+00    0,000000000e+00    0,000000000e+00
      688000000   -6,777326018e-02    9,394961409e-03    4,706343412e-01   -4,278635383e-01    0,000000000e+00    0,000000000e+00    0,000000000e+00    0,000000000e+00
      702000000   -3,729630634e-02    2,606363222e-02    1,174832508e-01   -6,121259928e-01    0,000000000e+00    0,000000000e+00    0,000000000e+00    0,000000000e+00
      716000000    1,764375367e-03    1,744531468e-02   -2,644171119e-01   -5,461151004e-01    0,000000000e+00    0,000000000e+00    0,000000000e+00    0,000000000e+00
      730000000    3,653458506e-02   -1,067393553e-02   -5,281856060e-01   -2,688720226e-01    0,000000000e+00    0,000000000e+00    0,000000000e+00    0,000000000e+00
      744000000    6,563665718e-02   -6,252873689e-02   -5,641975999e-01    1,060349718e-01    0,000000000e+00    0,000000000e+00    0,000000000e+00    0,000000000e+00
      758000000    6,700710952e-02   -1,518333405e-01   -3,640205562e-01    4,110527635e-01    0,000000000e+00    0,000000000e+00    0,000000000e+00    0,000000000e+00
      772000000   -1,262987964e-02   -2,627745271e-01   -3,503724188e-02    5,161266327e-01    0,000000000e+00    0,000000000e+00    0,000000000e+00    0,000000000e+00
      786000000   -2,061464041e-01   -3,033354878e-01    2,747744620e-01    3,953637779e-01    0,000000000e+00    0,000000000e+00    0,000000000e+00    0,000000000e+00
      800000000   -4,265505373e-01   -1,299048513e-01    4,172062278e-01    9,876702726e-02    0,000000000e+00    0,000000000e+00    0,000000000e+00    0,000000000e+00
      814000000   -3,906366229e-01    2,209028155e-01    2,823920548e-01   -1,728332341e-01    0,000000000e+00    0,000000000e+00    0,000000000e+00    0,000000000e+00
      828000000   -4,965304956e-02    3,673173189e-01    5,477629974e-02   -1,895735711e-01    0,000000000e+00    0,000000000e+00    0,000000000e+00    0,000000000e+00
      842000000    2,349089235e-01    1,853085011e-01   -1,724448800e-02   -7,075482607e-02    0,000000000e+00    0,000000000e+00    0,000000000e+00    0,000000000e+00
      856000000    2,801864743e-01   -1,244862229e-01    4,550374299e-02   -1,350533217e-02    0,000000000e+00    0,000000000e+00    0,000000000e+00    0,000000000e+00
      870000000    7,462929934e-02   -3,761185408e-01    1,137968004e-01   -9,148055315e-02    0,000000000e+00    0,000000000e+00    0,000000000e+00    0,000000000e+00
      884000000   -2,951487601e-01   -3,615640998e-01    2,809428424e-02   -2,458179891e-01    0,000000000e+00    0,000000000e+00    0,000000000e+00    0,000000000e+00
      898000000   -4,716386795e-01    9,668747894e-03   -2,222455293e-01   -2,272118926e-01    0,000000000e+00    0,000000000e+00    0,000000000e+00    0,000000000e+00
      912000000   -2,260069251e-01    2,942741513e-01   -3,380666077e-01    6,564197689e-02    0,000000000e+00    0,000000000e+00    0,000000000e+00    0,000000000e+00
      926000000    6,845698506e-02    2,637430429e-01   -2,154635191e-01    2,635145187e-01    0,000000000e+00    0,000000000e+00    0,000000000e+00    0,000000000e+00
      940000000    2,185975462e-01    8,119164407e-02   -3,607131168e-02    3,298920989e-01    0,000000000e+00    0,000000000e+00    0,000000000e+00    0,000000000e+00
      954000000    2,219132930e-01   -1,300732046e-01    1,325815618e-01    3,049441874e-01    0,000000000e+00    0,000000000e+00    0,000000000e+00    0,000000000e+00
      968000000    1,134163812e-01   -3,011918366e-01    2,712382674e-01    2,184673548e-01    0,000000000e+00    0,000000000e+00    0,000000000e+00    0,000000000e+00
      982000000   -8,312432468e-02   -3,899082541e-01    3,665646911e-01    6,559100002e-02    0,000000000e+00    0,000000000e+00    0,000000000e+00    0,000000000e+00
      996000000   -3,175620437e-01   -3,265274465e-01    3,696614504e-01   -1,453075707e-01    0,000000000e+00    0,000000000e+00    0,000000000e+00    0,000000000e+00
     1010000000   -4,604450464e-01   -1,106310263e-01    2,240865231e-01   -3,418112993e-01    0,000000000e+00    0,000000000e+00    0,000000000e+00    0,000000000e+00
     1024000000   -4,172303975e-01    1,490966678e-01   -3,319837525e-02   -3,939737380e-01    0,000000000e+00    0,000000000e+00    0,000000000e+00    0,000000000e+00
     1038000000   -2,144687772e-01    2,934327126e-01   -2,494154721e-01   -2,613755763e-01    0,000000000e+00    0,000000000e+00    0,000000000e+00    0,000000000e+00
     1052000000   -9,550551884e-03    2,759201825e-01   -3,173875213e-01   -4,646690562e-02    0,000000000e+00    0,000000000e+00    0,000000000e+00    0,000000000e+00
     1066000000    1,352964938e-01    1,655628681e-01   -2,567568123e-01    1,426091790e-01    0,000000000e+00    0,000000000e+00    0,000000000e+00    0,000000000e+00
     1080000000    1,977254450e-01    1,749536459e-04   -1,189782321e-01    2,659330070e-01    0,000000000e+00    0,000000000e+00    0,000000000e+00    0,000000000e+00
     1094000000    1,551662832e-01   -1,712366939e-01    6,583316624e-02    3,042234480e-01    0,000000000e+00    0,000000000e+00    0,000000000e+00    0,000000000e+00
     1108000000   -2,589283744e-03   -3,014556766e-01    2,767626345e-01    2,459770441e-01    0,000000000e+00    0,000000000e+00    0,000000000e+00    0,000000000e+00
     1122000000   -2,534442246e-01   -2,654035091e-01    4,733841717e-01    1,285807230e-02    0,000000000e+00    0,000000000e+00    0,000000000e+00    0,000000000e+00
     1136000000   -3,146305680e-01    3,835960478e-02    3,990210295e-01   -3,929890096e-01    0,000000000e+00    0,000000000e+00    0,000000000e+00    0,000000000e+00
     1150000000   -4,314108938e-02    1,534238756e-01    4,265397787e-03   -5,434701443e-01    0,000000000e+00    0,000000000e+00    0,000000000e+00    0,000000000e+00
     1164000000    1,210506856e-01   -6,271259487e-02   -2,779810727e-01   -3,800786436e-01    0,000000000e+00    0,000000000e+00    0,000000000e+00    0,000000000e+00
     1178000000    1,531155687e-02   -3,066349030e-01   -3,687696159e-01   -1,540619582e-01    0,000000000e+00    0,000000000e+00    0,000000000e+00    0,000000000e+00
     1192000000   -2,699941695e-01   -3,690358698e-01   -3,209473789e-01    5,831576511e-02    0,000000000e+00    0,000000000e+00    0,000000000e+00    0,000000000e+00
     1206000000   -5,234032869e-01   -1,596091688e-01   -1,666824371e-01    1,813972145e-01    0,000000000e+00    0,000000000e+00    0,000000000e+00    0,000000000e+00
     1220000000   -5,155539513e-01    1,716187298e-01    1,212903298e-03    1,555263549e-01    0,000000000e+00    0,000000000e+00    0,000000000e+00    0,000000000e+00
     1234000000   -2,850996554e-01    3,581532240e-01    6,888557971e-02    6,357139349e-02    0,000000000e+00    0,000000000e+00    0,000000000e+00    0,000000000e+00
     1248000000   -4,340022802e-02    3,614437580e-01    5,400628597e-02   -1,084423251e-02    0,000000000e+00    0,000000000e+00    0,000000000e+00    0,000000000e+00
     1262000000    1,268457174e-01    2,543888688e-01    1,964714564e-02   -2,366091870e-02    0,000000000e+00    0,000000000e+00    0,000000000e+00    0,000000000e+00
     1276000000    2,085912228e-01    9,658454359e-02   -4,973437637e-03    2,401594305e-03    0,000000000e+00    0,000000000e+00    0,000000000e+00    0,000000000e+00
     1290000000    2,225725949e-01   -7,158527523e-02    1,594788581e-02    5,320036411e-02    0,000000000e+00    0,000000000e+00    0,000000000e+00    0,000000000e+00
     1304000000    1,569306850e-01   -2,405210584e-01    1,344918162e-01    6,501810253e-02    0,000000000e+00    0,000000000e+00    0,000000000e+00    0,000000000e+00
     1318000000    3,416410834e-02   -3,327154517e-01    1,351659298e-01   -1,571956724e-01    0,000000000e+00    0,000000000e+00    0,000000000e+00    0,000000000e+00
     1332000000   -1,270224303e-01   -4,381017983e-01   -4,190256447e-02   -5,361901224e-02    0,000000000e+00    0,000000000e+00    0,000000000e+00    0,000000000e+00
     1346000000   -4,023271799e-01   -4,147230685e-01    1,996275596e-02    6,827384979e-02    0,000000000e+00    0,000000000e+00    0,000000000e+00    0,000000000e+00
     1360000000   -6,099869013e-01   -1,967490166e-01    1,309323460e-01    6,700947881e-02    0,000000000e+00    0,000000000e+00    0,000000000e+00    0,000000000e+00
     1374000000   -6,295958161e-01    1,280575097e-01    2,051299363e-01    1,421736553e-02    0,000000000e+00    0,000000000e+00    0,000000000e+00    0,000000000e+00
     1388000000   -4,665188491e-01    3,602008522e-01    2,172773927e-01   -7,100505382e-02    0,000000000e+00    0,000000000e+00    0,000000000e+00    0,000000000e+00
     1402000000   -2,355545610e-01    4,480806291e-01    1,896905154e-01   -1,008363664e-01    0,000000000e+00    0,000000000e+00    0,000000000e+00    0,000000000e+00
     1416000000   -2,818975784e-02    4,115628302e-01    1,766986549e-01   -1,049581617e-01    0,000000000e+00    0,000000000e+00    0,000000000e+00    0,000000000e+00
     1430000000    1,199290529e-01    2,921960354e-01    1,527315676e-01   -9,648410976e-02    0,000000000e+00    0,000000000e+00    0,000000000e+00    0,000000000e+00
     1444000000    2,053472549e-01    1,555768102e-01    1,526726782e-01   -9,202201664e-02    0,000000000e+00    0,000000000e+00    0,000000000e+00    0,000000000e+00
     1458000000    2,385174632e-01   -2,446613833e-02    1,484105736e-01   -6,940624118e-02    0,000000000e+00    0,000000000e+00    0,000000000e+00    0,000000000e+00
     1472000000    1,920706928e-01   -2,051230818e-01    1,464008838e-01   -3,741982952e-02    0,000000000e+00    0,000000000e+00    0,000000000e+00    0,000000000e+00
     1486000000    6,193429604e-02   -3,748606741e-01    1,569189280e-01    2,589808963e-02    0,000000000e+00    0,000000000e+00    0,000000000e+00    0,000000000e+00
     1500000000   -1,698766053e-01   -4,839658439e-01    2,443528622e-01    1,040593311e-01    0,000000000e+00    0,000000000e+00    0,000000000e+00    0,000000000e+00
