! NanoVNA-App
! Date: 2025-09-25 15:35:35
! Start: 100MHz Stop: 1,5GHz Points: 101
! S-Parameter data: F S11 S21 S12 S22
# Hz S RI R 50
!     Frequency           S11_Real           S11_Imag           S21_Real           S21_Imag           S12_Real           S12_Imag           S22_Real           S22_Imag
      100000000   -2,883536555e-02   -4,172269721e-03    3,741052747e-01   -7,218271494e-01    0,000000000e+00    0,000000000e+00    0,000000000e+00    0,000000000e+00
      114000000   -1,647185907e-02    1,148326509e-02   -8,916524053e-02   -8,054510951e-01    0,000000000e+00    0,000000000e+00    0,000000000e+00    0,000000000e+00
      128000000    3,547565546e-03    1,054014172e-02   -5,144675970e-01   -6,203570962e-01    0,000000000e+00    0,000000000e+00    0,000000000e+00    0,000000000e+00
      142000000    1,458575763e-02   -2,967746463e-03   -7,669903636e-01   -2,365963012e-01    0,000000000e+00    0,000000000e+00    0,000000000e+00    0,000000000e+00
      156000000    1,590154693e-02   -1,437674090e-02   -7,698928714e-01    2,241601944e-01    0,000000000e+00    0,000000000e+00    0,000000000e+00    0,000000000e+00
      170000000    1,672979072e-02   -2,252696268e-02   -5,179168582e-01    6,046414971e-01    0,000000000e+00    0,000000000e+00    0,000000000e+00    0,000000000e+00
      184000000    2,101831138e-02   -3,712798655e-02   -1,012583524e-01    7,859538794e-01    0,000000000e+00    0,000000000e+00    0,000000000e+00    0,000000000e+00
      198000000    1,301201247e-02   -6,248196587e-02    3,432731330e-01    7,124351859e-01    0,000000000e+00    0,000000000e+00    0,000000000e+00    0,000000000e+00
      212000000   -1,864871569e-02   -8,130635321e-02    6,782585979e-01    4,100355208e-01    0,000000000e+00    0,000000000e+00    0,000000000e+00    0,000000000e+00
      226000000   -6,167180091e-02   -6,926845759e-02    7,957906127e-01   -3,051552549e-02    0,000000000e+00    0,000000000e+00    0,000000000e+00    0,000000000e+00
      240000000   -8,255350590e-02   -2,565284446e-02    6,459655762e-01   -4,669954777e-01    0,000000000e+00    0,000000000e+00    0,000000000e+00    0,000000000e+00
      254000000   -6,346150488e-02    1,722783968e-02    2,761124074e-01   -7,430770993e-01    0,000000000e+00    0,000000000e+00    0,000000000e+00    0,000000000e+00
      268000000   -2,384229936e-02    2,889745869e-02   -1,777841002e-01   -7,640565634e-01    0,000000000e+00    0,000000000e+00    0,000000000e+00    0,000000000e+00
      282000000    4,159033298e-03    1,196001843e-02   -5,617131591e-01   -5,356910229e-01    0,000000000e+00    0,000000000e+00    0,000000000e+00    0,000000000e+00
      296000000    9,718726389e-03   -7,839238271e-03   -7,597725987e-01   -1,396188587e-01    0,000000000e+00    0,000000000e+00    0,000000000e+00    0,000000000e+00
      310000000    1,108969562e-02   -1,633974351e-02   -7,121294141e-01    2,988922894e-01    0,000000000e+00    0,000000000e+00    0,000000000e+00    0,000000000e+00
      324000000    1,971569657e-02   -2,640624531e-02   -4,268660545e-01    6,382483840e-01    0,000000000e+00    0,000000000e+00    0,000000000e+00    0,000000000e+00
      338000000    2,539802529e-02   -5,208462477e-02   -6,672968622e-03    7,617114186e-01    0,000000000e+00    0,000000000e+00    0,000000000e+00    0,000000000e+00
      352000000    7,311153691e-03   -8,463904262e-02    4,061094522e-01    6,401279569e-01    0,000000000e+00    0,000000000e+00    0,000000000e+00    0,000000000e+00
      366000000   -3,482076898e-02   -9,558114409e-02    6,902028918e-01    3,108716011e-01    0,000000000e+00    0,000000000e+00    0,000000000e+00    0,000000000e+00
      380000000   -7,090689242e-02   -7,112717628e-02    7,471411824e-01   -1,258894354e-01    0,000000000e+00    0,000000000e+00    0,000000000e+00    0,000000000e+00
      394000000   -7,252851129e-02   -3,256178275e-02    5,454220772e-01   -5,227091312e-01    0,000000000e+00    0,000000000e+00    0,000000000e+00    0,000000000e+00
      408000000   -4,656803608e-02   -1,608334295e-02    1,606143415e-01   -7,316114306e-01    0,000000000e+00    0,000000000e+00    0,000000000e+00    0,000000000e+00
      422000000   -2,841427177e-02   -3,232727945e-02   -2,679166496e-01   -6,953014731e-01    0,000000000e+00    0,000000000e+00    0,000000000e+00    0,000000000e+00
      436000000   -4,083711654e-02   -5,201637372e-02   -6,047004461e-01   -4,322708547e-01    0,000000000e+00    0,000000000e+00    0,000000000e+00    0,000000000e+00
      450000000   -6,725782901e-02   -4,372822866e-02   -7,406538129e-01   -2,120238729e-02    0,000000000e+00    0,000000000e+00    0,000000000e+00    0,000000000e+00
      464000000   -7,349243015e-02   -1,138797216e-02   -6,187452674e-01    3,980983794e-01    0,000000000e+00    0,000000000e+00    0,000000000e+00    0,000000000e+00
      478000000   -4,798027873e-02    1,151746791e-02   -2,822606266e-01    6,675880551e-01    0,000000000e+00    0,000000000e+00    0,000000000e+00    0,000000000e+00
      492000000   -1,566194557e-02    6,176332012e-03    1,379400343e-01    7,017519474e-01    0,000000000e+00    0,000000000e+00    0,000000000e+00    0,000000000e+00
      506000000   -2,398463665e-03   -1,585964113e-02    4,990873337e-01    5,025326610e-01    0,000000000e+00    0,000000000e+00    0,000000000e+00    0,000000000e+00
      520000000   -4,789175466e-03   -3,153444454e-02    6,871837974e-01    1,403278559e-01    0,000000000e+00    0,000000000e+00    0,000000000e+00    0,000000000e+00
      534000000   -3,699362045e-03   -3,837865591e-02    6,439559460e-01   -2,627534568e-01    0,000000000e+00    0,000000000e+00    0,000000000e+00    0,000000000e+00
      548000000    5,806585774e-03   -5,390001833e-02    3,810493350e-01   -5,672507882e-01    0,000000000e+00    0,000000000e+00    0,000000000e+00    0,000000000e+00
      562000000    3,216767916e-03   -8,924496919e-02    1,957895933e-03   -6,719707847e-01    0,000000000e+00    0,000000000e+00    0,000000000e+00    0,000000000e+00
      576000000   -3,418522701e-02   -1,240507960e-01   -3,685113192e-01   -5,572440028e-01    0,000000000e+00    0,000000000e+00    0,000000000e+00    0,000000000e+00
      590000000   -9,635675699e-02   -1,227177083e-01   -6,218847632e-01   -2,649884820e-01    0,000000000e+00    0,000000000e+00    0,000000000e+00    0,000000000e+00
      604000000   -1,393664032e-01   -7,149130106e-02   -6,650679708e-01    1,383778900e-01    0,000000000e+00    0,000000000e+00    0,000000000e+00    0,000000000e+00
      618000000   -1,298600584e-01   -8,925294504e-03   -4,642665386e-01    4,948430359e-01    0,000000000e+00    0,000000000e+00    0,000000000e+00    0,000000000e+00
      632000000   -8,371139318e-02    1,704288274e-02   -9,887969494e-02    6,633215547e-01    0,000000000e+00    0,000000000e+00    0,000000000e+00    0,000000000e+00
      646000000   -5,129831657e-02    2,258479653e-04    2,882459164e-01    5,954735279e-01    0,000000000e+00    0,000000000e+00    0,000000000e+00    0,000000000e+00
      660000000   -5,340471864e-02   -2,109726518e-02    5,678255558e-01    3,233069181e-01    0,000000000e+00    0,000000000e+00    0,000000000e+00    0,000000000e+00
      674000000   -7,037195563e-02   -1,724519022e-02    6,429363489e-01   -6,529227644e-02    0,000000000e+00    0,000000000e+00    0,000000000e+00    0,000000000e+00
      688000000   -6,899631768e-02    9,159615263e-03    4,715385139e-01   -4,286482334e-01    0,000000000e+00    0,000000000e+00    0,000000000e+00    0,000000000e+00
      702000000   -3,659905866e-02    2,657156065e-02    1,180752367e-01   -6,108444333e-01    0,000000000e+00    0,000000000e+00    0,000000000e+00    0,000000000e+00
      716000000    2,090039430e-03    1,696776226e-02   -2,644207776e-01   -5,473152399e-01    0,000000000e+00    0,000000000e+00    0,000000000e+00    0,000000000e+00
      730000000    3,723361343e-02   -1,100392360e-02   -5,286756754e-01   -2,695116997e-01    0,000000000e+00    0,000000000e+00    0,000000000e+00    0,000000000e+00
      744000000    6,475181878e-02   -6,289992481e-02   -5,644230843e-01    1,064636931e-01    0,000000000e+00    0,000000000e+00    0,000000000e+00    0,000000000e+00
      758000000    6,634570658e-02   -1,520597786e-01   -3,634728789e-01    4,108352959e-01    0,000000000e+00    0,000000000e+00    0,000000000e+00    0,000000000e+00
      772000000   -1,219442114e-02   -2,620795965e-01   -3,510381281e-02    5,162166953e-01    0,000000000e+00    0,000000000e+00    0,000000000e+00    0,000000000e+00
      786000000   -2,075099051e-01   -3,030303121e-01    2,743750811e-01    3,952531815e-01    0,000000000e+00    0,000000000e+00    0,000000000e+00    0,000000000e+00
      800000000   -4,253043830e-01   -1,293120980e-01    4,170612097e-01    9,953586012e-02    0,000000000e+00    0,000000000e+00    0,000000000e+00    0,000000000e+00
      814000000   -3,898206353e-01    2,220777124e-01    2,819772363e-01   -1,730534136e-01    0,000000000e+00    0,000000000e+00    0,000000000e+00    0,000000000e+00
      828000000   -4,904370755e-02    3,687071800e-01    5,516711995e-02   -1,895068437e-01    0,000000000e+00    0,000000000e+00    0,000000000e+00    0,000000000e+00
      842000000    2,346996814e-01    1,851922274e-01   -1,723289862e-02   -7,062409073e-02    0,000000000e+00    0,000000000e+00    0,000000000e+00    0,000000000e+00
      856000000    2,809289098e-01   -1,244790778e-01    4,536884278e-02   -1,294116117e-02    0,000000000e+00    0,000000000e+00    0,000000000e+00    0,000000000e+00
      870000000    7,555295527e-02   -3,761184812e-01    1,142553240e-01   -9,092019498e-02    0,000000000e+00    0,000000000e+00    0,000000000e+00    0,000000000e+00
      884000000   -2,953719497e-01   -3,617143333e-01    2,920085564e-02   -2,457998097e-01    0,000000000e+00    0,000000000e+00    0,000000000e+00    0,000000000e+00
      898000000   -4,719273746e-01    9,319694713e-03   -2,214517146e-01   -2,275397182e-01    0,000000000e+00    0,000000000e+00    0,000000000e+00    0,000000000e+00
      912000000   -2,259560227e-01    2,945713699e-01   -3,421772420e-01    5,962861329e-02    0,000000000e+00    0,000000000e+00    0,000000000e+00    0,000000000e+00
      926000000    6,625049561e-02    2,633238137e-01   -2,182413340e-01    2,637312412e-01    0,000000000e+00    0,000000000e+00    0,000000000e+00    0,000000000e+00
      940000000    2,146288157e-01    8,128511161e-02   -3,766071796e-02    3,305496573e-01    0,000000000e+00    0,000000000e+00    0,000000000e+00    0,000000000e+00
      954000000    2,244754583e-01   -1,272764504e-01    1,302657574e-01    3,062460721e-01    0,000000000e+00    0,000000000e+00    0,000000000e+00    0,000000000e+00
      968000000    1,173691675e-01   -2,990831733e-01    2,705965936e-01    2,200120836e-01    0,000000000e+00    0,000000000e+00    0,000000000e+00    0,000000000e+00
      982000000   -8,116430789e-02   -3,855748177e-01    3,672819436e-01    6,411480159e-02    0,000000000e+00    0,000000000e+00    0,000000000e+00    0,000000000e+00
      996000000   -3,174950778e-01   -3,269306719e-01    3,688082695e-01   -1,457325965e-01    0,000000000e+00    0,000000000e+00    0,000000000e+00    0,000000000e+00
     1010000000   -4,594038129e-01   -1,098158509e-01    2,218316346e-01   -3,425430954e-01    0,000000000e+00    0,000000000e+00    0,000000000e+00    0,000000000e+00
     1024000000   -4,154309928e-01    1,523849368e-01   -3,348113969e-02   -3,928316832e-01    0,000000000e+00    0,000000000e+00    0,000000000e+00    0,000000000e+00
     1038000000   -2,207457721e-01    2,942791283e-01   -2,480183244e-01   -2,607069910e-01    0,000000000e+00    0,000000000e+00    0,000000000e+00    0,000000000e+00
     1052000000   -5,752777681e-03    2,803108692e-01   -3,185515404e-01   -4,840527847e-02    0,000000000e+00    0,000000000e+00    0,000000000e+00    0,000000000e+00
     1066000000    1,375324130e-01    1,611226648e-01   -2,580381334e-01    1,450840980e-01    0,000000000e+00    0,000000000e+00    0,000000000e+00    0,000000000e+00
     1080000000    1,918273866e-01   -1,981144538e-03   -1,201142520e-01    2,638581097e-01    0,000000000e+00    0,000000000e+00    0,000000000e+00    0,000000000e+00
     1094000000    1,546965688e-01   -1,722118258e-01    6,371359527e-02    3,017652631e-01    0,000000000e+00    0,000000000e+00    0,000000000e+00    0,000000000e+00
     1108000000   -3,997838125e-03   -3,022961020e-01    2,792348862e-01    2,462975979e-01    0,000000000e+00    0,000000000e+00    0,000000000e+00    0,000000000e+00
     1122000000   -2,487739027e-01   -2,599953115e-01    4,748195708e-01    1,379659493e-02    0,000000000e+00    0,000000000e+00    0,000000000e+00    0,000000000e+00
     1136000000   -3,212297261e-01    3,762762249e-02    3,991763890e-01   -3,929161131e-01    0,000000000e+00    0,000000000e+00    0,000000000e+00    0,000000000e+00
     1150000000   -4,302455485e-02    1,532825679e-01    5,012176465e-03   -5,453590751e-01    0,000000000e+00    0,000000000e+00    0,000000000e+00    0,000000000e+00
     1164000000    1,204916909e-01   -6,441303343e-02   -2,832224369e-01   -3,785894215e-01    0,000000000e+00    0,000000000e+00    0,000000000e+00    0,000000000e+00
     1178000000    1,943832263e-02   -3,010122180e-01   -3,671364486e-01   -1,481631100e-01    0,000000000e+00    0,000000000e+00    0,000000000e+00    0,000000000e+00
     1192000000   -2,697581947e-01   -3,666405380e-01   -3,253235519e-01    6,052169949e-02    0,000000000e+00    0,000000000e+00    0,000000000e+00    0,000000000e+00
     1206000000   -5,226440430e-01   -1,593606621e-01   -1,668325067e-01    1,812202185e-01    0,000000000e+00    0,000000000e+00    0,000000000e+00    0,000000000e+00
     1220000000   -5,166490674e-01    1,708803475e-01   -2,352753188e-03    1,552508771e-01    0,000000000e+00    0,000000000e+00    0,000000000e+00    0,000000000e+00
     1234000000   -2,865300775e-01    3,676334918e-01    7,078600675e-02    6,421915442e-02    0,000000000e+00    0,000000000e+00    0,000000000e+00    0,000000000e+00
     1248000000   -4,000955075e-02    3,650814295e-01    5,939578637e-02   -6,877524313e-03    0,000000000e+00    0,000000000e+00    0,000000000e+00    0,000000000e+00
     1262000000    1,263147891e-01    2,591710687e-01    1,854965277e-02   -1,810071804e-02    0,000000000e+00    0,000000000e+00    0,000000000e+00    0,000000000e+00
     1276000000    2,101393789e-01    9,845659882e-02    3,099373134e-04    3,729600227e-03    0,000000000e+00    0,000000000e+00    0,000000000e+00    0,000000000e+00
     1290000000    2,221989483e-01   -7,607826591e-02    1,703684218e-02    4,988519475e-02    0,000000000e+00    0,000000000e+00    0,000000000e+00    0,000000000e+00
     1304000000    1,559440643e-01   -2,402647585e-01    1,326799840e-01    7,033135742e-02    0,000000000e+00    0,000000000e+00    0,000000000e+00    0,000000000e+00
     1318000000    3,560098261e-02   -3,368566632e-01    1,262452900e-01   -1,622304767e-01    0,000000000e+00    0,000000000e+00    0,000000000e+00    0,000000000e+00
     1332000000   -1,318988055e-01   -4,408069849e-01   -4,471572861e-02   -4,533331469e-02    0,000000000e+00    0,000000000e+00    0,000000000e+00    0,000000000e+00
     1346000000   -3,945696950e-01   -4,120344520e-01    2,662562020e-02    5,761973560e-02    0,000000000e+00    0,000000000e+00    0,000000000e+00    0,000000000e+00
     1360000000   -6,078169942e-01   -1,932113171e-01    1,428356767e-01    5,867027491e-02    0,000000000e+00    0,000000000e+00    0,000000000e+00    0,000000000e+00
     1374000000   -6,363512874e-01    1,232420132e-01    2,041171193e-01    2,894017671e-04    0,000000000e+00    0,000000000e+00    0,000000000e+00    0,000000000e+00
     1388000000   -4,683405757e-01    3,674163818e-01    2,063814551e-01   -7,056480646e-02    0,000000000e+00    0,000000000e+00    0,000000000e+00    0,000000000e+00
     1402000000   -2,319555581e-01    4,544709623e-01    1,893018335e-01   -8,854175359e-02    0,000000000e+00    0,000000000e+00    0,000000000e+00    0,000000000e+00
     1416000000   -2,529240400e-02    4,161899984e-01    1,753501147e-01   -1,007825509e-01    0,000000000e+00    0,000000000e+00    0,000000000e+00    0,000000000e+00
     1430000000    1,225264966e-01    3,045893013e-01    1,612416357e-01   -1,003643051e-01    0,000000000e+00    0,000000000e+00    0,000000000e+00    0,000000000e+00
     1444000000    2,040728778e-01    1,502555609e-01    1,504357159e-01   -9,926982224e-02    0,000000000e+00    0,000000000e+00    0,000000000e+00    0,000000000e+00
     1458000000    2,374851406e-01   -2,506601624e-02    1,444215178e-01   -8,427359164e-02    0,000000000e+00    0,000000000e+00    0,000000000e+00    0,000000000e+00
     1472000000    1,934635341e-01   -2,022791356e-01    1,545985788e-01   -3,009615093e-02    0,000000000e+00    0,000000000e+00    0,000000000e+00    0,000000000e+00
     1486000000    6,144114956e-02   -3,813114762e-01    1,680951715e-01    3,331420571e-02    0,000000000e+00    0,000000000e+00    0,000000000e+00    0,000000000e+00
     1500000000   -1,802709699e-01   -4,977470934e-01    2,439171523e-01    1,065165326e-01    0,000000000e+00    0,000000000e+00    0,000000000e+00    0,000000000e+00
