! NanoVNA-App
! Date: 2025-09-25 15:35:08
! Start: 100MHz Stop: 1,5GHz Points: 101
! S-Parameter data: F S11 S21 S12 S22
# Hz S RI R 50
!     Frequency           S11_Real           S11_Imag           S21_Real           S21_Imag           S12_Real           S12_Imag           S22_Real           S22_Imag
      100000000   -2,883955278e-02   -4,177080933e-03    3,740968704e-01   -7,217540145e-01    0,000000000e+00    0,000000000e+00    0,000000000e+00    0,000000000e+00
      114000000   -1,647640578e-02    1,153259724e-02   -8,918652683e-02   -8,054661155e-01    0,000000000e+00    0,000000000e+00    0,000000000e+00    0,000000000e+00
      128000000    3,443613648e-03    1,054451521e-02   -5,146226883e-01   -6,205401421e-01    0,000000000e+00    0,000000000e+00    0,000000000e+00    0,000000000e+00
      142000000    1,457615290e-02   -2,961993916e-03   -7,669730186e-01   -2,364846468e-01    0,000000000e+00    0,000000000e+00    0,000000000e+00    0,000000000e+00
      156000000    1,600526460e-02   -1,432954706e-02   -7,701851130e-01    2,243568003e-01    0,000000000e+00    0,000000000e+00    0,000000000e+00    0,000000000e+00
      170000000    1,670657471e-02   -2,260039374e-02   -5,181960464e-01    6,045089364e-01    0,000000000e+00    0,000000000e+00    0,000000000e+00    0,000000000e+00
      184000000    2,105793916e-02   -3,707872704e-02   -1,013762802e-01    7,859316468e-01    0,000000000e+00    0,000000000e+00    0,000000000e+00    0,000000000e+00
      198000000    1,304610260e-02   -6,247515604e-02    3,433161378e-01    7,125250101e-01    0,000000000e+00    0,000000000e+00    0,000000000e+00    0,000000000e+00
      212000000   -1,866159216e-02   -8,129914105e-02    6,782144904e-01    4,100186229e-01    0,000000000e+00    0,000000000e+00    0,000000000e+00    0,000000000e+00
      226000000   -6,164774299e-02   -6,922029704e-02    7,957697511e-01   -3,058473580e-02    0,000000000e+00    0,000000000e+00    0,000000000e+00    0,000000000e+00
      240000000   -8,259247988e-02   -2,559622005e-02    6,461241841e-01   -4,670346081e-01    0,000000000e+00    0,000000000e+00    0,000000000e+00    0,000000000e+00
      254000000   -6,348247826e-02    1,727578603e-02    2,761106491e-01   -7,434802055e-01    0,000000000e+00    0,000000000e+00    0,000000000e+00    0,000000000e+00
      268000000   -2,381855622e-02    2,886161208e-02   -1,780136824e-01   -7,642165422e-01    0,000000000e+00    0,000000000e+00    0,000000000e+00    0,000000000e+00
      282000000    4,193456378e-03    1,196543407e-02   -5,615812540e-01   -5,356398225e-01    0,000000000e+00    0,000000000e+00    0,000000000e+00    0,000000000e+00
      296000000    9,774991311e-03   -7,929731160e-03   -7,599859238e-01   -1,397260875e-01    0,000000000e+00    0,000000000e+00    0,000000000e+00    0,000000000e+00
      310000000    1,110543497e-02   -1,606838219e-02   -7,119041085e-01    2,987247705e-01    0,000000000e+00    0,000000000e+00    0,000000000e+00    0,000000000e+00
      324000000    1,971801557e-02   -2,641688474e-02   -4,271598458e-01    6,380302310e-01    0,000000000e+00    0,000000000e+00    0,000000000e+00    0,000000000e+00
      338000000    2,549184114e-02   -5,200148746e-02   -9,398983791e-03    7,597167492e-01    0,000000000e+00    0,000000000e+00    0,000000000e+00    0,000000000e+00
      352000000    7,208796684e-03   -8,502598852e-02    4,062458575e-01    6,395915747e-01    0,000000000e+00    0,000000000e+00    0,000000000e+00    0,000000000e+00
      366000000   -3,476374596e-02   -9,561508894e-02    6,903616190e-01    3,112478852e-01    0,000000000e+00    0,000000000e+00    0,000000000e+00    0,000000000e+00
      380000000   -7,069289684e-02   -7,114974409e-02    7,478802800e-01   -1,259212792e-01    0,000000000e+00    0,000000000e+00    0,000000000e+00    0,000000000e+00
      394000000   -7,268811762e-02   -3,248111531e-02    5,466204286e-01   -5,223224163e-01    0,000000000e+00    0,000000000e+00    0,000000000e+00    0,000000000e+00
      408000000   -4,641481489e-02   -1,615830697e-02    1,606440991e-01   -7,312924862e-01    0,000000000e+00    0,000000000e+00    0,000000000e+00    0,000000000e+00
      422000000   -2,803590335e-02   -3,200974688e-02   -2,672010660e-01   -6,948213577e-01    0,000000000e+00    0,000000000e+00    0,000000000e+00    0,000000000e+00
      436000000   -4,078027606e-02   -5,199449137e-02   -6,038086414e-01   -4,327160120e-01    0,000000000e+00    0,000000000e+00    0,000000000e+00    0,000000000e+00
      450000000   -6,757036597e-02   -4,388793930e-02   -7,405633330e-01   -2,140061744e-02    0,000000000e+00    0,000000000e+00    0,000000000e+00    0,000000000e+00
      464000000   -7,332665473e-02   -1,156971790e-02   -6,187280416e-01    3,976373076e-01    0,000000000e+00    0,000000000e+00    0,000000000e+00    0,000000000e+00
      478000000   -4,766608030e-02    1,195409987e-02   -2,825653553e-01    6,681230068e-01    0,000000000e+00    0,000000000e+00    0,000000000e+00    0,000000000e+00
      492000000   -1,575703174e-02    6,160357967e-03    1,384383291e-01    7,019915581e-01    0,000000000e+00    0,000000000e+00    0,000000000e+00    0,000000000e+00
      506000000   -2,282135654e-03   -1,576196216e-02    4,987937212e-01    5,024772286e-01    0,000000000e+00    0,000000000e+00    0,000000000e+00    0,000000000e+00
      520000000   -4,726921674e-03   -3,160987794e-02    6,891018748e-01    1,424640417e-01    0,000000000e+00    0,000000000e+00    0,000000000e+00    0,000000000e+00
      534000000   -3,915415611e-03   -3,830404952e-02    6,436599493e-01   -2,626211941e-01    0,000000000e+00    0,000000000e+00    0,000000000e+00    0,000000000e+00
      548000000    5,964985583e-03   -5,430137366e-02    3,818408847e-01   -5,676168203e-01    0,000000000e+00    0,000000000e+00    0,000000000e+00    0,000000000e+00
      562000000    3,302464960e-03   -8,984628320e-02    2,370111644e-03   -6,728460789e-01    0,000000000e+00    0,000000000e+00    0,000000000e+00    0,000000000e+00
      576000000   -3,447379917e-02   -1,245940179e-01   -3,692415953e-01   -5,569987893e-01    0,000000000e+00    0,000000000e+00    0,000000000e+00    0,000000000e+00
      590000000   -9,635099769e-02   -1,223992482e-01   -6,215529442e-01   -2,652355433e-01    0,000000000e+00    0,000000000e+00    0,000000000e+00    0,000000000e+00
      604000000   -1,396669745e-01   -7,161754370e-02   -6,651706100e-01    1,378243119e-01    0,000000000e+00    0,000000000e+00    0,000000000e+00    0,000000000e+00
      618000000   -1,290683150e-01   -9,247689508e-03   -4,643040299e-01    4,957420528e-01    0,000000000e+00    0,000000000e+00    0,000000000e+00    0,000000000e+00
      632000000   -8,424976468e-02    1,715390012e-02   -9,950383753e-02    6,637372375e-01    0,000000000e+00    0,000000000e+00    0,000000000e+00    0,000000000e+00
      646000000   -5,169415474e-02    3,367055033e-04    2,881611288e-01    5,955533981e-01    0,000000000e+00    0,000000000e+00    0,000000000e+00    0,000000000e+00
      660000000   -5,299891159e-02   -2,105630562e-02    5,677415133e-01    3,231655359e-01    0,000000000e+00    0,000000000e+00    0,000000000e+00    0,000000000e+00
      674000000   -7,011852413e-02   -1,692042314e-02    6,431298852e-01   -6,544341147e-02    0,000000000e+00    0,000000000e+00    0,000000000e+00    0,000000000e+00
      688000000   -6,881871819e-02    8,614401333e-03    4,711881578e-01   -4,279855490e-01    0,000000000e+00    0,000000000e+00    0,000000000e+00    0,000000000e+00
      702000000   -3,691040352e-02    2,740611508e-02    1,169398203e-01   -6,112018824e-01    0,000000000e+00    0,000000000e+00    0,000000000e+00    0,000000000e+00
      716000000    2,257977845e-03    1,741298288e-02   -2,650060058e-01   -5,478421450e-01    0,000000000e+00    0,000000000e+00    0,000000000e+00    0,000000000e+00
      730000000    3,725451604e-02   -1,134501118e-02   -5,281517506e-01   -2,690420151e-01    0,000000000e+00    0,000000000e+00    0,000000000e+00    0,000000000e+00
      744000000    6,547316909e-02   -6,184937060e-02   -5,643774271e-01    1,065289006e-01    0,000000000e+00    0,000000000e+00    0,000000000e+00    0,000000000e+00
      758000000    6,662556529e-02   -1,526175588e-01   -3,635445535e-01    4,102150202e-01    0,000000000e+00    0,000000000e+00    0,000000000e+00    0,000000000e+00
      772000000   -1,355674677e-02   -2,627497315e-01   -3,465458751e-02    5,148981214e-01    0,000000000e+00    0,000000000e+00    0,000000000e+00    0,000000000e+00
      786000000   -2,061446607e-01   -3,024652302e-01    2,743287683e-01    3,955747187e-01    0,000000000e+00    0,000000000e+00    0,000000000e+00    0,000000000e+00
      800000000   -4,253816605e-01   -1,310946047e-01    4,173900783e-01    9,904175997e-02    0,000000000e+00    0,000000000e+00    0,000000000e+00    0,000000000e+00
      814000000   -3,889988363e-01    2,210324407e-01    2,823630869e-01   -1,731502861e-01    0,000000000e+00    0,000000000e+00    0,000000000e+00    0,000000000e+00
      828000000   -5,084794015e-02    3,674230874e-01    5,500235036e-02   -1,894965619e-01    0,000000000e+00    0,000000000e+00    0,000000000e+00    0,000000000e+00
      842000000    2,355016619e-01    1,856971979e-01   -1,710220985e-02   -7,088273019e-02    0,000000000e+00    0,000000000e+00    0,000000000e+00    0,000000000e+00
      856000000    2,806487679e-01   -1,241477579e-01    4,486384615e-02   -1,338894479e-02    0,000000000e+00    0,000000000e+00    0,000000000e+00    0,000000000e+00
      870000000    7,467734069e-02   -3,758966923e-01    1,136609241e-01   -9,074309468e-02    0,000000000e+00    0,000000000e+00    0,000000000e+00    0,000000000e+00
      884000000   -2,945321202e-01   -3,614633083e-01    2,824256755e-02   -2,452161461e-01    0,000000000e+00    0,000000000e+00    0,000000000e+00    0,000000000e+00
      898000000   -4,724846184e-01    9,248903021e-03   -2,218760550e-01   -2,275739759e-01    0,000000000e+00    0,000000000e+00    0,000000000e+00    0,000000000e+00
      912000000   -2,257192284e-01    2,937067151e-01   -3,539743125e-01    6,359134614e-02    0,000000000e+00    0,000000000e+00    0,000000000e+00    0,000000000e+00
      926000000    6,712362170e-02    2,647934556e-01   -2,158159614e-01    2,655116916e-01    0,000000000e+00    0,000000000e+00    0,000000000e+00    0,000000000e+00
      940000000    2,169712484e-01    7,859648764e-02   -3,443782032e-02    3,294991851e-01    0,000000000e+00    0,000000000e+00    0,000000000e+00    0,000000000e+00
      954000000    2,194601446e-01   -1,268992871e-01    1,300545037e-01    3,060204089e-01    0,000000000e+00    0,000000000e+00    0,000000000e+00    0,000000000e+00
      968000000    1,151577532e-01   -3,014970422e-01    2,707774937e-01    2,189211398e-01    0,000000000e+00    0,000000000e+00    0,000000000e+00    0,000000000e+00
      982000000   -8,415278047e-02   -3,863312304e-01    3,671241701e-01    6,555268168e-02    0,000000000e+00    0,000000000e+00    0,000000000e+00    0,000000000e+00
      996000000   -3,193588853e-01   -3,287216127e-01    3,699389100e-01   -1,457572430e-01    0,000000000e+00    0,000000000e+00    0,000000000e+00    0,000000000e+00
     1010000000   -4,656160176e-01   -1,109069213e-01    2,222924381e-01   -3,420844376e-01    0,000000000e+00    0,000000000e+00    0,000000000e+00    0,000000000e+00
     1024000000   -4,165530801e-01    1,484701037e-01   -3,401620314e-02   -3,922075033e-01    0,000000000e+00    0,000000000e+00    0,000000000e+00    0,000000000e+00
     1038000000   -2,163222730e-01    2,944601774e-01   -2,467948943e-01   -2,633551061e-01    0,000000000e+00    0,000000000e+00    0,000000000e+00    0,000000000e+00
     1052000000   -7,484531496e-03    2,761029601e-01   -3,173761070e-01   -4,642034695e-02    0,000000000e+00    0,000000000e+00    0,000000000e+00    0,000000000e+00
     1066000000    1,392949522e-01    1,612132937e-01   -2,591647208e-01    1,461295485e-01    0,000000000e+00    0,000000000e+00    0,000000000e+00    0,000000000e+00
     1080000000    1,965452880e-01    1,141021610e-03   -1,213391274e-01    2,659386694e-01    0,000000000e+00    0,000000000e+00    0,000000000e+00    0,000000000e+00
     1094000000    1,535574645e-01   -1,713358313e-01    6,522306800e-02    3,031401038e-01    0,000000000e+00    0,000000000e+00    0,000000000e+00    0,000000000e+00
     1108000000   -3,852385795e-03   -3,037620783e-01    2,792371511e-01    2,466693968e-01    0,000000000e+00    0,000000000e+00    0,000000000e+00    0,000000000e+00
     1122000000   -2,443822324e-01   -2,656252086e-01    4,757117331e-01    1,128148381e-02    0,000000000e+00    0,000000000e+00    0,000000000e+00    0,000000000e+00
     1136000000   -3,227037191e-01    2,884255350e-02    3,976126611e-01   -3,935855627e-01    0,000000000e+00    0,000000000e+00    0,000000000e+00    0,000000000e+00
     1150000000   -4,032770544e-02    1,547589153e-01    7,309591398e-03   -5,426103473e-01    0,000000000e+00    0,000000000e+00    0,000000000e+00    0,000000000e+00
     1164000000    1,274981946e-01   -6,441951543e-02   -2,757959068e-01   -3,792222142e-01    0,000000000e+00    0,000000000e+00    0,000000000e+00    0,000000000e+00
     1178000000    1,773541607e-02   -3,027209640e-01   -3,690693080e-01   -1,498445272e-01    0,000000000e+00    0,000000000e+00    0,000000000e+00    0,000000000e+00
     1192000000   -2,669171989e-01   -3,708771467e-01   -3,259893954e-01    5,926683545e-02    0,000000000e+00    0,000000000e+00    0,000000000e+00    0,000000000e+00
     1206000000   -5,187391043e-01   -1,583008319e-01   -1,647527516e-01    1,817454100e-01    0,000000000e+00    0,000000000e+00    0,000000000e+00    0,000000000e+00
     1220000000   -5,090082288e-01    1,771439314e-01   -5,784943933e-04    1,626745164e-01    0,000000000e+00    0,000000000e+00    0,000000000e+00    0,000000000e+00
     1234000000   -2,880346477e-01    3,677422404e-01    6,757526845e-02    6,772687286e-02    0,000000000e+00    0,000000000e+00    0,000000000e+00    0,000000000e+00
     1248000000   -4,060179740e-02    3,702262342e-01    5,533867329e-02   -6,804171018e-03    0,000000000e+00    0,000000000e+00    0,000000000e+00    0,000000000e+00
     1262000000    1,246905476e-01    2,611737847e-01    1,502873935e-02   -1,875763200e-02    0,000000000e+00    0,000000000e+00    0,000000000e+00    0,000000000e+00
     1276000000    2,110793889e-01    9,647311270e-02   -6,733578630e-04    5,573564209e-03    0,000000000e+00    0,000000000e+00    0,000000000e+00    0,000000000e+00
     1290000000    2,242225707e-01   -7,493532449e-02    2,106023952e-02    4,923627526e-02    0,000000000e+00    0,000000000e+00    0,000000000e+00    0,000000000e+00
     1304000000    1,545282304e-01   -2,411664426e-01    1,350888312e-01    6,556160748e-02    0,000000000e+00    0,000000000e+00    0,000000000e+00    0,000000000e+00
     1318000000    3,657753393e-02   -3,327752352e-01    1,327405870e-01   -1,607973278e-01    0,000000000e+00    0,000000000e+00    0,000000000e+00    0,000000000e+00
     1332000000   -1,314305961e-01   -4,378695786e-01   -4,210305214e-02   -4,176798835e-02    0,000000000e+00    0,000000000e+00    0,000000000e+00    0,000000000e+00
     1346000000   -4,012767673e-01   -4,119763970e-01    1,914858818e-02    6,942885369e-02    0,000000000e+00    0,000000000e+00    0,000000000e+00    0,000000000e+00
     1360000000   -6,076495051e-01   -1,847143173e-01    1,356172264e-01    7,884698361e-02    0,000000000e+00    0,000000000e+00    0,000000000e+00    0,000000000e+00
     1374000000   -6,356489658e-01    1,312812120e-01    2,076850384e-01    9,759482928e-03    0,000000000e+00    0,000000000e+00    0,000000000e+00    0,000000000e+00
     1388000000   -4,646483362e-01    3,680169284e-01    2,154261619e-01   -7,067295909e-02    0,000000000e+00    0,000000000e+00    0,000000000e+00    0,000000000e+00
     1402000000   -2,283302099e-01    4,551471472e-01    1,896412224e-01   -9,516473860e-02    0,000000000e+00    0,000000000e+00    0,000000000e+00    0,000000000e+00
     1416000000   -2,756491862e-02    4,179828763e-01    1,712094098e-01   -9,964942187e-02    0,000000000e+00    0,000000000e+00    0,000000000e+00    0,000000000e+00
     1430000000    1,207262501e-01    2,889952958e-01    1,597925574e-01   -9,936934710e-02    0,000000000e+00    0,000000000e+00    0,000000000e+00    0,000000000e+00
     1444000000    2,076945454e-01    1,463754475e-01    1,539148837e-01   -1,042673588e-01    0,000000000e+00    0,000000000e+00    0,000000000e+00    0,000000000e+00
     1458000000    2,329580039e-01   -1,931326278e-02    1,364898533e-01   -6,917265803e-02    0,000000000e+00    0,000000000e+00    0,000000000e+00    0,000000000e+00
     1472000000    1,863018125e-01   -1,991692185e-01    1,403953135e-01   -3,303863853e-02    0,000000000e+00    0,000000000e+00    0,000000000e+00    0,000000000e+00
     1486000000    5,643461645e-02   -3,752363026e-01    1,784999520e-01    1,847685874e-02    0,000000000e+00    0,000000000e+00    0,000000000e+00    0,000000000e+00
     1500000000   -1,711845249e-01   -4,998866916e-01    2,533382177e-01    9,567505121e-02    0,000000000e+00    0,000000000e+00    0,000000000e+00    0,000000000e+00
