! NanoVNA-App
! Date: 2025-09-25 15:34:51
! Start: 100MHz Stop: 1,5GHz Points: 101
! S-Parameter data: F S11 S21 S12 S22
# Hz S RI R 50
!     Frequency           S11_Real           S11_Imag           S21_Real           S21_Imag           S12_Real           S12_Imag           S22_Real           S22_Imag
      100000000   -2,883105353e-02   -4,178014118e-03    3,741046190e-01   -7,217125893e-01    0,000000000e+00    0,000000000e+00    0,000000000e+00    0,000000000e+00
      114000000   -1,648222283e-02    1,148484275e-02   -8,915343881e-02   -8,055381179e-01    0,000000000e+00    0,000000000e+00    0,000000000e+00    0,000000000e+00
      128000000    3,499883460e-03    1,049472578e-02   -5,147104263e-01   -6,204395890e-01    0,000000000e+00    0,000000000e+00    0,000000000e+00    0,000000000e+00
      142000000    1,456379797e-02   -2,957972465e-03   -7,670964003e-01   -2,366814911e-01    0,000000000e+00    0,000000000e+00    0,000000000e+00    0,000000000e+00
      156000000    1,583414339e-02   -1,473471988e-02   -7,723159194e-01    2,236825079e-01    0,000000000e+00    0,000000000e+00    0,000000000e+00    0,000000000e+00
      170000000    1,669825427e-02   -2,252948843e-02   -5,181420445e-01    6,046891212e-01    0,000000000e+00    0,000000000e+00    0,000000000e+00    0,000000000e+00
      184000000    2,102771401e-02   -3,705238551e-02   -1,012676582e-01    7,860688567e-01    0,000000000e+00    0,000000000e+00    0,000000000e+00    0,000000000e+00
      198000000    1,296958234e-02   -6,244785711e-02    3,433473706e-01    7,125791311e-01    0,000000000e+00    0,000000000e+00    0,000000000e+00    0,000000000e+00
      212000000   -1,864124648e-02   -8,133529127e-02    6,783030033e-01    4,101614952e-01    0,000000000e+00    0,000000000e+00    0,000000000e+00    0,000000000e+00
      226000000   -6,164582819e-02   -6,924252212e-02    7,957309484e-01   -3,054980375e-02    0,000000000e+00    0,000000000e+00    0,000000000e+00    0,000000000e+00
      240000000   -8,255944401e-02   -2,557888255e-02    6,458433867e-01   -4,671181142e-01    0,000000000e+00    0,000000000e+00    0,000000000e+00    0,000000000e+00
      254000000   -6,349281967e-02    1,721395180e-02    2,761604488e-01   -7,433767915e-01    0,000000000e+00    0,000000000e+00    0,000000000e+00    0,000000000e+00
      268000000   -2,385912836e-02    2,885148115e-02   -1,781043112e-01   -7,641144991e-01    0,000000000e+00    0,000000000e+00    0,000000000e+00    0,000000000e+00
      282000000    4,185722210e-03    1,199587900e-02   -5,618160963e-01   -5,354898572e-01    0,000000000e+00    0,000000000e+00    0,000000000e+00    0,000000000e+00
      296000000    9,834853001e-03   -7,840868086e-03   -7,597988248e-01   -1,397290975e-01    0,000000000e+00    0,000000000e+00    0,000000000e+00    0,000000000e+00
      310000000    1,120913029e-02   -1,620606892e-02   -7,132311463e-01    2,988646626e-01    0,000000000e+00    0,000000000e+00    0,000000000e+00    0,000000000e+00
      324000000    1,995517127e-02   -2,656967565e-02   -4,274919927e-01    6,379175186e-01    0,000000000e+00    0,000000000e+00    0,000000000e+00    0,000000000e+00
      338000000    2,569971234e-02   -5,205906555e-02   -9,703983553e-03    7,599824071e-01    0,000000000e+00    0,000000000e+00    0,000000000e+00    0,000000000e+00
      352000000    7,461802568e-03   -8,467309922e-02    4,068982005e-01    6,394582987e-01    0,000000000e+00    0,000000000e+00    0,000000000e+00    0,000000000e+00
      366000000   -3,469800577e-02   -9,524685889e-02    6,907054186e-01    3,114718497e-01    0,000000000e+00    0,000000000e+00    0,000000000e+00    0,000000000e+00
      380000000   -7,054731995e-02   -7,095546275e-02    7,473232746e-01   -1,257808506e-01    0,000000000e+00    0,000000000e+00    0,000000000e+00    0,000000000e+00
      394000000   -7,245237380e-02   -3,220785782e-02    5,463038683e-01   -5,229633451e-01    0,000000000e+00    0,000000000e+00    0,000000000e+00    0,000000000e+00
      408000000   -4,646666348e-02   -1,604137011e-02    1,614746302e-01   -7,328809500e-01    0,000000000e+00    0,000000000e+00    0,000000000e+00    0,000000000e+00
      422000000   -2,847280540e-02   -3,228060156e-02   -2,673004270e-01   -6,950114965e-01    0,000000000e+00    0,000000000e+00    0,000000000e+00    0,000000000e+00
      436000000   -4,064792767e-02   -5,156578124e-02   -6,040294170e-01   -4,316629469e-01    0,000000000e+00    0,000000000e+00    0,000000000e+00    0,000000000e+00
      450000000   -6,769973040e-02   -4,388746247e-02   -7,409003377e-01   -2,121458575e-02    0,000000000e+00    0,000000000e+00    0,000000000e+00    0,000000000e+00
      464000000   -7,334597409e-02   -1,147935167e-02   -6,188175082e-01    3,982217312e-01    0,000000000e+00    0,000000000e+00    0,000000000e+00    0,000000000e+00
      478000000   -4,766305536e-02    1,180542633e-02   -2,820206285e-01    6,674360633e-01    0,000000000e+00    0,000000000e+00    0,000000000e+00    0,000000000e+00
      492000000   -1,549576595e-02    6,009420846e-03    1,383626759e-01    7,020881772e-01    0,000000000e+00    0,000000000e+00    0,000000000e+00    0,000000000e+00
      506000000   -2,803700510e-03   -1,557139400e-02    4,985437393e-01    5,023168325e-01    0,000000000e+00    0,000000000e+00    0,000000000e+00    0,000000000e+00
      520000000   -5,130563397e-03   -3,154043853e-02    6,866691709e-01    1,413823366e-01    0,000000000e+00    0,000000000e+00    0,000000000e+00    0,000000000e+00
      534000000   -3,817959456e-03   -3,854104131e-02    6,440095901e-01   -2,631316185e-01    0,000000000e+00    0,000000000e+00    0,000000000e+00    0,000000000e+00
      548000000    6,162063684e-03   -5,388745293e-02    3,818449974e-01   -5,672103167e-01    0,000000000e+00    0,000000000e+00    0,000000000e+00    0,000000000e+00
      562000000    3,158195876e-03   -8,940182626e-02    2,531652339e-03   -6,721322536e-01    0,000000000e+00    0,000000000e+00    0,000000000e+00    0,000000000e+00
      576000000   -3,436886147e-02   -1,245947778e-01   -3,690136373e-01   -5,575341582e-01    0,000000000e+00    0,000000000e+00    0,000000000e+00    0,000000000e+00
      590000000   -9,626550972e-02   -1,227834001e-01   -6,198351383e-01   -2,657108307e-01    0,000000000e+00    0,000000000e+00    0,000000000e+00    0,000000000e+00
      604000000   -1,393057704e-01   -7,220047712e-02   -6,650525928e-01    1,376069188e-01    0,000000000e+00    0,000000000e+00    0,000000000e+00    0,000000000e+00
      618000000   -1,298137307e-01   -9,253511205e-03   -4,648645520e-01    4,945116639e-01    0,000000000e+00    0,000000000e+00    0,000000000e+00    0,000000000e+00
      632000000   -8,407918364e-02    1,615907997e-02   -9,920101613e-02    6,639890671e-01    0,000000000e+00    0,000000000e+00    0,000000000e+00    0,000000000e+00
      646000000   -5,139436573e-02    9,650696884e-04    2,872981131e-01    5,952929258e-01    0,000000000e+00    0,000000000e+00    0,000000000e+00    0,000000000e+00
      660000000   -5,354205519e-02   -2,146746777e-02    5,668877959e-01    3,228683174e-01    0,000000000e+00    0,000000000e+00    0,000000000e+00    0,000000000e+00
      674000000   -6,956361234e-02   -1,776406355e-02    6,432424784e-01   -6,535293162e-02    0,000000000e+00    0,000000000e+00    0,000000000e+00    0,000000000e+00
      688000000   -6,834499538e-02    8,305209689e-03    4,716576636e-01   -4,279086888e-01    0,000000000e+00    0,000000000e+00    0,000000000e+00    0,000000000e+00
      702000000   -3,716412932e-02    2,604384720e-02    1,204978004e-01   -6,068175435e-01    0,000000000e+00    0,000000000e+00    0,000000000e+00    0,000000000e+00
      716000000    2,701252000e-03    1,836333610e-02   -2,636947036e-01   -5,467288494e-01    0,000000000e+00    0,000000000e+00    0,000000000e+00    0,000000000e+00
      730000000    3,684861213e-02   -1,166917011e-02   -5,283742547e-01   -2,685647011e-01    0,000000000e+00    0,000000000e+00    0,000000000e+00    0,000000000e+00
      744000000    6,568748504e-02   -6,263314188e-02   -5,643456578e-01    1,064109728e-01    0,000000000e+00    0,000000000e+00    0,000000000e+00    0,000000000e+00
      758000000    6,592755765e-02   -1,522957385e-01   -3,629822731e-01    4,105883539e-01    0,000000000e+00    0,000000000e+00    0,000000000e+00    0,000000000e+00
      772000000   -1,190693118e-02   -2,626076341e-01   -3,497298434e-02    5,157657266e-01    0,000000000e+00    0,000000000e+00    0,000000000e+00    0,000000000e+00
      786000000   -2,064819038e-01   -3,030796051e-01    2,745539844e-01    3,955099583e-01    0,000000000e+00    0,000000000e+00    0,000000000e+00    0,000000000e+00
      800000000   -4,258808792e-01   -1,296995878e-01    4,172958732e-01    9,891944379e-02    0,000000000e+00    0,000000000e+00    0,000000000e+00    0,000000000e+00
      814000000   -3,908473551e-01    2,209184021e-01    2,823330462e-01   -1,728001386e-01    0,000000000e+00    0,000000000e+00    0,000000000e+00    0,000000000e+00
      828000000   -4,926426336e-02    3,686216176e-01    5,530120432e-02   -1,890185475e-01    0,000000000e+00    0,000000000e+00    0,000000000e+00    0,000000000e+00
      842000000    2,347158939e-01    1,862737685e-01   -1,722828485e-02   -7,056176662e-02    0,000000000e+00    0,000000000e+00    0,000000000e+00    0,000000000e+00
      856000000    2,803176641e-01   -1,243654042e-01    4,518458620e-02   -1,271380857e-02    0,000000000e+00    0,000000000e+00    0,000000000e+00    0,000000000e+00
      870000000    7,532851398e-02   -3,758620322e-01    1,142356768e-01   -9,072909504e-02    0,000000000e+00    0,000000000e+00    0,000000000e+00    0,000000000e+00
      884000000   -2,952517867e-01   -3,616381288e-01    2,946436964e-02   -2,454107404e-01    0,000000000e+00    0,000000000e+00    0,000000000e+00    0,000000000e+00
      898000000   -4,715819359e-01    8,075256832e-03   -2,214866132e-01   -2,275804132e-01    0,000000000e+00    0,000000000e+00    0,000000000e+00    0,000000000e+00
      912000000   -2,270005345e-01    2,941188514e-01   -3,491733968e-01    7,696268708e-02    0,000000000e+00    0,000000000e+00    0,000000000e+00    0,000000000e+00
      926000000    6,534609944e-02    2,633554339e-01   -2,189611793e-01    2,640655935e-01    0,000000000e+00    0,000000000e+00    0,000000000e+00    0,000000000e+00
      940000000    2,169137299e-01    8,204162121e-02   -3,473352268e-02    3,288300633e-01    0,000000000e+00    0,000000000e+00    0,000000000e+00    0,000000000e+00
      954000000    2,241408527e-01   -1,300564408e-01    1,291498095e-01    3,051565588e-01    0,000000000e+00    0,000000000e+00    0,000000000e+00    0,000000000e+00
      968000000    1,139901355e-01   -3,002943993e-01    2,730320394e-01    2,184780091e-01    0,000000000e+00    0,000000000e+00    0,000000000e+00    0,000000000e+00
      982000000   -8,244513720e-02   -3,863228858e-01    3,670911789e-01    6,616594642e-02    0,000000000e+00    0,000000000e+00    0,000000000e+00    0,000000000e+00
      996000000   -3,137294650e-01   -3,298519254e-01    3,701467514e-01   -1,451435983e-01    0,000000000e+00    0,000000000e+00    0,000000000e+00    0,000000000e+00
     1010000000   -4,664113224e-01   -1,095573381e-01    2,246222645e-01   -3,427895010e-01    0,000000000e+00    0,000000000e+00    0,000000000e+00    0,000000000e+00
     1024000000   -4,099173248e-01    1,518249959e-01   -3,529405221e-02   -3,904532492e-01    0,000000000e+00    0,000000000e+00    0,000000000e+00    0,000000000e+00
     1038000000   -2,173174918e-01    2,876996696e-01   -2,467799336e-01   -2,609652579e-01    0,000000000e+00    0,000000000e+00    0,000000000e+00    0,000000000e+00
     1052000000   -5,092807580e-03    2,756961584e-01   -3,166034520e-01   -4,535672814e-02    0,000000000e+00    0,000000000e+00    0,000000000e+00    0,000000000e+00
     1066000000    1,318354756e-01    1,629200876e-01   -2,552999854e-01    1,434695721e-01    0,000000000e+00    0,000000000e+00    0,000000000e+00    0,000000000e+00
     1080000000    1,966353506e-01    1,484271605e-03   -1,194330528e-01    2,632575631e-01    0,000000000e+00    0,000000000e+00    0,000000000e+00    0,000000000e+00
     1094000000    1,546208709e-01   -1,768843085e-01    6,233251840e-02    3,053966463e-01    0,000000000e+00    0,000000000e+00    0,000000000e+00    0,000000000e+00
     1108000000   -5,356442183e-03   -3,062340021e-01    2,744906247e-01    2,465629429e-01    0,000000000e+00    0,000000000e+00    0,000000000e+00    0,000000000e+00
     1122000000   -2,465322018e-01   -2,680021226e-01    4,729279578e-01    1,368370466e-02    0,000000000e+00    0,000000000e+00    0,000000000e+00    0,000000000e+00
     1136000000   -3,166169822e-01    2,735959366e-02    3,981435597e-01   -3,924216926e-01    0,000000000e+00    0,000000000e+00    0,000000000e+00    0,000000000e+00
     1150000000   -3,730840981e-02    1,521641314e-01    7,023519836e-03   -5,425994396e-01    0,000000000e+00    0,000000000e+00    0,000000000e+00    0,000000000e+00
     1164000000    1,255753636e-01   -6,002362818e-02   -2,779724896e-01   -3,788355887e-01    0,000000000e+00    0,000000000e+00    0,000000000e+00    0,000000000e+00
     1178000000    2,131384052e-02   -3,054982424e-01   -3,675890863e-01   -1,535353512e-01    0,000000000e+00    0,000000000e+00    0,000000000e+00    0,000000000e+00
     1192000000   -2,649582624e-01   -3,670463264e-01   -3,212715685e-01    5,725646764e-02    0,000000000e+00    0,000000000e+00    0,000000000e+00    0,000000000e+00
     1206000000   -5,188835263e-01   -1,567071974e-01   -1,672681123e-01    1,842410117e-01    0,000000000e+00    0,000000000e+00    0,000000000e+00    0,000000000e+00
     1220000000   -5,076009631e-01    1,712720096e-01    2,587325172e-03    1,558577120e-01    0,000000000e+00    0,000000000e+00    0,000000000e+00    0,000000000e+00
     1234000000   -2,841193080e-01    3,593925834e-01    7,132736593e-02    5,965950713e-02    0,000000000e+00    0,000000000e+00    0,000000000e+00    0,000000000e+00
     1248000000   -3,960978985e-02    3,645509183e-01    5,593294650e-02   -8,517671376e-03    0,000000000e+00    0,000000000e+00    0,000000000e+00    0,000000000e+00
     1262000000    1,199628636e-01    2,559500337e-01    1,432198007e-02   -2,235838212e-02    0,000000000e+00    0,000000000e+00    0,000000000e+00    0,000000000e+00
     1276000000    2,112346739e-01    9,657830745e-02   -1,956114080e-03    6,886039628e-04    0,000000000e+00    0,000000000e+00    0,000000000e+00    0,000000000e+00
     1290000000    2,260396928e-01   -7,346849889e-02    1,968981884e-02    4,855207354e-02    0,000000000e+00    0,000000000e+00    0,000000000e+00    0,000000000e+00
     1304000000    1,558138579e-01   -2,410124093e-01    1,353298724e-01    6,369109452e-02    0,000000000e+00    0,000000000e+00    0,000000000e+00    0,000000000e+00
     1318000000    3,453683853e-02   -3,344049156e-01    1,340789497e-01   -1,605563611e-01    0,000000000e+00    0,000000000e+00    0,000000000e+00    0,000000000e+00
     1332000000   -1,283843517e-01   -4,345008731e-01   -4,239220172e-02   -4,222358018e-02    0,000000000e+00    0,000000000e+00    0,000000000e+00    0,000000000e+00
     1346000000   -3,900038898e-01   -4,131849706e-01    2,729004994e-02    6,731117517e-02    0,000000000e+00    0,000000000e+00    0,000000000e+00    0,000000000e+00
     1360000000   -6,105856299e-01   -1,852570921e-01    1,319539100e-01    6,932695955e-02    0,000000000e+00    0,000000000e+00    0,000000000e+00    0,000000000e+00
     1374000000   -6,343396902e-01    1,244625747e-01    1,942713261e-01   -1,765203313e-03    0,000000000e+00    0,000000000e+00    0,000000000e+00    0,000000000e+00
     1388000000   -4,720353484e-01    3,603610396e-01    2,169755101e-01   -7,374328375e-02    0,000000000e+00    0,000000000e+00    0,000000000e+00    0,000000000e+00
     1402000000   -2,375576496e-01    4,504338801e-01    1,819173992e-01   -9,471615404e-02    0,000000000e+00    0,000000000e+00    0,000000000e+00    0,000000000e+00
     1416000000   -2,958013304e-02    4,073485136e-01    1,678704172e-01   -1,093206406e-01    0,000000000e+00    0,000000000e+00    0,000000000e+00    0,000000000e+00
     1430000000    1,234904528e-01    3,062142730e-01    1,789236516e-01   -1,274027228e-01    0,000000000e+00    0,000000000e+00    0,000000000e+00    0,000000000e+00
     1444000000    2,027016580e-01    1,510952860e-01    1,496629268e-01   -9,781327099e-02    0,000000000e+00    0,000000000e+00    0,000000000e+00    0,000000000e+00
     1458000000    2,364399582e-01   -1,820960641e-02    1,508472562e-01   -7,108720392e-02    0,000000000e+00    0,000000000e+00    0,000000000e+00    0,000000000e+00
     1472000000    1,921994984e-01   -2,027947754e-01    1,471769363e-01   -1,752417162e-02    0,000000000e+00    0,000000000e+00    0,000000000e+00    0,000000000e+00
     1486000000    6,272205710e-02   -3,771598041e-01    1,794941723e-01    3,434513137e-02    0,000000000e+00    0,000000000e+00    0,000000000e+00    0,000000000e+00
     1500000000   -1,686307192e-01   -4,903287888e-01    2,519502342e-01    9,739780426e-02    0,000000000e+00    0,000000000e+00    0,000000000e+00    0,000000000e+00
