! NanoVNA-App
! Date: 2025-09-25 15:35:19
! Start: 100MHz Stop: 1,5GHz Points: 101
! S-Parameter data: F S11 S21 S12 S22
# Hz S RI R 50
!     Frequency           S11_Real           S11_Imag           S21_Real           S21_Imag           S12_Real           S12_Imag           S22_Real           S22_Imag
      100000000   -2,883009240e-02   -4,163926933e-03    3,741274178e-01   -7,218050957e-01    0,000000000e+00    0,000000000e+00    0,000000000e+00    0,000000000e+00
      114000000   -1,647549681e-02    1,148508210e-02   -8,916504681e-02   -8,054658175e-01    0,000000000e+00    0,000000000e+00    0,000000000e+00    0,000000000e+00
      128000000    3,486752743e-03    1,056783274e-02   -5,145470500e-01   -6,206533909e-01    0,000000000e+00    0,000000000e+00    0,000000000e+00    0,000000000e+00
      142000000    1,457717456e-02   -2,972328803e-03   -7,671670318e-01   -2,366079390e-01    0,000000000e+00    0,000000000e+00    0,000000000e+00    0,000000000e+00
      156000000    1,520042494e-02   -1,502391137e-02   -7,692839503e-01    2,197069824e-01    0,000000000e+00    0,000000000e+00    0,000000000e+00    0,000000000e+00
      170000000    1,673708297e-02   -2,253126539e-02   -5,182369947e-01    6,048955917e-01    0,000000000e+00    0,000000000e+00    0,000000000e+00    0,000000000e+00
      184000000    2,101232111e-02   -3,710923344e-02   -1,012904048e-01    7,859592438e-01    0,000000000e+00    0,000000000e+00    0,000000000e+00    0,000000000e+00
      198000000    1,306842640e-02   -6,244088337e-02    3,433279991e-01    7,123433352e-01    0,000000000e+00    0,000000000e+00    0,000000000e+00    0,000000000e+00
      212000000   -1,862949133e-02   -8,135525137e-02    6,779702902e-01    4,100359678e-01    0,000000000e+00    0,000000000e+00    0,000000000e+00    0,000000000e+00
      226000000   -6,168653443e-02   -6,922060996e-02    7,957842946e-01   -3,049217165e-02    0,000000000e+00    0,000000000e+00    0,000000000e+00    0,000000000e+00
      240000000   -8,262059093e-02   -2,559251338e-02    6,461777091e-01   -4,670912325e-01    0,000000000e+00    0,000000000e+00    0,000000000e+00    0,000000000e+00
      254000000   -6,348836422e-02    1,723914593e-02    2,761520445e-01   -7,433837652e-01    0,000000000e+00    0,000000000e+00    0,000000000e+00    0,000000000e+00
      268000000   -2,378874645e-02    2,894304693e-02   -1,782307029e-01   -7,647922635e-01    0,000000000e+00    0,000000000e+00    0,000000000e+00    0,000000000e+00
      282000000    4,232942127e-03    1,198963448e-02   -5,617324114e-01   -5,355347991e-01    0,000000000e+00    0,000000000e+00    0,000000000e+00    0,000000000e+00
      296000000    9,691205807e-03   -7,846964523e-03   -7,598884106e-01   -1,396332532e-01    0,000000000e+00    0,000000000e+00    0,000000000e+00    0,000000000e+00
      310000000    1,115970314e-02   -1,625656523e-02   -7,120953798e-01    2,991977036e-01    0,000000000e+00    0,000000000e+00    0,000000000e+00    0,000000000e+00
      324000000    1,967685670e-02   -2,661978826e-02   -4,273243845e-01    6,370838881e-01    0,000000000e+00    0,000000000e+00    0,000000000e+00    0,000000000e+00
      338000000    2,556378581e-02   -5,196891353e-02   -1,077388600e-02    7,633252144e-01    0,000000000e+00    0,000000000e+00    0,000000000e+00    0,000000000e+00
      352000000    7,550565526e-03   -8,480829746e-02    4,071811140e-01    6,393343806e-01    0,000000000e+00    0,000000000e+00    0,000000000e+00    0,000000000e+00
      366000000   -3,444299847e-02   -9,565332532e-02    6,917778254e-01    3,116741180e-01    0,000000000e+00    0,000000000e+00    0,000000000e+00    0,000000000e+00
      380000000   -7,060787827e-02   -7,124781609e-02    7,477854490e-01   -1,252208054e-01    0,000000000e+00    0,000000000e+00    0,000000000e+00    0,000000000e+00
      394000000   -7,232432067e-02   -3,269251809e-02    5,467032194e-01   -5,228314996e-01    0,000000000e+00    0,000000000e+00    0,000000000e+00    0,000000000e+00
      408000000   -4,665847495e-02   -1,621457003e-02    1,604832262e-01   -7,332282066e-01    0,000000000e+00    0,000000000e+00    0,000000000e+00    0,000000000e+00
      422000000   -2,816452645e-02   -3,182198107e-02   -2,669983506e-01   -6,946641803e-01    0,000000000e+00    0,000000000e+00    0,000000000e+00    0,000000000e+00
      436000000   -4,075745121e-02   -5,204770342e-02   -6,040695906e-01   -4,326040745e-01    0,000000000e+00    0,000000000e+00    0,000000000e+00    0,000000000e+00
      450000000   -6,757818162e-02   -4,397122189e-02   -7,407365441e-01   -2,135526016e-02    0,000000000e+00    0,000000000e+00    0,000000000e+00    0,000000000e+00
      464000000   -7,336136699e-02   -1,176843978e-02   -6,181790233e-01    3,978278637e-01    0,000000000e+00    0,000000000e+00    0,000000000e+00    0,000000000e+00
      478000000   -4,764448106e-02    1,161578484e-02   -2,829141319e-01    6,674091220e-01    0,000000000e+00    0,000000000e+00    0,000000000e+00    0,000000000e+00
      492000000   -1,581703313e-02    6,110586226e-03    1,370834112e-01    7,009611726e-01    0,000000000e+00    0,000000000e+00    0,000000000e+00    0,000000000e+00
      506000000   -2,769170795e-03   -1,577316783e-02    4,987548590e-01    5,025950670e-01    0,000000000e+00    0,000000000e+00    0,000000000e+00    0,000000000e+00
      520000000   -4,950228147e-03   -3,153354675e-02    6,882008314e-01    1,411103159e-01    0,000000000e+00    0,000000000e+00    0,000000000e+00    0,000000000e+00
      534000000   -3,834265983e-03   -3,835769370e-02    6,434385777e-01   -2,630650401e-01    0,000000000e+00    0,000000000e+00    0,000000000e+00    0,000000000e+00
      548000000    5,862366874e-03   -5,379421636e-02    3,811702132e-01   -5,672607422e-01    0,000000000e+00    0,000000000e+00    0,000000000e+00    0,000000000e+00
      562000000    2,877008403e-03   -8,950251341e-02    1,648102188e-03   -6,729477048e-01    0,000000000e+00    0,000000000e+00    0,000000000e+00    0,000000000e+00
      576000000   -3,393045440e-02   -1,237281859e-01   -3,693750501e-01   -5,573254228e-01    0,000000000e+00    0,000000000e+00    0,000000000e+00    0,000000000e+00
      590000000   -9,629689157e-02   -1,229060143e-01   -6,203329563e-01   -2,650560439e-01    0,000000000e+00    0,000000000e+00    0,000000000e+00    0,000000000e+00
      604000000   -1,392994672e-01   -7,188370079e-02   -6,647033095e-01    1,378733218e-01    0,000000000e+00    0,000000000e+00    0,000000000e+00    0,000000000e+00
      618000000   -1,298205405e-01   -9,483154863e-03   -4,653909504e-01    4,948855042e-01    0,000000000e+00    0,000000000e+00    0,000000000e+00    0,000000000e+00
      632000000   -8,410339057e-02    1,620713994e-02   -9,844469279e-02    6,629931927e-01    0,000000000e+00    0,000000000e+00    0,000000000e+00    0,000000000e+00
      646000000   -5,058544502e-02    2,511323546e-04    2,881537378e-01    5,944606662e-01    0,000000000e+00    0,000000000e+00    0,000000000e+00    0,000000000e+00
      660000000   -5,357522890e-02   -2,184701338e-02    5,684664845e-01    3,231675029e-01    0,000000000e+00    0,000000000e+00    0,000000000e+00    0,000000000e+00
      674000000   -7,027452439e-02   -1,712519489e-02    6,430862546e-01   -6,536035240e-02    0,000000000e+00    0,000000000e+00    0,000000000e+00    0,000000000e+00
      688000000   -6,797261536e-02    8,429104462e-03    4,713546634e-01   -4,275388122e-01    0,000000000e+00    0,000000000e+00    0,000000000e+00    0,000000000e+00
      702000000   -3,807856515e-02    2,651892044e-02    1,170984954e-01   -6,124345064e-01    0,000000000e+00    0,000000000e+00    0,000000000e+00    0,000000000e+00
      716000000    2,374429489e-03    1,710571349e-02   -2,652411461e-01   -5,475581288e-01    0,000000000e+00    0,000000000e+00    0,000000000e+00    0,000000000e+00
      730000000    3,708569333e-02   -1,163615007e-02   -5,291572809e-01   -2,696219981e-01    0,000000000e+00    0,000000000e+00    0,000000000e+00    0,000000000e+00
      744000000    6,576474756e-02   -6,233320385e-02   -5,647273660e-01    1,064045653e-01    0,000000000e+00    0,000000000e+00    0,000000000e+00    0,000000000e+00
      758000000    6,622940302e-02   -1,528454274e-01   -3,631672561e-01    4,107091725e-01    0,000000000e+00    0,000000000e+00    0,000000000e+00    0,000000000e+00
      772000000   -1,364863571e-02   -2,627983391e-01   -3,403424472e-02    5,153039098e-01    0,000000000e+00    0,000000000e+00    0,000000000e+00    0,000000000e+00
      786000000   -2,066559047e-01   -3,036641479e-01    2,747125328e-01    3,962855339e-01    0,000000000e+00    0,000000000e+00    0,000000000e+00    0,000000000e+00
      800000000   -4,246520400e-01   -1,300354451e-01    4,166094661e-01    9,884601086e-02    0,000000000e+00    0,000000000e+00    0,000000000e+00    0,000000000e+00
      814000000   -3,887286782e-01    2,226234525e-01    2,818939984e-01   -1,731562167e-01    0,000000000e+00    0,000000000e+00    0,000000000e+00    0,000000000e+00
      828000000   -5,003530905e-02    3,692497611e-01    5,518707633e-02   -1,892376244e-01    0,000000000e+00    0,000000000e+00    0,000000000e+00    0,000000000e+00
      842000000    2,351150513e-01    1,863183528e-01   -1,721771248e-02   -7,074268907e-02    0,000000000e+00    0,000000000e+00    0,000000000e+00    0,000000000e+00
      856000000    2,803635597e-01   -1,242178231e-01    4,465049878e-02   -1,267414819e-02    0,000000000e+00    0,000000000e+00    0,000000000e+00    0,000000000e+00
      870000000    7,522331923e-02   -3,763870895e-01    1,135386899e-01   -9,059898555e-02    0,000000000e+00    0,000000000e+00    0,000000000e+00    0,000000000e+00
      884000000   -2,953927219e-01   -3,610334396e-01    2,745480835e-02   -2,452633977e-01    0,000000000e+00    0,000000000e+00    0,000000000e+00    0,000000000e+00
      898000000   -4,713777900e-01    8,257695474e-03   -2,213291377e-01   -2,284207344e-01    0,000000000e+00    0,000000000e+00    0,000000000e+00    0,000000000e+00
      912000000   -2,252383530e-01    2,942950428e-01   -3,433370888e-01    6,056861579e-02    0,000000000e+00    0,000000000e+00    0,000000000e+00    0,000000000e+00
      926000000    6,830517948e-02    2,630521059e-01   -2,152830958e-01    2,634462416e-01    0,000000000e+00    0,000000000e+00    0,000000000e+00    0,000000000e+00
      940000000    2,176067680e-01    8,063429594e-02   -3,661351651e-02    3,308920562e-01    0,000000000e+00    0,000000000e+00    0,000000000e+00    0,000000000e+00
      954000000    2,256085575e-01   -1,261750162e-01    1,319663674e-01    3,057115376e-01    0,000000000e+00    0,000000000e+00    0,000000000e+00    0,000000000e+00
      968000000    1,148612499e-01   -2,980080545e-01    2,720338404e-01    2,196812332e-01    0,000000000e+00    0,000000000e+00    0,000000000e+00    0,000000000e+00
      982000000   -7,945629209e-02   -3,896805942e-01    3,654263914e-01    6,598300487e-02    0,000000000e+00    0,000000000e+00    0,000000000e+00    0,000000000e+00
      996000000   -3,205619752e-01   -3,286656141e-01    3,704477847e-01   -1,456435472e-01    0,000000000e+00    0,000000000e+00    0,000000000e+00    0,000000000e+00
     1010000000   -4,662980437e-01   -1,135894433e-01    2,225079685e-01   -3,401384950e-01    0,000000000e+00    0,000000000e+00    0,000000000e+00    0,000000000e+00
     1024000000   -4,170494080e-01    1,465750337e-01   -3,348467872e-02   -3,932529986e-01    0,000000000e+00    0,000000000e+00    0,000000000e+00    0,000000000e+00
     1038000000   -2,209372073e-01    2,947890460e-01   -2,467270941e-01   -2,619409859e-01    0,000000000e+00    0,000000000e+00    0,000000000e+00    0,000000000e+00
     1052000000   -5,118394736e-03    2,788268030e-01   -3,177059293e-01   -4,676295444e-02    0,000000000e+00    0,000000000e+00    0,000000000e+00    0,000000000e+00
     1066000000    1,326106340e-01    1,626123637e-01   -2,591483593e-01    1,427112371e-01    0,000000000e+00    0,000000000e+00    0,000000000e+00    0,000000000e+00
     1080000000    1,941232681e-01    1,690294594e-03   -1,199605912e-01    2,620765567e-01    0,000000000e+00    0,000000000e+00    0,000000000e+00    0,000000000e+00
     1094000000    1,498005092e-01   -1,745064259e-01    6,479248405e-02    3,051933646e-01    0,000000000e+00    0,000000000e+00    0,000000000e+00    0,000000000e+00
     1108000000    5,634801346e-04   -3,051233590e-01    2,755261958e-01    2,463817596e-01    0,000000000e+00    0,000000000e+00    0,000000000e+00    0,000000000e+00
     1122000000   -2,511956394e-01   -2,682797313e-01    4,725051224e-01    1,039987430e-02    0,000000000e+00    0,000000000e+00    0,000000000e+00    0,000000000e+00
     1136000000   -3,190315366e-01    3,602701426e-02    4,004660249e-01   -3,922360837e-01    0,000000000e+00    0,000000000e+00    0,000000000e+00    0,000000000e+00
     1150000000   -3,776749969e-02    1,543403268e-01    6,315329578e-03   -5,441786051e-01    0,000000000e+00    0,000000000e+00    0,000000000e+00    0,000000000e+00
     1164000000    1,219144762e-01   -6,419532746e-02   -2,783042789e-01   -3,764857650e-01    0,000000000e+00    0,000000000e+00    0,000000000e+00    0,000000000e+00
     1178000000    1,672173105e-02   -3,031510711e-01   -3,708659410e-01   -1,509943008e-01    0,000000000e+00    0,000000000e+00    0,000000000e+00    0,000000000e+00
     1192000000   -2,650216818e-01   -3,704814911e-01   -3,259925544e-01    5,843517184e-02    0,000000000e+00    0,000000000e+00    0,000000000e+00    0,000000000e+00
     1206000000   -5,204013586e-01   -1,639560908e-01   -1,672024131e-01    1,754572093e-01    0,000000000e+00    0,000000000e+00    0,000000000e+00    0,000000000e+00
     1220000000   -5,042932630e-01    1,716668010e-01    4,906781949e-03    1,559927166e-01    0,000000000e+00    0,000000000e+00    0,000000000e+00    0,000000000e+00
     1234000000   -2,899172008e-01    3,596103787e-01    7,007653266e-02    6,441581994e-02    0,000000000e+00    0,000000000e+00    0,000000000e+00    0,000000000e+00
     1248000000   -4,010601714e-02    3,616910577e-01    5,658638105e-02   -5,867491476e-03    0,000000000e+00    0,000000000e+00    0,000000000e+00    0,000000000e+00
     1262000000    1,250848174e-01    2,598001659e-01    1,850626804e-02   -1,870122552e-02    0,000000000e+00    0,000000000e+00    0,000000000e+00    0,000000000e+00
     1276000000    2,121815532e-01    1,018614545e-01   -1,673729275e-03    8,129429072e-03    0,000000000e+00    0,000000000e+00    0,000000000e+00    0,000000000e+00
     1290000000    2,270216048e-01   -7,174586505e-02    2,091324143e-02    5,392390862e-02    0,000000000e+00    0,000000000e+00    0,000000000e+00    0,000000000e+00
     1304000000    1,570553780e-01   -2,463459969e-01    1,315182000e-01    6,458376348e-02    0,000000000e+00    0,000000000e+00    0,000000000e+00    0,000000000e+00
     1318000000    3,754720464e-02   -3,338544667e-01    1,251395941e-01   -1,674460769e-01    0,000000000e+00    0,000000000e+00    0,000000000e+00    0,000000000e+00
     1332000000   -1,289843470e-01   -4,383127689e-01   -4,353054240e-02   -4,355721548e-02    0,000000000e+00    0,000000000e+00    0,000000000e+00    0,000000000e+00
     1346000000   -3,937796652e-01   -4,131555855e-01    2,642864175e-02    5,854801461e-02    0,000000000e+00    0,000000000e+00    0,000000000e+00    0,000000000e+00
     1360000000   -6,144925952e-01   -1,886404455e-01    1,349926740e-01    7,156503201e-02    0,000000000e+00    0,000000000e+00    0,000000000e+00    0,000000000e+00
     1374000000   -6,347458363e-01    1,285355985e-01    1,979898661e-01    6,494422909e-03    0,000000000e+00    0,000000000e+00    0,000000000e+00    0,000000000e+00
     1388000000   -4,679438174e-01    3,673017919e-01    2,178878784e-01   -6,919081509e-02    0,000000000e+00    0,000000000e+00    0,000000000e+00    0,000000000e+00
     1402000000   -2,329298854e-01    4,581621587e-01    1,820580661e-01   -9,443898499e-02    0,000000000e+00    0,000000000e+00    0,000000000e+00    0,000000000e+00
     1416000000   -3,019547090e-02    4,125753045e-01    1,722649485e-01   -1,073575392e-01    0,000000000e+00    0,000000000e+00    0,000000000e+00    0,000000000e+00
     1430000000    1,194738075e-01    3,014719188e-01    1,626590639e-01   -9,622590244e-02    0,000000000e+00    0,000000000e+00    0,000000000e+00    0,000000000e+00
     1444000000    2,045882344e-01    1,516579092e-01    1,510772258e-01   -1,011232659e-01    0,000000000e+00    0,000000000e+00    0,000000000e+00    0,000000000e+00
     1458000000    2,338587344e-01   -2,041875385e-02    1,476554871e-01   -8,097115159e-02    0,000000000e+00    0,000000000e+00    0,000000000e+00    0,000000000e+00
     1472000000    1,932621896e-01   -1,962870955e-01    1,425930113e-01   -2,957602218e-02    0,000000000e+00    0,000000000e+00    0,000000000e+00    0,000000000e+00
     1486000000    5,945098400e-02   -3,760629594e-01    1,633841544e-01    2,849806845e-02    0,000000000e+00    0,000000000e+00    0,000000000e+00    0,000000000e+00
     1500000000   -1,718884557e-01   -4,876402617e-01    2,474420518e-01    1,095762998e-01    0,000000000e+00    0,000000000e+00    0,000000000e+00    0,000000000e+00
