! NanoVNA-App
! Date: 2025-09-25 15:34:46
! Start: 100MHz Stop: 1,5GHz Points: 101
! S-Parameter data: F S11 S21 S12 S22
# Hz S RI R 50
!     Frequency           S11_Real           S11_Imag           S21_Real           S21_Imag           S12_Real           S12_Imag           S22_Real           S22_Imag
      100000000   -2,884469740e-02   -4,178158008e-03    3,740903139e-01   -7,218192220e-01    0,000000000e+00    0,000000000e+00    0,000000000e+00    0,000000000e+00
      114000000   -1,645976305e-02    1,151198242e-02   -8,896990120e-02   -8,055377603e-01    0,000000000e+00    0,000000000e+00    0,000000000e+00    0,000000000e+00
      128000000    3,504747292e-03    1,054918766e-02   -5,147068501e-01   -6,205977798e-01    0,000000000e+00    0,000000000e+00    0,000000000e+00    0,000000000e+00
      142000000    1,456515864e-02   -2,955503529e-03   -7,670040131e-01   -2,364529967e-01    0,000000000e+00    0,000000000e+00    0,000000000e+00    0,000000000e+00
      156000000    1,571800001e-02   -1,445859950e-02   -7,690479755e-01    2,236142606e-01    0,000000000e+00    0,000000000e+00    0,000000000e+00    0,000000000e+00
      170000000    1,671106368e-02   -2,249610238e-02   -5,180031657e-01    6,045414805e-01    0,000000000e+00    0,000000000e+00    0,000000000e+00    0,000000000e+00
      184000000    2,103457972e-02   -3,704952821e-02   -1,014639288e-01    7,858771682e-01    0,000000000e+00    0,000000000e+00    0,000000000e+00    0,000000000e+00
      198000000    1,303989720e-02   -6,247379631e-02    3,432868123e-01    7,122623920e-01    0,000000000e+00    0,000000000e+00    0,000000000e+00    0,000000000e+00
      212000000   -1,866088249e-02   -8,135350794e-02    6,781708002e-01    4,101237655e-01    0,000000000e+00    0,000000000e+00    0,000000000e+00    0,000000000e+00
      226000000   -6,167152524e-02   -6,926121563e-02    7,957283258e-01   -3,050703742e-02    0,000000000e+00    0,000000000e+00    0,000000000e+00    0,000000000e+00
      240000000   -8,263928443e-02   -2,561635897e-02    6,462609172e-01   -4,670838118e-01    0,000000000e+00    0,000000000e+00    0,000000000e+00    0,000000000e+00
      254000000   -6,345964968e-02    1,727504842e-02    2,759512961e-01   -7,429704666e-01    0,000000000e+00    0,000000000e+00    0,000000000e+00    0,000000000e+00
      268000000   -2,389376983e-02    2,892376110e-02   -1,780893952e-01   -7,639685869e-01    0,000000000e+00    0,000000000e+00    0,000000000e+00    0,000000000e+00
      282000000    4,193021916e-03    1,189744473e-02   -5,615911484e-01   -5,356001854e-01    0,000000000e+00    0,000000000e+00    0,000000000e+00    0,000000000e+00
      296000000    9,726809338e-03   -7,885655388e-03   -7,598417401e-01   -1,396521926e-01    0,000000000e+00    0,000000000e+00    0,000000000e+00    0,000000000e+00
      310000000    1,097311452e-02   -1,608638279e-02   -7,133200169e-01    2,992169857e-01    0,000000000e+00    0,000000000e+00    0,000000000e+00    0,000000000e+00
      324000000    1,960089058e-02   -2,668596059e-02   -4,269661903e-01    6,373853087e-01    0,000000000e+00    0,000000000e+00    0,000000000e+00    0,000000000e+00
      338000000    2,543378435e-02   -5,203112960e-02   -8,425510488e-03    7,598150373e-01    0,000000000e+00    0,000000000e+00    0,000000000e+00    0,000000000e+00
      352000000    7,340961136e-03   -8,483947068e-02    4,063360691e-01    6,398628950e-01    0,000000000e+00    0,000000000e+00    0,000000000e+00    0,000000000e+00
      366000000   -3,475359082e-02   -9,559727460e-02    6,897789836e-01    3,111808002e-01    0,000000000e+00    0,000000000e+00    0,000000000e+00    0,000000000e+00
      380000000   -7,096592337e-02   -7,105135918e-02    7,471523881e-01   -1,261638403e-01    0,000000000e+00    0,000000000e+00    0,000000000e+00    0,000000000e+00
      394000000   -7,263065130e-02   -3,231198341e-02    5,470051169e-01   -5,213512182e-01    0,000000000e+00    0,000000000e+00    0,000000000e+00    0,000000000e+00
      408000000   -4,644567519e-02   -1,590267755e-02    1,612240374e-01   -7,310562134e-01    0,000000000e+00    0,000000000e+00    0,000000000e+00    0,000000000e+00
      422000000   -2,843180299e-02   -3,215405345e-02   -2,677816451e-01   -6,958869100e-01    0,000000000e+00    0,000000000e+00    0,000000000e+00    0,000000000e+00
      436000000   -4,094886407e-02   -5,168856308e-02   -6,044075489e-01   -4,315680265e-01    0,000000000e+00    0,000000000e+00    0,000000000e+00    0,000000000e+00
      450000000   -6,737628579e-02   -4,357695580e-02   -7,404631972e-01   -2,107276209e-02    0,000000000e+00    0,000000000e+00    0,000000000e+00    0,000000000e+00
      464000000   -7,325333357e-02   -1,181522850e-02   -6,186558604e-01    3,976705968e-01    0,000000000e+00    0,000000000e+00    0,000000000e+00    0,000000000e+00
      478000000   -4,744476080e-02    1,157235540e-02   -2,823039889e-01    6,681410074e-01    0,000000000e+00    0,000000000e+00    0,000000000e+00    0,000000000e+00
      492000000   -1,584713720e-02    5,763464607e-03    1,375150681e-01    7,004905343e-01    0,000000000e+00    0,000000000e+00    0,000000000e+00    0,000000000e+00
      506000000   -2,377497265e-03   -1,573708840e-02    4,984911084e-01    5,020528436e-01    0,000000000e+00    0,000000000e+00    0,000000000e+00    0,000000000e+00
      520000000   -4,510647617e-03   -3,149815649e-02    6,881651282e-01    1,415674388e-01    0,000000000e+00    0,000000000e+00    0,000000000e+00    0,000000000e+00
      534000000   -4,083297681e-03   -3,845698014e-02    6,435816288e-01   -2,630521655e-01    0,000000000e+00    0,000000000e+00    0,000000000e+00    0,000000000e+00
      548000000    6,308429409e-03   -5,412546918e-02    3,816475868e-01   -5,677551031e-01    0,000000000e+00    0,000000000e+00    0,000000000e+00    0,000000000e+00
      562000000    2,746247919e-03   -8,937125653e-02    2,309701638e-03   -6,724514961e-01    0,000000000e+00    0,000000000e+00    0,000000000e+00    0,000000000e+00
      576000000   -3,438420221e-02   -1,245516837e-01   -3,687841296e-01   -5,579167604e-01    0,000000000e+00    0,000000000e+00    0,000000000e+00    0,000000000e+00
      590000000   -9,636732936e-02   -1,226949170e-01   -6,214170456e-01   -2,652525604e-01    0,000000000e+00    0,000000000e+00    0,000000000e+00    0,000000000e+00
      604000000   -1,399372518e-01   -7,170432806e-02   -6,649240255e-01    1,382837147e-01    0,000000000e+00    0,000000000e+00    0,000000000e+00    0,000000000e+00
      618000000   -1,291845143e-01   -8,890078403e-03   -4,644303620e-01    4,949215055e-01    0,000000000e+00    0,000000000e+00    0,000000000e+00    0,000000000e+00
      632000000   -8,460984379e-02    1,664761081e-02   -9,923354536e-02    6,635096073e-01    0,000000000e+00    0,000000000e+00    0,000000000e+00    0,000000000e+00
      646000000   -5,130231380e-02    7,887622633e-05    2,870313525e-01    5,949845910e-01    0,000000000e+00    0,000000000e+00    0,000000000e+00    0,000000000e+00
      660000000   -5,288494378e-02   -2,217272483e-02    5,678746700e-01    3,229457736e-01    0,000000000e+00    0,000000000e+00    0,000000000e+00    0,000000000e+00
      674000000   -7,084994018e-02   -1,766966470e-02    6,432609558e-01   -6,548988819e-02    0,000000000e+00    0,000000000e+00    0,000000000e+00    0,000000000e+00
      688000000   -6,805006415e-02    9,290151298e-03    4,710749984e-01   -4,275400937e-01    0,000000000e+00    0,000000000e+00    0,000000000e+00    0,000000000e+00
      702000000   -3,731827810e-02    2,702231519e-02    1,177203357e-01   -6,109116077e-01    0,000000000e+00    0,000000000e+00    0,000000000e+00    0,000000000e+00
      716000000    2,966980217e-03    1,769853756e-02   -2,644747794e-01   -5,464463830e-01    0,000000000e+00    0,000000000e+00    0,000000000e+00    0,000000000e+00
      730000000    3,622026742e-02   -1,116969902e-02   -5,286329389e-01   -2,690725029e-01    0,000000000e+00    0,000000000e+00    0,000000000e+00    0,000000000e+00
      744000000    6,499435753e-02   -6,159381941e-02   -5,647072196e-01    1,063364744e-01    0,000000000e+00    0,000000000e+00    0,000000000e+00    0,000000000e+00
      758000000    6,589489430e-02   -1,522432864e-01   -3,633221090e-01    4,113201797e-01    0,000000000e+00    0,000000000e+00    0,000000000e+00    0,000000000e+00
      772000000   -1,228591055e-02   -2,619820535e-01   -3,474787623e-02    5,155329704e-01    0,000000000e+00    0,000000000e+00    0,000000000e+00    0,000000000e+00
      786000000   -2,062303126e-01   -3,031277955e-01    2,749049366e-01    3,965884745e-01    0,000000000e+00    0,000000000e+00    0,000000000e+00    0,000000000e+00
      800000000   -4,260062277e-01   -1,303831935e-01    4,171427488e-01    9,940882027e-02    0,000000000e+00    0,000000000e+00    0,000000000e+00    0,000000000e+00
      814000000   -3,896888196e-01    2,205117047e-01    2,828610241e-01   -1,733266711e-01    0,000000000e+00    0,000000000e+00    0,000000000e+00    0,000000000e+00
      828000000   -4,981472343e-02    3,683405817e-01    5,503125861e-02   -1,890100837e-01    0,000000000e+00    0,000000000e+00    0,000000000e+00    0,000000000e+00
      842000000    2,347198278e-01    1,858938336e-01   -1,748273894e-02   -7,094737142e-02    0,000000000e+00    0,000000000e+00    0,000000000e+00    0,000000000e+00
      856000000    2,804417610e-01   -1,243521050e-01    4,487090185e-02   -1,323340274e-02    0,000000000e+00    0,000000000e+00    0,000000000e+00    0,000000000e+00
      870000000    7,526328415e-02   -3,763726056e-01    1,134275869e-01   -9,113451093e-02    0,000000000e+00    0,000000000e+00    0,000000000e+00    0,000000000e+00
      884000000   -2,955558002e-01   -3,618794084e-01    2,809918113e-02   -2,445523143e-01    0,000000000e+00    0,000000000e+00    0,000000000e+00    0,000000000e+00
      898000000   -4,727995992e-01    8,513450623e-03   -2,231550664e-01   -2,279881835e-01    0,000000000e+00    0,000000000e+00    0,000000000e+00    0,000000000e+00
      912000000   -2,264024168e-01    2,939773202e-01   -3,523449302e-01    6,188493222e-02    0,000000000e+00    0,000000000e+00    0,000000000e+00    0,000000000e+00
      926000000    6,638881564e-02    2,624981701e-01   -2,171923220e-01    2,629543245e-01    0,000000000e+00    0,000000000e+00    0,000000000e+00    0,000000000e+00
      940000000    2,176283598e-01    7,913598418e-02   -3,605487943e-02    3,311986327e-01    0,000000000e+00    0,000000000e+00    0,000000000e+00    0,000000000e+00
      954000000    2,245724201e-01   -1,261309087e-01    1,311097443e-01    3,074287772e-01    0,000000000e+00    0,000000000e+00    0,000000000e+00    0,000000000e+00
      968000000    1,153215766e-01   -3,013743162e-01    2,712779939e-01    2,181988060e-01    0,000000000e+00    0,000000000e+00    0,000000000e+00    0,000000000e+00
      982000000   -8,427913487e-02   -3,864574134e-01    3,658728898e-01    6,481588632e-02    0,000000000e+00    0,000000000e+00    0,000000000e+00    0,000000000e+00
      996000000   -3,201854229e-01   -3,291143775e-01    3,707804084e-01   -1,456196010e-01    0,000000000e+00    0,000000000e+00    0,000000000e+00    0,000000000e+00
     1010000000   -4,658836722e-01   -1,126422733e-01    2,248550802e-01   -3,422665298e-01    0,000000000e+00    0,000000000e+00    0,000000000e+00    0,000000000e+00
     1024000000   -4,114937782e-01    1,537242681e-01   -3,373553231e-02   -3,930628598e-01    0,000000000e+00    0,000000000e+00    0,000000000e+00    0,000000000e+00
     1038000000   -2,195369005e-01    2,957915962e-01   -2,463607341e-01   -2,607301176e-01    0,000000000e+00    0,000000000e+00    0,000000000e+00    0,000000000e+00
     1052000000   -6,663578562e-03    2,783114016e-01   -3,178961575e-01   -4,641314223e-02    0,000000000e+00    0,000000000e+00    0,000000000e+00    0,000000000e+00
     1066000000    1,348346323e-01    1,611321121e-01   -2,558875680e-01    1,437345296e-01    0,000000000e+00    0,000000000e+00    0,000000000e+00    0,000000000e+00
     1080000000    1,937635094e-01   -3,591563785e-03   -1,185463369e-01    2,652975619e-01    0,000000000e+00    0,000000000e+00    0,000000000e+00    0,000000000e+00
     1094000000    1,525460333e-01   -1,716049016e-01    6,386199594e-02    3,046723008e-01    0,000000000e+00    0,000000000e+00    0,000000000e+00    0,000000000e+00
     1108000000    1,188001479e-03   -3,032824695e-01    2,760413289e-01    2,471220344e-01    0,000000000e+00    0,000000000e+00    0,000000000e+00    0,000000000e+00
     1122000000   -2,467220724e-01   -2,615133822e-01    4,698778987e-01    1,176478900e-02    0,000000000e+00    0,000000000e+00    0,000000000e+00    0,000000000e+00
     1136000000   -3,168723583e-01    2,892182581e-02    3,990532458e-01   -3,928197324e-01    0,000000000e+00    0,000000000e+00    0,000000000e+00    0,000000000e+00
     1150000000   -4,337793589e-02    1,522530615e-01    7,050822023e-03   -5,412691832e-01    0,000000000e+00    0,000000000e+00    0,000000000e+00    0,000000000e+00
     1164000000    1,245164871e-01   -5,907603353e-02   -2,745981514e-01   -3,781964481e-01    0,000000000e+00    0,000000000e+00    0,000000000e+00    0,000000000e+00
     1178000000    1,624056511e-02   -3,079860210e-01   -3,694555759e-01   -1,520470679e-01    0,000000000e+00    0,000000000e+00    0,000000000e+00    0,000000000e+00
     1192000000   -2,706188262e-01   -3,701905310e-01   -3,223075271e-01    5,972193182e-02    0,000000000e+00    0,000000000e+00    0,000000000e+00    0,000000000e+00
     1206000000   -5,175892115e-01   -1,591349840e-01   -1,660249978e-01    1,797831357e-01    0,000000000e+00    0,000000000e+00    0,000000000e+00    0,000000000e+00
     1220000000   -5,072839856e-01    1,781985313e-01   -2,946266031e-04    1,600529850e-01    0,000000000e+00    0,000000000e+00    0,000000000e+00    0,000000000e+00
     1234000000   -2,858215570e-01    3,568311036e-01    7,092218101e-02    6,135389581e-02    0,000000000e+00    0,000000000e+00    0,000000000e+00    0,000000000e+00
     1248000000   -4,461696744e-02    3,622299731e-01    5,753091350e-02   -4,163974896e-03    0,000000000e+00    0,000000000e+00    0,000000000e+00    0,000000000e+00
     1262000000    1,272301972e-01    2,606770694e-01    2,267335914e-02   -2,301895618e-02    0,000000000e+00    0,000000000e+00    0,000000000e+00    0,000000000e+00
     1276000000    2,107702941e-01    9,800873697e-02   -4,198410548e-03    3,689975012e-03    0,000000000e+00    0,000000000e+00    0,000000000e+00    0,000000000e+00
     1290000000    2,275950909e-01   -7,597412914e-02    2,106910758e-02    4,519784823e-02    0,000000000e+00    0,000000000e+00    0,000000000e+00    0,000000000e+00
     1304000000    1,520137638e-01   -2,440354228e-01    1,326545328e-01    6,762281805e-02    0,000000000e+00    0,000000000e+00    0,000000000e+00    0,000000000e+00
     1318000000    3,168868646e-02   -3,334469497e-01    1,253256500e-01   -1,559956074e-01    0,000000000e+00    0,000000000e+00    0,000000000e+00    0,000000000e+00
     1332000000   -1,323578954e-01   -4,380106926e-01   -5,057674274e-02   -4,171822220e-02    0,000000000e+00    0,000000000e+00    0,000000000e+00    0,000000000e+00
     1346000000   -3,924321532e-01   -4,059776068e-01    2,520992607e-02    6,948514283e-02    0,000000000e+00    0,000000000e+00    0,000000000e+00    0,000000000e+00
     1360000000   -6,157324910e-01   -1,820422560e-01    1,349880099e-01    8,388356864e-02    0,000000000e+00    0,000000000e+00    0,000000000e+00    0,000000000e+00
     1374000000   -6,304800510e-01    1,250441074e-01    2,140286267e-01   -5,752610043e-03    0,000000000e+00    0,000000000e+00    0,000000000e+00    0,000000000e+00
     1388000000   -4,654597640e-01    3,728660941e-01    2,183364332e-01   -6,709147990e-02    0,000000000e+00    0,000000000e+00    0,000000000e+00    0,000000000e+00
     1402000000   -2,373507321e-01    4,558426440e-01    1,804089248e-01   -9,319956601e-02    0,000000000e+00    0,000000000e+00    0,000000000e+00    0,000000000e+00
     1416000000   -2,289727703e-02    4,104520380e-01    1,821306646e-01   -9,861166030e-02    0,000000000e+00    0,000000000e+00    0,000000000e+00    0,000000000e+00
     1430000000    1,199671477e-01    3,010774553e-01    1,655294597e-01   -9,557662159e-02    0,000000000e+00    0,000000000e+00    0,000000000e+00    0,000000000e+00
     1444000000    2,117772996e-01    1,505483389e-01    1,626629531e-01   -9,782103449e-02    0,000000000e+00    0,000000000e+00    0,000000000e+00    0,000000000e+00
     1458000000    2,335146815e-01   -2,047680132e-02    1,473370045e-01   -9,124396741e-02    0,000000000e+00    0,000000000e+00    0,000000000e+00    0,000000000e+00
     1472000000    1,943553090e-01   -1,988783628e-01    1,545878202e-01   -3,696094826e-02    0,000000000e+00    0,000000000e+00    0,000000000e+00    0,000000000e+00
     1486000000    6,265882403e-02   -3,783676922e-01    1,619978100e-01    2,704117075e-02    0,000000000e+00    0,000000000e+00    0,000000000e+00    0,000000000e+00
     1500000000   -1,733995527e-01   -4,915968478e-01    2,365077734e-01    1,075083986e-01    0,000000000e+00    0,000000000e+00    0,000000000e+00    0,000000000e+00
