! NanoVNA-App
! Date: 2025-09-25 15:33:41
! Start: 100MHz Stop: 1,5GHz Points: 101
! S-Parameter data: F S11 S21 S12 S22
# Hz S RI R 50
!     Frequency           S11_Real           S11_Imag           S21_Real           S21_Imag           S12_Real           S12_Imag           S22_Real           S22_Imag
      100000000   -2,886586636e-02   -4,177409690e-03    3,741152585e-01   -7,218050361e-01    0,000000000e+00    0,000000000e+00    0,000000000e+00    0,000000000e+00
      114000000   -1,651907340e-02    1,151833124e-02   -8,908524364e-02   -8,054279685e-01    0,000000000e+00    0,000000000e+00    0,000000000e+00    0,000000000e+00
      128000000    3,484423505e-03    1,055916958e-02   -5,145589113e-01   -6,204292178e-01    0,000000000e+00    0,000000000e+00    0,000000000e+00    0,000000000e+00
      142000000    1,454998087e-02   -2,942329505e-03   -7,671926022e-01   -2,366822958e-01    0,000000000e+00    0,000000000e+00    0,000000000e+00    0,000000000e+00
      156000000    1,603914611e-02   -1,431393530e-02   -7,703139782e-01    2,243061364e-01    0,000000000e+00    0,000000000e+00    0,000000000e+00    0,000000000e+00
      170000000    1,667158306e-02   -2,249106765e-02   -5,182796717e-01    6,047503352e-01    0,000000000e+00    0,000000000e+00    0,000000000e+00    0,000000000e+00
      184000000    2,098218910e-02   -3,704292327e-02   -1,015670672e-01    7,858574986e-01    0,000000000e+00    0,000000000e+00    0,000000000e+00    0,000000000e+00
      198000000    1,298114657e-02   -6,243508309e-02    3,433589041e-01    7,124030590e-01    0,000000000e+00    0,000000000e+00    0,000000000e+00    0,000000000e+00
      212000000   -1,865486614e-02   -8,131397516e-02    6,781824827e-01    4,099013507e-01    0,000000000e+00    0,000000000e+00    0,000000000e+00    0,000000000e+00
      226000000   -6,166417152e-02   -6,919728965e-02    7,957309484e-01   -3,054126352e-02    0,000000000e+00    0,000000000e+00    0,000000000e+00    0,000000000e+00
      240000000   -8,259627968e-02   -2,563772537e-02    6,460211873e-01   -4,670900404e-01    0,000000000e+00    0,000000000e+00    0,000000000e+00    0,000000000e+00
      254000000   -6,352050602e-02    1,727226377e-02    2,761065066e-01   -7,432221174e-01    0,000000000e+00    0,000000000e+00    0,000000000e+00    0,000000000e+00
      268000000   -2,390333824e-02    2,892957255e-02   -1,781909913e-01   -7,643012404e-01    0,000000000e+00    0,000000000e+00    0,000000000e+00    0,000000000e+00
      282000000    4,166470375e-03    1,200152375e-02   -5,618115664e-01   -5,358861685e-01    0,000000000e+00    0,000000000e+00    0,000000000e+00    0,000000000e+00
      296000000    9,788598865e-03   -7,809828967e-03   -7,599554062e-01   -1,396763623e-01    0,000000000e+00    0,000000000e+00    0,000000000e+00    0,000000000e+00
      310000000    1,129513979e-02   -1,607627422e-02   -7,120264173e-01    2,976211905e-01    0,000000000e+00    0,000000000e+00    0,000000000e+00    0,000000000e+00
      324000000    1,977790147e-02   -2,648694627e-02   -4,277674556e-01    6,377318501e-01    0,000000000e+00    0,000000000e+00    0,000000000e+00    0,000000000e+00
      338000000    2,560527436e-02   -5,221940577e-02   -8,954660036e-03    7,612251043e-01    0,000000000e+00    0,000000000e+00    0,000000000e+00    0,000000000e+00
      352000000    7,600664627e-03   -8,460830897e-02    4,066598117e-01    6,388727427e-01    0,000000000e+00    0,000000000e+00    0,000000000e+00    0,000000000e+00
      366000000   -3,462986648e-02   -9,546244889e-02    6,906391978e-01    3,113561571e-01    0,000000000e+00    0,000000000e+00    0,000000000e+00    0,000000000e+00
      380000000   -7,087853551e-02   -7,115758210e-02    7,473144531e-01   -1,255550832e-01    0,000000000e+00    0,000000000e+00    0,000000000e+00    0,000000000e+00
      394000000   -7,247745246e-02   -3,233689442e-02    5,458968878e-01   -5,215752125e-01    0,000000000e+00    0,000000000e+00    0,000000000e+00    0,000000000e+00
      408000000   -4,661426321e-02   -1,588168368e-02    1,611672491e-01   -7,311164737e-01    0,000000000e+00    0,000000000e+00    0,000000000e+00    0,000000000e+00
      422000000   -2,809446678e-02   -3,199099377e-02   -2,671175301e-01   -6,955986619e-01    0,000000000e+00    0,000000000e+00    0,000000000e+00    0,000000000e+00
      436000000   -4,049142823e-02   -5,168720707e-02   -6,033165455e-01   -4,320818782e-01    0,000000000e+00    0,000000000e+00    0,000000000e+00    0,000000000e+00
      450000000   -6,754823029e-02   -4,375283420e-02   -7,409272790e-01   -2,099954337e-02    0,000000000e+00    0,000000000e+00    0,000000000e+00    0,000000000e+00
      464000000   -7,361361384e-02   -1,179979648e-02   -6,186116338e-01    3,973252475e-01    0,000000000e+00    0,000000000e+00    0,000000000e+00    0,000000000e+00
      478000000   -4,745092243e-02    1,198072173e-02   -2,826029956e-01    6,679630876e-01    0,000000000e+00    0,000000000e+00    0,000000000e+00    0,000000000e+00
      492000000   -1,540646423e-02    6,013136357e-03    1,380401105e-01    7,006332874e-01    0,000000000e+00    0,000000000e+00    0,000000000e+00    0,000000000e+00
      506000000   -2,831009217e-03   -1,582636870e-02    4,988781512e-01    5,028873682e-01    0,000000000e+00    0,000000000e+00    0,000000000e+00    0,000000000e+00
      520000000   -5,031674169e-03   -3,145897388e-02    6,885407567e-01    1,412458867e-01    0,000000000e+00    0,000000000e+00    0,000000000e+00    0,000000000e+00
      534000000   -3,669681493e-03   -3,850052506e-02    6,434367299e-01   -2,626550496e-01    0,000000000e+00    0,000000000e+00    0,000000000e+00    0,000000000e+00
      548000000    5,627910607e-03   -5,386385322e-02    3,812722266e-01   -5,669413209e-01    0,000000000e+00    0,000000000e+00    0,000000000e+00    0,000000000e+00
      562000000    3,192701144e-03   -8,907046169e-02    2,987357555e-03   -6,727033257e-01    0,000000000e+00    0,000000000e+00    0,000000000e+00    0,000000000e+00
      576000000   -3,417672217e-02   -1,247798204e-01   -3,688891828e-01   -5,579322577e-01    0,000000000e+00    0,000000000e+00    0,000000000e+00    0,000000000e+00
      590000000   -9,647987783e-02   -1,225201041e-01   -6,232407689e-01   -2,637366652e-01    0,000000000e+00    0,000000000e+00    0,000000000e+00    0,000000000e+00
      604000000   -1,393314749e-01   -7,155355066e-02   -6,650151014e-01    1,384092271e-01    0,000000000e+00    0,000000000e+00    0,000000000e+00    0,000000000e+00
      618000000   -1,297575235e-01   -8,787439205e-03   -4,643390775e-01    4,952585697e-01    0,000000000e+00    0,000000000e+00    0,000000000e+00    0,000000000e+00
      632000000   -8,412989974e-02    1,629946008e-02   -9,813531488e-02    6,632157564e-01    0,000000000e+00    0,000000000e+00    0,000000000e+00    0,000000000e+00
      646000000   -5,132389441e-02    8,876681095e-04    2,870195806e-01    5,950742364e-01    0,000000000e+00    0,000000000e+00    0,000000000e+00    0,000000000e+00
      660000000   -5,377212912e-02   -2,147001773e-02    5,686757565e-01    3,233837485e-01    0,000000000e+00    0,000000000e+00    0,000000000e+00    0,000000000e+00
      674000000   -6,980779022e-02   -1,723586395e-02    6,433125138e-01   -6,556621194e-02    0,000000000e+00    0,000000000e+00    0,000000000e+00    0,000000000e+00
      688000000   -6,829602271e-02    9,398812428e-03    4,716792107e-01   -4,278486967e-01    0,000000000e+00    0,000000000e+00    0,000000000e+00    0,000000000e+00
      702000000   -3,844641894e-02    2,722060308e-02    1,263450086e-01   -6,119089127e-01    0,000000000e+00    0,000000000e+00    0,000000000e+00    0,000000000e+00
      716000000    1,684564166e-03    1,764243841e-02   -2,646482587e-01   -5,477554202e-01    0,000000000e+00    0,000000000e+00    0,000000000e+00    0,000000000e+00
      730000000    3,675326705e-02   -1,151199918e-02   -5,283107758e-01   -2,690170109e-01    0,000000000e+00    0,000000000e+00    0,000000000e+00    0,000000000e+00
      744000000    6,455922872e-02   -6,208934635e-02   -5,639977455e-01    1,065613851e-01    0,000000000e+00    0,000000000e+00    0,000000000e+00    0,000000000e+00
      758000000    6,703061610e-02   -1,520107388e-01   -3,634682894e-01    4,105254710e-01    0,000000000e+00    0,000000000e+00    0,000000000e+00    0,000000000e+00
      772000000   -1,294819824e-02   -2,625995278e-01   -3,503761068e-02    5,148890018e-01    0,000000000e+00    0,000000000e+00    0,000000000e+00    0,000000000e+00
      786000000   -2,070118934e-01   -3,029905856e-01    2,746058106e-01    3,954761028e-01    0,000000000e+00    0,000000000e+00    0,000000000e+00    0,000000000e+00
      800000000   -4,261905253e-01   -1,308600157e-01    4,172057509e-01    9,917804599e-02    0,000000000e+00    0,000000000e+00    0,000000000e+00    0,000000000e+00
      814000000   -3,898608983e-01    2,226791084e-01    2,818007469e-01   -1,735005230e-01    0,000000000e+00    0,000000000e+00    0,000000000e+00    0,000000000e+00
      828000000   -4,903539643e-02    3,674207330e-01    5,551115796e-02   -1,884036660e-01    0,000000000e+00    0,000000000e+00    0,000000000e+00    0,000000000e+00
      842000000    2,352717966e-01    1,859579235e-01   -1,700378396e-02   -7,074471563e-02    0,000000000e+00    0,000000000e+00    0,000000000e+00    0,000000000e+00
      856000000    2,806670070e-01   -1,244147420e-01    4,523718357e-02   -1,257585734e-02    0,000000000e+00    0,000000000e+00    0,000000000e+00    0,000000000e+00
      870000000    7,567538321e-02   -3,758068383e-01    1,134364158e-01   -9,064543992e-02    0,000000000e+00    0,000000000e+00    0,000000000e+00    0,000000000e+00
      884000000   -2,954390943e-01   -3,613169789e-01    2,826952562e-02   -2,450940609e-01    0,000000000e+00    0,000000000e+00    0,000000000e+00    0,000000000e+00
      898000000   -4,723711312e-01    9,449400008e-03   -2,220277190e-01   -2,266109735e-01    0,000000000e+00    0,000000000e+00    0,000000000e+00    0,000000000e+00
      912000000   -2,261252701e-01    2,946870923e-01   -3,475188315e-01    7,697609067e-02    0,000000000e+00    0,000000000e+00    0,000000000e+00    0,000000000e+00
      926000000    6,582388282e-02    2,640110850e-01   -2,192006111e-01    2,650630474e-01    0,000000000e+00    0,000000000e+00    0,000000000e+00    0,000000000e+00
      940000000    2,141840160e-01    7,904391736e-02   -3,657746315e-02    3,307243586e-01    0,000000000e+00    0,000000000e+00    0,000000000e+00    0,000000000e+00
      954000000    2,217508107e-01   -1,304244846e-01    1,314709783e-01    3,051251471e-01    0,000000000e+00    0,000000000e+00    0,000000000e+00    0,000000000e+00
      968000000    1,148126200e-01   -2,982414067e-01    2,717683911e-01    2,179080844e-01    0,000000000e+00    0,000000000e+00    0,000000000e+00    0,000000000e+00
      982000000   -8,362201601e-02   -3,874910474e-01    3,655608892e-01    6,479624659e-02    0,000000000e+00    0,000000000e+00    0,000000000e+00    0,000000000e+00
      996000000   -3,144031167e-01   -3,264379501e-01    3,680597544e-01   -1,454883516e-01    0,000000000e+00    0,000000000e+00    0,000000000e+00    0,000000000e+00
     1010000000   -4,624117017e-01   -1,132315248e-01    2,230974585e-01   -3,399970829e-01    0,000000000e+00    0,000000000e+00    0,000000000e+00    0,000000000e+00
     1024000000   -4,099763632e-01    1,511835456e-01   -3,558351845e-02   -3,939090967e-01    0,000000000e+00    0,000000000e+00    0,000000000e+00    0,000000000e+00
     1038000000   -2,162080705e-01    2,952596843e-01   -2,464484423e-01   -2,630600929e-01    0,000000000e+00    0,000000000e+00    0,000000000e+00    0,000000000e+00
     1052000000   -9,352920577e-03    2,798115909e-01   -3,190539181e-01   -4,610420391e-02    0,000000000e+00    0,000000000e+00    0,000000000e+00    0,000000000e+00
     1066000000    1,346310824e-01    1,640389115e-01   -2,575470805e-01    1,437797248e-01    0,000000000e+00    0,000000000e+00    0,000000000e+00    0,000000000e+00
     1080000000    1,919869930e-01   -1,904209959e-03   -1,202992201e-01    2,633284330e-01    0,000000000e+00    0,000000000e+00    0,000000000e+00    0,000000000e+00
     1094000000    1,523269415e-01   -1,735310256e-01    6,541723013e-02    3,027753532e-01    0,000000000e+00    0,000000000e+00    0,000000000e+00    0,000000000e+00
     1108000000   -3,195090452e-03   -3,031673729e-01    2,768732309e-01    2,470012009e-01    0,000000000e+00    0,000000000e+00    0,000000000e+00    0,000000000e+00
     1122000000   -2,502295375e-01   -2,656057477e-01    4,727130830e-01    1,343771629e-02    0,000000000e+00    0,000000000e+00    0,000000000e+00    0,000000000e+00
     1136000000   -3,195746541e-01    3,760753199e-02    3,990088999e-01   -3,943180442e-01    0,000000000e+00    0,000000000e+00    0,000000000e+00    0,000000000e+00
     1150000000   -4,250228778e-02    1,533132941e-01    3,718102118e-03   -5,432189703e-01    0,000000000e+00    0,000000000e+00    0,000000000e+00    0,000000000e+00
     1164000000    1,254944056e-01   -5,947484449e-02   -2,774215639e-01   -3,776978552e-01    0,000000000e+00    0,000000000e+00    0,000000000e+00    0,000000000e+00
     1178000000    2,046741918e-02   -3,064715862e-01   -3,703288734e-01   -1,543366909e-01    0,000000000e+00    0,000000000e+00    0,000000000e+00    0,000000000e+00
     1192000000   -2,695498765e-01   -3,717625141e-01   -3,195452094e-01    6,141638011e-02    0,000000000e+00    0,000000000e+00    0,000000000e+00    0,000000000e+00
     1206000000   -5,212559104e-01   -1,623400748e-01   -1,637039483e-01    1,806487441e-01    0,000000000e+00    0,000000000e+00    0,000000000e+00    0,000000000e+00
     1220000000   -5,097188950e-01    1,721271873e-01   -1,672562648e-04    1,547426581e-01    0,000000000e+00    0,000000000e+00    0,000000000e+00    0,000000000e+00
     1234000000   -2,889403999e-01    3,630471230e-01    6,998661160e-02    6,329584867e-02    0,000000000e+00    0,000000000e+00    0,000000000e+00    0,000000000e+00
     1248000000   -4,168294370e-02    3,676883876e-01    5,714423954e-02   -5,012728740e-03    0,000000000e+00    0,000000000e+00    0,000000000e+00    0,000000000e+00
     1262000000    1,220061108e-01    2,537557781e-01    1,394856535e-02   -2,220535837e-02    0,000000000e+00    0,000000000e+00    0,000000000e+00    0,000000000e+00
     1276000000    2,080323398e-01    1,023216695e-01   -4,603234585e-03    5,369427148e-03    0,000000000e+00    0,000000000e+00    0,000000000e+00    0,000000000e+00
     1290000000    2,202933282e-01   -7,740467787e-02    1,854476333e-02    5,151351541e-02    0,000000000e+00    0,000000000e+00    0,000000000e+00    0,000000000e+00
     1304000000    1,558077037e-01   -2,375541329e-01    1,324954331e-01    6,810696423e-02    0,000000000e+00    0,000000000e+00    0,000000000e+00    0,000000000e+00
     1318000000    3,551762179e-02   -3,332463205e-01    1,231753454e-01   -1,595024467e-01    0,000000000e+00    0,000000000e+00    0,000000000e+00    0,000000000e+00
     1332000000   -1,266870350e-01   -4,356875718e-01   -4,452329874e-02   -4,328651354e-02    0,000000000e+00    0,000000000e+00    0,000000000e+00    0,000000000e+00
     1346000000   -3,982895911e-01   -4,134280682e-01    1,938583143e-02    5,686586350e-02    0,000000000e+00    0,000000000e+00    0,000000000e+00    0,000000000e+00
     1360000000   -6,114827394e-01   -1,851039082e-01    1,298081726e-01    7,801792771e-02    0,000000000e+00    0,000000000e+00    0,000000000e+00    0,000000000e+00
     1374000000   -6,383937597e-01    1,267317533e-01    2,018273175e-01   -1,861770987e-03    0,000000000e+00    0,000000000e+00    0,000000000e+00    0,000000000e+00
     1388000000   -4,672053754e-01    3,654600382e-01    2,073110938e-01   -7,681684941e-02    0,000000000e+00    0,000000000e+00    0,000000000e+00    0,000000000e+00
     1402000000   -2,374104857e-01    4,539055228e-01    1,850326061e-01   -1,003033444e-01    0,000000000e+00    0,000000000e+00    0,000000000e+00    0,000000000e+00
     1416000000   -2,827996016e-02    4,110973179e-01    1,654886901e-01   -1,119992882e-01    0,000000000e+00    0,000000000e+00    0,000000000e+00    0,000000000e+00
     1430000000    1,153898686e-01    3,028855026e-01    1,549963355e-01   -9,203287214e-02    0,000000000e+00    0,000000000e+00    0,000000000e+00    0,000000000e+00
     1444000000    2,090113610e-01    1,476440728e-01    1,523446739e-01   -1,023653597e-01    0,000000000e+00    0,000000000e+00    0,000000000e+00    0,000000000e+00
     1458000000    2,357452512e-01   -1,996774599e-02    1,453691572e-01   -7,976509631e-02    0,000000000e+00    0,000000000e+00    0,000000000e+00    0,000000000e+00
     1472000000    1,888265312e-01   -2,019958198e-01    1,548428982e-01   -2,870541066e-02    0,000000000e+00    0,000000000e+00    0,000000000e+00    0,000000000e+00
     1486000000    6,711194664e-02   -3,702303171e-01    1,803810596e-01    4,358860850e-02    0,000000000e+00    0,000000000e+00    0,000000000e+00    0,000000000e+00
     1500000000   -1,692635268e-01   -4,924496412e-01    2,590364218e-01    9,466548264e-02    0,000000000e+00    0,000000000e+00    0,000000000e+00    0,000000000e+00
