! NanoVNA-App
! Date: 2025-09-25 15:30:31
! Start: 100MHz Stop: 1,5GHz Points: 101
! S-Parameter data: F S11 S21 S12 S22
# Hz S RI R 50
!     Frequency           S11_Real           S11_Imag           S21_Real           S21_Imag           S12_Real           S12_Imag           S22_Real           S22_Imag
      100000000   -2,887804247e-02   -4,173706286e-03    3,741208017e-01   -7,217891216e-01    0,000000000e+00    0,000000000e+00    0,000000000e+00    0,000000000e+00
      114000000   -1,652855426e-02    1,152029168e-02   -8,901228756e-02   -8,053173423e-01    0,000000000e+00    0,000000000e+00    0,000000000e+00    0,000000000e+00
      128000000    3,470447846e-03    1,055980660e-02   -5,146891475e-01   -6,204290986e-01    0,000000000e+00    0,000000000e+00    0,000000000e+00    0,000000000e+00
      142000000    1,453782152e-02   -2,936660079e-03   -7,672113776e-01   -2,365937978e-01    0,000000000e+00    0,000000000e+00    0,000000000e+00    0,000000000e+00
      156000000    1,433084533e-02   -1,485857461e-02   -7,639433146e-01    2,188866735e-01    0,000000000e+00    0,000000000e+00    0,000000000e+00    0,000000000e+00
      170000000    1,667904109e-02   -2,254397236e-02   -5,180093646e-01    6,045851707e-01    0,000000000e+00    0,000000000e+00    0,000000000e+00    0,000000000e+00
      184000000    2,099631540e-02   -3,706602752e-02   -1,013962924e-01    7,862113714e-01    0,000000000e+00    0,000000000e+00    0,000000000e+00    0,000000000e+00
      198000000    1,298754942e-02   -6,243937835e-02    3,432503641e-01    7,123472095e-01    0,000000000e+00    0,000000000e+00    0,000000000e+00    0,000000000e+00
      212000000   -1,864268258e-02   -8,127244562e-02    6,778765321e-01    4,100612104e-01    0,000000000e+00    0,000000000e+00    0,000000000e+00    0,000000000e+00
      226000000   -6,171166152e-02   -6,917335093e-02    7,958942056e-01   -3,053219989e-02    0,000000000e+00    0,000000000e+00    0,000000000e+00    0,000000000e+00
      240000000   -8,259896934e-02   -2,566085011e-02    6,461437941e-01   -4,669678807e-01    0,000000000e+00    0,000000000e+00    0,000000000e+00    0,000000000e+00
      254000000   -6,349577755e-02    1,720549166e-02    2,759966254e-01   -7,434490919e-01    0,000000000e+00    0,000000000e+00    0,000000000e+00    0,000000000e+00
      268000000   -2,396768145e-02    2,895109728e-02   -1,781257540e-01   -7,646487951e-01    0,000000000e+00    0,000000000e+00    0,000000000e+00    0,000000000e+00
      282000000    4,087071866e-03    1,194047369e-02   -5,623499751e-01   -5,359507203e-01    0,000000000e+00    0,000000000e+00    0,000000000e+00    0,000000000e+00
      296000000    9,630864486e-03   -7,919815369e-03   -7,598949075e-01   -1,397067606e-01    0,000000000e+00    0,000000000e+00    0,000000000e+00    0,000000000e+00
      310000000    1,109361835e-02   -1,621988788e-02   -7,116333842e-01    2,994064391e-01    0,000000000e+00    0,000000000e+00    0,000000000e+00    0,000000000e+00
      324000000    1,954773441e-02   -2,646019869e-02   -4,271184504e-01    6,375404000e-01    0,000000000e+00    0,000000000e+00    0,000000000e+00    0,000000000e+00
      338000000    2,573763207e-02   -5,230361968e-02   -7,034668233e-03    7,632704973e-01    0,000000000e+00    0,000000000e+00    0,000000000e+00    0,000000000e+00
      352000000    7,532607298e-03   -8,477806300e-02    4,070184529e-01    6,391158104e-01    0,000000000e+00    0,000000000e+00    0,000000000e+00    0,000000000e+00
      366000000   -3,475131840e-02   -9,546973556e-02    6,907340884e-01    3,113021553e-01    0,000000000e+00    0,000000000e+00    0,000000000e+00    0,000000000e+00
      380000000   -7,105419785e-02   -7,120256871e-02    7,473840117e-01   -1,260907501e-01    0,000000000e+00    0,000000000e+00    0,000000000e+00    0,000000000e+00
      394000000   -7,238742709e-02   -3,256724775e-02    5,467503071e-01   -5,214065909e-01    0,000000000e+00    0,000000000e+00    0,000000000e+00    0,000000000e+00
      408000000   -4,631902650e-02   -1,631829701e-02    1,612004787e-01   -7,329131365e-01    0,000000000e+00    0,000000000e+00    0,000000000e+00    0,000000000e+00
      422000000   -2,825829946e-02   -3,222169727e-02   -2,675173879e-01   -6,953415275e-01    0,000000000e+00    0,000000000e+00    0,000000000e+00    0,000000000e+00
      436000000   -4,067301378e-02   -5,184276402e-02   -6,042605042e-01   -4,321815968e-01    0,000000000e+00    0,000000000e+00    0,000000000e+00    0,000000000e+00
      450000000   -6,738082319e-02   -4,353586584e-02   -7,406819463e-01   -2,074043453e-02    0,000000000e+00    0,000000000e+00    0,000000000e+00    0,000000000e+00
      464000000   -7,360940427e-02   -1,147018373e-02   -6,185649037e-01    3,975364864e-01    0,000000000e+00    0,000000000e+00    0,000000000e+00    0,000000000e+00
      478000000   -4,789777100e-02    1,180111896e-02   -2,822283208e-01    6,681324244e-01    0,000000000e+00    0,000000000e+00    0,000000000e+00    0,000000000e+00
      492000000   -1,577755064e-02    5,729248747e-03    1,376448572e-01    7,014112473e-01    0,000000000e+00    0,000000000e+00    0,000000000e+00    0,000000000e+00
      506000000   -2,376603195e-03   -1,521527208e-02    4,986082017e-01    5,029115081e-01    0,000000000e+00    0,000000000e+00    0,000000000e+00    0,000000000e+00
      520000000   -4,901914392e-03   -3,143146634e-02    6,876195073e-01    1,410786361e-01    0,000000000e+00    0,000000000e+00    0,000000000e+00    0,000000000e+00
      534000000   -3,854541108e-03   -3,803911433e-02    6,434137225e-01   -2,620366216e-01    0,000000000e+00    0,000000000e+00    0,000000000e+00    0,000000000e+00
      548000000    6,181007251e-03   -5,380548537e-02    3,812343478e-01   -5,676535368e-01    0,000000000e+00    0,000000000e+00    0,000000000e+00    0,000000000e+00
      562000000    3,161377506e-03   -8,929754794e-02    3,155620303e-03   -6,717785001e-01    0,000000000e+00    0,000000000e+00    0,000000000e+00    0,000000000e+00
      576000000   -3,402271494e-02   -1,247071847e-01   -3,677968383e-01   -5,577731133e-01    0,000000000e+00    0,000000000e+00    0,000000000e+00    0,000000000e+00
      590000000   -9,635592252e-02   -1,226528361e-01   -6,223247647e-01   -2,633291781e-01    0,000000000e+00    0,000000000e+00    0,000000000e+00    0,000000000e+00
      604000000   -1,398512423e-01   -7,202353328e-02   -6,652136445e-01    1,378583014e-01    0,000000000e+00    0,000000000e+00    0,000000000e+00    0,000000000e+00
      618000000   -1,295452565e-01   -8,557563648e-03   -4,645365775e-01    4,950174689e-01    0,000000000e+00    0,000000000e+00    0,000000000e+00    0,000000000e+00
      632000000   -8,460593969e-02    1,713839546e-02   -9,972472489e-02    6,634949446e-01    0,000000000e+00    0,000000000e+00    0,000000000e+00    0,000000000e+00
      646000000   -5,162043497e-02    4,898951738e-04    2,883314192e-01    5,955966115e-01    0,000000000e+00    0,000000000e+00    0,000000000e+00    0,000000000e+00
      660000000   -5,290127173e-02   -2,113683335e-02    5,681498647e-01    3,227618039e-01    0,000000000e+00    0,000000000e+00    0,000000000e+00    0,000000000e+00
      674000000   -7,047653198e-02   -1,700662449e-02    6,428533196e-01   -6,527502090e-02    0,000000000e+00    0,000000000e+00    0,000000000e+00    0,000000000e+00
      688000000   -6,792405248e-02    8,427821100e-03    4,701498449e-01   -4,285935163e-01    0,000000000e+00    0,000000000e+00    0,000000000e+00    0,000000000e+00
      702000000   -3,717046604e-02    2,748440765e-02    1,165631637e-01   -6,150178909e-01    0,000000000e+00    0,000000000e+00    0,000000000e+00    0,000000000e+00
      716000000    2,274797065e-03    1,730491780e-02   -2,654273510e-01   -5,466971993e-01    0,000000000e+00    0,000000000e+00    0,000000000e+00    0,000000000e+00
      730000000    3,759268671e-02   -1,118537132e-02   -5,285035968e-01   -2,693614662e-01    0,000000000e+00    0,000000000e+00    0,000000000e+00    0,000000000e+00
      744000000    6,539846957e-02   -6,185492128e-02   -5,643584132e-01    1,064173803e-01    0,000000000e+00    0,000000000e+00    0,000000000e+00    0,000000000e+00
      758000000    6,685513258e-02   -1,525853574e-01   -3,633328080e-01    4,106109738e-01    0,000000000e+00    0,000000000e+00    0,000000000e+00    0,000000000e+00
      772000000   -1,307714265e-02   -2,620638013e-01   -3,451902792e-02    5,154837370e-01    0,000000000e+00    0,000000000e+00    0,000000000e+00    0,000000000e+00
      786000000   -2,059267610e-01   -3,025347888e-01    2,748600841e-01    3,956934512e-01    0,000000000e+00    0,000000000e+00    0,000000000e+00    0,000000000e+00
      800000000   -4,252118766e-01   -1,309692264e-01    4,167645872e-01    9,899088740e-02    0,000000000e+00    0,000000000e+00    0,000000000e+00    0,000000000e+00
      814000000   -3,900347352e-01    2,219164521e-01    2,822113633e-01   -1,734888107e-01    0,000000000e+00    0,000000000e+00    0,000000000e+00    0,000000000e+00
      828000000   -5,000000075e-02    3,672018647e-01    5,499975011e-02   -1,886297464e-01    0,000000000e+00    0,000000000e+00    0,000000000e+00    0,000000000e+00
      842000000    2,349762321e-01    1,861104369e-01   -1,704379357e-02   -7,019130141e-02    0,000000000e+00    0,000000000e+00    0,000000000e+00    0,000000000e+00
      856000000    2,802605629e-01   -1,248136461e-01    4,532106966e-02   -1,301649027e-02    0,000000000e+00    0,000000000e+00    0,000000000e+00    0,000000000e+00
      870000000    7,520016283e-02   -3,761805296e-01    1,140195429e-01   -9,148748964e-02    0,000000000e+00    0,000000000e+00    0,000000000e+00    0,000000000e+00
      884000000   -2,965850532e-01   -3,612345755e-01    2,739391290e-02   -2,455400378e-01    0,000000000e+00    0,000000000e+00    0,000000000e+00    0,000000000e+00
      898000000   -4,713415802e-01    9,325420484e-03   -2,213883102e-01   -2,283192277e-01    0,000000000e+00    0,000000000e+00    0,000000000e+00    0,000000000e+00
      912000000   -2,252267450e-01    2,958731651e-01   -3,531550169e-01    6,370327622e-02    0,000000000e+00    0,000000000e+00    0,000000000e+00    0,000000000e+00
      926000000    6,762018800e-02    2,646580338e-01   -2,157364190e-01    2,670764029e-01    0,000000000e+00    0,000000000e+00    0,000000000e+00    0,000000000e+00
      940000000    2,180176824e-01    7,901931554e-02   -3,539983556e-02    3,289073706e-01    0,000000000e+00    0,000000000e+00    0,000000000e+00    0,000000000e+00
      954000000    2,249862254e-01   -1,277517378e-01    1,303075999e-01    3,082197905e-01    0,000000000e+00    0,000000000e+00    0,000000000e+00    0,000000000e+00
      968000000    1,166448295e-01   -2,992040217e-01    2,716718018e-01    2,172438353e-01    0,000000000e+00    0,000000000e+00    0,000000000e+00    0,000000000e+00
      982000000   -8,103562891e-02   -3,894095123e-01    3,663472831e-01    6,504548341e-02    0,000000000e+00    0,000000000e+00    0,000000000e+00    0,000000000e+00
      996000000   -3,200318515e-01   -3,281530738e-01    3,708153963e-01   -1,447483301e-01    0,000000000e+00    0,000000000e+00    0,000000000e+00    0,000000000e+00
     1010000000   -4,618234038e-01   -1,068336666e-01    2,236575335e-01   -3,432419002e-01    0,000000000e+00    0,000000000e+00    0,000000000e+00    0,000000000e+00
     1024000000   -4,124076962e-01    1,465198100e-01   -3,423477337e-02   -3,923438787e-01    0,000000000e+00    0,000000000e+00    0,000000000e+00    0,000000000e+00
     1038000000   -2,198955417e-01    2,908534110e-01   -2,469323874e-01   -2,607427835e-01    0,000000000e+00    0,000000000e+00    0,000000000e+00    0,000000000e+00
     1052000000   -1,031529810e-02    2,763868272e-01   -3,183906078e-01   -4,557200894e-02    0,000000000e+00    0,000000000e+00    0,000000000e+00    0,000000000e+00
     1066000000    1,368205994e-01    1,669168770e-01   -2,590822279e-01    1,424824148e-01    0,000000000e+00    0,000000000e+00    0,000000000e+00    0,000000000e+00
     1080000000    1,961051971e-01   -2,909138100e-03   -1,183024794e-01    2,637646198e-01    0,000000000e+00    0,000000000e+00    0,000000000e+00    0,000000000e+00
     1094000000    1,571284384e-01   -1,734842360e-01    6,260029227e-02    3,053211272e-01    0,000000000e+00    0,000000000e+00    0,000000000e+00    0,000000000e+00
     1108000000   -1,900877454e-03   -3,010578156e-01    2,780262828e-01    2,441715598e-01    0,000000000e+00    0,000000000e+00    0,000000000e+00    0,000000000e+00
     1122000000   -2,448173463e-01   -2,652974427e-01    4,704693258e-01    1,110470574e-02    0,000000000e+00    0,000000000e+00    0,000000000e+00    0,000000000e+00
     1136000000   -3,217733502e-01    2,936102264e-02    4,000329375e-01   -3,917376399e-01    0,000000000e+00    0,000000000e+00    0,000000000e+00    0,000000000e+00
     1150000000   -4,034274444e-02    1,484878957e-01    5,400622264e-03   -5,416221619e-01    0,000000000e+00    0,000000000e+00    0,000000000e+00    0,000000000e+00
     1164000000    1,251453161e-01   -6,440658867e-02   -2,780045569e-01   -3,772794604e-01    0,000000000e+00    0,000000000e+00    0,000000000e+00    0,000000000e+00
     1178000000    1,777400449e-02   -3,066534996e-01   -3,706580997e-01   -1,542263627e-01    0,000000000e+00    0,000000000e+00    0,000000000e+00    0,000000000e+00
     1192000000   -2,671002746e-01   -3,740861118e-01   -3,222004771e-01    5,608279631e-02    0,000000000e+00    0,000000000e+00    0,000000000e+00    0,000000000e+00
     1206000000   -5,247657895e-01   -1,595253050e-01   -1,693936288e-01    1,783593893e-01    0,000000000e+00    0,000000000e+00    0,000000000e+00    0,000000000e+00
     1220000000   -5,090612173e-01    1,780220717e-01   -1,733923564e-03    1,596747935e-01    0,000000000e+00    0,000000000e+00    0,000000000e+00    0,000000000e+00
     1234000000   -2,836890817e-01    3,605146408e-01    7,206263393e-02    5,904150009e-02    0,000000000e+00    0,000000000e+00    0,000000000e+00    0,000000000e+00
     1248000000   -4,208384827e-02    3,680627048e-01    5,781098455e-02   -5,353625398e-03    0,000000000e+00    0,000000000e+00    0,000000000e+00    0,000000000e+00
     1262000000    1,231618151e-01    2,522060871e-01    1,708628237e-02   -2,074704133e-02    0,000000000e+00    0,000000000e+00    0,000000000e+00    0,000000000e+00
     1276000000    2,145543844e-01    1,003917679e-01   -3,017589916e-04    5,386381410e-03    0,000000000e+00    0,000000000e+00    0,000000000e+00    0,000000000e+00
     1290000000    2,246391773e-01   -7,864735276e-02    1,819603331e-02    4,887552559e-02    0,000000000e+00    0,000000000e+00    0,000000000e+00    0,000000000e+00
     1304000000    1,535662413e-01   -2,392870635e-01    1,277995855e-01    7,058814168e-02    0,000000000e+00    0,000000000e+00    0,000000000e+00    0,000000000e+00
     1318000000    3,820649907e-02   -3,358682692e-01    1,338009834e-01   -1,605052799e-01    0,000000000e+00    0,000000000e+00    0,000000000e+00    0,000000000e+00
     1332000000   -1,273220032e-01   -4,362993836e-01   -5,068562180e-02   -5,208473280e-02    0,000000000e+00    0,000000000e+00    0,000000000e+00    0,000000000e+00
     1346000000   -3,983801305e-01   -4,057207108e-01    1,925261691e-02    7,472888380e-02    0,000000000e+00    0,000000000e+00    0,000000000e+00    0,000000000e+00
     1360000000   -6,134641767e-01   -1,932155788e-01    1,351639032e-01    6,219029427e-02    0,000000000e+00    0,000000000e+00    0,000000000e+00    0,000000000e+00
     1374000000   -6,359559894e-01    1,311126947e-01    1,967427880e-01    8,878072724e-03    0,000000000e+00    0,000000000e+00    0,000000000e+00    0,000000000e+00
     1388000000   -4,623425603e-01    3,689990938e-01    2,176808864e-01   -5,553908646e-02    0,000000000e+00    0,000000000e+00    0,000000000e+00    0,000000000e+00
     1402000000   -2,343437225e-01    4,487461746e-01    1,815733910e-01   -1,013217941e-01    0,000000000e+00    0,000000000e+00    0,000000000e+00    0,000000000e+00
     1416000000   -2,749014087e-02    4,133763909e-01    1,745452732e-01   -1,123352572e-01    0,000000000e+00    0,000000000e+00    0,000000000e+00    0,000000000e+00
     1430000000    1,230138317e-01    2,934310436e-01    1,706271768e-01   -9,009724855e-02    0,000000000e+00    0,000000000e+00    0,000000000e+00    0,000000000e+00
     1444000000    2,072873712e-01    1,445197612e-01    1,514967382e-01   -1,019687131e-01    0,000000000e+00    0,000000000e+00    0,000000000e+00    0,000000000e+00
     1458000000    2,313354611e-01   -1,991870068e-02    1,436669379e-01   -7,929066569e-02    0,000000000e+00    0,000000000e+00    0,000000000e+00    0,000000000e+00
     1472000000    1,950934529e-01   -2,016783208e-01    1,534628570e-01   -2,526850067e-02    0,000000000e+00    0,000000000e+00    0,000000000e+00    0,000000000e+00
     1486000000    6,075132638e-02   -3,800196350e-01    1,695384681e-01    2,463606745e-02    0,000000000e+00    0,000000000e+00    0,000000000e+00    0,000000000e+00
     1500000000   -1,821063906e-01   -4,937648177e-01    2,375604957e-01    1,034038886e-01    0,000000000e+00    0,000000000e+00    0,000000000e+00    0,000000000e+00
