! NanoVNA-App
! Date: 2025-09-25 15:37:16
! Start: 100MHz Stop: 1,5GHz Points: 101
! S-Parameter data: F S11 S21 S12 S22
# Hz S RI R 50
!     Frequency           S11_Real           S11_Imag           S21_Real           S21_Imag           S12_Real           S12_Imag           S22_Real           S22_Imag
      100000000   -2,882081643e-02   -4,170485772e-03    3,740487993e-01   -7,217463255e-01    0,000000000e+00    0,000000000e+00    0,000000000e+00    0,000000000e+00
      114000000   -1,644861139e-02    1,151362900e-02   -8,904605359e-02   -8,055441380e-01    0,000000000e+00    0,000000000e+00    0,000000000e+00    0,000000000e+00
      128000000    3,525660839e-03    1,054317877e-02   -5,144280195e-01   -6,203483939e-01    0,000000000e+00    0,000000000e+00    0,000000000e+00    0,000000000e+00
      142000000    1,459915005e-02   -2,961854683e-03   -7,671211958e-01   -2,367077917e-01    0,000000000e+00    0,000000000e+00    0,000000000e+00    0,000000000e+00
      156000000    1,479762699e-02   -1,496479288e-02   -7,668145895e-01    2,183978707e-01    0,000000000e+00    0,000000000e+00    0,000000000e+00    0,000000000e+00
      170000000    1,675706543e-02   -2,259144746e-02   -5,180934072e-01    6,048308015e-01    0,000000000e+00    0,000000000e+00    0,000000000e+00    0,000000000e+00
      184000000    2,106013522e-02   -3,706652671e-02   -1,013320312e-01    7,862421870e-01    0,000000000e+00    0,000000000e+00    0,000000000e+00    0,000000000e+00
      198000000    1,304871496e-02   -6,246799231e-02    3,431816995e-01    7,121835351e-01    0,000000000e+00    0,000000000e+00    0,000000000e+00    0,000000000e+00
      212000000   -1,864791848e-02   -8,130607754e-02    6,782315969e-01    4,099311829e-01    0,000000000e+00    0,000000000e+00    0,000000000e+00    0,000000000e+00
      226000000   -6,165385246e-02   -6,918223947e-02    7,958285213e-01   -3,062620386e-02    0,000000000e+00    0,000000000e+00    0,000000000e+00    0,000000000e+00
      240000000   -8,258240670e-02   -2,561883628e-02    6,462076306e-01   -4,671542346e-01    0,000000000e+00    0,000000000e+00    0,000000000e+00    0,000000000e+00
      254000000   -6,344602257e-02    1,721384563e-02    2,761234343e-01   -7,432594299e-01    0,000000000e+00    0,000000000e+00    0,000000000e+00    0,000000000e+00
      268000000   -2,375567704e-02    2,893080190e-02   -1,783440560e-01   -7,645848989e-01    0,000000000e+00    0,000000000e+00    0,000000000e+00    0,000000000e+00
      282000000    4,249671008e-03    1,196850464e-02   -5,617394447e-01   -5,354591608e-01    0,000000000e+00    0,000000000e+00    0,000000000e+00    0,000000000e+00
      296000000    9,734474123e-03   -7,942025550e-03   -7,598783374e-01   -1,397229135e-01    0,000000000e+00    0,000000000e+00    0,000000000e+00    0,000000000e+00
      310000000    1,121221762e-02   -1,635922492e-02   -7,121297121e-01    2,978397012e-01    0,000000000e+00    0,000000000e+00    0,000000000e+00    0,000000000e+00
      324000000    1,979151368e-02   -2,655177005e-02   -4,267841876e-01    6,379197240e-01    0,000000000e+00    0,000000000e+00    0,000000000e+00    0,000000000e+00
      338000000    2,542832494e-02   -5,220234394e-02   -1,022332814e-02    7,624494433e-01    0,000000000e+00    0,000000000e+00    0,000000000e+00    0,000000000e+00
      352000000    7,285954431e-03   -8,487618715e-02    4,061332643e-01    6,391684413e-01    0,000000000e+00    0,000000000e+00    0,000000000e+00    0,000000000e+00
      366000000   -3,466761112e-02   -9,540635347e-02    6,912618876e-01    3,111664057e-01    0,000000000e+00    0,000000000e+00    0,000000000e+00    0,000000000e+00
      380000000   -7,073811442e-02   -7,100506872e-02    7,474927306e-01   -1,253538877e-01    0,000000000e+00    0,000000000e+00    0,000000000e+00    0,000000000e+00
      394000000   -7,264730334e-02   -3,239313886e-02    5,460129976e-01   -5,226904154e-01    0,000000000e+00    0,000000000e+00    0,000000000e+00    0,000000000e+00
      408000000   -4,612024873e-02   -1,609241962e-02    1,616145819e-01   -7,311476469e-01    0,000000000e+00    0,000000000e+00    0,000000000e+00    0,000000000e+00
      422000000   -2,818215638e-02   -3,204305097e-02   -2,679331899e-01   -6,954032779e-01    0,000000000e+00    0,000000000e+00    0,000000000e+00    0,000000000e+00
      436000000   -4,053809494e-02   -5,210469663e-02   -6,047472954e-01   -4,323275387e-01    0,000000000e+00    0,000000000e+00    0,000000000e+00    0,000000000e+00
      450000000   -6,716696173e-02   -4,406436533e-02   -7,403210998e-01   -2,119533159e-02    0,000000000e+00    0,000000000e+00    0,000000000e+00    0,000000000e+00
      464000000   -7,326385379e-02   -1,176430658e-02   -6,187575459e-01    3,970573246e-01    0,000000000e+00    0,000000000e+00    0,000000000e+00    0,000000000e+00
      478000000   -4,748436436e-02    1,183105167e-02   -2,810527682e-01    6,683573723e-01    0,000000000e+00    0,000000000e+00    0,000000000e+00    0,000000000e+00
      492000000   -1,544882637e-02    6,316973828e-03    1,379319429e-01    7,016544342e-01    0,000000000e+00    0,000000000e+00    0,000000000e+00    0,000000000e+00
      506000000   -2,582379384e-03   -1,560722757e-02    4,986152947e-01    5,022279024e-01    0,000000000e+00    0,000000000e+00    0,000000000e+00    0,000000000e+00
      520000000   -4,899692722e-03   -3,174762055e-02    6,871955395e-01    1,413338482e-01    0,000000000e+00    0,000000000e+00    0,000000000e+00    0,000000000e+00
      534000000   -3,644188168e-03   -3,822181001e-02    6,437665820e-01   -2,630411685e-01    0,000000000e+00    0,000000000e+00    0,000000000e+00    0,000000000e+00
      548000000    6,069030147e-03   -5,403290316e-02    3,813699186e-01   -5,678947568e-01    0,000000000e+00    0,000000000e+00    0,000000000e+00    0,000000000e+00
      562000000    2,878394676e-03   -8,967903256e-02    2,369684400e-03   -6,718619466e-01    0,000000000e+00    0,000000000e+00    0,000000000e+00    0,000000000e+00
      576000000   -3,440113366e-02   -1,245763376e-01   -3,694090545e-01   -5,573537350e-01    0,000000000e+00    0,000000000e+00    0,000000000e+00    0,000000000e+00
      590000000   -9,634346515e-02   -1,224033386e-01   -6,231704354e-01   -2,645924985e-01    0,000000000e+00    0,000000000e+00    0,000000000e+00    0,000000000e+00
      604000000   -1,396773905e-01   -7,201828808e-02   -6,649040580e-01    1,375204176e-01    0,000000000e+00    0,000000000e+00    0,000000000e+00    0,000000000e+00
      618000000   -1,298235059e-01   -8,677822538e-03   -4,637835324e-01    4,946520627e-01    0,000000000e+00    0,000000000e+00    0,000000000e+00    0,000000000e+00
      632000000   -8,347897232e-02    1,655374840e-02   -9,861376882e-02    6,641398072e-01    0,000000000e+00    0,000000000e+00    0,000000000e+00    0,000000000e+00
      646000000   -5,121251941e-02   -7,782233297e-06    2,870308161e-01    5,945858359e-01    0,000000000e+00    0,000000000e+00    0,000000000e+00    0,000000000e+00
      660000000   -5,291820690e-02   -2,212575637e-02    5,674887300e-01    3,233679831e-01    0,000000000e+00    0,000000000e+00    0,000000000e+00    0,000000000e+00
      674000000   -7,064223289e-02   -1,724371687e-02    6,431879997e-01   -6,564794481e-02    0,000000000e+00    0,000000000e+00    0,000000000e+00    0,000000000e+00
      688000000   -6,882266700e-02    8,994231001e-03    4,715013206e-01   -4,288580418e-01    0,000000000e+00    0,000000000e+00    0,000000000e+00    0,000000000e+00
      702000000   -3,807656467e-02    2,657727338e-02    1,167951301e-01   -6,147555113e-01    0,000000000e+00    0,000000000e+00    0,000000000e+00    0,000000000e+00
      716000000    2,098715398e-03    1,710181311e-02   -2,649420798e-01   -5,464348793e-01    0,000000000e+00    0,000000000e+00    0,000000000e+00    0,000000000e+00
      730000000    3,645020351e-02   -1,031660940e-02   -5,289638638e-01   -2,687064707e-01    0,000000000e+00    0,000000000e+00    0,000000000e+00    0,000000000e+00
      744000000    6,565359980e-02   -6,231303141e-02   -5,648646355e-01    1,067141891e-01    0,000000000e+00    0,000000000e+00    0,000000000e+00    0,000000000e+00
      758000000    6,629430503e-02   -1,522920430e-01   -3,636873364e-01    4,103295803e-01    0,000000000e+00    0,000000000e+00    0,000000000e+00    0,000000000e+00
      772000000   -1,292233262e-02   -2,628614902e-01   -3,447064385e-02    5,160061717e-01    0,000000000e+00    0,000000000e+00    0,000000000e+00    0,000000000e+00
      786000000   -2,067122906e-01   -3,021008074e-01    2,748251855e-01    3,956536651e-01    0,000000000e+00    0,000000000e+00    0,000000000e+00    0,000000000e+00
      800000000   -4,262966216e-01   -1,299876422e-01    4,169629514e-01    9,908834845e-02    0,000000000e+00    0,000000000e+00    0,000000000e+00    0,000000000e+00
      814000000   -3,884562552e-01    2,205094099e-01    2,825328708e-01   -1,734453142e-01    0,000000000e+00    0,000000000e+00    0,000000000e+00    0,000000000e+00
      828000000   -4,968530312e-02    3,678615689e-01    5,543148145e-02   -1,888197064e-01    0,000000000e+00    0,000000000e+00    0,000000000e+00    0,000000000e+00
      842000000    2,349904180e-01    1,852439642e-01   -1,716466062e-02   -7,110006362e-02    0,000000000e+00    0,000000000e+00    0,000000000e+00    0,000000000e+00
      856000000    2,802730203e-01   -1,241873354e-01    4,481481016e-02   -1,322473772e-02    0,000000000e+00    0,000000000e+00    0,000000000e+00    0,000000000e+00
      870000000    7,504855096e-02   -3,761434853e-01    1,131786406e-01   -9,088635445e-02    0,000000000e+00    0,000000000e+00    0,000000000e+00    0,000000000e+00
      884000000   -2,945910394e-01   -3,623378277e-01    2,767729945e-02   -2,459572852e-01    0,000000000e+00    0,000000000e+00    0,000000000e+00    0,000000000e+00
      898000000   -4,712265730e-01    8,289006539e-03   -2,219344527e-01   -2,275374085e-01    0,000000000e+00    0,000000000e+00    0,000000000e+00    0,000000000e+00
      912000000   -2,264412940e-01    2,932612002e-01   -3,480364978e-01    7,843095809e-02    0,000000000e+00    0,000000000e+00    0,000000000e+00    0,000000000e+00
      926000000    6,853993237e-02    2,629751265e-01   -2,167431563e-01    2,619142830e-01    0,000000000e+00    0,000000000e+00    0,000000000e+00    0,000000000e+00
      940000000    2,143494785e-01    8,112156391e-02   -3,464699909e-02    3,303110301e-01    0,000000000e+00    0,000000000e+00    0,000000000e+00    0,000000000e+00
      954000000    2,200980633e-01   -1,268914640e-01    1,327482909e-01    3,069843054e-01    0,000000000e+00    0,000000000e+00    0,000000000e+00    0,000000000e+00
      968000000    1,157698929e-01   -2,981865406e-01    2,713002563e-01    2,193846703e-01    0,000000000e+00    0,000000000e+00    0,000000000e+00    0,000000000e+00
      982000000   -8,398772776e-02   -3,860484958e-01    3,661622703e-01    6,497846544e-02    0,000000000e+00    0,000000000e+00    0,000000000e+00    0,000000000e+00
      996000000   -3,205219209e-01   -3,293822408e-01    3,691254854e-01   -1,443153918e-01    0,000000000e+00    0,000000000e+00    0,000000000e+00    0,000000000e+00
     1010000000   -4,590229392e-01   -1,097698957e-01    2,221840173e-01   -3,420780897e-01    0,000000000e+00    0,000000000e+00    0,000000000e+00    0,000000000e+00
     1024000000   -4,095140696e-01    1,509574503e-01   -3,383636847e-02   -3,934230506e-01    0,000000000e+00    0,000000000e+00    0,000000000e+00    0,000000000e+00
     1038000000   -2,190399468e-01    2,887144387e-01   -2,461949438e-01   -2,584511042e-01    0,000000000e+00    0,000000000e+00    0,000000000e+00    0,000000000e+00
     1052000000   -7,133680396e-03    2,764549553e-01   -3,178732097e-01   -4,519356042e-02    0,000000000e+00    0,000000000e+00    0,000000000e+00    0,000000000e+00
     1066000000    1,364248246e-01    1,607024372e-01   -2,544524074e-01    1,419396698e-01    0,000000000e+00    0,000000000e+00    0,000000000e+00    0,000000000e+00
     1080000000    1,909254640e-01   -1,528854133e-03   -1,189182922e-01    2,636624575e-01    0,000000000e+00    0,000000000e+00    0,000000000e+00    0,000000000e+00
     1094000000    1,535319984e-01   -1,771853119e-01    6,527094543e-02    3,052792251e-01    0,000000000e+00    0,000000000e+00    0,000000000e+00    0,000000000e+00
     1108000000   -5,375105538e-04   -3,076610565e-01    2,760279179e-01    2,478849143e-01    0,000000000e+00    0,000000000e+00    0,000000000e+00    0,000000000e+00
     1122000000   -2,527513802e-01   -2,614305317e-01    4,703316987e-01    1,273164619e-02    0,000000000e+00    0,000000000e+00    0,000000000e+00    0,000000000e+00
     1136000000   -3,144874871e-01    3,410217538e-02    3,969838321e-01   -3,919063509e-01    0,000000000e+00    0,000000000e+00    0,000000000e+00    0,000000000e+00
     1150000000   -4,095311090e-02    1,495387852e-01    4,847187083e-03   -5,417092443e-01    0,000000000e+00    0,000000000e+00    0,000000000e+00    0,000000000e+00
     1164000000    1,240463406e-01   -6,610039622e-02   -2,770406902e-01   -3,779886365e-01    0,000000000e+00    0,000000000e+00    0,000000000e+00    0,000000000e+00
     1178000000    1,537300367e-02   -3,059447408e-01   -3,696052432e-01   -1,548483968e-01    0,000000000e+00    0,000000000e+00    0,000000000e+00    0,000000000e+00
     1192000000   -2,690961063e-01   -3,736681342e-01   -3,241429329e-01    5,549187586e-02    0,000000000e+00    0,000000000e+00    0,000000000e+00    0,000000000e+00
     1206000000   -5,198421478e-01   -1,632461250e-01   -1,667172462e-01    1,799445748e-01    0,000000000e+00    0,000000000e+00    0,000000000e+00    0,000000000e+00
     1220000000   -5,057869554e-01    1,741345674e-01    4,635344725e-03    1,595613658e-01    0,000000000e+00    0,000000000e+00    0,000000000e+00    0,000000000e+00
     1234000000   -2,908408642e-01    3,620278239e-01    6,569465250e-02    5,885643139e-02    0,000000000e+00    0,000000000e+00    0,000000000e+00    0,000000000e+00
     1248000000   -4,679872841e-02    3,689154387e-01    5,415343493e-02   -7,655394729e-03    0,000000000e+00    0,000000000e+00    0,000000000e+00    0,000000000e+00
     1262000000    1,260215640e-01    2,567560971e-01    2,038758807e-02   -2,385747060e-02    0,000000000e+00    0,000000000e+00    0,000000000e+00    0,000000000e+00
     1276000000    2,144821584e-01    9,862906486e-02   -1,960485009e-03    2,062525367e-03    0,000000000e+00    0,000000000e+00    0,000000000e+00    0,000000000e+00
     1290000000    2,218669802e-01   -7,458905876e-02    1,759607345e-02    4,857980460e-02    0,000000000e+00    0,000000000e+00    0,000000000e+00    0,000000000e+00
     1304000000    1,557796448e-01   -2,421212792e-01    1,322000027e-01    6,147640198e-02    0,000000000e+00    0,000000000e+00    0,000000000e+00    0,000000000e+00
     1318000000    3,266505525e-02   -3,357222378e-01    1,281012148e-01   -1,673400998e-01    0,000000000e+00    0,000000000e+00    0,000000000e+00    0,000000000e+00
     1332000000   -1,284203678e-01   -4,427498281e-01   -5,410409719e-02   -5,031806976e-02    0,000000000e+00    0,000000000e+00    0,000000000e+00    0,000000000e+00
     1346000000   -3,960778415e-01   -4,085531533e-01    2,433378249e-02    6,054472178e-02    0,000000000e+00    0,000000000e+00    0,000000000e+00    0,000000000e+00
     1360000000   -6,136584878e-01   -1,869474351e-01    1,311654896e-01    7,745086402e-02    0,000000000e+00    0,000000000e+00    0,000000000e+00    0,000000000e+00
     1374000000   -6,360854506e-01    1,198051870e-01    2,048687637e-01   -7,883379236e-03    0,000000000e+00    0,000000000e+00    0,000000000e+00    0,000000000e+00
     1388000000   -4,642865658e-01    3,659100831e-01    2,141465843e-01   -7,021379471e-02    0,000000000e+00    0,000000000e+00    0,000000000e+00    0,000000000e+00
     1402000000   -2,305487841e-01    4,497879148e-01    1,934162974e-01   -9,947369993e-02    0,000000000e+00    0,000000000e+00    0,000000000e+00    0,000000000e+00
     1416000000   -2,770564146e-02    4,130072594e-01    1,659589112e-01   -1,087379605e-01    0,000000000e+00    0,000000000e+00    0,000000000e+00    0,000000000e+00
     1430000000    1,163117513e-01    3,082191348e-01    1,622459888e-01   -9,015937150e-02    0,000000000e+00    0,000000000e+00    0,000000000e+00    0,000000000e+00
     1444000000    2,035585195e-01    1,447908282e-01    1,495607942e-01   -9,460236877e-02    0,000000000e+00    0,000000000e+00    0,000000000e+00    0,000000000e+00
     1458000000    2,312962860e-01   -2,199084125e-02    1,391294897e-01   -8,056062460e-02    0,000000000e+00    0,000000000e+00    0,000000000e+00    0,000000000e+00
     1472000000    1,939751506e-01   -2,069294900e-01    1,457751840e-01   -4,102084413e-02    0,000000000e+00    0,000000000e+00    0,000000000e+00    0,000000000e+00
     1486000000    5,547045544e-02   -3,734299839e-01    1,670889407e-01    4,990085587e-02    0,000000000e+00    0,000000000e+00    0,000000000e+00    0,000000000e+00
     1500000000   -1,657074541e-01   -4,968678653e-01    2,518979609e-01    1,039341539e-01    0,000000000e+00    0,000000000e+00    0,000000000e+00    0,000000000e+00
