! NanoVNA-App
! Date: 2025-09-25 15:32:11
! Start: 100MHz Stop: 1,5GHz Points: 101
! S-Parameter data: F S11 S21 S12 S22
# Hz S RI R 50
!     Frequency           S11_Real           S11_Imag           S21_Real           S21_Imag           S12_Real           S12_Imag           S22_Real           S22_Imag
      100000000   -2,886177413e-02   -4,171648063e-03    3,741202354e-01   -7,217805982e-01    0,000000000e+00    0,000000000e+00    0,000000000e+00    0,000000000e+00
      114000000   -1,652936637e-02    1,155303791e-02   -8,915054053e-02   -8,055440187e-01    0,000000000e+00    0,000000000e+00    0,000000000e+00    0,000000000e+00
      128000000    3,407475073e-03    1,057010517e-02   -5,146912932e-01   -6,206345558e-01    0,000000000e+00    0,000000000e+00    0,000000000e+00    0,000000000e+00
      142000000    1,454611309e-02   -2,952279756e-03   -7,672378421e-01   -2,366804481e-01    0,000000000e+00    0,000000000e+00    0,000000000e+00    0,000000000e+00
      156000000    1,611006446e-02   -1,438193861e-02   -7,723070383e-01    2,246596217e-01    0,000000000e+00    0,000000000e+00    0,000000000e+00    0,000000000e+00
      170000000    1,669660024e-02   -2,249831520e-02   -5,182230473e-01    6,047322750e-01    0,000000000e+00    0,000000000e+00    0,000000000e+00    0,000000000e+00
      184000000    2,101377025e-02   -3,704208881e-02   -1,014341712e-01    7,863541842e-01    0,000000000e+00    0,000000000e+00    0,000000000e+00    0,000000000e+00
      198000000    1,300272718e-02   -6,244716048e-02    3,436654508e-01    7,125278115e-01    0,000000000e+00    0,000000000e+00    0,000000000e+00    0,000000000e+00
      212000000   -1,866227016e-02   -8,128602058e-02    6,782535911e-01    4,099115431e-01    0,000000000e+00    0,000000000e+00    0,000000000e+00    0,000000000e+00
      226000000   -6,167032197e-02   -6,909273565e-02    7,958608270e-01   -3,058435023e-02    0,000000000e+00    0,000000000e+00    0,000000000e+00    0,000000000e+00
      240000000   -8,262233436e-02   -2,559342794e-02    6,461299062e-01   -4,671170712e-01    0,000000000e+00    0,000000000e+00    0,000000000e+00    0,000000000e+00
      254000000   -6,351937354e-02    1,725299098e-02    2,761508226e-01   -7,439342737e-01    0,000000000e+00    0,000000000e+00    0,000000000e+00    0,000000000e+00
      268000000   -2,382845618e-02    2,887022682e-02   -1,782016456e-01   -7,643769383e-01    0,000000000e+00    0,000000000e+00    0,000000000e+00    0,000000000e+00
      282000000    4,131698981e-03    1,196326315e-02   -5,619102716e-01   -5,357795954e-01    0,000000000e+00    0,000000000e+00    0,000000000e+00    0,000000000e+00
      296000000    9,612372145e-03   -7,776452228e-03   -7,595097423e-01   -1,395235956e-01    0,000000000e+00    0,000000000e+00    0,000000000e+00    0,000000000e+00
      310000000    1,109678205e-02   -1,631489396e-02   -7,125992179e-01    2,976347208e-01    0,000000000e+00    0,000000000e+00    0,000000000e+00    0,000000000e+00
      324000000    1,967740804e-02   -2,629936859e-02   -4,278329611e-01    6,394445896e-01    0,000000000e+00    0,000000000e+00    0,000000000e+00    0,000000000e+00
      338000000    2,566658892e-02   -5,201837793e-02   -1,016976312e-02    7,604360580e-01    0,000000000e+00    0,000000000e+00    0,000000000e+00    0,000000000e+00
      352000000    7,141768467e-03   -8,499038219e-02    4,058061838e-01    6,392347217e-01    0,000000000e+00    0,000000000e+00    0,000000000e+00    0,000000000e+00
      366000000   -3,481464088e-02   -9,552554041e-02    6,903935075e-01    3,109819591e-01    0,000000000e+00    0,000000000e+00    0,000000000e+00    0,000000000e+00
      380000000   -7,058800757e-02   -7,128072530e-02    7,477672100e-01   -1,262340397e-01    0,000000000e+00    0,000000000e+00    0,000000000e+00    0,000000000e+00
      394000000   -7,273393124e-02   -3,241012618e-02    5,472355485e-01   -5,214052796e-01    0,000000000e+00    0,000000000e+00    0,000000000e+00    0,000000000e+00
      408000000   -4,632658511e-02   -1,622756384e-02    1,606952399e-01   -7,324402332e-01    0,000000000e+00    0,000000000e+00    0,000000000e+00    0,000000000e+00
      422000000   -2,842825279e-02   -3,214043006e-02   -2,676822245e-01   -6,949440837e-01    0,000000000e+00    0,000000000e+00    0,000000000e+00    0,000000000e+00
      436000000   -4,049026221e-02   -5,153162032e-02   -6,044675708e-01   -4,317651391e-01    0,000000000e+00    0,000000000e+00    0,000000000e+00    0,000000000e+00
      450000000   -6,749162078e-02   -4,415985942e-02   -7,405139804e-01   -2,159090899e-02    0,000000000e+00    0,000000000e+00    0,000000000e+00    0,000000000e+00
      464000000   -7,353968173e-02   -1,190212741e-02   -6,186737418e-01    3,972541690e-01    0,000000000e+00    0,000000000e+00    0,000000000e+00    0,000000000e+00
      478000000   -4,793808609e-02    1,167673245e-02   -2,821010947e-01    6,680400968e-01    0,000000000e+00    0,000000000e+00    0,000000000e+00    0,000000000e+00
      492000000   -1,592771895e-02    5,995994899e-03    1,379911005e-01    7,020026445e-01    0,000000000e+00    0,000000000e+00    0,000000000e+00    0,000000000e+00
      506000000   -2,474243753e-03   -1,563283987e-02    4,989810288e-01    5,028959513e-01    0,000000000e+00    0,000000000e+00    0,000000000e+00    0,000000000e+00
      520000000   -4,988481756e-03   -3,141685948e-02    6,885744929e-01    1,414797157e-01    0,000000000e+00    0,000000000e+00    0,000000000e+00    0,000000000e+00
      534000000   -3,572966671e-03   -3,827876598e-02    6,438927054e-01   -2,626189590e-01    0,000000000e+00    0,000000000e+00    0,000000000e+00    0,000000000e+00
      548000000    6,139024161e-03   -5,390489474e-02    3,815784454e-01   -5,671300888e-01    0,000000000e+00    0,000000000e+00    0,000000000e+00    0,000000000e+00
      562000000    3,274715738e-03   -8,900494874e-02    2,596911974e-03   -6,723094583e-01    0,000000000e+00    0,000000000e+00    0,000000000e+00    0,000000000e+00
      576000000   -3,407166526e-02   -1,246648803e-01   -3,692931235e-01   -5,571787357e-01    0,000000000e+00    0,000000000e+00    0,000000000e+00    0,000000000e+00
      590000000   -9,637535363e-02   -1,224628538e-01   -6,203817725e-01   -2,649572492e-01    0,000000000e+00    0,000000000e+00    0,000000000e+00    0,000000000e+00
      604000000   -1,398577392e-01   -7,196138054e-02   -6,654934883e-01    1,375303715e-01    0,000000000e+00    0,000000000e+00    0,000000000e+00    0,000000000e+00
      618000000   -1,294480711e-01   -9,621786885e-03   -4,650166333e-01    4,948565364e-01    0,000000000e+00    0,000000000e+00    0,000000000e+00    0,000000000e+00
      632000000   -8,395453542e-02    1,629464142e-02   -9,979212284e-02    6,649413705e-01    0,000000000e+00    0,000000000e+00    0,000000000e+00    0,000000000e+00
      646000000   -5,146116763e-02    9,923792677e-04    2,879311442e-01    5,956756473e-01    0,000000000e+00    0,000000000e+00    0,000000000e+00    0,000000000e+00
      660000000   -5,277112126e-02   -2,124607936e-02    5,672206283e-01    3,230586052e-01    0,000000000e+00    0,000000000e+00    0,000000000e+00    0,000000000e+00
      674000000   -7,059140503e-02   -1,800585166e-02    6,432508826e-01   -6,572790444e-02    0,000000000e+00    0,000000000e+00    0,000000000e+00    0,000000000e+00
      688000000   -6,802330911e-02    8,611764759e-03    4,716160893e-01   -4,285126328e-01    0,000000000e+00    0,000000000e+00    0,000000000e+00    0,000000000e+00
      702000000   -3,879202530e-02    2,645341493e-02    1,248044446e-01   -6,123017669e-01    0,000000000e+00    0,000000000e+00    0,000000000e+00    0,000000000e+00
      716000000    2,487528604e-03    1,835523732e-02   -2,652831376e-01   -5,477002263e-01    0,000000000e+00    0,000000000e+00    0,000000000e+00    0,000000000e+00
      730000000    3,675861657e-02   -1,026815176e-02   -5,284462571e-01   -2,688635886e-01    0,000000000e+00    0,000000000e+00    0,000000000e+00    0,000000000e+00
      744000000    6,588344276e-02   -6,259859353e-02   -5,644119382e-01    1,067017242e-01    0,000000000e+00    0,000000000e+00    0,000000000e+00    0,000000000e+00
      758000000    6,673408300e-02   -1,514645815e-01   -3,638350070e-01    4,098593295e-01    0,000000000e+00    0,000000000e+00    0,000000000e+00    0,000000000e+00
      772000000   -1,234277058e-02   -2,619694471e-01   -3,496126086e-02    5,149491429e-01    0,000000000e+00    0,000000000e+00    0,000000000e+00    0,000000000e+00
      786000000   -2,066122293e-01   -3,031239212e-01    2,742691934e-01    3,962789476e-01    0,000000000e+00    0,000000000e+00    0,000000000e+00    0,000000000e+00
      800000000   -4,263122082e-01   -1,306703240e-01    4,176426828e-01    9,903676063e-02    0,000000000e+00    0,000000000e+00    0,000000000e+00    0,000000000e+00
      814000000   -3,896902204e-01    2,223432511e-01    2,821457088e-01   -1,731154770e-01    0,000000000e+00    0,000000000e+00    0,000000000e+00    0,000000000e+00
      828000000   -4,975411668e-02    3,686214983e-01    5,532170832e-02   -1,891153455e-01    0,000000000e+00    0,000000000e+00    0,000000000e+00    0,000000000e+00
      842000000    2,352395952e-01    1,859610826e-01   -1,745567098e-02   -7,037597895e-02    0,000000000e+00    0,000000000e+00    0,000000000e+00    0,000000000e+00
      856000000    2,806121111e-01   -1,245579347e-01    4,506519809e-02   -1,312987786e-02    0,000000000e+00    0,000000000e+00    0,000000000e+00    0,000000000e+00
      870000000    7,496124506e-02   -3,761619031e-01    1,143033281e-01   -9,117323160e-02    0,000000000e+00    0,000000000e+00    0,000000000e+00    0,000000000e+00
      884000000   -2,955209613e-01   -3,629048169e-01    2,787088975e-02   -2,462019920e-01    0,000000000e+00    0,000000000e+00    0,000000000e+00    0,000000000e+00
      898000000   -4,728994668e-01    9,188393131e-03   -2,223528773e-01   -2,272898555e-01    0,000000000e+00    0,000000000e+00    0,000000000e+00    0,000000000e+00
      912000000   -2,261351198e-01    2,942265272e-01   -3,445970118e-01    7,644138485e-02    0,000000000e+00    0,000000000e+00    0,000000000e+00    0,000000000e+00
      926000000    6,878615916e-02    2,636110783e-01   -2,141837776e-01    2,649722695e-01    0,000000000e+00    0,000000000e+00    0,000000000e+00    0,000000000e+00
      940000000    2,146250010e-01    7,864595205e-02   -3,741847351e-02    3,285575807e-01    0,000000000e+00    0,000000000e+00    0,000000000e+00    0,000000000e+00
      954000000    2,232668400e-01   -1,294322163e-01    1,308177114e-01    3,068877757e-01    0,000000000e+00    0,000000000e+00    0,000000000e+00    0,000000000e+00
      968000000    1,164020672e-01   -3,021225929e-01    2,697836757e-01    2,169677317e-01    0,000000000e+00    0,000000000e+00    0,000000000e+00    0,000000000e+00
      982000000   -8,031689376e-02   -3,863729835e-01    3,652818799e-01    6,521303207e-02    0,000000000e+00    0,000000000e+00    0,000000000e+00    0,000000000e+00
      996000000   -3,170946240e-01   -3,257514238e-01    3,695995808e-01   -1,471963525e-01    0,000000000e+00    0,000000000e+00    0,000000000e+00    0,000000000e+00
     1010000000   -4,593207538e-01   -1,124189496e-01    2,250710130e-01   -3,415583968e-01    0,000000000e+00    0,000000000e+00    0,000000000e+00    0,000000000e+00
     1024000000   -4,172483087e-01    1,479937434e-01   -3,259041160e-02   -3,914173841e-01    0,000000000e+00    0,000000000e+00    0,000000000e+00    0,000000000e+00
     1038000000   -2,176424861e-01    2,893864810e-01   -2,457100004e-01   -2,606653571e-01    0,000000000e+00    0,000000000e+00    0,000000000e+00    0,000000000e+00
     1052000000   -4,877496045e-03    2,783768773e-01   -3,176961839e-01   -4,731831327e-02    0,000000000e+00    0,000000000e+00    0,000000000e+00    0,000000000e+00
     1066000000    1,398302466e-01    1,654584408e-01   -2,583536804e-01    1,410361230e-01    0,000000000e+00    0,000000000e+00    0,000000000e+00    0,000000000e+00
     1080000000    1,936910599e-01   -2,976031275e-03   -1,183020920e-01    2,640900910e-01    0,000000000e+00    0,000000000e+00    0,000000000e+00    0,000000000e+00
     1094000000    1,523493081e-01   -1,729091108e-01    6,448831409e-02    3,052279949e-01    0,000000000e+00    0,000000000e+00    0,000000000e+00    0,000000000e+00
     1108000000    1,076444751e-03   -3,044224381e-01    2,749832571e-01    2,447702885e-01    0,000000000e+00    0,000000000e+00    0,000000000e+00    0,000000000e+00
     1122000000   -2,525044084e-01   -2,649132311e-01    4,730812609e-01    1,377738267e-02    0,000000000e+00    0,000000000e+00    0,000000000e+00    0,000000000e+00
     1136000000   -3,175117373e-01    3,647276014e-02    3,964222074e-01   -3,921745420e-01    0,000000000e+00    0,000000000e+00    0,000000000e+00    0,000000000e+00
     1150000000   -3,847171739e-02    1,493870616e-01    5,693130195e-03   -5,389084220e-01    0,000000000e+00    0,000000000e+00    0,000000000e+00    0,000000000e+00
     1164000000    1,252692789e-01   -5,956688896e-02   -2,758562565e-01   -3,799529374e-01    0,000000000e+00    0,000000000e+00    0,000000000e+00    0,000000000e+00
     1178000000    1,514597051e-02   -3,026899099e-01   -3,672919273e-01   -1,507904232e-01    0,000000000e+00    0,000000000e+00    0,000000000e+00    0,000000000e+00
     1192000000   -2,631362379e-01   -3,701680303e-01   -3,222670555e-01    5,782013759e-02    0,000000000e+00    0,000000000e+00    0,000000000e+00    0,000000000e+00
     1206000000   -5,196525455e-01   -1,565946937e-01   -1,630726755e-01    1,848596334e-01    0,000000000e+00    0,000000000e+00    0,000000000e+00    0,000000000e+00
     1220000000   -5,061652064e-01    1,687353998e-01   -1,525007538e-03    1,592811197e-01    0,000000000e+00    0,000000000e+00    0,000000000e+00    0,000000000e+00
     1234000000   -2,843132019e-01    3,693293333e-01    6,968155503e-02    6,560163200e-02    0,000000000e+00    0,000000000e+00    0,000000000e+00    0,000000000e+00
     1248000000   -4,120987281e-02    3,634097874e-01    5,736659095e-02   -1,086666435e-02    0,000000000e+00    0,000000000e+00    0,000000000e+00    0,000000000e+00
     1262000000    1,188728213e-01    2,529709339e-01    1,513033826e-02   -2,520769462e-02    0,000000000e+00    0,000000000e+00    0,000000000e+00    0,000000000e+00
     1276000000    2,091249526e-01    1,025012285e-01   -4,935271572e-03    4,540991969e-03    0,000000000e+00    0,000000000e+00    0,000000000e+00    0,000000000e+00
     1290000000    2,250172198e-01   -7,319614291e-02    2,363978699e-02    4,871243611e-02    0,000000000e+00    0,000000000e+00    0,000000000e+00    0,000000000e+00
     1304000000    1,583912820e-01   -2,411770374e-01    1,275437325e-01    6,838344783e-02    0,000000000e+00    0,000000000e+00    0,000000000e+00    0,000000000e+00
     1318000000    3,165314719e-02   -3,352226913e-01    1,302231401e-01   -1,595481038e-01    0,000000000e+00    0,000000000e+00    0,000000000e+00    0,000000000e+00
     1332000000   -1,327147037e-01   -4,415227473e-01   -4,717193171e-02   -5,182633922e-02    0,000000000e+00    0,000000000e+00    0,000000000e+00    0,000000000e+00
     1346000000   -3,938872218e-01   -4,040876031e-01    2,280798368e-02    7,193581015e-02    0,000000000e+00    0,000000000e+00    0,000000000e+00    0,000000000e+00
     1360000000   -6,026709080e-01   -1,873612851e-01    1,436986178e-01    7,085750252e-02    0,000000000e+00    0,000000000e+00    0,000000000e+00    0,000000000e+00
     1374000000   -6,357278824e-01    1,265267879e-01    2,015458494e-01    1,962583978e-03    0,000000000e+00    0,000000000e+00    0,000000000e+00    0,000000000e+00
     1388000000   -4,620768428e-01    3,718189895e-01    2,112306505e-01   -5,866137519e-02    0,000000000e+00    0,000000000e+00    0,000000000e+00    0,000000000e+00
     1402000000   -2,323437184e-01    4,546941817e-01    1,874368787e-01   -1,016209349e-01    0,000000000e+00    0,000000000e+00    0,000000000e+00    0,000000000e+00
     1416000000   -2,581093647e-02    4,138726890e-01    1,746855676e-01   -1,093528867e-01    0,000000000e+00    0,000000000e+00    0,000000000e+00    0,000000000e+00
     1430000000    1,108754948e-01    2,985908091e-01    1,464090198e-01   -8,906693757e-02    0,000000000e+00    0,000000000e+00    0,000000000e+00    0,000000000e+00
     1444000000    2,099506706e-01    1,536123306e-01    1,569076329e-01   -8,924265206e-02    0,000000000e+00    0,000000000e+00    0,000000000e+00    0,000000000e+00
     1458000000    2,366637737e-01   -1,929840446e-02    1,419331133e-01   -7,331272960e-02    0,000000000e+00    0,000000000e+00    0,000000000e+00    0,000000000e+00
     1472000000    1,899464279e-01   -2,027862072e-01    1,385398954e-01   -2,662942372e-02    0,000000000e+00    0,000000000e+00    0,000000000e+00    0,000000000e+00
     1486000000    5,835932866e-02   -3,721678853e-01    1,686387807e-01    4,432222620e-02    0,000000000e+00    0,000000000e+00    0,000000000e+00    0,000000000e+00
     1500000000   -1,602082551e-01   -4,997637272e-01    2,624512017e-01    1,035444662e-01    0,000000000e+00    0,000000000e+00    0,000000000e+00    0,000000000e+00
