! NanoVNA-App
! Date: 2025-09-25 15:33:26
! Start: 100MHz Stop: 1,5GHz Points: 101
! S-Parameter data: F S11 S21 S12 S22
# Hz S RI R 50
!     Frequency           S11_Real           S11_Imag           S21_Real           S21_Imag           S12_Real           S12_Imag           S22_Real           S22_Imag
      100000000   -2,886709757e-02   -4,170518834e-03    3,741321862e-01   -7,217751145e-01    0,000000000e+00    0,000000000e+00    0,000000000e+00    0,000000000e+00
      114000000   -1,651101187e-02    1,152395457e-02   -8,913452178e-02   -8,054861426e-01    0,000000000e+00    0,000000000e+00    0,000000000e+00    0,000000000e+00
      128000000    3,481365973e-03    1,051448938e-02   -5,146081448e-01   -6,205143929e-01    0,000000000e+00    0,000000000e+00    0,000000000e+00    0,000000000e+00
      142000000    1,455044933e-02   -2,963939216e-03   -7,672880292e-01   -2,366294712e-01    0,000000000e+00    0,000000000e+00    0,000000000e+00    0,000000000e+00
      156000000    1,609247737e-02   -1,443066541e-02   -7,724325061e-01    2,245897204e-01    0,000000000e+00    0,000000000e+00    0,000000000e+00    0,000000000e+00
      170000000    1,668207906e-02   -2,252473868e-02   -5,182268023e-01    6,047769785e-01    0,000000000e+00    0,000000000e+00    0,000000000e+00    0,000000000e+00
      184000000    2,098521218e-02   -3,705409169e-02   -1,013968587e-01    7,860446572e-01    0,000000000e+00    0,000000000e+00    0,000000000e+00    0,000000000e+00
      198000000    1,303277630e-02   -6,247308478e-02    3,433621228e-01    7,124745846e-01    0,000000000e+00    0,000000000e+00    0,000000000e+00    0,000000000e+00
      212000000   -1,870935224e-02   -8,131200075e-02    6,779459119e-01    4,100451469e-01    0,000000000e+00    0,000000000e+00    0,000000000e+00    0,000000000e+00
      226000000   -6,173501909e-02   -6,921537966e-02    7,958843112e-01   -3,060006537e-02    0,000000000e+00    0,000000000e+00    0,000000000e+00    0,000000000e+00
      240000000   -8,259325475e-02   -2,554128133e-02    6,461359262e-01   -4,672105908e-01    0,000000000e+00    0,000000000e+00    0,000000000e+00    0,000000000e+00
      254000000   -6,354065239e-02    1,724472269e-02    2,761109769e-01   -7,431057692e-01    0,000000000e+00    0,000000000e+00    0,000000000e+00    0,000000000e+00
      268000000   -2,382467128e-02    2,886828221e-02   -1,782566458e-01   -7,642542720e-01    0,000000000e+00    0,000000000e+00    0,000000000e+00    0,000000000e+00
      282000000    4,216618836e-03    1,190922875e-02   -5,617532134e-01   -5,356641412e-01    0,000000000e+00    0,000000000e+00    0,000000000e+00    0,000000000e+00
      296000000    9,685137309e-03   -7,816258818e-03   -7,595954537e-01   -1,396200061e-01    0,000000000e+00    0,000000000e+00    0,000000000e+00    0,000000000e+00
      310000000    1,112349238e-02   -1,613848098e-02   -7,133001685e-01    2,994545400e-01    0,000000000e+00    0,000000000e+00    0,000000000e+00    0,000000000e+00
      324000000    1,952036656e-02   -2,654027753e-02   -4,285007119e-01    6,378278732e-01    0,000000000e+00    0,000000000e+00    0,000000000e+00    0,000000000e+00
      338000000    2,550992742e-02   -5,227609724e-02   -6,534847431e-03    7,640034556e-01    0,000000000e+00    0,000000000e+00    0,000000000e+00    0,000000000e+00
      352000000    7,231876720e-03   -8,472681046e-02    4,066036046e-01    6,388974786e-01    0,000000000e+00    0,000000000e+00    0,000000000e+00    0,000000000e+00
      366000000   -3,452225402e-02   -9,547888488e-02    6,913039088e-01    3,113641143e-01    0,000000000e+00    0,000000000e+00    0,000000000e+00    0,000000000e+00
      380000000   -7,069505751e-02   -7,118093222e-02    7,477009892e-01   -1,260289401e-01    0,000000000e+00    0,000000000e+00    0,000000000e+00    0,000000000e+00
      394000000   -7,272593677e-02   -3,230056912e-02    5,467076898e-01   -5,213376880e-01    0,000000000e+00    0,000000000e+00    0,000000000e+00    0,000000000e+00
      408000000   -4,650099948e-02   -1,608379930e-02    1,615022421e-01   -7,326177955e-01    0,000000000e+00    0,000000000e+00    0,000000000e+00    0,000000000e+00
      422000000   -2,831886522e-02   -3,198618814e-02   -2,679698169e-01   -6,948074102e-01    0,000000000e+00    0,000000000e+00    0,000000000e+00    0,000000000e+00
      436000000   -4,055422172e-02   -5,208552629e-02   -6,039052010e-01   -4,321609437e-01    0,000000000e+00    0,000000000e+00    0,000000000e+00    0,000000000e+00
      450000000   -6,757387519e-02   -4,403388500e-02   -7,408813238e-01   -2,112435363e-02    0,000000000e+00    0,000000000e+00    0,000000000e+00    0,000000000e+00
      464000000   -7,348989695e-02   -1,173565444e-02   -6,184175611e-01    3,979157507e-01    0,000000000e+00    0,000000000e+00    0,000000000e+00    0,000000000e+00
      478000000   -4,784726724e-02    1,211583707e-02   -2,822963893e-01    6,681475043e-01    0,000000000e+00    0,000000000e+00    0,000000000e+00    0,000000000e+00
      492000000   -1,602832973e-02    6,050178781e-03    1,381533593e-01    7,010062933e-01    0,000000000e+00    0,000000000e+00    0,000000000e+00    0,000000000e+00
      506000000   -2,611709293e-03   -1,596770994e-02    4,986934364e-01    5,026082993e-01    0,000000000e+00    0,000000000e+00    0,000000000e+00    0,000000000e+00
      520000000   -4,968621768e-03   -3,192134202e-02    6,899701953e-01    1,411367804e-01    0,000000000e+00    0,000000000e+00    0,000000000e+00    0,000000000e+00
      534000000   -4,096699413e-03   -3,813094273e-02    6,437519193e-01   -2,624258101e-01    0,000000000e+00    0,000000000e+00    0,000000000e+00    0,000000000e+00
      548000000    6,346781738e-03   -5,381714553e-02    3,814173341e-01   -5,669125319e-01    0,000000000e+00    0,000000000e+00    0,000000000e+00    0,000000000e+00
      562000000    3,413440194e-03   -8,930315822e-02    2,182353986e-03   -6,727367043e-01    0,000000000e+00    0,000000000e+00    0,000000000e+00    0,000000000e+00
      576000000   -3,456796333e-02   -1,241678447e-01   -3,696874976e-01   -5,577262640e-01    0,000000000e+00    0,000000000e+00    0,000000000e+00    0,000000000e+00
      590000000   -9,624785185e-02   -1,228626072e-01   -6,192081571e-01   -2,645629048e-01    0,000000000e+00    0,000000000e+00    0,000000000e+00    0,000000000e+00
      604000000   -1,398074478e-01   -7,176571339e-02   -6,650996804e-01    1,378663778e-01    0,000000000e+00    0,000000000e+00    0,000000000e+00    0,000000000e+00
      618000000   -1,294912547e-01   -8,429442532e-03   -4,646091461e-01    4,947973490e-01    0,000000000e+00    0,000000000e+00    0,000000000e+00    0,000000000e+00
      632000000   -8,368823677e-02    1,693801209e-02   -9,850320220e-02    6,640831828e-01    0,000000000e+00    0,000000000e+00    0,000000000e+00    0,000000000e+00
      646000000   -5,090422928e-02   -1,086091197e-05    2,880666554e-01    5,947636962e-01    0,000000000e+00    0,000000000e+00    0,000000000e+00    0,000000000e+00
      660000000   -5,377459899e-02   -2,135728113e-02    5,685336590e-01    3,238590956e-01    0,000000000e+00    0,000000000e+00    0,000000000e+00    0,000000000e+00
      674000000   -7,086916268e-02   -1,759951748e-02    6,432815790e-01   -6,521323323e-02    0,000000000e+00    0,000000000e+00    0,000000000e+00    0,000000000e+00
      688000000   -6,879667193e-02    8,288593031e-03    4,708835781e-01   -4,282456338e-01    0,000000000e+00    0,000000000e+00    0,000000000e+00    0,000000000e+00
      702000000   -3,870707750e-02    2,714992128e-02    1,233378649e-01   -6,113269329e-01    0,000000000e+00    0,000000000e+00    0,000000000e+00    0,000000000e+00
      716000000    1,828215201e-03    1,825518347e-02   -2,645467818e-01   -5,468869209e-01    0,000000000e+00    0,000000000e+00    0,000000000e+00    0,000000000e+00
      730000000    3,624592349e-02   -1,165137999e-02   -5,288381577e-01   -2,692694366e-01    0,000000000e+00    0,000000000e+00    0,000000000e+00    0,000000000e+00
      744000000    6,553325057e-02   -6,299726665e-02   -5,641842484e-01    1,067951396e-01    0,000000000e+00    0,000000000e+00    0,000000000e+00    0,000000000e+00
      758000000    6,723733246e-02   -1,522581726e-01   -3,634168506e-01    4,107050300e-01    0,000000000e+00    0,000000000e+00    0,000000000e+00    0,000000000e+00
      772000000   -1,291788369e-02   -2,627611160e-01   -3,483105451e-02    5,162481070e-01    0,000000000e+00    0,000000000e+00    0,000000000e+00    0,000000000e+00
      786000000   -2,064888328e-01   -3,032516241e-01    2,743057609e-01    3,957770169e-01    0,000000000e+00    0,000000000e+00    0,000000000e+00    0,000000000e+00
      800000000   -4,264064133e-01   -1,305917054e-01    4,177219272e-01    9,930584580e-02    0,000000000e+00    0,000000000e+00    0,000000000e+00    0,000000000e+00
      814000000   -3,890464008e-01    2,221280485e-01    2,824516594e-01   -1,733935624e-01    0,000000000e+00    0,000000000e+00    0,000000000e+00    0,000000000e+00
      828000000   -4,958086088e-02    3,687712252e-01    5,475903675e-02   -1,890251637e-01    0,000000000e+00    0,000000000e+00    0,000000000e+00    0,000000000e+00
      842000000    2,347709835e-01    1,860266477e-01   -1,700366847e-02   -7,131547481e-02    0,000000000e+00    0,000000000e+00    0,000000000e+00    0,000000000e+00
      856000000    2,807742953e-01   -1,244876385e-01    4,508782178e-02   -1,253211219e-02    0,000000000e+00    0,000000000e+00    0,000000000e+00    0,000000000e+00
      870000000    7,397799194e-02   -3,764591217e-01    1,127077639e-01   -9,086020291e-02    0,000000000e+00    0,000000000e+00    0,000000000e+00    0,000000000e+00
      884000000   -2,953205109e-01   -3,615984023e-01    2,898427099e-02   -2,460909933e-01    0,000000000e+00    0,000000000e+00    0,000000000e+00    0,000000000e+00
      898000000   -4,725261331e-01    9,318061173e-03   -2,223125696e-01   -2,271530330e-01    0,000000000e+00    0,000000000e+00    0,000000000e+00    0,000000000e+00
      912000000   -2,265552431e-01    2,941742539e-01   -3,491467834e-01    5,999835953e-02    0,000000000e+00    0,000000000e+00    0,000000000e+00    0,000000000e+00
      926000000    6,875865161e-02    2,630732954e-01   -2,158703059e-01    2,630126178e-01    0,000000000e+00    0,000000000e+00    0,000000000e+00    0,000000000e+00
      940000000    2,149932086e-01    7,954150438e-02   -3,629120439e-02    3,284288049e-01    0,000000000e+00    0,000000000e+00    0,000000000e+00    0,000000000e+00
      954000000    2,205636501e-01   -1,290469617e-01    1,300554574e-01    3,074721992e-01    0,000000000e+00    0,000000000e+00    0,000000000e+00    0,000000000e+00
      968000000    1,167857870e-01   -3,012309372e-01    2,714339793e-01    2,179085910e-01    0,000000000e+00    0,000000000e+00    0,000000000e+00    0,000000000e+00
      982000000   -8,036853373e-02   -3,910731077e-01    3,663366437e-01    6,631489098e-02    0,000000000e+00    0,000000000e+00    0,000000000e+00    0,000000000e+00
      996000000   -3,149168491e-01   -3,290034533e-01    3,684810698e-01   -1,460542232e-01    0,000000000e+00    0,000000000e+00    0,000000000e+00    0,000000000e+00
     1010000000   -4,647293985e-01   -1,087895036e-01    2,238272578e-01   -3,426430523e-01    0,000000000e+00    0,000000000e+00    0,000000000e+00    0,000000000e+00
     1024000000   -4,113985896e-01    1,493012011e-01   -3,414423391e-02   -3,935382962e-01    0,000000000e+00    0,000000000e+00    0,000000000e+00    0,000000000e+00
     1038000000   -2,159286439e-01    2,939403653e-01   -2,479130924e-01   -2,598021924e-01    0,000000000e+00    0,000000000e+00    0,000000000e+00    0,000000000e+00
     1052000000   -7,654016837e-03    2,810477614e-01   -3,176531494e-01   -4,640183970e-02    0,000000000e+00    0,000000000e+00    0,000000000e+00    0,000000000e+00
     1066000000    1,377167106e-01    1,608633697e-01   -2,550004721e-01    1,418372691e-01    0,000000000e+00    0,000000000e+00    0,000000000e+00    0,000000000e+00
     1080000000    1,968484819e-01   -1,309575280e-03   -1,198833436e-01    2,649307251e-01    0,000000000e+00    0,000000000e+00    0,000000000e+00    0,000000000e+00
     1094000000    1,513012201e-01   -1,759897321e-01    6,576408446e-02    3,037313521e-01    0,000000000e+00    0,000000000e+00    0,000000000e+00    0,000000000e+00
     1108000000   -2,174211899e-03   -3,057782650e-01    2,785626650e-01    2,478329986e-01    0,000000000e+00    0,000000000e+00    0,000000000e+00    0,000000000e+00
     1122000000   -2,511725426e-01   -2,623151243e-01    4,728237092e-01    9,740929119e-03    0,000000000e+00    0,000000000e+00    0,000000000e+00    0,000000000e+00
     1136000000   -3,170427680e-01    3,546793759e-02    4,014663696e-01   -3,887169361e-01    0,000000000e+00    0,000000000e+00    0,000000000e+00    0,000000000e+00
     1150000000   -3,836453706e-02    1,541675776e-01    7,237197831e-03   -5,420916080e-01    0,000000000e+00    0,000000000e+00    0,000000000e+00    0,000000000e+00
     1164000000    1,248948872e-01   -6,513352692e-02   -2,745707929e-01   -3,767203987e-01    0,000000000e+00    0,000000000e+00    0,000000000e+00    0,000000000e+00
     1178000000    1,997923665e-02   -3,034319878e-01   -3,677813411e-01   -1,529896706e-01    0,000000000e+00    0,000000000e+00    0,000000000e+00    0,000000000e+00
     1192000000   -2,670572400e-01   -3,718735576e-01   -3,195586801e-01    5,655646324e-02    0,000000000e+00    0,000000000e+00    0,000000000e+00    0,000000000e+00
     1206000000   -5,183674693e-01   -1,615933180e-01   -1,657074392e-01    1,772490144e-01    0,000000000e+00    0,000000000e+00    0,000000000e+00    0,000000000e+00
     1220000000   -5,058118701e-01    1,734250635e-01    5,387763493e-03    1,600096226e-01    0,000000000e+00    0,000000000e+00    0,000000000e+00    0,000000000e+00
     1234000000   -2,850557268e-01    3,611095250e-01    7,119435072e-02    5,842321366e-02    0,000000000e+00    0,000000000e+00    0,000000000e+00    0,000000000e+00
     1248000000   -4,553909227e-02    3,615630865e-01    5,613549054e-02   -1,065767370e-02    0,000000000e+00    0,000000000e+00    0,000000000e+00    0,000000000e+00
     1262000000    1,271490753e-01    2,561892867e-01    2,085026354e-02   -1,810473762e-02    0,000000000e+00    0,000000000e+00    0,000000000e+00    0,000000000e+00
     1276000000    2,086931169e-01    9,747692943e-02   -1,195073011e-03    1,571132801e-03    0,000000000e+00    0,000000000e+00    0,000000000e+00    0,000000000e+00
     1290000000    2,265128940e-01   -7,513637096e-02    2,440780401e-02    5,254527181e-02    0,000000000e+00    0,000000000e+00    0,000000000e+00    0,000000000e+00
     1304000000    1,541240513e-01   -2,437896580e-01    1,324423254e-01    6,369385123e-02    0,000000000e+00    0,000000000e+00    0,000000000e+00    0,000000000e+00
     1318000000    3,180156648e-02   -3,334980607e-01    1,274653971e-01   -1,635753065e-01    0,000000000e+00    0,000000000e+00    0,000000000e+00    0,000000000e+00
     1332000000   -1,313356757e-01   -4,374397695e-01   -4,854075611e-02   -4,457665235e-02    0,000000000e+00    0,000000000e+00    0,000000000e+00    0,000000000e+00
     1346000000   -3,949338198e-01   -4,122056663e-01    2,237300016e-02    6,924596429e-02    0,000000000e+00    0,000000000e+00    0,000000000e+00    0,000000000e+00
     1360000000   -6,093673110e-01   -1,868238151e-01    1,249776408e-01    7,259584218e-02    0,000000000e+00    0,000000000e+00    0,000000000e+00    0,000000000e+00
     1374000000   -6,276647449e-01    1,336129904e-01    2,114486694e-01    7,214130834e-03    0,000000000e+00    0,000000000e+00    0,000000000e+00    0,000000000e+00
     1388000000   -4,712572098e-01    3,715076149e-01    2,091293484e-01   -5,786739290e-02    0,000000000e+00    0,000000000e+00    0,000000000e+00    0,000000000e+00
     1402000000   -2,304417342e-01    4,513875544e-01    1,945274621e-01   -9,636765718e-02    0,000000000e+00    0,000000000e+00    0,000000000e+00    0,000000000e+00
     1416000000   -1,980928332e-02    4,159267545e-01    1,767427474e-01   -9,804734588e-02    0,000000000e+00    0,000000000e+00    0,000000000e+00    0,000000000e+00
     1430000000    1,100148410e-01    3,028594553e-01    1,423356980e-01   -9,354203194e-02    0,000000000e+00    0,000000000e+00    0,000000000e+00    0,000000000e+00
     1444000000    2,063295245e-01    1,525330842e-01    1,583958268e-01   -9,550023079e-02    0,000000000e+00    0,000000000e+00    0,000000000e+00    0,000000000e+00
     1458000000    2,376921326e-01   -2,319733985e-02    1,411156952e-01   -7,778701931e-02    0,000000000e+00    0,000000000e+00    0,000000000e+00    0,000000000e+00
     1472000000    1,957069486e-01   -2,059811950e-01    1,571730226e-01   -3,440035880e-02    0,000000000e+00    0,000000000e+00    0,000000000e+00    0,000000000e+00
     1486000000    6,307832897e-02   -3,773310483e-01    1,691698432e-01    2,892943472e-02    0,000000000e+00    0,000000000e+00    0,000000000e+00    0,000000000e+00
     1500000000   -1,632150263e-01   -4,938704371e-01    2,610452771e-01    8,764265478e-02    0,000000000e+00    0,000000000e+00    0,000000000e+00    0,000000000e+00
