! NanoVNA-App
! Date: 2025-09-25 15:36:41
! Start: 100MHz Stop: 1,5GHz Points: 101
! S-Parameter data: F S11 S21 S12 S22
# Hz S RI R 50
!     Frequency           S11_Real           S11_Imag           S21_Real           S21_Imag           S12_Real           S12_Imag           S22_Real           S22_Imag
      100000000   -2,884201705e-02   -4,175992217e-03    3,740972579e-01   -7,217515111e-01    0,000000000e+00    0,000000000e+00    0,000000000e+00    0,000000000e+00
      114000000   -1,647272706e-02    1,152264141e-02   -8,899290860e-02   -8,056377769e-01    0,000000000e+00    0,000000000e+00    0,000000000e+00    0,000000000e+00
      128000000    3,488786286e-03    1,052788273e-02   -5,146496892e-01   -6,204590797e-01    0,000000000e+00    0,000000000e+00    0,000000000e+00    0,000000000e+00
      142000000    1,457241364e-02   -2,954630181e-03   -7,669495940e-01   -2,364413142e-01    0,000000000e+00    0,000000000e+00    0,000000000e+00    0,000000000e+00
      156000000    1,482040714e-02   -1,477019861e-02   -7,659582496e-01    2,216494530e-01    0,000000000e+00    0,000000000e+00    0,000000000e+00    0,000000000e+00
      170000000    1,668790914e-02   -2,259248309e-02   -5,179976225e-01    6,047446728e-01    0,000000000e+00    0,000000000e+00    0,000000000e+00    0,000000000e+00
      184000000    2,101754956e-02   -3,705202788e-02   -1,014790982e-01    7,863091826e-01    0,000000000e+00    0,000000000e+00    0,000000000e+00    0,000000000e+00
      198000000    1,303772815e-02   -6,246942282e-02    3,434332907e-01    7,123557925e-01    0,000000000e+00    0,000000000e+00    0,000000000e+00    0,000000000e+00
      212000000   -1,864540391e-02   -8,129426837e-02    6,780950427e-01    4,100415409e-01    0,000000000e+00    0,000000000e+00    0,000000000e+00    0,000000000e+00
      226000000   -6,162660569e-02   -6,913796067e-02    7,957904935e-01   -3,059246019e-02    0,000000000e+00    0,000000000e+00    0,000000000e+00    0,000000000e+00
      240000000   -8,258697391e-02   -2,558060735e-02    6,462659240e-01   -4,672340155e-01    0,000000000e+00    0,000000000e+00    0,000000000e+00    0,000000000e+00
      254000000   -6,347452104e-02    1,726320386e-02    2,761698365e-01   -7,436110377e-01    0,000000000e+00    0,000000000e+00    0,000000000e+00    0,000000000e+00
      268000000   -2,390019782e-02    2,892602980e-02   -1,782867759e-01   -7,645333409e-01    0,000000000e+00    0,000000000e+00    0,000000000e+00    0,000000000e+00
      282000000    4,156782757e-03    1,192670036e-02   -5,619740486e-01   -5,356755853e-01    0,000000000e+00    0,000000000e+00    0,000000000e+00    0,000000000e+00
      296000000    9,687241167e-03   -7,837615907e-03   -7,597650886e-01   -1,394578516e-01    0,000000000e+00    0,000000000e+00    0,000000000e+00    0,000000000e+00
      310000000    1,102710050e-02   -1,613994688e-02   -7,125123739e-01    2,973782122e-01    0,000000000e+00    0,000000000e+00    0,000000000e+00    0,000000000e+00
      324000000    1,981146447e-02   -2,653043345e-02   -4,277039468e-01    6,384413838e-01    0,000000000e+00    0,000000000e+00    0,000000000e+00    0,000000000e+00
      338000000    2,602140419e-02   -5,228523910e-02   -7,674713153e-03    7,622975707e-01    0,000000000e+00    0,000000000e+00    0,000000000e+00    0,000000000e+00
      352000000    7,498805877e-03   -8,493077010e-02    4,063531458e-01    6,384882331e-01    0,000000000e+00    0,000000000e+00    0,000000000e+00    0,000000000e+00
      366000000   -3,441055119e-02   -9,579206258e-02    6,908304095e-01    3,108412921e-01    0,000000000e+00    0,000000000e+00    0,000000000e+00    0,000000000e+00
      380000000   -7,073964924e-02   -7,114744931e-02    7,474049330e-01   -1,259663701e-01    0,000000000e+00    0,000000000e+00    0,000000000e+00    0,000000000e+00
      394000000   -7,298734784e-02   -3,226602823e-02    5,468320251e-01   -5,211629868e-01    0,000000000e+00    0,000000000e+00    0,000000000e+00    0,000000000e+00
      408000000   -4,654870927e-02   -1,616754010e-02    1,616498083e-01   -7,323247194e-01    0,000000000e+00    0,000000000e+00    0,000000000e+00    0,000000000e+00
      422000000   -2,811361477e-02   -3,217997402e-02   -2,668966353e-01   -6,946096420e-01    0,000000000e+00    0,000000000e+00    0,000000000e+00    0,000000000e+00
      436000000   -4,060260206e-02   -5,183163285e-02   -6,041654348e-01   -4,322850108e-01    0,000000000e+00    0,000000000e+00    0,000000000e+00    0,000000000e+00
      450000000   -6,738198549e-02   -4,397845268e-02   -7,404814959e-01   -2,116510645e-02    0,000000000e+00    0,000000000e+00    0,000000000e+00    0,000000000e+00
      464000000   -7,332390547e-02   -1,161450520e-02   -6,178361177e-01    3,975062668e-01    0,000000000e+00    0,000000000e+00    0,000000000e+00    0,000000000e+00
      478000000   -4,754843563e-02    1,182875317e-02   -2,826235890e-01    6,675076485e-01    0,000000000e+00    0,000000000e+00    0,000000000e+00    0,000000000e+00
      492000000   -1,568696462e-02    6,232774816e-03    1,380808651e-01    7,015590668e-01    0,000000000e+00    0,000000000e+00    0,000000000e+00    0,000000000e+00
      506000000   -2,607868519e-03   -1,572544128e-02    4,976786077e-01    5,026445985e-01    0,000000000e+00    0,000000000e+00    0,000000000e+00    0,000000000e+00
      520000000   -5,310990382e-03   -3,152173012e-02    6,871934533e-01    1,417193413e-01    0,000000000e+00    0,000000000e+00    0,000000000e+00    0,000000000e+00
      534000000   -3,873045789e-03   -3,828450292e-02    6,429790258e-01   -2,627958059e-01    0,000000000e+00    0,000000000e+00    0,000000000e+00    0,000000000e+00
      548000000    6,243534852e-03   -5,364605039e-02    3,810156584e-01   -5,671486259e-01    0,000000000e+00    0,000000000e+00    0,000000000e+00    0,000000000e+00
      562000000    2,978858771e-03   -8,931683004e-02    2,228861209e-03   -6,721218824e-01    0,000000000e+00    0,000000000e+00    0,000000000e+00    0,000000000e+00
      576000000   -3,412079066e-02   -1,239786670e-01   -3,701764345e-01   -5,578285456e-01    0,000000000e+00    0,000000000e+00    0,000000000e+00    0,000000000e+00
      590000000   -9,631125629e-02   -1,227898300e-01   -6,195614934e-01   -2,631833255e-01    0,000000000e+00    0,000000000e+00    0,000000000e+00    0,000000000e+00
      604000000   -1,395854652e-01   -7,216013968e-02   -6,648790240e-01    1,375735402e-01    0,000000000e+00    0,000000000e+00    0,000000000e+00    0,000000000e+00
      618000000   -1,292352676e-01   -9,518790990e-03   -4,644334614e-01    4,947289526e-01    0,000000000e+00    0,000000000e+00    0,000000000e+00    0,000000000e+00
      632000000   -8,340820670e-02    1,685284637e-02   -9,848394245e-02    6,649316549e-01    0,000000000e+00    0,000000000e+00    0,000000000e+00    0,000000000e+00
      646000000   -5,151391029e-02    1,277665287e-04    2,875198424e-01    5,959900022e-01    0,000000000e+00    0,000000000e+00    0,000000000e+00    0,000000000e+00
      660000000   -5,327276886e-02   -2,232066169e-02    5,676989555e-01    3,223830163e-01    0,000000000e+00    0,000000000e+00    0,000000000e+00    0,000000000e+00
      674000000   -7,033021003e-02   -1,696021110e-02    6,432116628e-01   -6,550168991e-02    0,000000000e+00    0,000000000e+00    0,000000000e+00    0,000000000e+00
      688000000   -6,904283911e-02    9,026227519e-03    4,707533419e-01   -4,279683828e-01    0,000000000e+00    0,000000000e+00    0,000000000e+00    0,000000000e+00
      702000000   -3,876785561e-02    2,693006210e-02    1,259547174e-01   -6,120543480e-01    0,000000000e+00    0,000000000e+00    0,000000000e+00    0,000000000e+00
      716000000    1,674746745e-03    1,738628000e-02   -2,638642490e-01   -5,468564630e-01    0,000000000e+00    0,000000000e+00    0,000000000e+00    0,000000000e+00
      730000000    3,678678349e-02   -1,164041832e-02   -5,284143090e-01   -2,694611847e-01    0,000000000e+00    0,000000000e+00    0,000000000e+00    0,000000000e+00
      744000000    6,459208578e-02   -6,206741557e-02   -5,643996000e-01    1,068266183e-01    0,000000000e+00    0,000000000e+00    0,000000000e+00    0,000000000e+00
      758000000    6,697810441e-02   -1,525783539e-01   -3,635305464e-01    4,107489884e-01    0,000000000e+00    0,000000000e+00    0,000000000e+00    0,000000000e+00
      772000000   -1,333295833e-02   -2,621264160e-01   -3,509761021e-02    5,148809552e-01    0,000000000e+00    0,000000000e+00    0,000000000e+00    0,000000000e+00
      786000000   -2,058089077e-01   -3,020548820e-01    2,740174830e-01    3,962053657e-01    0,000000000e+00    0,000000000e+00    0,000000000e+00    0,000000000e+00
      800000000   -4,258820415e-01   -1,308280230e-01    4,173741043e-01    9,940164536e-02    0,000000000e+00    0,000000000e+00    0,000000000e+00    0,000000000e+00
      814000000   -3,900935948e-01    2,221410722e-01    2,824347913e-01   -1,730213016e-01    0,000000000e+00    0,000000000e+00    0,000000000e+00    0,000000000e+00
      828000000   -5,082912743e-02    3,683450520e-01    5,481137708e-02   -1,887417287e-01    0,000000000e+00    0,000000000e+00    0,000000000e+00    0,000000000e+00
      842000000    2,351137251e-01    1,863313913e-01   -1,725824550e-02   -7,097776979e-02    0,000000000e+00    0,000000000e+00    0,000000000e+00    0,000000000e+00
      856000000    2,804660797e-01   -1,247362271e-01    4,493326694e-02   -1,346146315e-02    0,000000000e+00    0,000000000e+00    0,000000000e+00    0,000000000e+00
      870000000    7,491122186e-02   -3,765754402e-01    1,137588546e-01   -9,116071463e-02    0,000000000e+00    0,000000000e+00    0,000000000e+00    0,000000000e+00
      884000000   -2,960721850e-01   -3,612149358e-01    2,823287621e-02   -2,452519536e-01    0,000000000e+00    0,000000000e+00    0,000000000e+00    0,000000000e+00
      898000000   -4,718539715e-01    9,229363874e-03   -2,210281640e-01   -2,272655368e-01    0,000000000e+00    0,000000000e+00    0,000000000e+00    0,000000000e+00
      912000000   -2,257327288e-01    2,944418490e-01   -3,499639332e-01    6,217005849e-02    0,000000000e+00    0,000000000e+00    0,000000000e+00    0,000000000e+00
      926000000    6,682084501e-02    2,657885253e-01   -2,176722288e-01    2,652788460e-01    0,000000000e+00    0,000000000e+00    0,000000000e+00    0,000000000e+00
      940000000    2,138456553e-01    7,980953902e-02   -3,750030696e-02    3,296140730e-01    0,000000000e+00    0,000000000e+00    0,000000000e+00    0,000000000e+00
      954000000    2,202752084e-01   -1,275685877e-01    1,311020404e-01    3,073571920e-01    0,000000000e+00    0,000000000e+00    0,000000000e+00    0,000000000e+00
      968000000    1,136439890e-01   -3,008696735e-01    2,721538842e-01    2,178660929e-01    0,000000000e+00    0,000000000e+00    0,000000000e+00    0,000000000e+00
      982000000   -8,427210897e-02   -3,850100636e-01    3,654861748e-01    6,495526433e-02    0,000000000e+00    0,000000000e+00    0,000000000e+00    0,000000000e+00
      996000000   -3,157267570e-01   -3,322495818e-01    3,691337109e-01   -1,456001401e-01    0,000000000e+00    0,000000000e+00    0,000000000e+00    0,000000000e+00
     1010000000   -4,600362182e-01   -1,127866805e-01    2,222249657e-01   -3,419539928e-01    0,000000000e+00    0,000000000e+00    0,000000000e+00    0,000000000e+00
     1024000000   -4,178046584e-01    1,509885788e-01   -3,177071735e-02   -3,926587105e-01    0,000000000e+00    0,000000000e+00    0,000000000e+00    0,000000000e+00
     1038000000   -2,151326984e-01    2,929075658e-01   -2,477479279e-01   -2,610365748e-01    0,000000000e+00    0,000000000e+00    0,000000000e+00    0,000000000e+00
     1052000000   -7,226507645e-03    2,806839347e-01   -3,178710043e-01   -4,566676915e-02    0,000000000e+00    0,000000000e+00    0,000000000e+00    0,000000000e+00
     1066000000    1,357465386e-01    1,664071977e-01   -2,580165267e-01    1,411765069e-01    0,000000000e+00    0,000000000e+00    0,000000000e+00    0,000000000e+00
     1080000000    1,914563775e-01    8,303865325e-04   -1,208628416e-01    2,635707259e-01    0,000000000e+00    0,000000000e+00    0,000000000e+00    0,000000000e+00
     1094000000    1,585925668e-01   -1,746773273e-01    6,442102790e-02    3,054819107e-01    0,000000000e+00    0,000000000e+00    0,000000000e+00    0,000000000e+00
     1108000000    5,636996357e-04   -3,066951036e-01    2,754518688e-01    2,459104806e-01    0,000000000e+00    0,000000000e+00    0,000000000e+00    0,000000000e+00
     1122000000   -2,528544068e-01   -2,621560693e-01    4,749237895e-01    1,483286079e-02    0,000000000e+00    0,000000000e+00    0,000000000e+00    0,000000000e+00
     1136000000   -3,233605325e-01    3,232669458e-02    4,003026783e-01   -3,917332292e-01    0,000000000e+00    0,000000000e+00    0,000000000e+00    0,000000000e+00
     1150000000   -3,615751490e-02    1,569808275e-01    3,010857850e-03   -5,466718078e-01    0,000000000e+00    0,000000000e+00    0,000000000e+00    0,000000000e+00
     1164000000    1,240157112e-01   -6,585434079e-02   -2,781223059e-01   -3,817130923e-01    0,000000000e+00    0,000000000e+00    0,000000000e+00    0,000000000e+00
     1178000000    1,623866335e-02   -3,049446344e-01   -3,715177178e-01   -1,493740231e-01    0,000000000e+00    0,000000000e+00    0,000000000e+00    0,000000000e+00
     1192000000   -2,687562108e-01   -3,727956414e-01   -3,246347606e-01    5,754770711e-02    0,000000000e+00    0,000000000e+00    0,000000000e+00    0,000000000e+00
     1206000000   -5,197604299e-01   -1,647641063e-01   -1,643837839e-01    1,762339920e-01    0,000000000e+00    0,000000000e+00    0,000000000e+00    0,000000000e+00
     1220000000   -5,047852397e-01    1,716633141e-01   -9,290793678e-04    1,562404335e-01    0,000000000e+00    0,000000000e+00    0,000000000e+00    0,000000000e+00
     1234000000   -2,881917953e-01    3,641188145e-01    6,479644030e-02    6,143415347e-02    0,000000000e+00    0,000000000e+00    0,000000000e+00    0,000000000e+00
     1248000000   -4,630659148e-02    3,600881696e-01    5,198462680e-02   -5,415895488e-03    0,000000000e+00    0,000000000e+00    0,000000000e+00    0,000000000e+00
     1262000000    1,231505647e-01    2,596030533e-01    1,767998748e-02   -1,915585808e-02    0,000000000e+00    0,000000000e+00    0,000000000e+00    0,000000000e+00
     1276000000    2,098232508e-01    9,887313098e-02   -7,246697322e-03    4,673665855e-03    0,000000000e+00    0,000000000e+00    0,000000000e+00    0,000000000e+00
     1290000000    2,243826538e-01   -7,259050757e-02    2,197540551e-02    5,487881601e-02    0,000000000e+00    0,000000000e+00    0,000000000e+00    0,000000000e+00
     1304000000    1,535842717e-01   -2,404825687e-01    1,335581094e-01    6,709510088e-02    0,000000000e+00    0,000000000e+00    0,000000000e+00    0,000000000e+00
     1318000000    3,559293970e-02   -3,359634280e-01    1,332323998e-01   -1,596133411e-01    0,000000000e+00    0,000000000e+00    0,000000000e+00    0,000000000e+00
     1332000000   -1,300479919e-01   -4,427129328e-01   -4,529729858e-02   -5,565808341e-02    0,000000000e+00    0,000000000e+00    0,000000000e+00    0,000000000e+00
     1346000000   -3,890235722e-01   -4,110794663e-01    2,328850701e-02    6,952790916e-02    0,000000000e+00    0,000000000e+00    0,000000000e+00    0,000000000e+00
     1360000000   -6,037663221e-01   -1,948733628e-01    1,435481906e-01    6,755696237e-02    0,000000000e+00    0,000000000e+00    0,000000000e+00    0,000000000e+00
     1374000000   -6,256519556e-01    1,260885447e-01    2,045465559e-01    3,986769589e-04    0,000000000e+00    0,000000000e+00    0,000000000e+00    0,000000000e+00
     1388000000   -4,626214504e-01    3,756206334e-01    2,093701363e-01   -5,693597719e-02    0,000000000e+00    0,000000000e+00    0,000000000e+00    0,000000000e+00
     1402000000   -2,348640859e-01    4,538941383e-01    1,809252352e-01   -9,004703909e-02    0,000000000e+00    0,000000000e+00    0,000000000e+00    0,000000000e+00
     1416000000   -2,363643050e-02    4,100057483e-01    1,764303148e-01   -1,070018038e-01    0,000000000e+00    0,000000000e+00    0,000000000e+00    0,000000000e+00
     1430000000    1,273591816e-01    3,030056655e-01    1,581956148e-01   -1,031465158e-01    0,000000000e+00    0,000000000e+00    0,000000000e+00    0,000000000e+00
     1444000000    2,065366209e-01    1,523091793e-01    1,482539773e-01   -8,963841200e-02    0,000000000e+00    0,000000000e+00    0,000000000e+00    0,000000000e+00
     1458000000    2,402704656e-01   -1,731458120e-02    1,452313513e-01   -7,716303319e-02    0,000000000e+00    0,000000000e+00    0,000000000e+00    0,000000000e+00
     1472000000    1,931620240e-01   -2,018333822e-01    1,543928385e-01   -2,259313129e-02    0,000000000e+00    0,000000000e+00    0,000000000e+00    0,000000000e+00
     1486000000    6,421662867e-02   -3,802390099e-01    1,655975282e-01    2,373195998e-02    0,000000000e+00    0,000000000e+00    0,000000000e+00    0,000000000e+00
     1500000000   -1,698184013e-01   -4,952296019e-01    2,266125977e-01    9,825937450e-02    0,000000000e+00    0,000000000e+00    0,000000000e+00    0,000000000e+00
