! NanoVNA-App
! Date: 2025-09-25 15:35:52
! Start: 100MHz Stop: 1,5GHz Points: 101
! S-Parameter data: F S11 S21 S12 S22
# Hz S RI R 50
!     Frequency           S11_Real           S11_Imag           S21_Real           S21_Imag           S12_Real           S12_Imag           S22_Real           S22_Imag
      100000000   -2,884572558e-02   -4,160340875e-03    3,740645051e-01   -7,217251658e-01    0,000000000e+00    0,000000000e+00    0,000000000e+00    0,000000000e+00
      114000000   -1,647167467e-02    1,150438469e-02   -8,913088590e-02   -8,055054545e-01    0,000000000e+00    0,000000000e+00    0,000000000e+00    0,000000000e+00
      128000000    3,531001043e-03    1,054786239e-02   -5,146874785e-01   -6,204867959e-01    0,000000000e+00    0,000000000e+00    0,000000000e+00    0,000000000e+00
      142000000    1,457692031e-02   -2,967576962e-03   -7,669008970e-01   -2,364641875e-01    0,000000000e+00    0,000000000e+00    0,000000000e+00    0,000000000e+00
      156000000    1,547372527e-02   -1,501233038e-02   -7,713352442e-01    2,216732651e-01    0,000000000e+00    0,000000000e+00    0,000000000e+00    0,000000000e+00
      170000000    1,673107408e-02   -2,253193408e-02   -5,180444717e-01    6,045638323e-01    0,000000000e+00    0,000000000e+00    0,000000000e+00    0,000000000e+00
      184000000    2,105574310e-02   -3,705187142e-02   -1,017064452e-01    7,862193584e-01    0,000000000e+00    0,000000000e+00    0,000000000e+00    0,000000000e+00
      198000000    1,304772031e-02   -6,249444932e-02    3,432233632e-01    7,126759887e-01    0,000000000e+00    0,000000000e+00    0,000000000e+00    0,000000000e+00
      212000000   -1,861219294e-02   -8,135724068e-02    6,779278517e-01    4,099740386e-01    0,000000000e+00    0,000000000e+00    0,000000000e+00    0,000000000e+00
      226000000   -6,166865304e-02   -6,924151629e-02    7,957941294e-01   -3,056384437e-02    0,000000000e+00    0,000000000e+00    0,000000000e+00    0,000000000e+00
      240000000   -8,258288354e-02   -2,566502057e-02    6,460303664e-01   -4,671238959e-01    0,000000000e+00    0,000000000e+00    0,000000000e+00    0,000000000e+00
      254000000   -6,347703189e-02    1,723008789e-02    2,762489617e-01   -7,434515357e-01    0,000000000e+00    0,000000000e+00    0,000000000e+00    0,000000000e+00
      268000000   -2,378280275e-02    2,895498462e-02   -1,782353520e-01   -7,640044689e-01    0,000000000e+00    0,000000000e+00    0,000000000e+00    0,000000000e+00
      282000000    4,146211781e-03    1,191670354e-02   -5,619094372e-01   -5,357590914e-01    0,000000000e+00    0,000000000e+00    0,000000000e+00    0,000000000e+00
      296000000    9,802534245e-03   -7,949197665e-03   -7,599530220e-01   -1,396469623e-01    0,000000000e+00    0,000000000e+00    0,000000000e+00    0,000000000e+00
      310000000    1,121916436e-02   -1,620637067e-02   -7,122582197e-01    2,991382778e-01    0,000000000e+00    0,000000000e+00    0,000000000e+00    0,000000000e+00
      324000000    1,981240511e-02   -2,648860961e-02   -4,273734689e-01    6,382932663e-01    0,000000000e+00    0,000000000e+00    0,000000000e+00    0,000000000e+00
      338000000    2,572501078e-02   -5,191385373e-02   -7,952167653e-03    7,602743506e-01    0,000000000e+00    0,000000000e+00    0,000000000e+00    0,000000000e+00
      352000000    7,562561426e-03   -8,504250646e-02    4,063865244e-01    6,386958361e-01    0,000000000e+00    0,000000000e+00    0,000000000e+00    0,000000000e+00
      366000000   -3,457191586e-02   -9,559695423e-02    6,907603741e-01    3,111102283e-01    0,000000000e+00    0,000000000e+00    0,000000000e+00    0,000000000e+00
      380000000   -7,090791315e-02   -7,121960074e-02    7,474311590e-01   -1,261890382e-01    0,000000000e+00    0,000000000e+00    0,000000000e+00    0,000000000e+00
      394000000   -7,256800681e-02   -3,225691617e-02    5,473450422e-01   -5,208945870e-01    0,000000000e+00    0,000000000e+00    0,000000000e+00    0,000000000e+00
      408000000   -4,670339078e-02   -1,622104086e-02    1,601911485e-01   -7,337608933e-01    0,000000000e+00    0,000000000e+00    0,000000000e+00    0,000000000e+00
      422000000   -2,835924737e-02   -3,204607964e-02   -2,676379085e-01   -6,955812573e-01    0,000000000e+00    0,000000000e+00    0,000000000e+00    0,000000000e+00
      436000000   -4,058623314e-02   -5,185355619e-02   -6,037859321e-01   -4,318372905e-01    0,000000000e+00    0,000000000e+00    0,000000000e+00    0,000000000e+00
      450000000   -6,753695011e-02   -4,392715171e-02   -7,408203483e-01   -2,115529962e-02    0,000000000e+00    0,000000000e+00    0,000000000e+00    0,000000000e+00
      464000000   -7,329996675e-02   -1,133890823e-02   -6,183928251e-01    3,979606628e-01    0,000000000e+00    0,000000000e+00    0,000000000e+00    0,000000000e+00
      478000000   -4,754383489e-02    1,169124339e-02   -2,824808955e-01    6,669785380e-01    0,000000000e+00    0,000000000e+00    0,000000000e+00    0,000000000e+00
      492000000   -1,587992534e-02    5,796699785e-03    1,385236681e-01    7,014656067e-01    0,000000000e+00    0,000000000e+00    0,000000000e+00    0,000000000e+00
      506000000   -2,724429360e-03   -1,586546190e-02    4,982005358e-01    5,017780662e-01    0,000000000e+00    0,000000000e+00    0,000000000e+00    0,000000000e+00
      520000000   -4,618894309e-03   -3,149916232e-02    6,877278090e-01    1,408055127e-01    0,000000000e+00    0,000000000e+00    0,000000000e+00    0,000000000e+00
      534000000   -4,109979607e-03   -3,812895715e-02    6,430316567e-01   -2,627059221e-01    0,000000000e+00    0,000000000e+00    0,000000000e+00    0,000000000e+00
      548000000    6,170361303e-03   -5,424570292e-02    3,810125291e-01   -5,678041577e-01    0,000000000e+00    0,000000000e+00    0,000000000e+00    0,000000000e+00
      562000000    3,075048560e-03   -8,907249570e-02    1,547667314e-03   -6,719684601e-01    0,000000000e+00    0,000000000e+00    0,000000000e+00    0,000000000e+00
      576000000   -3,430034220e-02   -1,245429516e-01   -3,704298139e-01   -5,572870970e-01    0,000000000e+00    0,000000000e+00    0,000000000e+00    0,000000000e+00
      590000000   -9,636773914e-02   -1,226047650e-01   -6,222960353e-01   -2,646004558e-01    0,000000000e+00    0,000000000e+00    0,000000000e+00    0,000000000e+00
      604000000   -1,396985948e-01   -7,211763412e-02   -6,651226282e-01    1,374817342e-01    0,000000000e+00    0,000000000e+00    0,000000000e+00    0,000000000e+00
      618000000   -1,291488856e-01   -9,361868724e-03   -4,646954536e-01    4,945440292e-01    0,000000000e+00    0,000000000e+00    0,000000000e+00    0,000000000e+00
      632000000   -8,448403329e-02    1,673613861e-02   -9,910878539e-02    6,634768248e-01    0,000000000e+00    0,000000000e+00    0,000000000e+00    0,000000000e+00
      646000000   -5,116322637e-02   -4,955273835e-05    2,875492871e-01    5,952127576e-01    0,000000000e+00    0,000000000e+00    0,000000000e+00    0,000000000e+00
      660000000   -5,343022570e-02   -2,106050402e-02    5,682253242e-01    3,226789534e-01    0,000000000e+00    0,000000000e+00    0,000000000e+00    0,000000000e+00
      674000000   -6,974407285e-02   -1,724351943e-02    6,431477070e-01   -6,562419236e-02    0,000000000e+00    0,000000000e+00    0,000000000e+00    0,000000000e+00
      688000000   -6,840070337e-02    9,472858161e-03    4,709861875e-01   -4,278322756e-01    0,000000000e+00    0,000000000e+00    0,000000000e+00    0,000000000e+00
      702000000   -3,778293729e-02    2,697766945e-02    1,169466376e-01   -6,113349795e-01    0,000000000e+00    0,000000000e+00    0,000000000e+00    0,000000000e+00
      716000000    2,690182300e-03    1,847475767e-02   -2,648630440e-01   -5,464720130e-01    0,000000000e+00    0,000000000e+00    0,000000000e+00    0,000000000e+00
      730000000    3,648718074e-02   -1,058764756e-02   -5,286291838e-01   -2,687831521e-01    0,000000000e+00    0,000000000e+00    0,000000000e+00    0,000000000e+00
      744000000    6,448400766e-02   -6,257516891e-02   -5,645087957e-01    1,067322865e-01    0,000000000e+00    0,000000000e+00    0,000000000e+00    0,000000000e+00
      758000000    6,668325514e-02   -1,517054439e-01   -3,637976348e-01    4,103936553e-01    0,000000000e+00    0,000000000e+00    0,000000000e+00    0,000000000e+00
      772000000   -1,247124840e-02   -2,630871832e-01   -3,507666662e-02    5,155794621e-01    0,000000000e+00    0,000000000e+00    0,000000000e+00    0,000000000e+00
      786000000   -2,071646750e-01   -3,030813336e-01    2,748592794e-01    3,959299326e-01    0,000000000e+00    0,000000000e+00    0,000000000e+00    0,000000000e+00
      800000000   -4,257186055e-01   -1,298711896e-01    4,174864292e-01    9,912580997e-02    0,000000000e+00    0,000000000e+00    0,000000000e+00    0,000000000e+00
      814000000   -3,894396424e-01    2,218607664e-01    2,821304500e-01   -1,731519699e-01    0,000000000e+00    0,000000000e+00    0,000000000e+00    0,000000000e+00
      828000000   -4,869694635e-02    3,687705994e-01    5,502437800e-02   -1,893386394e-01    0,000000000e+00    0,000000000e+00    0,000000000e+00    0,000000000e+00
      842000000    2,347940654e-01    1,858864576e-01   -1,740998216e-02   -7,045921683e-02    0,000000000e+00    0,000000000e+00    0,000000000e+00    0,000000000e+00
      856000000    2,803183496e-01   -1,239388138e-01    4,533467069e-02   -1,319430396e-02    0,000000000e+00    0,000000000e+00    0,000000000e+00    0,000000000e+00
      870000000    7,526314259e-02   -3,769999444e-01    1,133277267e-01   -9,110927582e-02    0,000000000e+00    0,000000000e+00    0,000000000e+00    0,000000000e+00
      884000000   -2,954412401e-01   -3,617480397e-01    2,762663923e-02   -2,451432794e-01    0,000000000e+00    0,000000000e+00    0,000000000e+00    0,000000000e+00
      898000000   -4,718261957e-01    8,221618831e-03   -2,218659371e-01   -2,281957567e-01    0,000000000e+00    0,000000000e+00    0,000000000e+00    0,000000000e+00
      912000000   -2,250646055e-01    2,949848175e-01   -3,493313193e-01    5,951959640e-02    0,000000000e+00    0,000000000e+00    0,000000000e+00    0,000000000e+00
      926000000    6,604831666e-02    2,649186552e-01   -2,189246267e-01    2,666960061e-01    0,000000000e+00    0,000000000e+00    0,000000000e+00    0,000000000e+00
      940000000    2,140133381e-01    8,082436770e-02   -3,711057454e-02    3,290380239e-01    0,000000000e+00    0,000000000e+00    0,000000000e+00    0,000000000e+00
      954000000    2,211063504e-01   -1,290985495e-01    1,306073666e-01    3,062210083e-01    0,000000000e+00    0,000000000e+00    0,000000000e+00    0,000000000e+00
      968000000    1,157802418e-01   -2,971008718e-01    2,710098028e-01    2,183994800e-01    0,000000000e+00    0,000000000e+00    0,000000000e+00    0,000000000e+00
      982000000   -8,377279341e-02   -3,848199546e-01    3,652922511e-01    6,473277509e-02    0,000000000e+00    0,000000000e+00    0,000000000e+00    0,000000000e+00
      996000000   -3,189539909e-01   -3,280851245e-01    3,689827621e-01   -1,448803693e-01    0,000000000e+00    0,000000000e+00    0,000000000e+00    0,000000000e+00
     1010000000   -4,609865546e-01   -1,092852801e-01    2,226224691e-01   -3,398515284e-01    0,000000000e+00    0,000000000e+00    0,000000000e+00    0,000000000e+00
     1024000000   -4,124440253e-01    1,464466453e-01   -3,338988125e-02   -3,925757408e-01    0,000000000e+00    0,000000000e+00    0,000000000e+00    0,000000000e+00
     1038000000   -2,147892714e-01    2,898667455e-01   -2,489540577e-01   -2,628059387e-01    0,000000000e+00    0,000000000e+00    0,000000000e+00    0,000000000e+00
     1052000000   -5,677560344e-03    2,802728117e-01   -3,174865842e-01   -4,708565027e-02    0,000000000e+00    0,000000000e+00    0,000000000e+00    0,000000000e+00
     1066000000    1,368616223e-01    1,624229401e-01   -2,576755881e-01    1,417403221e-01    0,000000000e+00    0,000000000e+00    0,000000000e+00    0,000000000e+00
     1080000000    1,968642175e-01   -1,625820878e-03   -1,205644384e-01    2,662646174e-01    0,000000000e+00    0,000000000e+00    0,000000000e+00    0,000000000e+00
     1094000000    1,539315134e-01   -1,772149354e-01    6,530103087e-02    3,049893379e-01    0,000000000e+00    0,000000000e+00    0,000000000e+00    0,000000000e+00
     1108000000   -3,406788921e-03   -3,026103079e-01    2,773273289e-01    2,453576624e-01    0,000000000e+00    0,000000000e+00    0,000000000e+00    0,000000000e+00
     1122000000   -2,523077428e-01   -2,648216784e-01    4,730202854e-01    1,113456301e-02    0,000000000e+00    0,000000000e+00    0,000000000e+00    0,000000000e+00
     1136000000   -3,150144517e-01    3,290177137e-02    3,979218006e-01   -3,904599249e-01    0,000000000e+00    0,000000000e+00    0,000000000e+00    0,000000000e+00
     1150000000   -4,199087992e-02    1,492621005e-01    4,021657165e-03   -5,394428372e-01    0,000000000e+00    0,000000000e+00    0,000000000e+00    0,000000000e+00
     1164000000    1,231380031e-01   -5,963852257e-02   -2,747194171e-01   -3,761954010e-01    0,000000000e+00    0,000000000e+00    0,000000000e+00    0,000000000e+00
     1178000000    1,709982567e-02   -3,020633459e-01   -3,700054586e-01   -1,478768140e-01    0,000000000e+00    0,000000000e+00    0,000000000e+00    0,000000000e+00
     1192000000   -2,626672387e-01   -3,703946769e-01   -3,201196790e-01    5,672174320e-02    0,000000000e+00    0,000000000e+00    0,000000000e+00    0,000000000e+00
     1206000000   -5,221258402e-01   -1,622940451e-01   -1,661050618e-01    1,789436787e-01    0,000000000e+00    0,000000000e+00    0,000000000e+00    0,000000000e+00
     1220000000   -5,057730675e-01    1,713885069e-01    5,329439882e-03    1,603269279e-01    0,000000000e+00    0,000000000e+00    0,000000000e+00    0,000000000e+00
     1234000000   -2,890007198e-01    3,619715571e-01    6,896626204e-02    5,786694214e-02    0,000000000e+00    0,000000000e+00    0,000000000e+00    0,000000000e+00
     1248000000   -4,661592469e-02    3,616549373e-01    5,391807109e-02   -7,890134118e-03    0,000000000e+00    0,000000000e+00    0,000000000e+00    0,000000000e+00
     1262000000    1,199118719e-01    2,574443519e-01    1,740821265e-02   -2,208598517e-02    0,000000000e+00    0,000000000e+00    0,000000000e+00    0,000000000e+00
     1276000000    2,091877311e-01    9,747805446e-02    1,896426838e-04    1,432471676e-03    0,000000000e+00    0,000000000e+00    0,000000000e+00    0,000000000e+00
     1290000000    2,234282643e-01   -7,413500547e-02    1,475684997e-02    5,545595661e-02    0,000000000e+00    0,000000000e+00    0,000000000e+00    0,000000000e+00
     1304000000    1,543327570e-01   -2,398195714e-01    1,328158528e-01    7,133312523e-02    0,000000000e+00    0,000000000e+00    0,000000000e+00    0,000000000e+00
     1318000000    3,450852260e-02   -3,318658173e-01    1,274125725e-01   -1,616848260e-01    0,000000000e+00    0,000000000e+00    0,000000000e+00    0,000000000e+00
     1332000000   -1,265173554e-01   -4,404899776e-01   -4,181389138e-02   -4,374150932e-02    0,000000000e+00    0,000000000e+00    0,000000000e+00    0,000000000e+00
     1346000000   -3,950544596e-01   -4,057287574e-01    2,411689237e-02    7,211611420e-02    0,000000000e+00    0,000000000e+00    0,000000000e+00    0,000000000e+00
     1360000000   -6,087803245e-01   -2,038962692e-01    1,356704086e-01    6,512591243e-02    0,000000000e+00    0,000000000e+00    0,000000000e+00    0,000000000e+00
     1374000000   -6,423959732e-01    1,340905726e-01    2,019311041e-01    9,623473510e-03    0,000000000e+00    0,000000000e+00    0,000000000e+00    0,000000000e+00
     1388000000   -4,703385234e-01    3,674171567e-01    2,075872719e-01   -7,578007132e-02    0,000000000e+00    0,000000000e+00    0,000000000e+00    0,000000000e+00
     1402000000   -2,380270809e-01    4,536684155e-01    1,984913498e-01   -1,004058868e-01    0,000000000e+00    0,000000000e+00    0,000000000e+00    0,000000000e+00
     1416000000   -2,869952843e-02    4,104636312e-01    1,637356728e-01   -1,069328785e-01    0,000000000e+00    0,000000000e+00    0,000000000e+00    0,000000000e+00
     1430000000    1,202344745e-01    3,045776486e-01    1,755267978e-01   -9,523562342e-02    0,000000000e+00    0,000000000e+00    0,000000000e+00    0,000000000e+00
     1444000000    2,104175091e-01    1,460122317e-01    1,522884816e-01   -1,010656208e-01    0,000000000e+00    0,000000000e+00    0,000000000e+00    0,000000000e+00
     1458000000    2,331294715e-01   -1,944599114e-02    1,326953620e-01   -6,671481580e-02    0,000000000e+00    0,000000000e+00    0,000000000e+00    0,000000000e+00
     1472000000    1,853018850e-01   -2,009955049e-01    1,454442441e-01   -3,403149173e-02    0,000000000e+00    0,000000000e+00    0,000000000e+00    0,000000000e+00
     1486000000    5,777315050e-02   -3,744603693e-01    1,651544869e-01    4,004414007e-02    0,000000000e+00    0,000000000e+00    0,000000000e+00    0,000000000e+00
     1500000000   -1,783583611e-01   -4,956129789e-01    2,362829596e-01    9,230728447e-02    0,000000000e+00    0,000000000e+00    0,000000000e+00    0,000000000e+00
