! NanoVNA-App
! Date: 2025-09-25 15:33:06
! Start: 100MHz Stop: 1,5GHz Points: 101
! S-Parameter data: F S11 S21 S12 S22
# Hz S RI R 50
!     Frequency           S11_Real           S11_Imag           S21_Real           S21_Imag           S12_Real           S12_Imag           S22_Real           S22_Imag
      100000000   -2,887569927e-02   -4,171865992e-03    3,741779029e-01   -7,218081355e-01    0,000000000e+00    0,000000000e+00    0,000000000e+00    0,000000000e+00
      114000000   -1,650915109e-02    1,150129642e-02   -8,913438022e-02   -8,055183887e-01    0,000000000e+00    0,000000000e+00    0,000000000e+00    0,000000000e+00
      128000000    3,494588891e-03    1,057961863e-02   -5,147285461e-01   -6,206123233e-01    0,000000000e+00    0,000000000e+00    0,000000000e+00    0,000000000e+00
      142000000    1,455046330e-02   -2,956425305e-03   -7,671011686e-01   -2,365833223e-01    0,000000000e+00    0,000000000e+00    0,000000000e+00    0,000000000e+00
      156000000    1,436700765e-02   -1,480396744e-02   -7,639864683e-01    2,189797014e-01    0,000000000e+00    0,000000000e+00    0,000000000e+00    0,000000000e+00
      170000000    1,669337042e-02   -2,250571363e-02   -5,180685520e-01    6,046989560e-01    0,000000000e+00    0,000000000e+00    0,000000000e+00    0,000000000e+00
      184000000    2,101141214e-02   -3,702197969e-02   -1,012856513e-01    7,860067487e-01    0,000000000e+00    0,000000000e+00    0,000000000e+00    0,000000000e+00
      198000000    1,297691092e-02   -6,244675815e-02    3,432447016e-01    7,123655677e-01    0,000000000e+00    0,000000000e+00    0,000000000e+00    0,000000000e+00
      212000000   -1,868648268e-02   -8,126154542e-02    6,781473756e-01    4,098791480e-01    0,000000000e+00    0,000000000e+00    0,000000000e+00    0,000000000e+00
      226000000   -6,168089062e-02   -6,921326369e-02    7,957845926e-01   -3,047910519e-02    0,000000000e+00    0,000000000e+00    0,000000000e+00    0,000000000e+00
      240000000   -8,259385079e-02   -2,564792149e-02    6,459621787e-01   -4,669939280e-01    0,000000000e+00    0,000000000e+00    0,000000000e+00    0,000000000e+00
      254000000   -6,352298707e-02    1,723332331e-02    2,756978869e-01   -7,431135178e-01    0,000000000e+00    0,000000000e+00    0,000000000e+00    0,000000000e+00
      268000000   -2,391470037e-02    2,889064513e-02   -1,782460362e-01   -7,645088434e-01    0,000000000e+00    0,000000000e+00    0,000000000e+00    0,000000000e+00
      282000000    4,110631067e-03    1,191647630e-02   -5,617809296e-01   -5,350881815e-01    0,000000000e+00    0,000000000e+00    0,000000000e+00    0,000000000e+00
      296000000    9,729626589e-03   -7,798258215e-03   -7,599364519e-01   -1,396420598e-01    0,000000000e+00    0,000000000e+00    0,000000000e+00    0,000000000e+00
      310000000    1,124873664e-02   -1,621227898e-02   -7,115090489e-01    2,995612621e-01    0,000000000e+00    0,000000000e+00    0,000000000e+00    0,000000000e+00
      324000000    1,950970478e-02   -2,651849389e-02   -4,275582731e-01    6,375322342e-01    0,000000000e+00    0,000000000e+00    0,000000000e+00    0,000000000e+00
      338000000    2,526844293e-02   -5,224416032e-02   -8,953548037e-03    7,630032301e-01    0,000000000e+00    0,000000000e+00    0,000000000e+00    0,000000000e+00
      352000000    7,261388469e-03   -8,482424915e-02    4,061487913e-01    6,394135356e-01    0,000000000e+00    0,000000000e+00    0,000000000e+00    0,000000000e+00
      366000000   -3,472940624e-02   -9,532590955e-02    6,901928782e-01    3,112602830e-01    0,000000000e+00    0,000000000e+00    0,000000000e+00    0,000000000e+00
      380000000   -7,072848082e-02   -7,137450576e-02    7,479783297e-01   -1,263441443e-01    0,000000000e+00    0,000000000e+00    0,000000000e+00    0,000000000e+00
      394000000   -7,255300879e-02   -3,244978189e-02    5,450726748e-01   -5,222039223e-01    0,000000000e+00    0,000000000e+00    0,000000000e+00    0,000000000e+00
      408000000   -4,647614434e-02   -1,607199572e-02    1,606413722e-01   -7,321032882e-01    0,000000000e+00    0,000000000e+00    0,000000000e+00    0,000000000e+00
      422000000   -2,821786702e-02   -3,201106936e-02   -2,678457499e-01   -6,949362755e-01    0,000000000e+00    0,000000000e+00    0,000000000e+00    0,000000000e+00
      436000000   -4,072540998e-02   -5,187327042e-02   -6,035430431e-01   -4,317477047e-01    0,000000000e+00    0,000000000e+00    0,000000000e+00    0,000000000e+00
      450000000   -6,776209921e-02   -4,379054159e-02   -7,409164310e-01   -2,125351503e-02    0,000000000e+00    0,000000000e+00    0,000000000e+00    0,000000000e+00
      464000000   -7,345593721e-02   -1,124140155e-02   -6,183493733e-01    3,977504969e-01    0,000000000e+00    0,000000000e+00    0,000000000e+00    0,000000000e+00
      478000000   -4,761611670e-02    1,159554906e-02   -2,824037969e-01    6,682932973e-01    0,000000000e+00    0,000000000e+00    0,000000000e+00    0,000000000e+00
      492000000   -1,592646725e-02    6,255285814e-03    1,375077069e-01    7,013254762e-01    0,000000000e+00    0,000000000e+00    0,000000000e+00    0,000000000e+00
      506000000   -2,727223327e-03   -1,601763815e-02    4,980952740e-01    5,024727583e-01    0,000000000e+00    0,000000000e+00    0,000000000e+00    0,000000000e+00
      520000000   -4,919924308e-03   -3,162135556e-02    6,885895729e-01    1,425648779e-01    0,000000000e+00    0,000000000e+00    0,000000000e+00    0,000000000e+00
      534000000   -3,452618141e-03   -3,813645244e-02    6,436593533e-01   -2,629932165e-01    0,000000000e+00    0,000000000e+00    0,000000000e+00    0,000000000e+00
      548000000    5,953501444e-03   -5,422065407e-02    3,808278441e-01   -5,672308803e-01    0,000000000e+00    0,000000000e+00    0,000000000e+00    0,000000000e+00
      562000000    2,947229426e-03   -8,928146958e-02    2,185674850e-03   -6,720249057e-01    0,000000000e+00    0,000000000e+00    0,000000000e+00    0,000000000e+00
      576000000   -3,451643884e-02   -1,243278384e-01   -3,688439429e-01   -5,570771098e-01    0,000000000e+00    0,000000000e+00    0,000000000e+00    0,000000000e+00
      590000000   -9,619042277e-02   -1,225648522e-01   -6,220684648e-01   -2,623369992e-01    0,000000000e+00    0,000000000e+00    0,000000000e+00    0,000000000e+00
      604000000   -1,400011331e-01   -7,170728594e-02   -6,653650999e-01    1,382601112e-01    0,000000000e+00    0,000000000e+00    0,000000000e+00    0,000000000e+00
      618000000   -1,287919432e-01   -8,816172369e-03   -4,643460512e-01    4,945395887e-01    0,000000000e+00    0,000000000e+00    0,000000000e+00    0,000000000e+00
      632000000   -8,386079222e-02    1,725026406e-02   -9,949801862e-02    6,641162038e-01    0,000000000e+00    0,000000000e+00    0,000000000e+00    0,000000000e+00
      646000000   -5,089815706e-02    1,393008133e-04    2,879237235e-01    5,948545337e-01    0,000000000e+00    0,000000000e+00    0,000000000e+00    0,000000000e+00
      660000000   -5,257905275e-02   -2,173908614e-02    5,680997372e-01    3,224534392e-01    0,000000000e+00    0,000000000e+00    0,000000000e+00    0,000000000e+00
      674000000   -7,068771124e-02   -1,818066649e-02    6,430296898e-01   -6,548814476e-02    0,000000000e+00    0,000000000e+00    0,000000000e+00    0,000000000e+00
      688000000   -6,852248311e-02    8,208270185e-03    4,714382291e-01   -4,276118279e-01    0,000000000e+00    0,000000000e+00    0,000000000e+00    0,000000000e+00
      702000000   -3,783534095e-02    2,736950852e-02    1,174219474e-01   -6,101195216e-01    0,000000000e+00    0,000000000e+00    0,000000000e+00    0,000000000e+00
      716000000    1,646957709e-03    1,801997796e-02   -2,654996216e-01   -5,464366078e-01    0,000000000e+00    0,000000000e+00    0,000000000e+00    0,000000000e+00
      730000000    3,637128696e-02   -1,156842988e-02   -5,284096003e-01   -2,689379454e-01    0,000000000e+00    0,000000000e+00    0,000000000e+00    0,000000000e+00
      744000000    6,534703821e-02   -6,296523660e-02   -5,640821457e-01    1,064996049e-01    0,000000000e+00    0,000000000e+00    0,000000000e+00    0,000000000e+00
      758000000    6,598396599e-02   -1,521435827e-01   -3,634917736e-01    4,097913504e-01    0,000000000e+00    0,000000000e+00    0,000000000e+00    0,000000000e+00
      772000000   -1,239276584e-02   -2,620482743e-01   -3,543991596e-02    5,146393776e-01    0,000000000e+00    0,000000000e+00    0,000000000e+00    0,000000000e+00
      786000000   -2,066630274e-01   -3,023871779e-01    2,739663720e-01    3,951858878e-01    0,000000000e+00    0,000000000e+00    0,000000000e+00    0,000000000e+00
      800000000   -4,261826873e-01   -1,299407035e-01    4,171750546e-01    9,904578328e-02    0,000000000e+00    0,000000000e+00    0,000000000e+00    0,000000000e+00
      814000000   -3,901652992e-01    2,210492492e-01    2,822773457e-01   -1,729774177e-01    0,000000000e+00    0,000000000e+00    0,000000000e+00    0,000000000e+00
      828000000   -4,912884161e-02    3,685493171e-01    5,532643199e-02   -1,893101335e-01    0,000000000e+00    0,000000000e+00    0,000000000e+00    0,000000000e+00
      842000000    2,350199968e-01    1,859463006e-01   -1,716109738e-02   -7,071118802e-02    0,000000000e+00    0,000000000e+00    0,000000000e+00    0,000000000e+00
      856000000    2,803488970e-01   -1,242747903e-01    4,532695934e-02   -1,327765826e-02    0,000000000e+00    0,000000000e+00    0,000000000e+00    0,000000000e+00
      870000000    7,530220598e-02   -3,766169250e-01    1,137264073e-01   -9,109728038e-02    0,000000000e+00    0,000000000e+00    0,000000000e+00    0,000000000e+00
      884000000   -2,956027687e-01   -3,614101708e-01    2,780130506e-02   -2,455231398e-01    0,000000000e+00    0,000000000e+00    0,000000000e+00    0,000000000e+00
      898000000   -4,726438522e-01    8,484903723e-03   -2,214369178e-01   -2,283656895e-01    0,000000000e+00    0,000000000e+00    0,000000000e+00    0,000000000e+00
      912000000   -2,253776789e-01    2,945319116e-01   -3,408564329e-01    6,075614318e-02    0,000000000e+00    0,000000000e+00    0,000000000e+00    0,000000000e+00
      926000000    6,582518667e-02    2,650853693e-01   -2,179621011e-01    2,653320134e-01    0,000000000e+00    0,000000000e+00    0,000000000e+00    0,000000000e+00
      940000000    2,173584104e-01    8,084618300e-02   -3,507751226e-02    3,295153081e-01    0,000000000e+00    0,000000000e+00    0,000000000e+00    0,000000000e+00
      954000000    2,211079150e-01   -1,305936873e-01    1,309563816e-01    3,052468896e-01    0,000000000e+00    0,000000000e+00    0,000000000e+00    0,000000000e+00
      968000000    1,130772904e-01   -2,991019785e-01    2,721269727e-01    2,183392346e-01    0,000000000e+00    0,000000000e+00    0,000000000e+00    0,000000000e+00
      982000000   -8,453764021e-02   -3,889470398e-01    3,652085364e-01    6,571847945e-02    0,000000000e+00    0,000000000e+00    0,000000000e+00    0,000000000e+00
      996000000   -3,170648515e-01   -3,260058165e-01    3,701160252e-01   -1,467492878e-01    0,000000000e+00    0,000000000e+00    0,000000000e+00    0,000000000e+00
     1010000000   -4,605480731e-01   -1,123954505e-01    2,225861698e-01   -3,397941291e-01    0,000000000e+00    0,000000000e+00    0,000000000e+00    0,000000000e+00
     1024000000   -4,177963734e-01    1,483023912e-01   -3,264279291e-02   -3,933114707e-01    0,000000000e+00    0,000000000e+00    0,000000000e+00    0,000000000e+00
     1038000000   -2,177582681e-01    2,892571390e-01   -2,459175289e-01   -2,596429884e-01    0,000000000e+00    0,000000000e+00    0,000000000e+00    0,000000000e+00
     1052000000   -1,082119253e-02    2,816749811e-01   -3,160510659e-01   -4,688488320e-02    0,000000000e+00    0,000000000e+00    0,000000000e+00    0,000000000e+00
     1066000000    1,382540911e-01    1,632793695e-01   -2,555811107e-01    1,423351318e-01    0,000000000e+00    0,000000000e+00    0,000000000e+00    0,000000000e+00
     1080000000    1,941487789e-01   -3,511144547e-03   -1,180636808e-01    2,638418078e-01    0,000000000e+00    0,000000000e+00    0,000000000e+00    0,000000000e+00
     1094000000    1,513526440e-01   -1,722293049e-01    6,352894008e-02    3,006757200e-01    0,000000000e+00    0,000000000e+00    0,000000000e+00    0,000000000e+00
     1108000000    1,755433274e-03   -3,036443591e-01    2,751850784e-01    2,473418862e-01    0,000000000e+00    0,000000000e+00    0,000000000e+00    0,000000000e+00
     1122000000   -2,515105307e-01   -2,674914896e-01    4,711983800e-01    1,325484365e-02    0,000000000e+00    0,000000000e+00    0,000000000e+00    0,000000000e+00
     1136000000   -3,177222908e-01    3,627660871e-02    3,989308774e-01   -3,923910260e-01    0,000000000e+00    0,000000000e+00    0,000000000e+00    0,000000000e+00
     1150000000   -3,763936833e-02    1,497528106e-01    5,908644758e-03   -5,414168239e-01    0,000000000e+00    0,000000000e+00    0,000000000e+00    0,000000000e+00
     1164000000    1,217486560e-01   -6,417753547e-02   -2,775594294e-01   -3,797179163e-01    0,000000000e+00    0,000000000e+00    0,000000000e+00    0,000000000e+00
     1178000000    1,700648107e-02   -3,059911728e-01   -3,680422902e-01   -1,517936885e-01    0,000000000e+00    0,000000000e+00    0,000000000e+00    0,000000000e+00
     1192000000   -2,679424584e-01   -3,702168167e-01   -3,241285086e-01    6,035753712e-02    0,000000000e+00    0,000000000e+00    0,000000000e+00    0,000000000e+00
     1206000000   -5,185266733e-01   -1,597127169e-01   -1,616338193e-01    1,826524734e-01    0,000000000e+00    0,000000000e+00    0,000000000e+00    0,000000000e+00
     1220000000   -5,090734959e-01    1,767738760e-01    3,015085589e-03    1,591943055e-01    0,000000000e+00    0,000000000e+00    0,000000000e+00    0,000000000e+00
     1234000000   -2,838131487e-01    3,587790728e-01    6,960404664e-02    6,858971715e-02    0,000000000e+00    0,000000000e+00    0,000000000e+00    0,000000000e+00
     1248000000   -3,996394575e-02    3,665991426e-01    5,839531496e-02   -4,257923923e-03    0,000000000e+00    0,000000000e+00    0,000000000e+00    0,000000000e+00
     1262000000    1,258721501e-01    2,519712448e-01    1,947905868e-02   -2,684466355e-02    0,000000000e+00    0,000000000e+00    0,000000000e+00    0,000000000e+00
     1276000000    2,105126232e-01    1,019883379e-01   -5,501952954e-03    7,219185587e-03    0,000000000e+00    0,000000000e+00    0,000000000e+00    0,000000000e+00
     1290000000    2,247342467e-01   -7,264021784e-02    1,220344752e-02    5,464280769e-02    0,000000000e+00    0,000000000e+00    0,000000000e+00    0,000000000e+00
     1304000000    1,587844640e-01   -2,422327846e-01    1,332815439e-01    6,952437758e-02    0,000000000e+00    0,000000000e+00    0,000000000e+00    0,000000000e+00
     1318000000    3,483285010e-02   -3,372209966e-01    1,297123581e-01   -1,671162099e-01    0,000000000e+00    0,000000000e+00    0,000000000e+00    0,000000000e+00
     1332000000   -1,284851581e-01   -4,411424696e-01   -4,479683563e-02   -4,364791885e-02    0,000000000e+00    0,000000000e+00    0,000000000e+00    0,000000000e+00
     1346000000   -3,961506188e-01   -4,051620662e-01    1,704051159e-02    7,103183120e-02    0,000000000e+00    0,000000000e+00    0,000000000e+00    0,000000000e+00
     1360000000   -6,122475863e-01   -1,940257251e-01    1,305639595e-01    6,258042902e-02    0,000000000e+00    0,000000000e+00    0,000000000e+00    0,000000000e+00
     1374000000   -6,385263205e-01    1,315099746e-01    1,966625899e-01    9,843942709e-03    0,000000000e+00    0,000000000e+00    0,000000000e+00    0,000000000e+00
     1388000000   -4,715196192e-01    3,700690269e-01    2,031712532e-01   -6,530140340e-02    0,000000000e+00    0,000000000e+00    0,000000000e+00    0,000000000e+00
     1402000000   -2,358594388e-01    4,584724307e-01    1,891155392e-01   -8,651000261e-02    0,000000000e+00    0,000000000e+00    0,000000000e+00    0,000000000e+00
     1416000000   -2,706497908e-02    4,132387638e-01    1,665128618e-01   -1,015208289e-01    0,000000000e+00    0,000000000e+00    0,000000000e+00    0,000000000e+00
     1430000000    1,202088445e-01    3,067446947e-01    1,850363314e-01   -9,102274477e-02    0,000000000e+00    0,000000000e+00    0,000000000e+00    0,000000000e+00
     1444000000    2,060786039e-01    1,476958543e-01    1,525813490e-01   -1,072466299e-01    0,000000000e+00    0,000000000e+00    0,000000000e+00    0,000000000e+00
     1458000000    2,350201011e-01   -2,282088250e-02    1,498843729e-01   -8,260438591e-02    0,000000000e+00    0,000000000e+00    0,000000000e+00    0,000000000e+00
     1472000000    1,926240623e-01   -2,074870765e-01    1,454828233e-01   -3,311832249e-02    0,000000000e+00    0,000000000e+00    0,000000000e+00    0,000000000e+00
     1486000000    6,518335640e-02   -3,758365214e-01    1,823588610e-01    4,086750746e-02    0,000000000e+00    0,000000000e+00    0,000000000e+00    0,000000000e+00
     1500000000   -1,641256362e-01   -4,908332229e-01    2,409789115e-01    1,047930643e-01    0,000000000e+00    0,000000000e+00    0,000000000e+00    0,000000000e+00
