! NanoVNA-App
! Date: 2025-09-25 15:32:45
! Start: 100MHz Stop: 1,5GHz Points: 101
! S-Parameter data: F S11 S21 S12 S22
# Hz S RI R 50
!     Frequency           S11_Real           S11_Imag           S21_Real           S21_Imag           S12_Real           S12_Imag           S22_Real           S22_Imag
      100000000   -2,887044474e-02   -4,171481822e-03    3,741148710e-01   -7,217916846e-01    0,000000000e+00    0,000000000e+00    0,000000000e+00    0,000000000e+00
      114000000   -1,650701836e-02    1,153974794e-02   -8,923900127e-02   -8,053641319e-01    0,000000000e+00    0,000000000e+00    0,000000000e+00    0,000000000e+00
      128000000    3,465331625e-03    1,058565546e-02   -5,147669911e-01   -6,205219030e-01    0,000000000e+00    0,000000000e+00    0,000000000e+00    0,000000000e+00
      142000000    1,454018522e-02   -2,952939132e-03   -7,671118379e-01   -2,366151512e-01    0,000000000e+00    0,000000000e+00    0,000000000e+00    0,000000000e+00
      156000000    1,515073422e-02   -1,502587739e-02   -7,692452669e-01    2,196785808e-01    0,000000000e+00    0,000000000e+00    0,000000000e+00    0,000000000e+00
      170000000    1,660222374e-02   -2,254519425e-02   -5,178409219e-01    6,045357585e-01    0,000000000e+00    0,000000000e+00    0,000000000e+00    0,000000000e+00
      184000000    2,101377212e-02   -3,707866371e-02   -1,016881540e-01    7,862130404e-01    0,000000000e+00    0,000000000e+00    0,000000000e+00    0,000000000e+00
      198000000    1,300182939e-02   -6,245288625e-02    3,434265852e-01    7,126079202e-01    0,000000000e+00    0,000000000e+00    0,000000000e+00    0,000000000e+00
      212000000   -1,864236034e-02   -8,130542189e-02    6,781682372e-01    4,098985493e-01    0,000000000e+00    0,000000000e+00    0,000000000e+00    0,000000000e+00
      226000000   -6,172931939e-02   -6,919807941e-02    7,958194017e-01   -3,045531176e-02    0,000000000e+00    0,000000000e+00    0,000000000e+00    0,000000000e+00
      240000000   -8,260013908e-02   -2,564262599e-02    6,460092664e-01   -4,669699073e-01    0,000000000e+00    0,000000000e+00    0,000000000e+00    0,000000000e+00
      254000000   -6,351438165e-02    1,723133400e-02    2,757322788e-01   -7,433843613e-01    0,000000000e+00    0,000000000e+00    0,000000000e+00    0,000000000e+00
      268000000   -2,377428673e-02    2,896888182e-02   -1,779180020e-01   -7,643922567e-01    0,000000000e+00    0,000000000e+00    0,000000000e+00    0,000000000e+00
      282000000    4,169167485e-03    1,196245104e-02   -5,616063476e-01   -5,356479287e-01    0,000000000e+00    0,000000000e+00    0,000000000e+00    0,000000000e+00
      296000000    9,712688625e-03   -7,940804586e-03   -7,600468993e-01   -1,396506131e-01    0,000000000e+00    0,000000000e+00    0,000000000e+00    0,000000000e+00
      310000000    1,104507595e-02   -1,608500816e-02   -7,116693854e-01    2,982863486e-01    0,000000000e+00    0,000000000e+00    0,000000000e+00    0,000000000e+00
      324000000    1,970754191e-02   -2,655503713e-02   -4,273413420e-01    6,386224031e-01    0,000000000e+00    0,000000000e+00    0,000000000e+00    0,000000000e+00
      338000000    2,544960752e-02   -5,204724893e-02   -7,097980008e-03    7,603617907e-01    0,000000000e+00    0,000000000e+00    0,000000000e+00    0,000000000e+00
      352000000    7,196523715e-03   -8,467054367e-02    4,066843390e-01    6,403163075e-01    0,000000000e+00    0,000000000e+00    0,000000000e+00    0,000000000e+00
      366000000   -3,451147303e-02   -9,555973113e-02    6,911182404e-01    3,110594749e-01    0,000000000e+00    0,000000000e+00    0,000000000e+00    0,000000000e+00
      380000000   -7,073952258e-02   -7,115947455e-02    7,479404807e-01   -1,256216764e-01    0,000000000e+00    0,000000000e+00    0,000000000e+00    0,000000000e+00
      394000000   -7,270659506e-02   -3,266117349e-02    5,466860533e-01   -5,237029195e-01    0,000000000e+00    0,000000000e+00    0,000000000e+00    0,000000000e+00
      408000000   -4,636013135e-02   -1,611400396e-02    1,616832912e-01   -7,318923473e-01    0,000000000e+00    0,000000000e+00    0,000000000e+00    0,000000000e+00
      422000000   -2,818267979e-02   -3,200080246e-02   -2,674636841e-01   -6,955313087e-01    0,000000000e+00    0,000000000e+00    0,000000000e+00    0,000000000e+00
      436000000   -4,051679373e-02   -5,170452967e-02   -6,036270857e-01   -4,322259724e-01    0,000000000e+00    0,000000000e+00    0,000000000e+00    0,000000000e+00
      450000000   -6,732841581e-02   -4,392883182e-02   -7,403823733e-01   -2,120921947e-02    0,000000000e+00    0,000000000e+00    0,000000000e+00    0,000000000e+00
      464000000   -7,342296839e-02   -1,168330945e-02   -6,187130213e-01    3,975416720e-01    0,000000000e+00    0,000000000e+00    0,000000000e+00    0,000000000e+00
      478000000   -4,756087437e-02    1,201438531e-02   -2,823840082e-01    6,684588790e-01    0,000000000e+00    0,000000000e+00    0,000000000e+00    0,000000000e+00
      492000000   -1,582109183e-02    5,836975295e-03    1,370503753e-01    7,009184957e-01    0,000000000e+00    0,000000000e+00    0,000000000e+00    0,000000000e+00
      506000000   -2,382682636e-03   -1,583605632e-02    4,987633526e-01    5,020983815e-01    0,000000000e+00    0,000000000e+00    0,000000000e+00    0,000000000e+00
      520000000   -5,290752742e-03   -3,149181232e-02    6,877740622e-01    1,415984333e-01    0,000000000e+00    0,000000000e+00    0,000000000e+00    0,000000000e+00
      534000000   -4,021702334e-03   -3,836211562e-02    6,434239149e-01   -2,624542117e-01    0,000000000e+00    0,000000000e+00    0,000000000e+00    0,000000000e+00
      548000000    6,348608062e-03   -5,354860052e-02    3,814332485e-01   -5,677919388e-01    0,000000000e+00    0,000000000e+00    0,000000000e+00    0,000000000e+00
      562000000    3,038208699e-03   -8,949105442e-02    3,051801352e-03   -6,729713082e-01    0,000000000e+00    0,000000000e+00    0,000000000e+00    0,000000000e+00
      576000000   -3,379798308e-02   -1,245720312e-01   -3,692701757e-01   -5,576242208e-01    0,000000000e+00    0,000000000e+00    0,000000000e+00    0,000000000e+00
      590000000   -9,648517519e-02   -1,225565597e-01   -6,226959825e-01   -2,632336617e-01    0,000000000e+00    0,000000000e+00    0,000000000e+00    0,000000000e+00
      604000000   -1,393523514e-01   -7,186380774e-02   -6,645422578e-01    1,377494037e-01    0,000000000e+00    0,000000000e+00    0,000000000e+00    0,000000000e+00
      618000000   -1,293091476e-01   -8,887398057e-03   -4,646238983e-01    4,952979684e-01    0,000000000e+00    0,000000000e+00    0,000000000e+00    0,000000000e+00
      632000000   -8,390238136e-02    1,727630198e-02   -9,802760184e-02    6,631836295e-01    0,000000000e+00    0,000000000e+00    0,000000000e+00    0,000000000e+00
      646000000   -5,096646398e-02    8,393984899e-05    2,881399989e-01    5,952772498e-01    0,000000000e+00    0,000000000e+00    0,000000000e+00    0,000000000e+00
      660000000   -5,281352252e-02   -2,231445350e-02    5,673335791e-01    3,233612180e-01    0,000000000e+00    0,000000000e+00    0,000000000e+00    0,000000000e+00
      674000000   -7,090307027e-02   -1,771952398e-02    6,432382464e-01   -6,531287730e-02    0,000000000e+00    0,000000000e+00    0,000000000e+00    0,000000000e+00
      688000000   -6,804716587e-02    9,244086221e-03    4,717553258e-01   -4,279170036e-01    0,000000000e+00    0,000000000e+00    0,000000000e+00    0,000000000e+00
      702000000   -3,733066469e-02    2,742978930e-02    1,169404760e-01   -6,102036238e-01    0,000000000e+00    0,000000000e+00    0,000000000e+00    0,000000000e+00
      716000000    2,151893685e-03    1,717256010e-02   -2,644370198e-01   -5,459577441e-01    0,000000000e+00    0,000000000e+00    0,000000000e+00    0,000000000e+00
      730000000    3,662021458e-02   -1,164578553e-02   -5,288310051e-01   -2,688815892e-01    0,000000000e+00    0,000000000e+00    0,000000000e+00    0,000000000e+00
      744000000    6,526703387e-02   -6,295686215e-02   -5,643691421e-01    1,065453291e-01    0,000000000e+00    0,000000000e+00    0,000000000e+00    0,000000000e+00
      758000000    6,603059173e-02   -1,522940993e-01   -3,629283607e-01    4,100470543e-01    0,000000000e+00    0,000000000e+00    0,000000000e+00    0,000000000e+00
      772000000   -1,302128471e-02   -2,627442479e-01   -3,409882635e-02    5,156958103e-01    0,000000000e+00    0,000000000e+00    0,000000000e+00    0,000000000e+00
      786000000   -2,067445219e-01   -3,022551239e-01    2,740207911e-01    3,956568837e-01    0,000000000e+00    0,000000000e+00    0,000000000e+00    0,000000000e+00
      800000000   -4,262749255e-01   -1,301534474e-01    4,170206785e-01    9,900557250e-02    0,000000000e+00    0,000000000e+00    0,000000000e+00    0,000000000e+00
      814000000   -3,883849084e-01    2,218200117e-01    2,825671136e-01   -1,735303849e-01    0,000000000e+00    0,000000000e+00    0,000000000e+00    0,000000000e+00
      828000000   -4,935487732e-02    3,684174418e-01    5,539808050e-02   -1,888904423e-01    0,000000000e+00    0,000000000e+00    0,000000000e+00    0,000000000e+00
      842000000    2,351714522e-01    1,855296940e-01   -1,731982268e-02   -7,124692947e-02    0,000000000e+00    0,000000000e+00    0,000000000e+00    0,000000000e+00
      856000000    2,802904248e-01   -1,246970668e-01    4,536276311e-02   -1,329753920e-02    0,000000000e+00    0,000000000e+00    0,000000000e+00    0,000000000e+00
      870000000    7,522308081e-02   -3,760093451e-01    1,136633232e-01   -9,040618688e-02    0,000000000e+00    0,000000000e+00    0,000000000e+00    0,000000000e+00
      884000000   -2,966566384e-01   -3,629032969e-01    2,738764882e-02   -2,454205900e-01    0,000000000e+00    0,000000000e+00    0,000000000e+00    0,000000000e+00
      898000000   -4,715061784e-01    8,159733377e-03   -2,218018472e-01   -2,279691100e-01    0,000000000e+00    0,000000000e+00    0,000000000e+00    0,000000000e+00
      912000000   -2,253398597e-01    2,945133746e-01   -3,551517129e-01    6,607225537e-02    0,000000000e+00    0,000000000e+00    0,000000000e+00    0,000000000e+00
      926000000    6,713851541e-02    2,625182569e-01   -2,169591486e-01    2,625373602e-01    0,000000000e+00    0,000000000e+00    0,000000000e+00    0,000000000e+00
      940000000    2,142513245e-01    8,118470013e-02   -3,659638390e-02    3,296537697e-01    0,000000000e+00    0,000000000e+00    0,000000000e+00    0,000000000e+00
      954000000    2,259152234e-01   -1,262076795e-01    1,318106651e-01    3,079743385e-01    0,000000000e+00    0,000000000e+00    0,000000000e+00    0,000000000e+00
      968000000    1,150339842e-01   -3,014633060e-01    2,719609439e-01    2,178908587e-01    0,000000000e+00    0,000000000e+00    0,000000000e+00    0,000000000e+00
      982000000   -8,280365169e-02   -3,853302598e-01    3,659303486e-01    6,516717374e-02    0,000000000e+00    0,000000000e+00    0,000000000e+00    0,000000000e+00
      996000000   -3,154117465e-01   -3,307760954e-01    3,696808815e-01   -1,449999660e-01    0,000000000e+00    0,000000000e+00    0,000000000e+00    0,000000000e+00
     1010000000   -4,606453776e-01   -1,116308346e-01    2,225242257e-01   -3,411402702e-01    0,000000000e+00    0,000000000e+00    0,000000000e+00    0,000000000e+00
     1024000000   -4,120507836e-01    1,520841569e-01   -3,378621489e-02   -3,931443393e-01    0,000000000e+00    0,000000000e+00    0,000000000e+00    0,000000000e+00
     1038000000   -2,167305946e-01    2,945409417e-01   -2,490635514e-01   -2,598471344e-01    0,000000000e+00    0,000000000e+00    0,000000000e+00    0,000000000e+00
     1052000000   -6,166308653e-03    2,760725915e-01   -3,176028430e-01   -4,582271352e-02    0,000000000e+00    0,000000000e+00    0,000000000e+00    0,000000000e+00
     1066000000    1,388407052e-01    1,644500792e-01   -2,597391009e-01    1,447474957e-01    0,000000000e+00    0,000000000e+00    0,000000000e+00    0,000000000e+00
     1080000000    1,950630099e-01    1,476705773e-03   -1,197299063e-01    2,635876834e-01    0,000000000e+00    0,000000000e+00    0,000000000e+00    0,000000000e+00
     1094000000    1,537646353e-01   -1,709273010e-01    6,327591836e-02    3,035528660e-01    0,000000000e+00    0,000000000e+00    0,000000000e+00    0,000000000e+00
     1108000000   -4,866443574e-03   -3,061969876e-01    2,771017551e-01    2,484345585e-01    0,000000000e+00    0,000000000e+00    0,000000000e+00    0,000000000e+00
     1122000000   -2,451623231e-01   -2,624841630e-01    4,731490314e-01    9,397044778e-03    0,000000000e+00    0,000000000e+00    0,000000000e+00    0,000000000e+00
     1136000000   -3,210396171e-01    2,916089818e-02    3,991438150e-01   -3,904371560e-01    0,000000000e+00    0,000000000e+00    0,000000000e+00    0,000000000e+00
     1150000000   -4,167919978e-02    1,472773254e-01    6,012700964e-03   -5,406952500e-01    0,000000000e+00    0,000000000e+00    0,000000000e+00    0,000000000e+00
     1164000000    1,235407069e-01   -6,044216827e-02   -2,785099745e-01   -3,742848039e-01    0,000000000e+00    0,000000000e+00    0,000000000e+00    0,000000000e+00
     1178000000    1,746973954e-02   -3,044569492e-01   -3,675555885e-01   -1,514211297e-01    0,000000000e+00    0,000000000e+00    0,000000000e+00    0,000000000e+00
     1192000000   -2,692596018e-01   -3,724247217e-01   -3,234525919e-01    5,840902403e-02    0,000000000e+00    0,000000000e+00    0,000000000e+00    0,000000000e+00
     1206000000   -5,201511383e-01   -1,581043750e-01   -1,650917679e-01    1,851397455e-01    0,000000000e+00    0,000000000e+00    0,000000000e+00    0,000000000e+00
     1220000000   -5,102140307e-01    1,797856987e-01    1,078886678e-03    1,571590304e-01    0,000000000e+00    0,000000000e+00    0,000000000e+00    0,000000000e+00
     1234000000   -2,802518606e-01    3,621218801e-01    7,215365022e-02    6,353373826e-02    0,000000000e+00    0,000000000e+00    0,000000000e+00    0,000000000e+00
     1248000000   -4,782876000e-02    3,603607118e-01    5,369129404e-02   -5,906482693e-03    0,000000000e+00    0,000000000e+00    0,000000000e+00    0,000000000e+00
     1262000000    1,222167239e-01    2,625494301e-01    2,127083205e-02   -2,223010175e-02    0,000000000e+00    0,000000000e+00    0,000000000e+00    0,000000000e+00
     1276000000    2,126124799e-01    9,917738289e-02   -4,185616854e-04    8,571322076e-03    0,000000000e+00    0,000000000e+00    0,000000000e+00    0,000000000e+00
     1290000000    2,236644775e-01   -7,550934702e-02    1,580923051e-02    4,741007835e-02    0,000000000e+00    0,000000000e+00    0,000000000e+00    0,000000000e+00
     1304000000    1,552271247e-01   -2,419444025e-01    1,346372068e-01    5,731234699e-02    0,000000000e+00    0,000000000e+00    0,000000000e+00    0,000000000e+00
     1318000000    3,724071756e-02   -3,365910649e-01    1,350687742e-01   -1,620073915e-01    0,000000000e+00    0,000000000e+00    0,000000000e+00    0,000000000e+00
     1332000000   -1,272708029e-01   -4,416168630e-01   -4,557576403e-02   -5,514818802e-02    0,000000000e+00    0,000000000e+00    0,000000000e+00    0,000000000e+00
     1346000000   -3,925725520e-01   -4,103382528e-01    3,130433708e-02    6,513766199e-02    0,000000000e+00    0,000000000e+00    0,000000000e+00    0,000000000e+00
     1360000000   -6,126481295e-01   -1,850619763e-01    1,338973343e-01    7,799283415e-02    0,000000000e+00    0,000000000e+00    0,000000000e+00    0,000000000e+00
     1374000000   -6,281080842e-01    1,337875873e-01    2,175121754e-01    7,901785895e-03    0,000000000e+00    0,000000000e+00    0,000000000e+00    0,000000000e+00
     1388000000   -4,642539620e-01    3,740023971e-01    2,153888792e-01   -5,392332748e-02    0,000000000e+00    0,000000000e+00    0,000000000e+00    0,000000000e+00
     1402000000   -2,301958203e-01    4,536971450e-01    1,879828572e-01   -1,058690697e-01    0,000000000e+00    0,000000000e+00    0,000000000e+00    0,000000000e+00
     1416000000   -3,100796789e-02    4,063304663e-01    1,714255363e-01   -1,081062406e-01    0,000000000e+00    0,000000000e+00    0,000000000e+00    0,000000000e+00
     1430000000    1,245735437e-01    2,970795035e-01    1,594891101e-01   -9,888694435e-02    0,000000000e+00    0,000000000e+00    0,000000000e+00    0,000000000e+00
     1444000000    2,118884772e-01    1,479546279e-01    1,562536359e-01   -9,682605416e-02    0,000000000e+00    0,000000000e+00    0,000000000e+00    0,000000000e+00
     1458000000    2,363552451e-01   -1,928309351e-02    1,408538520e-01   -6,695292145e-02    0,000000000e+00    0,000000000e+00    0,000000000e+00    0,000000000e+00
     1472000000    1,936607808e-01   -2,055386007e-01    1,517185569e-01   -2,676916309e-02    0,000000000e+00    0,000000000e+00    0,000000000e+00    0,000000000e+00
     1486000000    5,802617595e-02   -3,763965666e-01    1,700259894e-01    2,948321402e-02    0,000000000e+00    0,000000000e+00    0,000000000e+00    0,000000000e+00
     1500000000   -1,752939224e-01   -5,043168664e-01    2,439032495e-01    8,300037682e-02    0,000000000e+00    0,000000000e+00    0,000000000e+00    0,000000000e+00
