! NanoVNA-App
! Date: 2025-09-25 15:37:06
! Start: 100MHz Stop: 1,5GHz Points: 101
! S-Parameter data: F S11 S21 S12 S22
# Hz S RI R 50
!     Frequency           S11_Real           S11_Imag           S21_Real           S21_Imag           S12_Real           S12_Imag           S22_Real           S22_Imag
      100000000   -2,884425595e-02   -4,170775879e-03    3,740947843e-01   -7,216985822e-01    0,000000000e+00    0,000000000e+00    0,000000000e+00    0,000000000e+00
      114000000   -1,650077850e-02    1,150217559e-02   -8,907137811e-02   -8,054305315e-01    0,000000000e+00    0,000000000e+00    0,000000000e+00    0,000000000e+00
      128000000    3,475400619e-03    1,049038302e-02   -5,145013928e-01   -6,202990413e-01    0,000000000e+00    0,000000000e+00    0,000000000e+00    0,000000000e+00
      142000000    1,459499635e-02   -2,964804647e-03   -7,670364380e-01   -2,367282510e-01    0,000000000e+00    0,000000000e+00    0,000000000e+00    0,000000000e+00
      156000000    1,605644822e-02   -1,436460763e-02   -7,702465653e-01    2,243591398e-01    0,000000000e+00    0,000000000e+00    0,000000000e+00    0,000000000e+00
      170000000    1,672327891e-02   -2,255840227e-02   -5,182626843e-01    6,047544479e-01    0,000000000e+00    0,000000000e+00    0,000000000e+00    0,000000000e+00
      184000000    2,103892714e-02   -3,707532585e-02   -1,013499498e-01    7,864027023e-01    0,000000000e+00    0,000000000e+00    0,000000000e+00    0,000000000e+00
      198000000    1,305164024e-02   -6,246284768e-02    3,432462215e-01    7,124497890e-01    0,000000000e+00    0,000000000e+00    0,000000000e+00    0,000000000e+00
      212000000   -1,865520328e-02   -8,129139990e-02    6,781828403e-01    4,099467397e-01    0,000000000e+00    0,000000000e+00    0,000000000e+00    0,000000000e+00
      226000000   -6,160647050e-02   -6,918315589e-02    7,957323790e-01   -3,064293228e-02    0,000000000e+00    0,000000000e+00    0,000000000e+00    0,000000000e+00
      240000000   -8,257774264e-02   -2,561272122e-02    6,460679173e-01   -4,668352604e-01    0,000000000e+00    0,000000000e+00    0,000000000e+00    0,000000000e+00
      254000000   -6,345786899e-02    1,725732535e-02    2,759541571e-01   -7,432081103e-01    0,000000000e+00    0,000000000e+00    0,000000000e+00    0,000000000e+00
      268000000   -2,375242300e-02    2,886994742e-02   -1,781981736e-01   -7,644775510e-01    0,000000000e+00    0,000000000e+00    0,000000000e+00    0,000000000e+00
      282000000    4,211444408e-03    1,192747243e-02   -5,620030761e-01   -5,351988673e-01    0,000000000e+00    0,000000000e+00    0,000000000e+00    0,000000000e+00
      296000000    9,780468419e-03   -7,775557227e-03   -7,596353292e-01   -1,395286024e-01    0,000000000e+00    0,000000000e+00    0,000000000e+00    0,000000000e+00
      310000000    1,117209904e-02   -1,612210646e-02   -7,118221521e-01    2,979274988e-01    0,000000000e+00    0,000000000e+00    0,000000000e+00    0,000000000e+00
      324000000    1,969458908e-02   -2,656183951e-02   -4,268173277e-01    6,370878816e-01    0,000000000e+00    0,000000000e+00    0,000000000e+00    0,000000000e+00
      338000000    2,567123435e-02   -5,206703022e-02   -9,853899479e-03    7,593282461e-01    0,000000000e+00    0,000000000e+00    0,000000000e+00    0,000000000e+00
      352000000    7,158493157e-03   -8,487912267e-02    4,069432616e-01    6,384009123e-01    0,000000000e+00    0,000000000e+00    0,000000000e+00    0,000000000e+00
      366000000   -3,451127186e-02   -9,565594047e-02    6,906331182e-01    3,112613857e-01    0,000000000e+00    0,000000000e+00    0,000000000e+00    0,000000000e+00
      380000000   -7,060127705e-02   -7,111217827e-02    7,475433946e-01   -1,257049292e-01    0,000000000e+00    0,000000000e+00    0,000000000e+00    0,000000000e+00
      394000000   -7,268331200e-02   -3,245966882e-02    5,475058556e-01   -5,226040483e-01    0,000000000e+00    0,000000000e+00    0,000000000e+00    0,000000000e+00
      408000000   -4,646208510e-02   -1,596661843e-02    1,599968672e-01   -7,320377231e-01    0,000000000e+00    0,000000000e+00    0,000000000e+00    0,000000000e+00
      422000000   -2,837663144e-02   -3,179030493e-02   -2,673178911e-01   -6,953690648e-01    0,000000000e+00    0,000000000e+00    0,000000000e+00    0,000000000e+00
      436000000   -4,060702771e-02   -5,177229270e-02   -6,040019989e-01   -4,312208593e-01    0,000000000e+00    0,000000000e+00    0,000000000e+00    0,000000000e+00
      450000000   -6,736193597e-02   -4,385672137e-02   -7,405439019e-01   -2,120339684e-02    0,000000000e+00    0,000000000e+00    0,000000000e+00    0,000000000e+00
      464000000   -7,346689701e-02   -1,176535897e-02   -6,186139584e-01    3,979449570e-01    0,000000000e+00    0,000000000e+00    0,000000000e+00    0,000000000e+00
      478000000   -4,767160490e-02    1,184815075e-02   -2,815274596e-01    6,685639620e-01    0,000000000e+00    0,000000000e+00    0,000000000e+00    0,000000000e+00
      492000000   -1,591270976e-02    6,228914484e-03    1,375516206e-01    7,013569474e-01    0,000000000e+00    0,000000000e+00    0,000000000e+00    0,000000000e+00
      506000000   -2,650593407e-03   -1,595638692e-02    4,977749288e-01    5,022509098e-01    0,000000000e+00    0,000000000e+00    0,000000000e+00    0,000000000e+00
      520000000   -5,064335186e-03   -3,182102740e-02    6,872919202e-01    1,406938583e-01    0,000000000e+00    0,000000000e+00    0,000000000e+00    0,000000000e+00
      534000000   -3,664247924e-03   -3,825104982e-02    6,436786056e-01   -2,628135383e-01    0,000000000e+00    0,000000000e+00    0,000000000e+00    0,000000000e+00
      548000000    6,258308422e-03   -5,374889821e-02    3,807600141e-01   -5,675969720e-01    0,000000000e+00    0,000000000e+00    0,000000000e+00    0,000000000e+00
      562000000    3,241240047e-03   -8,960179240e-02    1,967768185e-03   -6,728476882e-01    0,000000000e+00    0,000000000e+00    0,000000000e+00    0,000000000e+00
      576000000   -3,398833424e-02   -1,246191263e-01   -3,693549931e-01   -5,577108860e-01    0,000000000e+00    0,000000000e+00    0,000000000e+00    0,000000000e+00
      590000000   -9,644731879e-02   -1,227539554e-01   -6,231095195e-01   -2,647700608e-01    0,000000000e+00    0,000000000e+00    0,000000000e+00    0,000000000e+00
      604000000   -1,395047456e-01   -7,138567418e-02   -6,649760604e-01    1,380389184e-01    0,000000000e+00    0,000000000e+00    0,000000000e+00    0,000000000e+00
      618000000   -1,293377131e-01   -9,347487241e-03   -4,634741247e-01    4,945646226e-01    0,000000000e+00    0,000000000e+00    0,000000000e+00    0,000000000e+00
      632000000   -8,375007659e-02    1,643310860e-02   -9,742631018e-02    6,643819809e-01    0,000000000e+00    0,000000000e+00    0,000000000e+00    0,000000000e+00
      646000000   -5,140520632e-02    2,886638104e-04    2,876403332e-01    5,956952572e-01    0,000000000e+00    0,000000000e+00    0,000000000e+00    0,000000000e+00
      660000000   -5,317972600e-02   -2,219653130e-02    5,678771138e-01    3,227078617e-01    0,000000000e+00    0,000000000e+00    0,000000000e+00    0,000000000e+00
      674000000   -7,033058256e-02   -1,708345860e-02    6,430285573e-01   -6,537869573e-02    0,000000000e+00    0,000000000e+00    0,000000000e+00    0,000000000e+00
      688000000   -6,885308027e-02    9,191995487e-03    4,711260200e-01   -4,281955957e-01    0,000000000e+00    0,000000000e+00    0,000000000e+00    0,000000000e+00
      702000000   -3,845449910e-02    2,651665919e-02    1,244544685e-01   -6,161062717e-01    0,000000000e+00    0,000000000e+00    0,000000000e+00    0,000000000e+00
      716000000    2,529981080e-03    1,845452376e-02   -2,654435933e-01   -5,461843014e-01    0,000000000e+00    0,000000000e+00    0,000000000e+00    0,000000000e+00
      730000000    3,624150530e-02   -1,050912496e-02   -5,285403728e-01   -2,694752514e-01    0,000000000e+00    0,000000000e+00    0,000000000e+00    0,000000000e+00
      744000000    6,471706927e-02   -6,257295609e-02   -5,643044710e-01    1,063466594e-01    0,000000000e+00    0,000000000e+00    0,000000000e+00    0,000000000e+00
      758000000    6,727938354e-02   -1,514633000e-01   -3,642707467e-01    4,099394977e-01    0,000000000e+00    0,000000000e+00    0,000000000e+00    0,000000000e+00
      772000000   -1,273230836e-02   -2,628831863e-01   -3,493510187e-02    5,156988502e-01    0,000000000e+00    0,000000000e+00    0,000000000e+00    0,000000000e+00
      786000000   -2,056718618e-01   -3,025839627e-01    2,745055854e-01    3,958992362e-01    0,000000000e+00    0,000000000e+00    0,000000000e+00    0,000000000e+00
      800000000   -4,253047705e-01   -1,295983493e-01    4,175058603e-01    9,958095849e-02    0,000000000e+00    0,000000000e+00    0,000000000e+00    0,000000000e+00
      814000000   -3,884881437e-01    2,210089564e-01    2,827888131e-01   -1,739907712e-01    0,000000000e+00    0,000000000e+00    0,000000000e+00    0,000000000e+00
      828000000   -4,973510280e-02    3,672563136e-01    5,507722870e-02   -1,890902668e-01    0,000000000e+00    0,000000000e+00    0,000000000e+00    0,000000000e+00
      842000000    2,352194190e-01    1,856571883e-01   -1,731677912e-02   -7,094408572e-02    0,000000000e+00    0,000000000e+00    0,000000000e+00    0,000000000e+00
      856000000    2,807968855e-01   -1,245897114e-01    4,502219334e-02   -1,314812154e-02    0,000000000e+00    0,000000000e+00    0,000000000e+00    0,000000000e+00
      870000000    7,530234754e-02   -3,767568767e-01    1,137707308e-01   -9,128405899e-02    0,000000000e+00    0,000000000e+00    0,000000000e+00    0,000000000e+00
      884000000   -2,958225906e-01   -3,620306253e-01    2,806746215e-02   -2,452926040e-01    0,000000000e+00    0,000000000e+00    0,000000000e+00    0,000000000e+00
      898000000   -4,726862013e-01    8,643592708e-03   -2,231249064e-01   -2,279158384e-01    0,000000000e+00    0,000000000e+00    0,000000000e+00    0,000000000e+00
      912000000   -2,250894606e-01    2,947114110e-01   -3,542557955e-01    6,714755297e-02    0,000000000e+00    0,000000000e+00    0,000000000e+00    0,000000000e+00
      926000000    6,646762788e-02    2,630864680e-01   -2,159479558e-01    2,620385885e-01    0,000000000e+00    0,000000000e+00    0,000000000e+00    0,000000000e+00
      940000000    2,148907334e-01    8,088217676e-02   -3,620444611e-02    3,304485381e-01    0,000000000e+00    0,000000000e+00    0,000000000e+00    0,000000000e+00
      954000000    2,198470384e-01   -1,283996850e-01    1,331964135e-01    3,081858158e-01    0,000000000e+00    0,000000000e+00    0,000000000e+00    0,000000000e+00
      968000000    1,168420613e-01   -3,014824390e-01    2,704225779e-01    2,170587182e-01    0,000000000e+00    0,000000000e+00    0,000000000e+00    0,000000000e+00
      982000000   -8,141243458e-02   -3,901014328e-01    3,656920493e-01    6,384354830e-02    0,000000000e+00    0,000000000e+00    0,000000000e+00    0,000000000e+00
      996000000   -3,144767880e-01   -3,265565038e-01    3,697536886e-01   -1,447816193e-01    0,000000000e+00    0,000000000e+00    0,000000000e+00    0,000000000e+00
     1010000000   -4,616448581e-01   -1,133664474e-01    2,223766446e-01   -3,406319320e-01    0,000000000e+00    0,000000000e+00    0,000000000e+00    0,000000000e+00
     1024000000   -4,173039496e-01    1,507098526e-01   -3,522628918e-02   -3,924327791e-01    0,000000000e+00    0,000000000e+00    0,000000000e+00    0,000000000e+00
     1038000000   -2,134946734e-01    2,933944166e-01   -2,467010468e-01   -2,599966824e-01    0,000000000e+00    0,000000000e+00    0,000000000e+00    0,000000000e+00
     1052000000   -9,700464085e-03    2,749744654e-01   -3,183845580e-01   -4,542606696e-02    0,000000000e+00    0,000000000e+00    0,000000000e+00    0,000000000e+00
     1066000000    1,347385049e-01    1,659363806e-01   -2,573355436e-01    1,412639618e-01    0,000000000e+00    0,000000000e+00    0,000000000e+00    0,000000000e+00
     1080000000    1,955391318e-01   -3,429223943e-05   -1,210358366e-01    2,647507489e-01    0,000000000e+00    0,000000000e+00    0,000000000e+00    0,000000000e+00
     1094000000    1,526456773e-01   -1,768091619e-01    6,265353411e-02    3,052590191e-01    0,000000000e+00    0,000000000e+00    0,000000000e+00    0,000000000e+00
     1108000000   -1,692558406e-03   -3,017084897e-01    2,774704397e-01    2,460045815e-01    0,000000000e+00    0,000000000e+00    0,000000000e+00    0,000000000e+00
     1122000000   -2,444634587e-01   -2,643983066e-01    4,722410440e-01    1,039365493e-02    0,000000000e+00    0,000000000e+00    0,000000000e+00    0,000000000e+00
     1136000000   -3,184210062e-01    3,596707433e-02    3,941401839e-01   -3,922951221e-01    0,000000000e+00    0,000000000e+00    0,000000000e+00    0,000000000e+00
     1150000000   -4,335693642e-02    1,509377509e-01    4,616658669e-03   -5,429516435e-01    0,000000000e+00    0,000000000e+00    0,000000000e+00    0,000000000e+00
     1164000000    1,222157478e-01   -6,386581808e-02   -2,777502239e-01   -3,814725876e-01    0,000000000e+00    0,000000000e+00    0,000000000e+00    0,000000000e+00
     1178000000    1,515669003e-02   -3,044072986e-01   -3,700292110e-01   -1,518121660e-01    0,000000000e+00    0,000000000e+00    0,000000000e+00    0,000000000e+00
     1192000000   -2,695574462e-01   -3,727740645e-01   -3,244360387e-01    5,776670575e-02    0,000000000e+00    0,000000000e+00    0,000000000e+00    0,000000000e+00
     1206000000   -5,223070979e-01   -1,574637890e-01   -1,649185866e-01    1,828745306e-01    0,000000000e+00    0,000000000e+00    0,000000000e+00    0,000000000e+00
     1220000000   -5,124776363e-01    1,771428734e-01   -2,671925817e-03    1,634423733e-01    0,000000000e+00    0,000000000e+00    0,000000000e+00    0,000000000e+00
     1234000000   -2,895417213e-01    3,594394326e-01    6,642254442e-02    5,967035890e-02    0,000000000e+00    0,000000000e+00    0,000000000e+00    0,000000000e+00
     1248000000   -4,957696795e-02    3,687047064e-01    5,636706203e-02   -2,768261125e-03    0,000000000e+00    0,000000000e+00    0,000000000e+00    0,000000000e+00
     1262000000    1,213180348e-01    2,594724596e-01    1,436731312e-02   -2,231626585e-02    0,000000000e+00    0,000000000e+00    0,000000000e+00    0,000000000e+00
     1276000000    2,112164497e-01    9,929148853e-02   -1,267403713e-03    4,203994293e-03    0,000000000e+00    0,000000000e+00    0,000000000e+00    0,000000000e+00
     1290000000    2,240583152e-01   -7,411666214e-02    1,735241711e-02    5,198575556e-02    0,000000000e+00    0,000000000e+00    0,000000000e+00    0,000000000e+00
     1304000000    1,596816629e-01   -2,425639480e-01    1,387610883e-01    6,988001615e-02    0,000000000e+00    0,000000000e+00    0,000000000e+00    0,000000000e+00
     1318000000    3,359042853e-02   -3,400447965e-01    1,279012710e-01   -1,700498611e-01    0,000000000e+00    0,000000000e+00    0,000000000e+00    0,000000000e+00
     1332000000   -1,273114085e-01   -4,375879765e-01   -4,147661850e-02   -5,056629702e-02    0,000000000e+00    0,000000000e+00    0,000000000e+00    0,000000000e+00
     1346000000   -3,958036900e-01   -4,084128737e-01    2,758612670e-02    6,572116166e-02    0,000000000e+00    0,000000000e+00    0,000000000e+00    0,000000000e+00
     1360000000   -6,090704799e-01   -1,942341477e-01    1,317383498e-01    6,710926443e-02    0,000000000e+00    0,000000000e+00    0,000000000e+00    0,000000000e+00
     1374000000   -6,355867386e-01    1,348274946e-01    2,004537433e-01    5,876263604e-03    0,000000000e+00    0,000000000e+00    0,000000000e+00    0,000000000e+00
     1388000000   -4,646509886e-01    3,686502576e-01    2,088100314e-01   -5,390864611e-02    0,000000000e+00    0,000000000e+00    0,000000000e+00    0,000000000e+00
     1402000000   -2,387510389e-01    4,543210864e-01    1,788924783e-01   -9,296561778e-02    0,000000000e+00    0,000000000e+00    0,000000000e+00    0,000000000e+00
     1416000000   -2,431178838e-02    4,093419015e-01    1,823919415e-01   -1,087259427e-01    0,000000000e+00    0,000000000e+00    0,000000000e+00    0,000000000e+00
     1430000000    1,233990267e-01    3,012256622e-01    1,483577937e-01   -1,112430692e-01    0,000000000e+00    0,000000000e+00    0,000000000e+00    0,000000000e+00
     1444000000    2,096185833e-01    1,513260454e-01    1,588282138e-01   -1,023078114e-01    0,000000000e+00    0,000000000e+00    0,000000000e+00    0,000000000e+00
     1458000000    2,371243387e-01   -1,974203996e-02    1,476612538e-01   -7,042420655e-02    0,000000000e+00    0,000000000e+00    0,000000000e+00    0,000000000e+00
     1472000000    1,922007650e-01   -1,978702694e-01    1,401977688e-01   -2,206994593e-02    0,000000000e+00    0,000000000e+00    0,000000000e+00    0,000000000e+00
     1486000000    5,879771709e-02   -3,732592165e-01    1,618370563e-01    3,017200157e-02    0,000000000e+00    0,000000000e+00    0,000000000e+00    0,000000000e+00
     1500000000   -1,688157916e-01   -4,962081611e-01    2,466697246e-01    8,568164706e-02    0,000000000e+00    0,000000000e+00    0,000000000e+00    0,000000000e+00
