! NanoVNA-App
! Date: 2025-09-25 15:36:28
! Start: 100MHz Stop: 1,5GHz Points: 101
! S-Parameter data: F S11 S21 S12 S22
# Hz S RI R 50
!     Frequency           S11_Real           S11_Imag           S21_Real           S21_Imag           S12_Real           S12_Imag           S22_Real           S22_Imag
      100000000   -2,882956155e-02   -4,157393239e-03    3,740950823e-01   -7,217384577e-01    0,000000000e+00    0,000000000e+00    0,000000000e+00    0,000000000e+00
      114000000   -1,646322198e-02    1,148756593e-02   -8,916692436e-02   -8,055467606e-01    0,000000000e+00    0,000000000e+00    0,000000000e+00    0,000000000e+00
      128000000    3,539940109e-03    1,055997610e-02   -5,147240162e-01   -6,205460429e-01    0,000000000e+00    0,000000000e+00    0,000000000e+00    0,000000000e+00
      142000000    1,457816549e-02   -2,964274026e-03   -7,669862509e-01   -2,365086526e-01    0,000000000e+00    0,000000000e+00    0,000000000e+00    0,000000000e+00
      156000000    1,554384641e-02   -1,491571032e-02   -7,713792920e-01    2,217833251e-01    0,000000000e+00    0,000000000e+00    0,000000000e+00    0,000000000e+00
      170000000    1,673634909e-02   -2,252558060e-02   -5,183378458e-01    6,046342850e-01    0,000000000e+00    0,000000000e+00    0,000000000e+00    0,000000000e+00
      184000000    2,100733481e-02   -3,710000217e-02   -1,014608294e-01    7,861279249e-01    0,000000000e+00    0,000000000e+00    0,000000000e+00    0,000000000e+00
      198000000    1,302128565e-02   -6,244170666e-02    3,435192704e-01    7,121716738e-01    0,000000000e+00    0,000000000e+00    0,000000000e+00    0,000000000e+00
      212000000   -1,866192743e-02   -8,130724728e-02    6,783837080e-01    4,101225436e-01    0,000000000e+00    0,000000000e+00    0,000000000e+00    0,000000000e+00
      226000000   -6,166590005e-02   -6,920661777e-02    7,958720326e-01   -3,063244186e-02    0,000000000e+00    0,000000000e+00    0,000000000e+00    0,000000000e+00
      240000000   -8,259402215e-02   -2,564568259e-02    6,461621523e-01   -4,668702185e-01    0,000000000e+00    0,000000000e+00    0,000000000e+00    0,000000000e+00
      254000000   -6,350453943e-02    1,721744798e-02    2,759757340e-01   -7,435710430e-01    0,000000000e+00    0,000000000e+00    0,000000000e+00    0,000000000e+00
      268000000   -2,386370860e-02    2,891412377e-02   -1,781303883e-01   -7,645182610e-01    0,000000000e+00    0,000000000e+00    0,000000000e+00    0,000000000e+00
      282000000    4,203378689e-03    1,196689066e-02   -5,621203780e-01   -5,357718468e-01    0,000000000e+00    0,000000000e+00    0,000000000e+00    0,000000000e+00
      296000000    9,639972821e-03   -7,834698074e-03   -7,597724199e-01   -1,396678388e-01    0,000000000e+00    0,000000000e+00    0,000000000e+00    0,000000000e+00
      310000000    1,109965239e-02   -1,612388156e-02   -7,119916081e-01    2,999138236e-01    0,000000000e+00    0,000000000e+00    0,000000000e+00    0,000000000e+00
      324000000    1,962843165e-02   -2,640951797e-02   -4,273537993e-01    6,381160021e-01    0,000000000e+00    0,000000000e+00    0,000000000e+00    0,000000000e+00
      338000000    2,594628744e-02   -5,239274725e-02   -9,792302735e-03    7,631992102e-01    0,000000000e+00    0,000000000e+00    0,000000000e+00    0,000000000e+00
      352000000    7,705089170e-03   -8,473156393e-02    4,068867862e-01    6,388186812e-01    0,000000000e+00    0,000000000e+00    0,000000000e+00    0,000000000e+00
      366000000   -3,460881114e-02   -9,563300014e-02    6,901106238e-01    3,110275865e-01    0,000000000e+00    0,000000000e+00    0,000000000e+00    0,000000000e+00
      380000000   -7,066478580e-02   -7,115079463e-02    7,471786737e-01   -1,258583814e-01    0,000000000e+00    0,000000000e+00    0,000000000e+00    0,000000000e+00
      394000000   -7,259831578e-02   -3,240966797e-02    5,472078919e-01   -5,219809413e-01    0,000000000e+00    0,000000000e+00    0,000000000e+00    0,000000000e+00
      408000000   -4,671845585e-02   -1,633345336e-02    1,598266363e-01   -7,330514789e-01    0,000000000e+00    0,000000000e+00    0,000000000e+00    0,000000000e+00
      422000000   -2,842490189e-02   -3,210191801e-02   -2,676133811e-01   -6,948219538e-01    0,000000000e+00    0,000000000e+00    0,000000000e+00    0,000000000e+00
      436000000   -4,055350274e-02   -5,182281882e-02   -6,038926840e-01   -4,323001504e-01    0,000000000e+00    0,000000000e+00    0,000000000e+00    0,000000000e+00
      450000000   -6,747022271e-02   -4,370409623e-02   -7,403513789e-01   -2,119598724e-02    0,000000000e+00    0,000000000e+00    0,000000000e+00    0,000000000e+00
      464000000   -7,309287041e-02   -1,161433943e-02   -6,186252236e-01    3,977780044e-01    0,000000000e+00    0,000000000e+00    0,000000000e+00    0,000000000e+00
      478000000   -4,749580845e-02    1,190837286e-02   -2,821864486e-01    6,682860255e-01    0,000000000e+00    0,000000000e+00    0,000000000e+00    0,000000000e+00
      492000000   -1,593877189e-02    5,990827922e-03    1,383725405e-01    7,011122108e-01    0,000000000e+00    0,000000000e+00    0,000000000e+00    0,000000000e+00
      506000000   -2,546810079e-03   -1,564641111e-02    4,980664551e-01    5,026363134e-01    0,000000000e+00    0,000000000e+00    0,000000000e+00    0,000000000e+00
      520000000   -5,117854569e-03   -3,185836971e-02    6,876956820e-01    1,409842968e-01    0,000000000e+00    0,000000000e+00    0,000000000e+00    0,000000000e+00
      534000000   -4,216881469e-03   -3,833809495e-02    6,430577040e-01   -2,626938820e-01    0,000000000e+00    0,000000000e+00    0,000000000e+00    0,000000000e+00
      548000000    6,089790724e-03   -5,358356237e-02    3,809328675e-01   -5,671177506e-01    0,000000000e+00    0,000000000e+00    0,000000000e+00    0,000000000e+00
      562000000    3,456687555e-03   -8,931557089e-02    3,064674092e-03   -6,729068756e-01    0,000000000e+00    0,000000000e+00    0,000000000e+00    0,000000000e+00
      576000000   -3,457669541e-02   -1,248208210e-01   -3,694389164e-01   -5,574718118e-01    0,000000000e+00    0,000000000e+00    0,000000000e+00    0,000000000e+00
      590000000   -9,622618556e-02   -1,227553263e-01   -6,224248409e-01   -2,631695867e-01    0,000000000e+00    0,000000000e+00    0,000000000e+00    0,000000000e+00
      604000000   -1,394040734e-01   -7,187321782e-02   -6,649057865e-01    1,383510530e-01    0,000000000e+00    0,000000000e+00    0,000000000e+00    0,000000000e+00
      618000000   -1,294198185e-01   -8,766166866e-03   -4,640561938e-01    4,947624505e-01    0,000000000e+00    0,000000000e+00    0,000000000e+00    0,000000000e+00
      632000000   -8,424447477e-02    1,727195457e-02   -9,955618531e-02    6,636496782e-01    0,000000000e+00    0,000000000e+00    0,000000000e+00    0,000000000e+00
      646000000   -5,069329590e-02    3,806047025e-04    2,883732617e-01    5,947845578e-01    0,000000000e+00    0,000000000e+00    0,000000000e+00    0,000000000e+00
      660000000   -5,358903110e-02   -2,181560546e-02    5,677279234e-01    3,231766820e-01    0,000000000e+00    0,000000000e+00    0,000000000e+00    0,000000000e+00
      674000000   -6,988443434e-02   -1,820726693e-02    6,430502534e-01   -6,556098908e-02    0,000000000e+00    0,000000000e+00    0,000000000e+00    0,000000000e+00
      688000000   -6,794801354e-02    8,257231675e-03    4,724448025e-01   -4,283635020e-01    0,000000000e+00    0,000000000e+00    0,000000000e+00    0,000000000e+00
      702000000   -3,778705373e-02    2,686315589e-02    1,133411005e-01   -6,092554927e-01    0,000000000e+00    0,000000000e+00    0,000000000e+00    0,000000000e+00
      716000000    2,832213882e-03    1,816004887e-02   -2,659268081e-01   -5,470550060e-01    0,000000000e+00    0,000000000e+00    0,000000000e+00    0,000000000e+00
      730000000    3,637009487e-02   -1,051098295e-02   -5,283682346e-01   -2,692896128e-01    0,000000000e+00    0,000000000e+00    0,000000000e+00    0,000000000e+00
      744000000    6,444860250e-02   -6,238151342e-02   -5,642150640e-01    1,063786745e-01    0,000000000e+00    0,000000000e+00    0,000000000e+00    0,000000000e+00
      758000000    6,638553739e-02   -1,527415812e-01   -3,634553850e-01    4,103175104e-01    0,000000000e+00    0,000000000e+00    0,000000000e+00    0,000000000e+00
      772000000   -1,282772608e-02   -2,620752752e-01   -3,510601074e-02    5,155704021e-01    0,000000000e+00    0,000000000e+00    0,000000000e+00    0,000000000e+00
      786000000   -2,062954754e-01   -3,030246794e-01    2,741725445e-01    3,954448998e-01    0,000000000e+00    0,000000000e+00    0,000000000e+00    0,000000000e+00
      800000000   -4,262210131e-01   -1,303792000e-01    4,175591171e-01    9,919297695e-02    0,000000000e+00    0,000000000e+00    0,000000000e+00    0,000000000e+00
      814000000   -3,895723224e-01    2,221587300e-01    2,826590836e-01   -1,733137667e-01    0,000000000e+00    0,000000000e+00    0,000000000e+00    0,000000000e+00
      828000000   -4,985982552e-02    3,688786626e-01    5,545791611e-02   -1,897528768e-01    0,000000000e+00    0,000000000e+00    0,000000000e+00    0,000000000e+00
      842000000    2,347637862e-01    1,860090494e-01   -1,735850424e-02   -7,076320797e-02    0,000000000e+00    0,000000000e+00    0,000000000e+00    0,000000000e+00
      856000000    2,804615796e-01   -1,241010576e-01    4,500452802e-02   -1,286888588e-02    0,000000000e+00    0,000000000e+00    0,000000000e+00    0,000000000e+00
      870000000    7,569285482e-02   -3,764476776e-01    1,134255156e-01   -9,083938599e-02    0,000000000e+00    0,000000000e+00    0,000000000e+00    0,000000000e+00
      884000000   -2,960778475e-01   -3,620513380e-01    2,812215313e-02   -2,457936555e-01    0,000000000e+00    0,000000000e+00    0,000000000e+00    0,000000000e+00
      898000000   -4,727518559e-01    8,890077472e-03   -2,222130448e-01   -2,279646546e-01    0,000000000e+00    0,000000000e+00    0,000000000e+00    0,000000000e+00
      912000000   -2,265093923e-01    2,936154008e-01   -3,446987271e-01    5,975523591e-02    0,000000000e+00    0,000000000e+00    0,000000000e+00    0,000000000e+00
      926000000    6,615968049e-02    2,649878860e-01   -2,171902657e-01    2,663481832e-01    0,000000000e+00    0,000000000e+00    0,000000000e+00    0,000000000e+00
      940000000    2,147179991e-01    7,853623480e-02   -3,702731431e-02    3,302015364e-01    0,000000000e+00    0,000000000e+00    0,000000000e+00    0,000000000e+00
      954000000    2,237746269e-01   -1,300895363e-01    1,330232620e-01    3,070757985e-01    0,000000000e+00    0,000000000e+00    0,000000000e+00    0,000000000e+00
      968000000    1,137015596e-01   -3,003023565e-01    2,705429196e-01    2,198610604e-01    0,000000000e+00    0,000000000e+00    0,000000000e+00    0,000000000e+00
      982000000   -8,394157887e-02   -3,883590698e-01    3,659548163e-01    6,630520523e-02    0,000000000e+00    0,000000000e+00    0,000000000e+00    0,000000000e+00
      996000000   -3,159273863e-01   -3,320917189e-01    3,689610660e-01   -1,461155713e-01    0,000000000e+00    0,000000000e+00    0,000000000e+00    0,000000000e+00
     1010000000   -4,662215114e-01   -1,081294939e-01    2,207743824e-01   -3,416844904e-01    0,000000000e+00    0,000000000e+00    0,000000000e+00    0,000000000e+00
     1024000000   -4,111857116e-01    1,515840888e-01   -3,420646861e-02   -3,942372501e-01    0,000000000e+00    0,000000000e+00    0,000000000e+00    0,000000000e+00
     1038000000   -2,161417603e-01    2,941958606e-01   -2,495584339e-01   -2,628515065e-01    0,000000000e+00    0,000000000e+00    0,000000000e+00    0,000000000e+00
     1052000000   -1,023460086e-02    2,810591757e-01   -3,179436624e-01   -4,557757825e-02    0,000000000e+00    0,000000000e+00    0,000000000e+00    0,000000000e+00
     1066000000    1,397255361e-01    1,632414162e-01   -2,561863661e-01    1,450947523e-01    0,000000000e+00    0,000000000e+00    0,000000000e+00    0,000000000e+00
     1080000000    1,958998144e-01    2,037888393e-03   -1,196515188e-01    2,636032999e-01    0,000000000e+00    0,000000000e+00    0,000000000e+00    0,000000000e+00
     1094000000    1,531024724e-01   -1,719292700e-01    6,522110105e-02    3,044469357e-01    0,000000000e+00    0,000000000e+00    0,000000000e+00    0,000000000e+00
     1108000000    2,379897749e-03   -3,042063713e-01    2,771736085e-01    2,469242960e-01    0,000000000e+00    0,000000000e+00    0,000000000e+00    0,000000000e+00
     1122000000   -2,470091432e-01   -2,610623240e-01    4,730507731e-01    1,217510737e-02    0,000000000e+00    0,000000000e+00    0,000000000e+00    0,000000000e+00
     1136000000   -3,136750162e-01    2,839018591e-02    3,989849985e-01   -3,947188258e-01    0,000000000e+00    0,000000000e+00    0,000000000e+00    0,000000000e+00
     1150000000   -4,301707074e-02    1,480878890e-01    5,417165812e-03   -5,400623083e-01    0,000000000e+00    0,000000000e+00    0,000000000e+00    0,000000000e+00
     1164000000    1,255311370e-01   -6,660196930e-02   -2,776403725e-01   -3,791445792e-01    0,000000000e+00    0,000000000e+00    0,000000000e+00    0,000000000e+00
     1178000000    1,609329693e-02   -3,057151437e-01   -3,697971106e-01   -1,542016119e-01    0,000000000e+00    0,000000000e+00    0,000000000e+00    0,000000000e+00
     1192000000   -2,679038346e-01   -3,722223639e-01   -3,236358166e-01    5,540879816e-02    0,000000000e+00    0,000000000e+00    0,000000000e+00    0,000000000e+00
     1206000000   -5,224604011e-01   -1,580607146e-01   -1,663825959e-01    1,800879836e-01    0,000000000e+00    0,000000000e+00    0,000000000e+00    0,000000000e+00
     1220000000   -5,150135159e-01    1,732834876e-01    1,325969468e-03    1,565717608e-01    0,000000000e+00    0,000000000e+00    0,000000000e+00    0,000000000e+00
     1234000000   -2,855044007e-01    3,696732521e-01    7,247409225e-02    6,387041509e-02    0,000000000e+00    0,000000000e+00    0,000000000e+00    0,000000000e+00
     1248000000   -4,751693457e-02    3,675595224e-01    5,106488615e-02   -4,117174074e-03    0,000000000e+00    0,000000000e+00    0,000000000e+00    0,000000000e+00
     1262000000    1,198197305e-01    2,535780072e-01    1,642298140e-02   -2,446891554e-02    0,000000000e+00    0,000000000e+00    0,000000000e+00    0,000000000e+00
     1276000000    2,074144483e-01    9,646752477e-02   -1,362134120e-03   -1,673179941e-04    0,000000000e+00    0,000000000e+00    0,000000000e+00    0,000000000e+00
     1290000000    2,243766934e-01   -7,431083918e-02    2,247610502e-02    4,973927140e-02    0,000000000e+00    0,000000000e+00    0,000000000e+00    0,000000000e+00
     1304000000    1,561370492e-01   -2,439334840e-01    1,334348023e-01    6,617699564e-02    0,000000000e+00    0,000000000e+00    0,000000000e+00    0,000000000e+00
     1318000000    3,256064653e-02   -3,352529109e-01    1,224578321e-01   -1,616283506e-01    0,000000000e+00    0,000000000e+00    0,000000000e+00    0,000000000e+00
     1332000000   -1,285409778e-01   -4,353782237e-01   -4,732359201e-02   -4,029749706e-02    0,000000000e+00    0,000000000e+00    0,000000000e+00    0,000000000e+00
     1346000000   -3,982011378e-01   -4,082952440e-01    2,115499601e-02    6,236126274e-02    0,000000000e+00    0,000000000e+00    0,000000000e+00    0,000000000e+00
     1360000000   -6,021335125e-01   -1,935659498e-01    1,450034529e-01    6,564371288e-02    0,000000000e+00    0,000000000e+00    0,000000000e+00    0,000000000e+00
     1374000000   -6,252826452e-01    1,267416924e-01    2,110951990e-01   -8,839184884e-04    0,000000000e+00    0,000000000e+00    0,000000000e+00    0,000000000e+00
     1388000000   -4,634398222e-01    3,668993413e-01    2,060148567e-01   -7,224757224e-02    0,000000000e+00    0,000000000e+00    0,000000000e+00    0,000000000e+00
     1402000000   -2,333774716e-01    4,495622814e-01    1,881453991e-01   -1,026767045e-01    0,000000000e+00    0,000000000e+00    0,000000000e+00    0,000000000e+00
     1416000000   -2,889836207e-02    4,126938879e-01    1,805074811e-01   -1,027352139e-01    0,000000000e+00    0,000000000e+00    0,000000000e+00    0,000000000e+00
     1430000000    1,162390113e-01    3,126810193e-01    1,523466408e-01   -1,029060036e-01    0,000000000e+00    0,000000000e+00    0,000000000e+00    0,000000000e+00
     1444000000    2,072449327e-01    1,462622583e-01    1,605994254e-01   -1,037004963e-01    0,000000000e+00    0,000000000e+00    0,000000000e+00    0,000000000e+00
     1458000000    2,365243286e-01   -1,836831309e-02    1,525152177e-01   -7,459953427e-02    0,000000000e+00    0,000000000e+00    0,000000000e+00    0,000000000e+00
     1472000000    1,891819686e-01   -1,991205662e-01    1,427070647e-01   -1,930303685e-02    0,000000000e+00    0,000000000e+00    0,000000000e+00    0,000000000e+00
     1486000000    6,386768818e-02   -3,760777712e-01    1,853238493e-01    3,590181470e-02    0,000000000e+00    0,000000000e+00    0,000000000e+00    0,000000000e+00
     1500000000   -1,718274951e-01   -5,028669238e-01    2,485672832e-01    8,827497065e-02    0,000000000e+00    0,000000000e+00    0,000000000e+00    0,000000000e+00
