! NanoVNA-App
! Date: 2025-09-25 15:33:09
! Start: 100MHz Stop: 1,5GHz Points: 101
! S-Parameter data: F S11 S21 S12 S22
# Hz S RI R 50
!     Frequency           S11_Real           S11_Imag           S21_Real           S21_Imag           S12_Real           S12_Imag           S22_Real           S22_Imag
      100000000   -2,885498293e-02   -4,174773581e-03    3,741262555e-01   -7,217136025e-01    0,000000000e+00    0,000000000e+00    0,000000000e+00    0,000000000e+00
      114000000   -1,651085168e-02    1,153873280e-02   -8,909437805e-02   -8,056014776e-01    0,000000000e+00    0,000000000e+00    0,000000000e+00    0,000000000e+00
      128000000    3,485015128e-03    1,050647255e-02   -5,146893263e-01   -6,206310391e-01    0,000000000e+00    0,000000000e+00    0,000000000e+00    0,000000000e+00
      142000000    1,454660762e-02   -2,944649663e-03   -7,670636177e-01   -2,367944121e-01    0,000000000e+00    0,000000000e+00    0,000000000e+00    0,000000000e+00
      156000000    1,474859659e-02   -1,502670255e-02   -7,666732669e-01    2,183104157e-01    0,000000000e+00    0,000000000e+00    0,000000000e+00    0,000000000e+00
      170000000    1,667795517e-02   -2,257244848e-02   -5,179422498e-01    6,048671007e-01    0,000000000e+00    0,000000000e+00    0,000000000e+00    0,000000000e+00
      184000000    2,101601660e-02   -3,707308695e-02   -1,013500392e-01    7,862712145e-01    0,000000000e+00    0,000000000e+00    0,000000000e+00    0,000000000e+00
      198000000    1,301577408e-02   -6,241979823e-02    3,433407843e-01    7,123992443e-01    0,000000000e+00    0,000000000e+00    0,000000000e+00    0,000000000e+00
      212000000   -1,864805073e-02   -8,133749664e-02    6,779829860e-01    4,097863138e-01    0,000000000e+00    0,000000000e+00    0,000000000e+00    0,000000000e+00
      226000000   -6,174298376e-02   -6,920176744e-02    7,958369851e-01   -3,059915453e-02    0,000000000e+00    0,000000000e+00    0,000000000e+00    0,000000000e+00
      240000000   -8,264164627e-02   -2,565391548e-02    6,461740732e-01   -4,670332968e-01    0,000000000e+00    0,000000000e+00    0,000000000e+00    0,000000000e+00
      254000000   -6,350081414e-02    1,721918955e-02    2,761263549e-01   -7,434514165e-01    0,000000000e+00    0,000000000e+00    0,000000000e+00    0,000000000e+00
      268000000   -2,385815978e-02    2,891122550e-02   -1,784830987e-01   -7,645675540e-01    0,000000000e+00    0,000000000e+00    0,000000000e+00    0,000000000e+00
      282000000    4,204150755e-03    1,192880422e-02   -5,618785620e-01   -5,352306366e-01    0,000000000e+00    0,000000000e+00    0,000000000e+00    0,000000000e+00
      296000000    9,661076590e-03   -7,799933665e-03   -7,598441839e-01   -1,397477388e-01    0,000000000e+00    0,000000000e+00    0,000000000e+00    0,000000000e+00
      310000000    1,124068256e-02   -1,638363674e-02   -7,125135064e-01    2,979967594e-01    0,000000000e+00    0,000000000e+00    0,000000000e+00    0,000000000e+00
      324000000    1,965440623e-02   -2,665102109e-02   -4,271166921e-01    6,389775872e-01    0,000000000e+00    0,000000000e+00    0,000000000e+00    0,000000000e+00
      338000000    2,550811693e-02   -5,188899115e-02   -6,665987894e-03    7,613247633e-01    0,000000000e+00    0,000000000e+00    0,000000000e+00    0,000000000e+00
      352000000    7,162267808e-03   -8,478580415e-02    4,067692161e-01    6,394861937e-01    0,000000000e+00    0,000000000e+00    0,000000000e+00    0,000000000e+00
      366000000   -3,467498720e-02   -9,537579119e-02    6,908008456e-01    3,111484647e-01    0,000000000e+00    0,000000000e+00    0,000000000e+00    0,000000000e+00
      380000000   -7,089899480e-02   -7,122244686e-02    7,475292087e-01   -1,267098635e-01    0,000000000e+00    0,000000000e+00    0,000000000e+00    0,000000000e+00
      394000000   -7,270737737e-02   -3,239564970e-02    5,472437739e-01   -5,220450163e-01    0,000000000e+00    0,000000000e+00    0,000000000e+00    0,000000000e+00
      408000000   -4,636002332e-02   -1,608376205e-02    1,612975597e-01   -7,328552604e-01    0,000000000e+00    0,000000000e+00    0,000000000e+00    0,000000000e+00
      422000000   -2,837813459e-02   -3,221466020e-02   -2,677474618e-01   -6,955277920e-01    0,000000000e+00    0,000000000e+00    0,000000000e+00    0,000000000e+00
      436000000   -4,050609097e-02   -5,166909099e-02   -6,037263870e-01   -4,322550893e-01    0,000000000e+00    0,000000000e+00    0,000000000e+00    0,000000000e+00
      450000000   -6,735289097e-02   -4,358505830e-02   -7,404630780e-01   -2,128447406e-02    0,000000000e+00    0,000000000e+00    0,000000000e+00    0,000000000e+00
      464000000   -7,337626070e-02   -1,132479496e-02   -6,184063554e-01    3,977718651e-01    0,000000000e+00    0,000000000e+00    0,000000000e+00    0,000000000e+00
      478000000   -4,797204211e-02    1,189064328e-02   -2,824510038e-01    6,685498953e-01    0,000000000e+00    0,000000000e+00    0,000000000e+00    0,000000000e+00
      492000000   -1,544916071e-02    6,069301162e-03    1,382066756e-01    7,019585967e-01    0,000000000e+00    0,000000000e+00    0,000000000e+00    0,000000000e+00
      506000000   -2,323709894e-03   -1,570561714e-02    4,986377060e-01    5,031319261e-01    0,000000000e+00    0,000000000e+00    0,000000000e+00    0,000000000e+00
      520000000   -5,001726560e-03   -3,129199892e-02    6,885100603e-01    1,400945485e-01    0,000000000e+00    0,000000000e+00    0,000000000e+00    0,000000000e+00
      534000000   -3,663150594e-03   -3,822221607e-02    6,436288357e-01   -2,630144656e-01    0,000000000e+00    0,000000000e+00    0,000000000e+00    0,000000000e+00
      548000000    5,862842780e-03   -5,409872159e-02    3,808372319e-01   -5,675947070e-01    0,000000000e+00    0,000000000e+00    0,000000000e+00    0,000000000e+00
      562000000    2,832829952e-03   -8,941754699e-02    2,113075461e-03   -6,727650166e-01    0,000000000e+00    0,000000000e+00    0,000000000e+00    0,000000000e+00
      576000000   -3,414564952e-02   -1,244857684e-01   -3,695883751e-01   -5,574711561e-01    0,000000000e+00    0,000000000e+00    0,000000000e+00    0,000000000e+00
      590000000   -9,646841884e-02   -1,228587255e-01   -6,200275421e-01   -2,625098526e-01    0,000000000e+00    0,000000000e+00    0,000000000e+00    0,000000000e+00
      604000000   -1,397415102e-01   -7,182874531e-02   -6,653039455e-01    1,383653134e-01    0,000000000e+00    0,000000000e+00    0,000000000e+00    0,000000000e+00
      618000000   -1,290552020e-01   -9,158134460e-03   -4,644659758e-01    4,940956235e-01    0,000000000e+00    0,000000000e+00    0,000000000e+00    0,000000000e+00
      632000000   -8,428148925e-02    1,635019295e-02   -1,000173017e-01    6,639933586e-01    0,000000000e+00    0,000000000e+00    0,000000000e+00    0,000000000e+00
      646000000   -5,136591569e-02    1,004704274e-03    2,877893150e-01    5,955476165e-01    0,000000000e+00    0,000000000e+00    0,000000000e+00    0,000000000e+00
      660000000   -5,259914324e-02   -2,150482871e-02    5,669875145e-01    3,230409324e-01    0,000000000e+00    0,000000000e+00    0,000000000e+00    0,000000000e+00
      674000000   -6,994012743e-02   -1,717967540e-02    6,431798339e-01   -6,515649706e-02    0,000000000e+00    0,000000000e+00    0,000000000e+00    0,000000000e+00
      688000000   -6,837434322e-02    8,145036176e-03    4,710424244e-01   -4,282394052e-01    0,000000000e+00    0,000000000e+00    0,000000000e+00    0,000000000e+00
      702000000   -3,680770099e-02    2,616021223e-02    1,168528646e-01   -6,120311022e-01    0,000000000e+00    0,000000000e+00    0,000000000e+00    0,000000000e+00
      716000000    2,872159239e-03    1,792390458e-02   -2,650191486e-01   -5,463851690e-01    0,000000000e+00    0,000000000e+00    0,000000000e+00    0,000000000e+00
      730000000    3,666332737e-02   -1,035921928e-02   -5,288441777e-01   -2,689226270e-01    0,000000000e+00    0,000000000e+00    0,000000000e+00    0,000000000e+00
      744000000    6,490813196e-02   -6,275261939e-02   -5,642616749e-01    1,062418595e-01    0,000000000e+00    0,000000000e+00    0,000000000e+00    0,000000000e+00
      758000000    6,629577279e-02   -1,524508893e-01   -3,630213439e-01    4,102818370e-01    0,000000000e+00    0,000000000e+00    0,000000000e+00    0,000000000e+00
      772000000   -1,353506930e-02   -2,623542249e-01   -3,446813673e-02    5,154891014e-01    0,000000000e+00    0,000000000e+00    0,000000000e+00    0,000000000e+00
      786000000   -2,056082934e-01   -3,022497296e-01    2,738450170e-01    3,952055275e-01    0,000000000e+00    0,000000000e+00    0,000000000e+00    0,000000000e+00
      800000000   -4,261231124e-01   -1,300068349e-01    4,171692431e-01    9,896419197e-02    0,000000000e+00    0,000000000e+00    0,000000000e+00    0,000000000e+00
      814000000   -3,902874589e-01    2,207493186e-01    2,825233340e-01   -1,730705202e-01    0,000000000e+00    0,000000000e+00    0,000000000e+00    0,000000000e+00
      828000000   -4,984085634e-02    3,679681122e-01    5,507096276e-02   -1,892697215e-01    0,000000000e+00    0,000000000e+00    0,000000000e+00    0,000000000e+00
      842000000    2,352176309e-01    1,857870519e-01   -1,720726676e-02   -7,100848854e-02    0,000000000e+00    0,000000000e+00    0,000000000e+00    0,000000000e+00
      856000000    2,806246877e-01   -1,242849007e-01    4,545937106e-02   -1,325142663e-02    0,000000000e+00    0,000000000e+00    0,000000000e+00    0,000000000e+00
      870000000    7,467795163e-02   -3,757240772e-01    1,132892892e-01   -9,091720730e-02    0,000000000e+00    0,000000000e+00    0,000000000e+00    0,000000000e+00
      884000000   -2,953996360e-01   -3,617021441e-01    2,753849700e-02   -2,455841303e-01    0,000000000e+00    0,000000000e+00    0,000000000e+00    0,000000000e+00
      898000000   -4,720209241e-01    8,669666015e-03   -2,209489346e-01   -2,282778323e-01    0,000000000e+00    0,000000000e+00    0,000000000e+00    0,000000000e+00
      912000000   -2,257535905e-01    2,947179973e-01   -3,518803716e-01    6,260396540e-02    0,000000000e+00    0,000000000e+00    0,000000000e+00    0,000000000e+00
      926000000    6,788216531e-02    2,632010281e-01   -2,167668492e-01    2,639820278e-01    0,000000000e+00    0,000000000e+00    0,000000000e+00    0,000000000e+00
      940000000    2,173921168e-01    8,087760210e-02   -3,490474448e-02    3,285444677e-01    0,000000000e+00    0,000000000e+00    0,000000000e+00    0,000000000e+00
      954000000    2,208656967e-01   -1,290075481e-01    1,303217709e-01    3,070541620e-01    0,000000000e+00    0,000000000e+00    0,000000000e+00    0,000000000e+00
      968000000    1,141536087e-01   -2,989518642e-01    2,712973654e-01    2,179595828e-01    0,000000000e+00    0,000000000e+00    0,000000000e+00    0,000000000e+00
      982000000   -8,407233655e-02   -3,867905438e-01    3,670207858e-01    6,520751864e-02    0,000000000e+00    0,000000000e+00    0,000000000e+00    0,000000000e+00
      996000000   -3,143594861e-01   -3,268158138e-01    3,675069511e-01   -1,449297518e-01    0,000000000e+00    0,000000000e+00    0,000000000e+00    0,000000000e+00
     1010000000   -4,614055753e-01   -1,075792089e-01    2,226997763e-01   -3,399448693e-01    0,000000000e+00    0,000000000e+00    0,000000000e+00    0,000000000e+00
     1024000000   -4,148596227e-01    1,526495963e-01   -3,299435228e-02   -3,916945457e-01    0,000000000e+00    0,000000000e+00    0,000000000e+00    0,000000000e+00
     1038000000   -2,215102911e-01    2,937013507e-01   -2,465403676e-01   -2,613600194e-01    0,000000000e+00    0,000000000e+00    0,000000000e+00    0,000000000e+00
     1052000000   -9,898513556e-03    2,756992280e-01   -3,197978735e-01   -4,535457492e-02    0,000000000e+00    0,000000000e+00    0,000000000e+00    0,000000000e+00
     1066000000    1,375532448e-01    1,674101651e-01   -2,609572709e-01    1,419898868e-01    0,000000000e+00    0,000000000e+00    0,000000000e+00    0,000000000e+00
     1080000000    1,905364692e-01   -4,719012577e-05   -1,208962277e-01    2,651260495e-01    0,000000000e+00    0,000000000e+00    0,000000000e+00    0,000000000e+00
     1094000000    1,549321115e-01   -1,704751402e-01    6,462334841e-02    3,047171235e-01    0,000000000e+00    0,000000000e+00    0,000000000e+00    0,000000000e+00
     1108000000    1,801735139e-03   -3,064227402e-01    2,776810229e-01    2,468053997e-01    0,000000000e+00    0,000000000e+00    0,000000000e+00    0,000000000e+00
     1122000000   -2,527796328e-01   -2,651620805e-01    4,716544747e-01    1,396974921e-02    0,000000000e+00    0,000000000e+00    0,000000000e+00    0,000000000e+00
     1136000000   -3,213727176e-01    2,894838527e-02    3,993034363e-01   -3,931463063e-01    0,000000000e+00    0,000000000e+00    0,000000000e+00    0,000000000e+00
     1150000000   -3,753225878e-02    1,483133584e-01    6,127506960e-03   -5,444329977e-01    0,000000000e+00    0,000000000e+00    0,000000000e+00    0,000000000e+00
     1164000000    1,205216050e-01   -6,402854621e-02   -2,750593126e-01   -3,779383004e-01    0,000000000e+00    0,000000000e+00    0,000000000e+00    0,000000000e+00
     1178000000    1,972452551e-02   -3,032396734e-01   -3,680538833e-01   -1,484535486e-01    0,000000000e+00    0,000000000e+00    0,000000000e+00    0,000000000e+00
     1192000000   -2,665262520e-01   -3,734774292e-01   -3,239172697e-01    5,897043273e-02    0,000000000e+00    0,000000000e+00    0,000000000e+00    0,000000000e+00
     1206000000   -5,156057477e-01   -1,591216326e-01   -1,666731685e-01    1,804569215e-01    0,000000000e+00    0,000000000e+00    0,000000000e+00    0,000000000e+00
     1220000000   -5,142000914e-01    1,708941162e-01   -2,250035759e-03    1,582158506e-01    0,000000000e+00    0,000000000e+00    0,000000000e+00    0,000000000e+00
     1234000000   -2,803866267e-01    3,607245684e-01    6,879989058e-02    5,856044963e-02    0,000000000e+00    0,000000000e+00    0,000000000e+00    0,000000000e+00
     1248000000   -5,067637563e-02    3,656671047e-01    5,288369209e-02   -1,103846356e-02    0,000000000e+00    0,000000000e+00    0,000000000e+00    0,000000000e+00
     1262000000    1,278830171e-01    2,583350539e-01    1,891511120e-02   -1,762869395e-02    0,000000000e+00    0,000000000e+00    0,000000000e+00    0,000000000e+00
     1276000000    2,091966420e-01    1,008438542e-01   -3,990809433e-03    2,416508272e-03    0,000000000e+00    0,000000000e+00    0,000000000e+00    0,000000000e+00
     1290000000    2,258075178e-01   -7,770713419e-02    1,947840303e-02    5,338337645e-02    0,000000000e+00    0,000000000e+00    0,000000000e+00    0,000000000e+00
     1304000000    1,545826942e-01   -2,412619144e-01    1,277223974e-01    6,480548531e-02    0,000000000e+00    0,000000000e+00    0,000000000e+00    0,000000000e+00
     1318000000    3,427632526e-02   -3,316763937e-01    1,337978989e-01   -1,639268100e-01    0,000000000e+00    0,000000000e+00    0,000000000e+00    0,000000000e+00
     1332000000   -1,312604845e-01   -4,411461949e-01   -4,132669419e-02   -4,594543949e-02    0,000000000e+00    0,000000000e+00    0,000000000e+00    0,000000000e+00
     1346000000   -3,903922141e-01   -4,104745388e-01    2,817622945e-02    6,741300225e-02    0,000000000e+00    0,000000000e+00    0,000000000e+00    0,000000000e+00
     1360000000   -6,048085690e-01   -1,820632219e-01    1,401830018e-01    8,305477351e-02    0,000000000e+00    0,000000000e+00    0,000000000e+00    0,000000000e+00
     1374000000   -6,232828498e-01    1,330128312e-01    2,038697749e-01    3,192003351e-03    0,000000000e+00    0,000000000e+00    0,000000000e+00    0,000000000e+00
     1388000000   -4,647422135e-01    3,702497482e-01    2,081747353e-01   -6,086555868e-02    0,000000000e+00    0,000000000e+00    0,000000000e+00    0,000000000e+00
     1402000000   -2,356693745e-01    4,557978213e-01    1,880667061e-01   -9,232916683e-02    0,000000000e+00    0,000000000e+00    0,000000000e+00    0,000000000e+00
     1416000000   -3,295429796e-02    4,143416286e-01    1,621146351e-01   -1,029030830e-01    0,000000000e+00    0,000000000e+00    0,000000000e+00    0,000000000e+00
     1430000000    1,187985092e-01    2,988166511e-01    1,792406589e-01   -9,687530994e-02    0,000000000e+00    0,000000000e+00    0,000000000e+00    0,000000000e+00
     1444000000    2,094859779e-01    1,468590200e-01    1,531282663e-01   -9,626224637e-02    0,000000000e+00    0,000000000e+00    0,000000000e+00    0,000000000e+00
     1458000000    2,325535715e-01   -2,147128992e-02    1,505374759e-01   -6,711003929e-02    0,000000000e+00    0,000000000e+00    0,000000000e+00    0,000000000e+00
     1472000000    1,940000057e-01   -2,037371397e-01    1,466479599e-01   -2,900989540e-02    0,000000000e+00    0,000000000e+00    0,000000000e+00    0,000000000e+00
     1486000000    6,608329713e-02   -3,748623431e-01    1,834748387e-01    3,793771937e-02    0,000000000e+00    0,000000000e+00    0,000000000e+00    0,000000000e+00
     1500000000   -1,649171114e-01   -4,920260012e-01    2,541431785e-01    8,188907802e-02    0,000000000e+00    0,000000000e+00    0,000000000e+00    0,000000000e+00
