! NanoVNA-App
! Date: 2025-09-25 15:33:32
! Start: 100MHz Stop: 1,5GHz Points: 101
! S-Parameter data: F S11 S21 S12 S22
# Hz S RI R 50
!     Frequency           S11_Real           S11_Imag           S21_Real           S21_Imag           S12_Real           S12_Imag           S22_Real           S22_Imag
      100000000   -2,886804380e-02   -4,172687884e-03    3,741717637e-01   -7,218364477e-01    0,000000000e+00    0,000000000e+00    0,000000000e+00    0,000000000e+00
      114000000   -1,649617963e-02    1,152992714e-02   -8,898627013e-02   -8,053317070e-01    0,000000000e+00    0,000000000e+00    0,000000000e+00    0,000000000e+00
      128000000    3,490293398e-03    1,052469667e-02   -5,147597790e-01   -6,207450628e-01    0,000000000e+00    0,000000000e+00    0,000000000e+00    0,000000000e+00
      142000000    1,454554498e-02   -2,955266042e-03   -7,671548724e-01   -2,367420942e-01    0,000000000e+00    0,000000000e+00    0,000000000e+00    0,000000000e+00
      156000000    1,512629073e-02   -1,501462702e-02   -7,691105008e-01    2,196616679e-01    0,000000000e+00    0,000000000e+00    0,000000000e+00    0,000000000e+00
      170000000    1,668759994e-02   -2,261345088e-02   -5,182015300e-01    6,046152711e-01    0,000000000e+00    0,000000000e+00    0,000000000e+00    0,000000000e+00
      184000000    2,099273540e-02   -3,704354912e-02   -1,013666913e-01    7,861877084e-01    0,000000000e+00    0,000000000e+00    0,000000000e+00    0,000000000e+00
      198000000    1,306086965e-02   -6,242198125e-02    3,433938324e-01    7,123090029e-01    0,000000000e+00    0,000000000e+00    0,000000000e+00    0,000000000e+00
      212000000   -1,866290532e-02   -8,134107292e-02    6,780748963e-01    4,099687934e-01    0,000000000e+00    0,000000000e+00    0,000000000e+00    0,000000000e+00
      226000000   -6,166780740e-02   -6,921902299e-02    7,958158255e-01   -3,057997115e-02    0,000000000e+00    0,000000000e+00    0,000000000e+00    0,000000000e+00
      240000000   -8,261111379e-02   -2,562150545e-02    6,462405920e-01   -4,670328498e-01    0,000000000e+00    0,000000000e+00    0,000000000e+00    0,000000000e+00
      254000000   -6,350997090e-02    1,726849191e-02    2,759893537e-01   -7,430241108e-01    0,000000000e+00    0,000000000e+00    0,000000000e+00    0,000000000e+00
      268000000   -2,388501540e-02    2,898636460e-02   -1,781468689e-01   -7,645288706e-01    0,000000000e+00    0,000000000e+00    0,000000000e+00    0,000000000e+00
      282000000    4,162914585e-03    1,191604976e-02   -5,619885921e-01   -5,357500315e-01    0,000000000e+00    0,000000000e+00    0,000000000e+00    0,000000000e+00
      296000000    9,606814943e-03   -7,759588771e-03   -7,599176764e-01   -1,396617442e-01    0,000000000e+00    0,000000000e+00    0,000000000e+00    0,000000000e+00
      310000000    1,100206561e-02   -1,618854888e-02   -7,129666209e-01    2,973102927e-01    0,000000000e+00    0,000000000e+00    0,000000000e+00    0,000000000e+00
      324000000    1,963313296e-02   -2,668223344e-02   -4,271263480e-01    6,376232505e-01    0,000000000e+00    0,000000000e+00    0,000000000e+00    0,000000000e+00
      338000000    2,567007579e-02   -5,211864412e-02   -6,811598781e-03    7,644250393e-01    0,000000000e+00    0,000000000e+00    0,000000000e+00    0,000000000e+00
      352000000    7,151665166e-03   -8,494588733e-02    4,073175788e-01    6,395328641e-01    0,000000000e+00    0,000000000e+00    0,000000000e+00    0,000000000e+00
      366000000   -3,472623974e-02   -9,537234902e-02    6,908593774e-01    3,113206625e-01    0,000000000e+00    0,000000000e+00    0,000000000e+00    0,000000000e+00
      380000000   -7,094236463e-02   -7,109439373e-02    7,472727895e-01   -1,256289631e-01    0,000000000e+00    0,000000000e+00    0,000000000e+00    0,000000000e+00
      394000000   -7,259414345e-02   -3,246012703e-02    5,467090607e-01   -5,214459896e-01    0,000000000e+00    0,000000000e+00    0,000000000e+00    0,000000000e+00
      408000000   -4,659143463e-02   -1,606822386e-02    1,594112366e-01   -7,328711152e-01    0,000000000e+00    0,000000000e+00    0,000000000e+00    0,000000000e+00
      422000000   -2,800228260e-02   -3,188182414e-02   -2,674932778e-01   -6,941326261e-01    0,000000000e+00    0,000000000e+00    0,000000000e+00    0,000000000e+00
      436000000   -4,050918669e-02   -5,210957676e-02   -6,043431163e-01   -4,321162105e-01    0,000000000e+00    0,000000000e+00    0,000000000e+00    0,000000000e+00
      450000000   -6,757916510e-02   -4,375040531e-02   -7,404810786e-01   -2,124268375e-02    0,000000000e+00    0,000000000e+00    0,000000000e+00    0,000000000e+00
      464000000   -7,324289531e-02   -1,179195754e-02   -6,184622645e-01    3,976175487e-01    0,000000000e+00    0,000000000e+00    0,000000000e+00    0,000000000e+00
      478000000   -4,780219868e-02    1,172082778e-02   -2,823466659e-01    6,675108671e-01    0,000000000e+00    0,000000000e+00    0,000000000e+00    0,000000000e+00
      492000000   -1,582631469e-02    5,694082472e-03    1,381797493e-01    7,014826536e-01    0,000000000e+00    0,000000000e+00    0,000000000e+00    0,000000000e+00
      506000000   -2,547694137e-03   -1,569429971e-02    4,984519780e-01    5,023546219e-01    0,000000000e+00    0,000000000e+00    0,000000000e+00    0,000000000e+00
      520000000   -4,662781954e-03   -3,165388852e-02    6,896917224e-01    1,420924813e-01    0,000000000e+00    0,000000000e+00    0,000000000e+00    0,000000000e+00
      534000000   -4,053687677e-03   -3,828137740e-02    6,434483528e-01   -2,625589073e-01    0,000000000e+00    0,000000000e+00    0,000000000e+00    0,000000000e+00
      548000000    6,171207875e-03   -5,414361879e-02    3,804738522e-01   -5,677070618e-01    0,000000000e+00    0,000000000e+00    0,000000000e+00    0,000000000e+00
      562000000    3,240031423e-03   -8,910409361e-02    2,955784556e-03   -6,721843481e-01    0,000000000e+00    0,000000000e+00    0,000000000e+00    0,000000000e+00
      576000000   -3,411039338e-02   -1,240394413e-01   -3,694707155e-01   -5,575567484e-01    0,000000000e+00    0,000000000e+00    0,000000000e+00    0,000000000e+00
      590000000   -9,669736028e-02   -1,225856021e-01   -6,221445203e-01   -2,623581588e-01    0,000000000e+00    0,000000000e+00    0,000000000e+00    0,000000000e+00
      604000000   -1,397648007e-01   -7,191475481e-02   -6,655927300e-01    1,375235021e-01    0,000000000e+00    0,000000000e+00    0,000000000e+00    0,000000000e+00
      618000000   -1,291651428e-01   -8,683912456e-03   -4,649625421e-01    4,953558147e-01    0,000000000e+00    0,000000000e+00    0,000000000e+00    0,000000000e+00
      632000000   -8,397233486e-02    1,639368013e-02   -9,883736074e-02    6,642378569e-01    0,000000000e+00    0,000000000e+00    0,000000000e+00    0,000000000e+00
      646000000   -5,127815902e-02    1,051747240e-03    2,869493365e-01    5,946168303e-01    0,000000000e+00    0,000000000e+00    0,000000000e+00    0,000000000e+00
      660000000   -5,262329057e-02   -2,143566869e-02    5,677273870e-01    3,228972852e-01    0,000000000e+00    0,000000000e+00    0,000000000e+00    0,000000000e+00
      674000000   -7,034677267e-02   -1,702237315e-02    6,427764297e-01   -6,544399261e-02    0,000000000e+00    0,000000000e+00    0,000000000e+00    0,000000000e+00
      688000000   -6,789302826e-02    8,606228046e-03    4,710558057e-01   -4,277654886e-01    0,000000000e+00    0,000000000e+00    0,000000000e+00    0,000000000e+00
      702000000   -3,809864819e-02    2,640729956e-02    1,204209626e-01   -6,079350114e-01    0,000000000e+00    0,000000000e+00    0,000000000e+00    0,000000000e+00
      716000000    2,169581130e-03    1,720877737e-02   -2,642739415e-01   -5,463318229e-01    0,000000000e+00    0,000000000e+00    0,000000000e+00    0,000000000e+00
      730000000    3,718831763e-02   -1,113009360e-02   -5,283519030e-01   -2,689575255e-01    0,000000000e+00    0,000000000e+00    0,000000000e+00    0,000000000e+00
      744000000    6,567975134e-02   -6,202176213e-02   -5,643132925e-01    1,065277532e-01    0,000000000e+00    0,000000000e+00    0,000000000e+00    0,000000000e+00
      758000000    6,658855826e-02   -1,516705900e-01   -3,628394902e-01    4,104548395e-01    0,000000000e+00    0,000000000e+00    0,000000000e+00    0,000000000e+00
      772000000   -1,345053967e-02   -2,624298632e-01   -3,468601033e-02    5,154880881e-01    0,000000000e+00    0,000000000e+00    0,000000000e+00    0,000000000e+00
      786000000   -2,072266042e-01   -3,032965064e-01    2,751196623e-01    3,957165480e-01    0,000000000e+00    0,000000000e+00    0,000000000e+00    0,000000000e+00
      800000000   -4,252350032e-01   -1,309336573e-01    4,171489775e-01    9,935640544e-02    0,000000000e+00    0,000000000e+00    0,000000000e+00    0,000000000e+00
      814000000   -3,885020912e-01    2,210458219e-01    2,815528810e-01   -1,731504649e-01    0,000000000e+00    0,000000000e+00    0,000000000e+00    0,000000000e+00
      828000000   -5,070372298e-02    3,685409427e-01    5,544430390e-02   -1,893667579e-01    0,000000000e+00    0,000000000e+00    0,000000000e+00    0,000000000e+00
      842000000    2,349448800e-01    1,862403303e-01   -1,762251556e-02   -7,079933584e-02    0,000000000e+00    0,000000000e+00    0,000000000e+00    0,000000000e+00
      856000000    2,807802558e-01   -1,243878379e-01    4,554414377e-02   -1,339497510e-02    0,000000000e+00    0,000000000e+00    0,000000000e+00    0,000000000e+00
      870000000    7,498452812e-02   -3,765485883e-01    1,133766323e-01   -9,156754613e-02    0,000000000e+00    0,000000000e+00    0,000000000e+00    0,000000000e+00
      884000000   -2,953411341e-01   -3,620412052e-01    2,905629948e-02   -2,465642989e-01    0,000000000e+00    0,000000000e+00    0,000000000e+00    0,000000000e+00
      898000000   -4,728146493e-01    9,180463850e-03   -2,225434482e-01   -2,276989669e-01    0,000000000e+00    0,000000000e+00    0,000000000e+00    0,000000000e+00
      912000000   -2,270845175e-01    2,954446971e-01   -3,524899483e-01    6,268769503e-02    0,000000000e+00    0,000000000e+00    0,000000000e+00    0,000000000e+00
      926000000    6,774757802e-02    2,622337043e-01   -2,156964242e-01    2,637099922e-01    0,000000000e+00    0,000000000e+00    0,000000000e+00    0,000000000e+00
      940000000    2,182350308e-01    8,022043854e-02   -3,599726409e-02    3,300898075e-01    0,000000000e+00    0,000000000e+00    0,000000000e+00    0,000000000e+00
      954000000    2,213637084e-01   -1,285662800e-01    1,325540096e-01    3,053259850e-01    0,000000000e+00    0,000000000e+00    0,000000000e+00    0,000000000e+00
      968000000    1,160913631e-01   -2,987373471e-01    2,701379955e-01    2,186727971e-01    0,000000000e+00    0,000000000e+00    0,000000000e+00    0,000000000e+00
      982000000   -8,403074741e-02   -3,859948516e-01    3,671299517e-01    6,541670114e-02    0,000000000e+00    0,000000000e+00    0,000000000e+00    0,000000000e+00
      996000000   -3,191739023e-01   -3,271733522e-01    3,663531244e-01   -1,451551616e-01    0,000000000e+00    0,000000000e+00    0,000000000e+00    0,000000000e+00
     1010000000   -4,615896642e-01   -1,086504608e-01    2,230844051e-01   -3,413502574e-01    0,000000000e+00    0,000000000e+00    0,000000000e+00    0,000000000e+00
     1024000000   -4,146664739e-01    1,518939435e-01   -3,307385743e-02   -3,908164799e-01    0,000000000e+00    0,000000000e+00    0,000000000e+00    0,000000000e+00
     1038000000   -2,215606272e-01    2,925668955e-01   -2,467641234e-01   -2,612790167e-01    0,000000000e+00    0,000000000e+00    0,000000000e+00    0,000000000e+00
     1052000000   -5,443844013e-03    2,789242268e-01   -3,169327080e-01   -4,654964805e-02    0,000000000e+00    0,000000000e+00    0,000000000e+00    0,000000000e+00
     1066000000    1,382277161e-01    1,609211117e-01   -2,588990927e-01    1,420890838e-01    0,000000000e+00    0,000000000e+00    0,000000000e+00    0,000000000e+00
     1080000000    1,969795674e-01    1,245608320e-03   -1,217783764e-01    2,617354989e-01    0,000000000e+00    0,000000000e+00    0,000000000e+00    0,000000000e+00
     1094000000    1,547520757e-01   -1,775527745e-01    6,493546814e-02    3,059121072e-01    0,000000000e+00    0,000000000e+00    0,000000000e+00    0,000000000e+00
     1108000000   -4,643522203e-03   -3,049237430e-01    2,779955864e-01    2,462886125e-01    0,000000000e+00    0,000000000e+00    0,000000000e+00    0,000000000e+00
     1122000000   -2,469686717e-01   -2,612677217e-01    4,717529118e-01    1,053153072e-02    0,000000000e+00    0,000000000e+00    0,000000000e+00    0,000000000e+00
     1136000000   -3,183577657e-01    3,639927506e-02    3,998756111e-01   -3,952892721e-01    0,000000000e+00    0,000000000e+00    0,000000000e+00    0,000000000e+00
     1150000000   -4,223432764e-02    1,522752196e-01    3,400703659e-03   -5,390210748e-01    0,000000000e+00    0,000000000e+00    0,000000000e+00    0,000000000e+00
     1164000000    1,256252676e-01   -6,036082655e-02   -2,761437893e-01   -3,799236119e-01    0,000000000e+00    0,000000000e+00    0,000000000e+00    0,000000000e+00
     1178000000    1,826635003e-02   -3,035362363e-01   -3,664819598e-01   -1,530704647e-01    0,000000000e+00    0,000000000e+00    0,000000000e+00    0,000000000e+00
     1192000000   -2,654933929e-01   -3,710389137e-01   -3,197457194e-01    5,632147938e-02    0,000000000e+00    0,000000000e+00    0,000000000e+00    0,000000000e+00
     1206000000   -5,196023583e-01   -1,569218040e-01   -1,673281789e-01    1,836335212e-01    0,000000000e+00    0,000000000e+00    0,000000000e+00    0,000000000e+00
     1220000000   -5,123114586e-01    1,778358966e-01    1,457331586e-03    1,587691903e-01    0,000000000e+00    0,000000000e+00    0,000000000e+00    0,000000000e+00
     1234000000   -2,915680110e-01    3,634418547e-01    7,129911333e-02    6,096855924e-02    0,000000000e+00    0,000000000e+00    0,000000000e+00    0,000000000e+00
     1248000000   -4,285282269e-02    3,665471077e-01    5,329139531e-02   -3,488330171e-03    0,000000000e+00    0,000000000e+00    0,000000000e+00    0,000000000e+00
     1262000000    1,218895763e-01    2,611894310e-01    1,213425305e-02   -1,926822960e-02    0,000000000e+00    0,000000000e+00    0,000000000e+00    0,000000000e+00
     1276000000    2,140069902e-01    9,951552004e-02    2,238604939e-03    4,745731130e-03    0,000000000e+00    0,000000000e+00    0,000000000e+00    0,000000000e+00
     1290000000    2,218132019e-01   -7,470769435e-02    1,751939580e-02    4,975837097e-02    0,000000000e+00    0,000000000e+00    0,000000000e+00    0,000000000e+00
     1304000000    1,590267718e-01   -2,414756864e-01    1,369899064e-01    6,755703688e-02    0,000000000e+00    0,000000000e+00    0,000000000e+00    0,000000000e+00
     1318000000    3,647946566e-02   -3,377113640e-01    1,309727728e-01   -1,616688073e-01    0,000000000e+00    0,000000000e+00    0,000000000e+00    0,000000000e+00
     1332000000   -1,291237026e-01   -4,386762679e-01   -4,530219734e-02   -4,572899640e-02    0,000000000e+00    0,000000000e+00    0,000000000e+00    0,000000000e+00
     1346000000   -3,970536888e-01   -4,077650011e-01    2,151752263e-02    6,600780040e-02    0,000000000e+00    0,000000000e+00    0,000000000e+00    0,000000000e+00
     1360000000   -6,052414775e-01   -1,816705465e-01    1,344565451e-01    8,110317588e-02    0,000000000e+00    0,000000000e+00    0,000000000e+00    0,000000000e+00
     1374000000   -6,391407847e-01    1,241063401e-01    1,972859800e-01    1,483991509e-03    0,000000000e+00    0,000000000e+00    0,000000000e+00    0,000000000e+00
     1388000000   -4,666756690e-01    3,644102514e-01    2,076047510e-01   -6,848052144e-02    0,000000000e+00    0,000000000e+00    0,000000000e+00    0,000000000e+00
     1402000000   -2,337173969e-01    4,604080021e-01    1,857651919e-01   -9,299064428e-02    0,000000000e+00    0,000000000e+00    0,000000000e+00    0,000000000e+00
     1416000000   -2,582981437e-02    4,100235701e-01    1,808795631e-01   -1,117923707e-01    0,000000000e+00    0,000000000e+00    0,000000000e+00    0,000000000e+00
     1430000000    1,259286702e-01    3,026702404e-01    1,801125109e-01   -1,276805252e-01    0,000000000e+00    0,000000000e+00    0,000000000e+00    0,000000000e+00
     1444000000    2,041808963e-01    1,521075070e-01    1,651005894e-01   -8,992581069e-02    0,000000000e+00    0,000000000e+00    0,000000000e+00    0,000000000e+00
     1458000000    2,344268709e-01   -1,822982356e-02    1,377917379e-01   -7,127474993e-02    0,000000000e+00    0,000000000e+00    0,000000000e+00    0,000000000e+00
     1472000000    1,930834204e-01   -2,024862468e-01    1,486811936e-01   -2,766521461e-02    0,000000000e+00    0,000000000e+00    0,000000000e+00    0,000000000e+00
     1486000000    6,148388982e-02   -3,783705235e-01    1,682315618e-01    2,953970619e-02    0,000000000e+00    0,000000000e+00    0,000000000e+00    0,000000000e+00
     1500000000   -1,650822908e-01   -4,954925478e-01    2,500628233e-01    9,214154631e-02    0,000000000e+00    0,000000000e+00    0,000000000e+00    0,000000000e+00
