! NanoVNA-App
! Date: 2025-09-25 15:31:03
! Start: 100MHz Stop: 1,5GHz Points: 101
! S-Parameter data: F S11 S21 S12 S22
# Hz S RI R 50
!     Frequency           S11_Real           S11_Imag           S21_Real           S21_Imag           S12_Real           S12_Imag           S22_Real           S22_Imag
      100000000   -2,887943015e-02   -4,182640929e-03    3,740937710e-01   -7,217865586e-01    0,000000000e+00    0,000000000e+00    0,000000000e+00    0,000000000e+00
      114000000   -1,652004942e-02    1,151042990e-02   -8,915464580e-02   -8,055335879e-01    0,000000000e+00    0,000000000e+00    0,000000000e+00    0,000000000e+00
      128000000    3,471550299e-03    1,057892479e-02   -5,147204399e-01   -6,206147671e-01    0,000000000e+00    0,000000000e+00    0,000000000e+00    0,000000000e+00
      142000000    1,453709230e-02   -2,949248301e-03   -7,671059966e-01   -2,366007417e-01    0,000000000e+00    0,000000000e+00    0,000000000e+00    0,000000000e+00
      156000000    1,608949341e-02   -1,432076376e-02   -7,703523636e-01    2,244031131e-01    0,000000000e+00    0,000000000e+00    0,000000000e+00    0,000000000e+00
      170000000    1,672203094e-02   -2,254332416e-02   -5,180230737e-01    6,046645641e-01    0,000000000e+00    0,000000000e+00    0,000000000e+00    0,000000000e+00
      184000000    2,103504352e-02   -3,705963492e-02   -1,012229621e-01    7,862172127e-01    0,000000000e+00    0,000000000e+00    0,000000000e+00    0,000000000e+00
      198000000    1,302072220e-02   -6,246476993e-02    3,434179723e-01    7,121918201e-01    0,000000000e+00    0,000000000e+00    0,000000000e+00    0,000000000e+00
      212000000   -1,862649061e-02   -8,127628267e-02    6,780198812e-01    4,098652601e-01    0,000000000e+00    0,000000000e+00    0,000000000e+00    0,000000000e+00
      226000000   -6,172389537e-02   -6,920523942e-02    7,958781719e-01   -3,050580248e-02    0,000000000e+00    0,000000000e+00    0,000000000e+00    0,000000000e+00
      240000000   -8,257638663e-02   -2,556792088e-02    6,461166143e-01   -4,672451317e-01    0,000000000e+00    0,000000000e+00    0,000000000e+00    0,000000000e+00
      254000000   -6,353341043e-02    1,724949293e-02    2,760715187e-01   -7,433516383e-01    0,000000000e+00    0,000000000e+00    0,000000000e+00    0,000000000e+00
      268000000   -2,380890958e-02    2,891840227e-02   -1,782517284e-01   -7,642289996e-01    0,000000000e+00    0,000000000e+00    0,000000000e+00    0,000000000e+00
      282000000    4,128539003e-03    1,192164514e-02   -5,619804263e-01   -5,355027914e-01    0,000000000e+00    0,000000000e+00    0,000000000e+00    0,000000000e+00
      296000000    9,716867469e-03   -7,876177318e-03   -7,597137094e-01   -1,394212246e-01    0,000000000e+00    0,000000000e+00    0,000000000e+00    0,000000000e+00
      310000000    1,103134640e-02   -1,615272090e-02   -7,127023935e-01    2,991147637e-01    0,000000000e+00    0,000000000e+00    0,000000000e+00    0,000000000e+00
      324000000    1,954901963e-02   -2,664687485e-02   -4,270517528e-01    6,374635696e-01    0,000000000e+00    0,000000000e+00    0,000000000e+00    0,000000000e+00
      338000000    2,539061382e-02   -5,189976096e-02   -9,148672223e-03    7,608600259e-01    0,000000000e+00    0,000000000e+00    0,000000000e+00    0,000000000e+00
      352000000    7,372719701e-03   -8,486150205e-02    4,069411159e-01    6,398640871e-01    0,000000000e+00    0,000000000e+00    0,000000000e+00    0,000000000e+00
      366000000   -3,443856910e-02   -9,537655115e-02    6,911609173e-01    3,109925985e-01    0,000000000e+00    0,000000000e+00    0,000000000e+00    0,000000000e+00
      380000000   -7,080406696e-02   -7,104879618e-02    7,473014593e-01   -1,263522804e-01    0,000000000e+00    0,000000000e+00    0,000000000e+00    0,000000000e+00
      394000000   -7,258097827e-02   -3,242918104e-02    5,458959937e-01   -5,228132010e-01    0,000000000e+00    0,000000000e+00    0,000000000e+00    0,000000000e+00
      408000000   -4,663611203e-02   -1,616069861e-02    1,609233767e-01   -7,334783077e-01    0,000000000e+00    0,000000000e+00    0,000000000e+00    0,000000000e+00
      422000000   -2,815293893e-02   -3,196429089e-02   -2,673287392e-01   -6,941993833e-01    0,000000000e+00    0,000000000e+00    0,000000000e+00    0,000000000e+00
      436000000   -4,053150490e-02   -5,162661150e-02   -6,046511531e-01   -4,313679934e-01    0,000000000e+00    0,000000000e+00    0,000000000e+00    0,000000000e+00
      450000000   -6,755111367e-02   -4,368561134e-02   -7,406128645e-01   -2,096975036e-02    0,000000000e+00    0,000000000e+00    0,000000000e+00    0,000000000e+00
      464000000   -7,319480926e-02   -1,164071448e-02   -6,186563373e-01    3,974987566e-01    0,000000000e+00    0,000000000e+00    0,000000000e+00    0,000000000e+00
      478000000   -4,804547504e-02    1,157883648e-02   -2,825742960e-01    6,675245762e-01    0,000000000e+00    0,000000000e+00    0,000000000e+00    0,000000000e+00
      492000000   -1,576484554e-02    5,761626177e-03    1,381406635e-01    7,018707991e-01    0,000000000e+00    0,000000000e+00    0,000000000e+00    0,000000000e+00
      506000000   -2,559659770e-03   -1,596413739e-02    4,984541535e-01    5,028831959e-01    0,000000000e+00    0,000000000e+00    0,000000000e+00    0,000000000e+00
      520000000   -5,358475260e-03   -3,122035041e-02    6,879293919e-01    1,411155015e-01    0,000000000e+00    0,000000000e+00    0,000000000e+00    0,000000000e+00
      534000000   -4,091507290e-03   -3,814194724e-02    6,432939768e-01   -2,626001835e-01    0,000000000e+00    0,000000000e+00    0,000000000e+00    0,000000000e+00
      548000000    6,110140588e-03   -5,422606692e-02    3,813569844e-01   -5,675814152e-01    0,000000000e+00    0,000000000e+00    0,000000000e+00    0,000000000e+00
      562000000    3,209693125e-03   -8,970955014e-02    2,513738349e-03   -6,731609106e-01    0,000000000e+00    0,000000000e+00    0,000000000e+00    0,000000000e+00
      576000000   -3,422388434e-02   -1,245915890e-01   -3,683229387e-01   -5,577100515e-01    0,000000000e+00    0,000000000e+00    0,000000000e+00    0,000000000e+00
      590000000   -9,634135664e-02   -1,227208152e-01   -6,218324900e-01   -2,625277936e-01    0,000000000e+00    0,000000000e+00    0,000000000e+00    0,000000000e+00
      604000000   -1,390426010e-01   -7,188476622e-02   -6,645666361e-01    1,378713697e-01    0,000000000e+00    0,000000000e+00    0,000000000e+00    0,000000000e+00
      618000000   -1,290852576e-01   -8,897620253e-03   -4,635653198e-01    4,946030974e-01    0,000000000e+00    0,000000000e+00    0,000000000e+00    0,000000000e+00
      632000000   -8,379524946e-02    1,718899794e-02   -9,887143224e-02    6,637548208e-01    0,000000000e+00    0,000000000e+00    0,000000000e+00    0,000000000e+00
      646000000   -5,066626146e-02    1,976135391e-04    2,873236239e-01    5,953610539e-01    0,000000000e+00    0,000000000e+00    0,000000000e+00    0,000000000e+00
      660000000   -5,239880085e-02   -2,166573331e-02    5,673200488e-01    3,233298957e-01    0,000000000e+00    0,000000000e+00    0,000000000e+00    0,000000000e+00
      674000000   -7,030589879e-02   -1,834775507e-02    6,430487037e-01   -6,576333940e-02    0,000000000e+00    0,000000000e+00    0,000000000e+00    0,000000000e+00
      688000000   -6,834582984e-02    8,201112039e-03    4,715030491e-01   -4,286839068e-01    0,000000000e+00    0,000000000e+00    0,000000000e+00    0,000000000e+00
      702000000   -3,765925765e-02    2,689668722e-02    1,223099232e-01   -6,162067056e-01    0,000000000e+00    0,000000000e+00    0,000000000e+00    0,000000000e+00
      716000000    1,803608146e-03    1,764846593e-02   -2,654322982e-01   -5,467560291e-01    0,000000000e+00    0,000000000e+00    0,000000000e+00    0,000000000e+00
      730000000    3,674441576e-02   -1,161133964e-02   -5,285577178e-01   -2,688493729e-01    0,000000000e+00    0,000000000e+00    0,000000000e+00    0,000000000e+00
      744000000    6,578963995e-02   -6,273698062e-02   -5,641847253e-01    1,069402546e-01    0,000000000e+00    0,000000000e+00    0,000000000e+00    0,000000000e+00
      758000000    6,697666645e-02   -1,520803273e-01   -3,630514145e-01    4,102415144e-01    0,000000000e+00    0,000000000e+00    0,000000000e+00    0,000000000e+00
      772000000   -1,272787526e-02   -2,631512582e-01   -3,492718562e-02    5,158365965e-01    0,000000000e+00    0,000000000e+00    0,000000000e+00    0,000000000e+00
      786000000   -2,060255557e-01   -3,029802442e-01    2,751054168e-01    3,955058455e-01    0,000000000e+00    0,000000000e+00    0,000000000e+00    0,000000000e+00
      800000000   -4,265436530e-01   -1,301862895e-01    4,174169302e-01    9,902404994e-02    0,000000000e+00    0,000000000e+00    0,000000000e+00    0,000000000e+00
      814000000   -3,896047473e-01    2,203256935e-01    2,824377120e-01   -1,729500592e-01    0,000000000e+00    0,000000000e+00    0,000000000e+00    0,000000000e+00
      828000000   -5,050149187e-02    3,680734634e-01    5,504926667e-02   -1,887723356e-01    0,000000000e+00    0,000000000e+00    0,000000000e+00    0,000000000e+00
      842000000    2,355154157e-01    1,855858862e-01   -1,675267145e-02   -7,049456239e-02    0,000000000e+00    0,000000000e+00    0,000000000e+00    0,000000000e+00
      856000000    2,806663513e-01   -1,249544472e-01    4,554971680e-02   -1,354488079e-02    0,000000000e+00    0,000000000e+00    0,000000000e+00    0,000000000e+00
      870000000    7,514443249e-02   -3,756583631e-01    1,144238338e-01   -9,084182978e-02    0,000000000e+00    0,000000000e+00    0,000000000e+00    0,000000000e+00
      884000000   -2,962360978e-01   -3,616079390e-01    2,812927216e-02   -2,461764961e-01    0,000000000e+00    0,000000000e+00    0,000000000e+00    0,000000000e+00
      898000000   -4,727686644e-01    9,505243041e-03   -2,228769213e-01   -2,277097106e-01    0,000000000e+00    0,000000000e+00    0,000000000e+00    0,000000000e+00
      912000000   -2,258631140e-01    2,944363952e-01   -3,498654068e-01    5,972152576e-02    0,000000000e+00    0,000000000e+00    0,000000000e+00    0,000000000e+00
      926000000    6,733578444e-02    2,624757290e-01   -2,163292319e-01    2,630908191e-01    0,000000000e+00    0,000000000e+00    0,000000000e+00    0,000000000e+00
      940000000    2,159761190e-01    8,093792200e-02   -3,715287894e-02    3,307666183e-01    0,000000000e+00    0,000000000e+00    0,000000000e+00    0,000000000e+00
      954000000    2,228640020e-01   -1,293285340e-01    1,303096265e-01    3,072111011e-01    0,000000000e+00    0,000000000e+00    0,000000000e+00    0,000000000e+00
      968000000    1,171770543e-01   -2,985010147e-01    2,706005573e-01    2,191217989e-01    0,000000000e+00    0,000000000e+00    0,000000000e+00    0,000000000e+00
      982000000   -8,136893064e-02   -3,889201283e-01    3,669431508e-01    6,427425146e-02    0,000000000e+00    0,000000000e+00    0,000000000e+00    0,000000000e+00
      996000000   -3,118540645e-01   -3,313506842e-01    3,685249090e-01   -1,460099667e-01    0,000000000e+00    0,000000000e+00    0,000000000e+00    0,000000000e+00
     1010000000   -4,599030614e-01   -1,095624492e-01    2,223960012e-01   -3,407832682e-01    0,000000000e+00    0,000000000e+00    0,000000000e+00    0,000000000e+00
     1024000000   -4,109726846e-01    1,536517143e-01   -3,585445136e-02   -3,928731978e-01    0,000000000e+00    0,000000000e+00    0,000000000e+00    0,000000000e+00
     1038000000   -2,173102349e-01    2,889736593e-01   -2,472382337e-01   -2,595137060e-01    0,000000000e+00    0,000000000e+00    0,000000000e+00    0,000000000e+00
     1052000000   -5,266238935e-03    2,770422995e-01   -3,182253540e-01   -4,704194143e-02    0,000000000e+00    0,000000000e+00    0,000000000e+00    0,000000000e+00
     1066000000    1,369678378e-01    1,655663401e-01   -2,546093762e-01    1,407978386e-01    0,000000000e+00    0,000000000e+00    0,000000000e+00    0,000000000e+00
     1080000000    1,940537244e-01    1,983521972e-03   -1,191764921e-01    2,641068995e-01    0,000000000e+00    0,000000000e+00    0,000000000e+00    0,000000000e+00
     1094000000    1,576063633e-01   -1,764081866e-01    6,424818933e-02    3,025334477e-01    0,000000000e+00    0,000000000e+00    0,000000000e+00    0,000000000e+00
     1108000000    1,603476994e-04   -3,046454191e-01    2,780176103e-01    2,458094805e-01    0,000000000e+00    0,000000000e+00    0,000000000e+00    0,000000000e+00
     1122000000   -2,479369193e-01   -2,602681518e-01    4,701844156e-01    1,128164027e-02    0,000000000e+00    0,000000000e+00    0,000000000e+00    0,000000000e+00
     1136000000   -3,165087104e-01    2,703546546e-02    3,989398777e-01   -3,937786520e-01    0,000000000e+00    0,000000000e+00    0,000000000e+00    0,000000000e+00
     1150000000   -3,609463573e-02    1,504830867e-01    3,812952898e-03   -5,461047888e-01    0,000000000e+00    0,000000000e+00    0,000000000e+00    0,000000000e+00
     1164000000    1,258840710e-01   -5,903182551e-02   -2,748864293e-01   -3,782965839e-01    0,000000000e+00    0,000000000e+00    0,000000000e+00    0,000000000e+00
     1178000000    1,751697995e-02   -3,083834350e-01   -3,654749990e-01   -1,503223926e-01    0,000000000e+00    0,000000000e+00    0,000000000e+00    0,000000000e+00
     1192000000   -2,681219876e-01   -3,703252971e-01   -3,272269070e-01    5,882716551e-02    0,000000000e+00    0,000000000e+00    0,000000000e+00    0,000000000e+00
     1206000000   -5,229560137e-01   -1,637336016e-01   -1,669828743e-01    1,810207218e-01    0,000000000e+00    0,000000000e+00    0,000000000e+00    0,000000000e+00
     1220000000   -5,104311705e-01    1,679859012e-01   -1,032717759e-03    1,576433033e-01    0,000000000e+00    0,000000000e+00    0,000000000e+00    0,000000000e+00
     1234000000   -2,910812497e-01    3,669838607e-01    6,843147427e-02    6,201115623e-02    0,000000000e+00    0,000000000e+00    0,000000000e+00    0,000000000e+00
     1248000000   -4,037594423e-02    3,657878041e-01    5,269679427e-02   -6,984580308e-03    0,000000000e+00    0,000000000e+00    0,000000000e+00    0,000000000e+00
     1262000000    1,266666651e-01    2,590249479e-01    2,006612904e-02   -1,848045923e-02    0,000000000e+00    0,000000000e+00    0,000000000e+00    0,000000000e+00
     1276000000    2,117982358e-01    1,024587229e-01   -4,849857185e-03    2,874537371e-03    0,000000000e+00    0,000000000e+00    0,000000000e+00    0,000000000e+00
     1290000000    2,262398601e-01   -7,394527644e-02    1,929490827e-02    4,683520645e-02    0,000000000e+00    0,000000000e+00    0,000000000e+00    0,000000000e+00
     1304000000    1,561539322e-01   -2,384062111e-01    1,299085468e-01    6,814140826e-02    0,000000000e+00    0,000000000e+00    0,000000000e+00    0,000000000e+00
     1318000000    3,484643996e-02   -3,324595690e-01    1,283329874e-01   -1,606255472e-01    0,000000000e+00    0,000000000e+00    0,000000000e+00    0,000000000e+00
     1332000000   -1,313562691e-01   -4,365445375e-01   -4,987210035e-02   -4,776498675e-02    0,000000000e+00    0,000000000e+00    0,000000000e+00    0,000000000e+00
     1346000000   -3,928365111e-01   -4,036197662e-01    2,144332230e-02    7,184023410e-02    0,000000000e+00    0,000000000e+00    0,000000000e+00    0,000000000e+00
     1360000000   -6,154654622e-01   -1,824295819e-01    1,352899075e-01    7,672772557e-02    0,000000000e+00    0,000000000e+00    0,000000000e+00    0,000000000e+00
     1374000000   -6,256474853e-01    1,316303313e-01    2,133795768e-01    6,499797571e-03    0,000000000e+00    0,000000000e+00    0,000000000e+00    0,000000000e+00
     1388000000   -4,671252668e-01    3,739643693e-01    2,097101957e-01   -5,907440558e-02    0,000000000e+00    0,000000000e+00    0,000000000e+00    0,000000000e+00
     1402000000   -2,255508900e-01    4,479711056e-01    1,930525005e-01   -1,039439887e-01    0,000000000e+00    0,000000000e+00    0,000000000e+00    0,000000000e+00
     1416000000   -3,166564554e-02    4,116469026e-01    1,672406346e-01   -1,081792563e-01    0,000000000e+00    0,000000000e+00    0,000000000e+00    0,000000000e+00
     1430000000    1,160859391e-01    3,094931543e-01    1,619017124e-01   -8,845334500e-02    0,000000000e+00    0,000000000e+00    0,000000000e+00    0,000000000e+00
     1444000000    2,128330469e-01    1,506398022e-01    1,632046849e-01   -1,049258187e-01    0,000000000e+00    0,000000000e+00    0,000000000e+00    0,000000000e+00
     1458000000    2,326971292e-01   -1,985715330e-02    1,278095245e-01   -7,179376483e-02    0,000000000e+00    0,000000000e+00    0,000000000e+00    0,000000000e+00
     1472000000    1,942546517e-01   -2,050746828e-01    1,386543810e-01   -3,743428737e-02    0,000000000e+00    0,000000000e+00    0,000000000e+00    0,000000000e+00
     1486000000    5,928985029e-02   -3,712053597e-01    1,671775877e-01    4,749159887e-02    0,000000000e+00    0,000000000e+00    0,000000000e+00    0,000000000e+00
     1500000000   -1,756377667e-01   -5,051271319e-01    2,210571617e-01    1,015468463e-01    0,000000000e+00    0,000000000e+00    0,000000000e+00    0,000000000e+00
