! NanoVNA-App
! Date: 2025-09-25 15:33:40
! Start: 100MHz Stop: 1,5GHz Points: 101
! S-Parameter data: F S11 S21 S12 S22
# Hz S RI R 50
!     Frequency           S11_Real           S11_Imag           S21_Real           S21_Imag           S12_Real           S12_Imag           S22_Real           S22_Imag
      100000000   -2,886886895e-02   -4,178210162e-03    3,741261661e-01   -7,218022943e-01    0,000000000e+00    0,000000000e+00    0,000000000e+00    0,000000000e+00
      114000000   -1,649801992e-02    1,153360400e-02   -8,921852708e-02   -8,053922653e-01    0,000000000e+00    0,000000000e+00    0,000000000e+00    0,000000000e+00
      128000000    3,480690997e-03    1,056875195e-02   -5,147698522e-01   -6,204667091e-01    0,000000000e+00    0,000000000e+00    0,000000000e+00    0,000000000e+00
      142000000    1,454044320e-02   -2,966033528e-03   -7,670730948e-01   -2,365615070e-01    0,000000000e+00    0,000000000e+00    0,000000000e+00    0,000000000e+00
      156000000    1,518903207e-02   -1,473362464e-02   -7,676811218e-01    2,227478921e-01    0,000000000e+00    0,000000000e+00    0,000000000e+00    0,000000000e+00
      170000000    1,663649641e-02   -2,254582196e-02   -5,182756186e-01    6,048321724e-01    0,000000000e+00    0,000000000e+00    0,000000000e+00    0,000000000e+00
      184000000    2,096490562e-02   -3,708653152e-02   -1,015932634e-01    7,861671448e-01    0,000000000e+00    0,000000000e+00    0,000000000e+00    0,000000000e+00
      198000000    1,293850504e-02   -6,246332079e-02    3,432238698e-01    7,122296095e-01    0,000000000e+00    0,000000000e+00    0,000000000e+00    0,000000000e+00
      212000000   -1,865226589e-02   -8,130951971e-02    6,780250072e-01    4,099883139e-01    0,000000000e+00    0,000000000e+00    0,000000000e+00    0,000000000e+00
      226000000   -6,165233627e-02   -6,922429055e-02    7,957225442e-01   -3,054291010e-02    0,000000000e+00    0,000000000e+00    0,000000000e+00    0,000000000e+00
      240000000   -8,258184791e-02   -2,563753724e-02    6,459321976e-01   -4,668685794e-01    0,000000000e+00    0,000000000e+00    0,000000000e+00    0,000000000e+00
      254000000   -6,349329650e-02    1,728427038e-02    2,763237357e-01   -7,432883978e-01    0,000000000e+00    0,000000000e+00    0,000000000e+00    0,000000000e+00
      268000000   -2,382819913e-02    2,894141525e-02   -1,780401021e-01   -7,641766071e-01    0,000000000e+00    0,000000000e+00    0,000000000e+00    0,000000000e+00
      282000000    4,143686499e-03    1,193968765e-02   -5,616562963e-01   -5,354270935e-01    0,000000000e+00    0,000000000e+00    0,000000000e+00    0,000000000e+00
      296000000    9,629629552e-03   -7,893487811e-03   -7,598228455e-01   -1,395346969e-01    0,000000000e+00    0,000000000e+00    0,000000000e+00    0,000000000e+00
      310000000    1,118198410e-02   -1,627584733e-02   -7,133678794e-01    2,993845344e-01    0,000000000e+00    0,000000000e+00    0,000000000e+00    0,000000000e+00
      324000000    1,951457933e-02   -2,654474042e-02   -4,280564785e-01    6,374167204e-01    0,000000000e+00    0,000000000e+00    0,000000000e+00    0,000000000e+00
      338000000    2,566866949e-02   -5,217714608e-02   -8,832613938e-03    7,640046477e-01    0,000000000e+00    0,000000000e+00    0,000000000e+00    0,000000000e+00
      352000000    7,305489853e-03   -8,434146643e-02    4,065991640e-01    6,393716931e-01    0,000000000e+00    0,000000000e+00    0,000000000e+00    0,000000000e+00
      366000000   -3,492611647e-02   -9,539073706e-02    6,905663610e-01    3,113305569e-01    0,000000000e+00    0,000000000e+00    0,000000000e+00    0,000000000e+00
      380000000   -7,075075805e-02   -7,122993469e-02    7,480654716e-01   -1,260860562e-01    0,000000000e+00    0,000000000e+00    0,000000000e+00    0,000000000e+00
      394000000   -7,265892625e-02   -3,247702867e-02    5,467684865e-01   -5,209024549e-01    0,000000000e+00    0,000000000e+00    0,000000000e+00    0,000000000e+00
      408000000   -4,628729820e-02   -1,616030745e-02    1,613010764e-01   -7,332301140e-01    0,000000000e+00    0,000000000e+00    0,000000000e+00    0,000000000e+00
      422000000   -2,852147073e-02   -3,183221817e-02   -2,680069804e-01   -6,944082975e-01    0,000000000e+00    0,000000000e+00    0,000000000e+00    0,000000000e+00
      436000000   -4,080405086e-02   -5,210100487e-02   -6,039394736e-01   -4,321023822e-01    0,000000000e+00    0,000000000e+00    0,000000000e+00    0,000000000e+00
      450000000   -6,739949435e-02   -4,329891503e-02   -7,402649522e-01   -2,129670233e-02    0,000000000e+00    0,000000000e+00    0,000000000e+00    0,000000000e+00
      464000000   -7,353729755e-02   -1,166150719e-02   -6,186233759e-01    3,979186714e-01    0,000000000e+00    0,000000000e+00    0,000000000e+00    0,000000000e+00
      478000000   -4,758998752e-02    1,160002127e-02   -2,824859619e-01    6,674821973e-01    0,000000000e+00    0,000000000e+00    0,000000000e+00    0,000000000e+00
      492000000   -1,552970614e-02    6,095803808e-03    1,378981024e-01    7,018189430e-01    0,000000000e+00    0,000000000e+00    0,000000000e+00    0,000000000e+00
      506000000   -2,687864238e-03   -1,597897708e-02    4,977672696e-01    5,023684502e-01    0,000000000e+00    0,000000000e+00    0,000000000e+00    0,000000000e+00
      520000000   -5,289441440e-03   -3,171921149e-02    6,873638034e-01    1,414254308e-01    0,000000000e+00    0,000000000e+00    0,000000000e+00    0,000000000e+00
      534000000   -3,881175304e-03   -3,813334182e-02    6,434671283e-01   -2,622214854e-01    0,000000000e+00    0,000000000e+00    0,000000000e+00    0,000000000e+00
      548000000    5,770644173e-03   -5,376026034e-02    3,812672496e-01   -5,670393705e-01    0,000000000e+00    0,000000000e+00    0,000000000e+00    0,000000000e+00
      562000000    2,854184946e-03   -8,966827393e-02    2,063295105e-03   -6,725560427e-01    0,000000000e+00    0,000000000e+00    0,000000000e+00    0,000000000e+00
      576000000   -3,423017263e-02   -1,247363165e-01   -3,686414659e-01   -5,570916533e-01    0,000000000e+00    0,000000000e+00    0,000000000e+00    0,000000000e+00
      590000000   -9,639477730e-02   -1,225530654e-01   -6,192181706e-01   -2,636242211e-01    0,000000000e+00    0,000000000e+00    0,000000000e+00    0,000000000e+00
      604000000   -1,397007257e-01   -7,188696414e-02   -6,654037833e-01    1,370541155e-01    0,000000000e+00    0,000000000e+00    0,000000000e+00    0,000000000e+00
      618000000   -1,295382529e-01   -8,549904451e-03   -4,639955759e-01    4,946375787e-01    0,000000000e+00    0,000000000e+00    0,000000000e+00    0,000000000e+00
      632000000   -8,384550363e-02    1,736358367e-02   -9,899741411e-02    6,639499664e-01    0,000000000e+00    0,000000000e+00    0,000000000e+00    0,000000000e+00
      646000000   -5,072904006e-02    1,773886906e-04    2,874906957e-01    5,950449705e-01    0,000000000e+00    0,000000000e+00    0,000000000e+00    0,000000000e+00
      660000000   -5,364008248e-02   -2,120188251e-02    5,677261353e-01    3,230138719e-01    0,000000000e+00    0,000000000e+00    0,000000000e+00    0,000000000e+00
      674000000   -6,972490251e-02   -1,731056906e-02    6,429437399e-01   -6,543492526e-02    0,000000000e+00    0,000000000e+00    0,000000000e+00    0,000000000e+00
      688000000   -6,842144579e-02    9,423142299e-03    4,713889956e-01   -4,282077253e-01    0,000000000e+00    0,000000000e+00    0,000000000e+00    0,000000000e+00
      702000000   -3,755503893e-02    2,673033252e-02    1,168035045e-01   -6,089693308e-01    0,000000000e+00    0,000000000e+00    0,000000000e+00    0,000000000e+00
      716000000    1,587478793e-03    1,786840148e-02   -2,643422186e-01   -5,478715897e-01    0,000000000e+00    0,000000000e+00    0,000000000e+00    0,000000000e+00
      730000000    3,644639254e-02   -1,142488047e-02   -5,285853148e-01   -2,686889172e-01    0,000000000e+00    0,000000000e+00    0,000000000e+00    0,000000000e+00
      744000000    6,520953774e-02   -6,292189658e-02   -5,644919872e-01    1,063890606e-01    0,000000000e+00    0,000000000e+00    0,000000000e+00    0,000000000e+00
      758000000    6,743216515e-02   -1,521731913e-01   -3,639297187e-01    4,108737707e-01    0,000000000e+00    0,000000000e+00    0,000000000e+00    0,000000000e+00
      772000000   -1,297409367e-02   -2,627320290e-01   -3,489689529e-02    5,148401260e-01    0,000000000e+00    0,000000000e+00    0,000000000e+00    0,000000000e+00
      786000000   -2,070017457e-01   -3,021821082e-01    2,744190991e-01    3,953447342e-01    0,000000000e+00    0,000000000e+00    0,000000000e+00    0,000000000e+00
      800000000   -4,250577092e-01   -1,296376288e-01    4,171351194e-01    9,905703366e-02    0,000000000e+00    0,000000000e+00    0,000000000e+00    0,000000000e+00
      814000000   -3,884827197e-01    2,218860835e-01    2,821106613e-01   -1,727633029e-01    0,000000000e+00    0,000000000e+00    0,000000000e+00    0,000000000e+00
      828000000   -4,920564964e-02    3,679820299e-01    5,484616756e-02   -1,888950765e-01    0,000000000e+00    0,000000000e+00    0,000000000e+00    0,000000000e+00
      842000000    2,350677997e-01    1,863004565e-01   -1,737618819e-02   -7,059884816e-02    0,000000000e+00    0,000000000e+00    0,000000000e+00    0,000000000e+00
      856000000    2,805127501e-01   -1,248320267e-01    4,466125369e-02   -1,324309502e-02    0,000000000e+00    0,000000000e+00    0,000000000e+00    0,000000000e+00
      870000000    7,530379295e-02   -3,763361871e-01    1,135364100e-01   -9,112542123e-02    0,000000000e+00    0,000000000e+00    0,000000000e+00    0,000000000e+00
      884000000   -2,962494791e-01   -3,621355295e-01    2,811280452e-02   -2,449813932e-01    0,000000000e+00    0,000000000e+00    0,000000000e+00    0,000000000e+00
      898000000   -4,733126760e-01    8,908662945e-03   -2,221398950e-01   -2,278882414e-01    0,000000000e+00    0,000000000e+00    0,000000000e+00    0,000000000e+00
      912000000   -2,261381894e-01    2,937646806e-01   -3,372214735e-01    7,183446735e-02    0,000000000e+00    0,000000000e+00    0,000000000e+00    0,000000000e+00
      926000000    6,812106073e-02    2,657992542e-01   -2,162801176e-01    2,660896480e-01    0,000000000e+00    0,000000000e+00    0,000000000e+00    0,000000000e+00
      940000000    2,163168341e-01    7,840251178e-02   -3,453011438e-02    3,286911547e-01    0,000000000e+00    0,000000000e+00    0,000000000e+00    0,000000000e+00
      954000000    2,213563025e-01   -1,261475235e-01    1,322425306e-01    3,071381152e-01    0,000000000e+00    0,000000000e+00    0,000000000e+00    0,000000000e+00
      968000000    1,141875684e-01   -2,988964021e-01    2,700646520e-01    2,177438140e-01    0,000000000e+00    0,000000000e+00    0,000000000e+00    0,000000000e+00
      982000000   -8,031605929e-02   -3,862542808e-01    3,669909537e-01    6,571148336e-02    0,000000000e+00    0,000000000e+00    0,000000000e+00    0,000000000e+00
      996000000   -3,177264333e-01   -3,263817132e-01    3,689027131e-01   -1,463267356e-01    0,000000000e+00    0,000000000e+00    0,000000000e+00    0,000000000e+00
     1010000000   -4,652450681e-01   -1,085199341e-01    2,234609276e-01   -3,415326774e-01    0,000000000e+00    0,000000000e+00    0,000000000e+00    0,000000000e+00
     1024000000   -4,105452895e-01    1,490653902e-01   -3,123917803e-02   -3,912750781e-01    0,000000000e+00    0,000000000e+00    0,000000000e+00    0,000000000e+00
     1038000000   -2,172557414e-01    2,876916528e-01   -2,468787879e-01   -2,585802078e-01    0,000000000e+00    0,000000000e+00    0,000000000e+00    0,000000000e+00
     1052000000   -7,020459510e-03    2,766865790e-01   -3,167393506e-01   -4,429269955e-02    0,000000000e+00    0,000000000e+00    0,000000000e+00    0,000000000e+00
     1066000000    1,334051490e-01    1,619142741e-01   -2,548907697e-01    1,440024227e-01    0,000000000e+00    0,000000000e+00    0,000000000e+00    0,000000000e+00
     1080000000    1,948004812e-01    2,934253309e-03   -1,187746078e-01    2,623641789e-01    0,000000000e+00    0,000000000e+00    0,000000000e+00    0,000000000e+00
     1094000000    1,525375247e-01   -1,723764539e-01    6,549403071e-02    3,021986783e-01    0,000000000e+00    0,000000000e+00    0,000000000e+00    0,000000000e+00
     1108000000    1,401143963e-03   -3,041559756e-01    2,755858004e-01    2,467418909e-01    0,000000000e+00    0,000000000e+00    0,000000000e+00    0,000000000e+00
     1122000000   -2,519990802e-01   -2,657863200e-01    4,703603387e-01    1,282200310e-02    0,000000000e+00    0,000000000e+00    0,000000000e+00    0,000000000e+00
     1136000000   -3,204979897e-01    3,659440577e-02    3,968824446e-01   -3,942338228e-01    0,000000000e+00    0,000000000e+00    0,000000000e+00    0,000000000e+00
     1150000000   -3,671053424e-02    1,506004930e-01    7,563082967e-03   -5,454146862e-01    0,000000000e+00    0,000000000e+00    0,000000000e+00    0,000000000e+00
     1164000000    1,204517633e-01   -6,375158578e-02   -2,793034017e-01   -3,792556524e-01    0,000000000e+00    0,000000000e+00    0,000000000e+00    0,000000000e+00
     1178000000    1,536622830e-02   -3,034228981e-01   -3,712061644e-01   -1,475144625e-01    0,000000000e+00    0,000000000e+00    0,000000000e+00    0,000000000e+00
     1192000000   -2,677729130e-01   -3,667534590e-01   -3,251132071e-01    5,894682184e-02    0,000000000e+00    0,000000000e+00    0,000000000e+00    0,000000000e+00
     1206000000   -5,179584026e-01   -1,583129168e-01   -1,613608152e-01    1,787872314e-01    0,000000000e+00    0,000000000e+00    0,000000000e+00    0,000000000e+00
     1220000000   -5,106441975e-01    1,806977689e-01    1,560739242e-03    1,614139527e-01    0,000000000e+00    0,000000000e+00    0,000000000e+00    0,000000000e+00
     1234000000   -2,900760174e-01    3,665893078e-01    6,505762786e-02    6,660692394e-02    0,000000000e+00    0,000000000e+00    0,000000000e+00    0,000000000e+00
     1248000000   -4,157687351e-02    3,676600158e-01    5,556290224e-02   -7,214283571e-03    0,000000000e+00    0,000000000e+00    0,000000000e+00    0,000000000e+00
     1262000000    1,260069162e-01    2,525638342e-01    1,947558112e-02   -2,495272644e-02    0,000000000e+00    0,000000000e+00    0,000000000e+00    0,000000000e+00
     1276000000    2,100357413e-01    1,026694477e-01   -6,027162075e-03    6,873323116e-03    0,000000000e+00    0,000000000e+00    0,000000000e+00    0,000000000e+00
     1290000000    2,248236388e-01   -7,182108611e-02    2,423644066e-02    4,986221716e-02    0,000000000e+00    0,000000000e+00    0,000000000e+00    0,000000000e+00
     1304000000    1,542521268e-01   -2,395285368e-01    1,338614523e-01    7,197687775e-02    0,000000000e+00    0,000000000e+00    0,000000000e+00    0,000000000e+00
     1318000000    3,228491917e-02   -3,362381756e-01    1,248400584e-01   -1,674788892e-01    0,000000000e+00    0,000000000e+00    0,000000000e+00    0,000000000e+00
     1332000000   -1,337953806e-01   -4,399122894e-01   -5,528940260e-02   -4,951493070e-02    0,000000000e+00    0,000000000e+00    0,000000000e+00    0,000000000e+00
     1346000000   -3,943530321e-01   -4,168320894e-01    2,699608356e-02    6,336233765e-02    0,000000000e+00    0,000000000e+00    0,000000000e+00    0,000000000e+00
     1360000000   -6,160979271e-01   -1,916723251e-01    1,251046956e-01    7,177899033e-02    0,000000000e+00    0,000000000e+00    0,000000000e+00    0,000000000e+00
     1374000000   -6,294246316e-01    1,299180388e-01    2,069870383e-01    9,871968068e-03    0,000000000e+00    0,000000000e+00    0,000000000e+00    0,000000000e+00
     1388000000   -4,645148218e-01    3,754144907e-01    2,058348358e-01   -5,531476811e-02    0,000000000e+00    0,000000000e+00    0,000000000e+00    0,000000000e+00
     1402000000   -2,340902835e-01    4,576763511e-01    1,751333177e-01   -8,208126575e-02    0,000000000e+00    0,000000000e+00    0,000000000e+00    0,000000000e+00
     1416000000   -2,611215226e-02    4,144907594e-01    1,807789952e-01   -1,012875512e-01    0,000000000e+00    0,000000000e+00    0,000000000e+00    0,000000000e+00
     1430000000    1,232694834e-01    3,072570562e-01    1,644722968e-01   -9,670106322e-02    0,000000000e+00    0,000000000e+00    0,000000000e+00    0,000000000e+00
     1444000000    2,067352831e-01    1,484498382e-01    1,464869231e-01   -9,997827560e-02    0,000000000e+00    0,000000000e+00    0,000000000e+00    0,000000000e+00
     1458000000    2,305607945e-01   -2,560248040e-02    1,431504935e-01   -8,205258846e-02    0,000000000e+00    0,000000000e+00    0,000000000e+00    0,000000000e+00
     1472000000    1,913726330e-01   -2,017154992e-01    1,394494772e-01   -1,871400326e-02    0,000000000e+00    0,000000000e+00    0,000000000e+00    0,000000000e+00
     1486000000    6,153478846e-02   -3,782764971e-01    1,603703350e-01    3,078560717e-02    0,000000000e+00    0,000000000e+00    0,000000000e+00    0,000000000e+00
     1500000000   -1,727201641e-01   -4,900203943e-01    2,447268814e-01    1,071997583e-01    0,000000000e+00    0,000000000e+00    0,000000000e+00    0,000000000e+00
