! NanoVNA-App
! Date: 2025-09-25 15:34:36
! Start: 100MHz Stop: 1,5GHz Points: 101
! S-Parameter data: F S11 S21 S12 S22
# Hz S RI R 50
!     Frequency           S11_Real           S11_Imag           S21_Real           S21_Imag           S12_Real           S12_Imag           S22_Real           S22_Imag
      100000000   -2,884666435e-02   -4,177039489e-03    3,740884364e-01   -7,217411995e-01    0,000000000e+00    0,000000000e+00    0,000000000e+00    0,000000000e+00
      114000000   -1,648926735e-02    1,151657943e-02   -8,903297037e-02   -8,056349158e-01    0,000000000e+00    0,000000000e+00    0,000000000e+00    0,000000000e+00
      128000000    3,489156254e-03    1,055270806e-02   -5,144452453e-01   -6,204743981e-01    0,000000000e+00    0,000000000e+00    0,000000000e+00    0,000000000e+00
      142000000    1,454018056e-02   -2,965930384e-03   -7,670364380e-01   -2,366592735e-01    0,000000000e+00    0,000000000e+00    0,000000000e+00    0,000000000e+00
      156000000    1,552515104e-02   -1,492649689e-02   -7,712912560e-01    2,216568291e-01    0,000000000e+00    0,000000000e+00    0,000000000e+00    0,000000000e+00
      170000000    1,670121402e-02   -2,249724790e-02   -5,181447268e-01    6,045961976e-01    0,000000000e+00    0,000000000e+00    0,000000000e+00    0,000000000e+00
      184000000    2,102242783e-02   -3,713950515e-02   -1,017215624e-01    7,864252329e-01    0,000000000e+00    0,000000000e+00    0,000000000e+00    0,000000000e+00
      198000000    1,304276939e-02   -6,248809025e-02    3,433044553e-01    7,123671174e-01    0,000000000e+00    0,000000000e+00    0,000000000e+00    0,000000000e+00
      212000000   -1,862148941e-02   -8,129934967e-02    6,780406833e-01    4,101509452e-01    0,000000000e+00    0,000000000e+00    0,000000000e+00    0,000000000e+00
      226000000   -6,172375754e-02   -6,923820823e-02    7,958773375e-01   -3,049331903e-02    0,000000000e+00    0,000000000e+00    0,000000000e+00    0,000000000e+00
      240000000   -8,260551840e-02   -2,556098811e-02    6,461932063e-01   -4,672563672e-01    0,000000000e+00    0,000000000e+00    0,000000000e+00    0,000000000e+00
      254000000   -6,351084262e-02    1,726205274e-02    2,759625316e-01   -7,430986762e-01    0,000000000e+00    0,000000000e+00    0,000000000e+00    0,000000000e+00
      268000000   -2,377747186e-02    2,887602337e-02   -1,779318601e-01   -7,640442848e-01    0,000000000e+00    0,000000000e+00    0,000000000e+00    0,000000000e+00
      282000000    4,187422805e-03    1,198109519e-02   -5,619625449e-01   -5,357167125e-01    0,000000000e+00    0,000000000e+00    0,000000000e+00    0,000000000e+00
      296000000    9,581949562e-03   -7,867240347e-03   -7,599173188e-01   -1,395738423e-01    0,000000000e+00    0,000000000e+00    0,000000000e+00    0,000000000e+00
      310000000    1,110858191e-02   -1,615922526e-02   -7,126849890e-01    2,977470458e-01    0,000000000e+00    0,000000000e+00    0,000000000e+00    0,000000000e+00
      324000000    1,972114667e-02   -2,648825198e-02   -4,275760949e-01    6,376741529e-01    0,000000000e+00    0,000000000e+00    0,000000000e+00    0,000000000e+00
      338000000    2,569474839e-02   -5,217825621e-02   -9,051279165e-03    7,597441077e-01    0,000000000e+00    0,000000000e+00    0,000000000e+00    0,000000000e+00
      352000000    7,603840437e-03   -8,462508023e-02    4,071077704e-01    6,392833591e-01    0,000000000e+00    0,000000000e+00    0,000000000e+00    0,000000000e+00
      366000000   -3,459788486e-02   -9,558579326e-02    6,901230216e-01    3,108852208e-01    0,000000000e+00    0,000000000e+00    0,000000000e+00    0,000000000e+00
      380000000   -7,089149207e-02   -7,148336619e-02    7,474064827e-01   -1,263514459e-01    0,000000000e+00    0,000000000e+00    0,000000000e+00    0,000000000e+00
      394000000   -7,272224873e-02   -3,230905533e-02    5,462538600e-01   -5,218151808e-01    0,000000000e+00    0,000000000e+00    0,000000000e+00    0,000000000e+00
      408000000   -4,650897160e-02   -1,625549048e-02    1,602069438e-01   -7,325087786e-01    0,000000000e+00    0,000000000e+00    0,000000000e+00    0,000000000e+00
      422000000   -2,832815051e-02   -3,204669431e-02   -2,677664757e-01   -6,943771243e-01    0,000000000e+00    0,000000000e+00    0,000000000e+00    0,000000000e+00
      436000000   -4,067233950e-02   -5,201914907e-02   -6,044340730e-01   -4,329176247e-01    0,000000000e+00    0,000000000e+00    0,000000000e+00    0,000000000e+00
      450000000   -6,761942804e-02   -4,376106337e-02   -7,408013344e-01   -2,103928663e-02    0,000000000e+00    0,000000000e+00    0,000000000e+00    0,000000000e+00
      464000000   -7,313442975e-02   -1,175744832e-02   -6,188176274e-01    3,979007900e-01    0,000000000e+00    0,000000000e+00    0,000000000e+00    0,000000000e+00
      478000000   -4,753312841e-02    1,191216614e-02   -2,825377882e-01    6,680119038e-01    0,000000000e+00    0,000000000e+00    0,000000000e+00    0,000000000e+00
      492000000   -1,596869528e-02    6,049064454e-03    1,381443590e-01    7,013348341e-01    0,000000000e+00    0,000000000e+00    0,000000000e+00    0,000000000e+00
      506000000   -2,606448019e-03   -1,606819779e-02    4,988992810e-01    5,024728775e-01    0,000000000e+00    0,000000000e+00    0,000000000e+00    0,000000000e+00
      520000000   -4,895087797e-03   -3,179674596e-02    6,869618297e-01    1,412629485e-01    0,000000000e+00    0,000000000e+00    0,000000000e+00    0,000000000e+00
      534000000   -3,863013582e-03   -3,812581673e-02    6,439303756e-01   -2,623155117e-01    0,000000000e+00    0,000000000e+00    0,000000000e+00    0,000000000e+00
      548000000    5,907427520e-03   -5,410316959e-02    3,816886842e-01   -5,668529868e-01    0,000000000e+00    0,000000000e+00    0,000000000e+00    0,000000000e+00
      562000000    3,337655915e-03   -8,963205665e-02    2,911472926e-03   -6,720501781e-01    0,000000000e+00    0,000000000e+00    0,000000000e+00    0,000000000e+00
      576000000   -3,441618383e-02   -1,244997233e-01   -3,693644702e-01   -5,569546819e-01    0,000000000e+00    0,000000000e+00    0,000000000e+00    0,000000000e+00
      590000000   -9,624283761e-02   -1,226385757e-01   -6,197326183e-01   -2,626867294e-01    0,000000000e+00    0,000000000e+00    0,000000000e+00    0,000000000e+00
      604000000   -1,395146400e-01   -7,168153673e-02   -6,648955345e-01    1,383308470e-01    0,000000000e+00    0,000000000e+00    0,000000000e+00    0,000000000e+00
      618000000   -1,294468045e-01   -8,944629692e-03   -4,636989236e-01    4,940228164e-01    0,000000000e+00    0,000000000e+00    0,000000000e+00    0,000000000e+00
      632000000   -8,424521238e-02    1,636804268e-02   -9,862869978e-02    6,640352607e-01    0,000000000e+00    0,000000000e+00    0,000000000e+00    0,000000000e+00
      646000000   -5,106829107e-02    1,730259282e-05    2,871041298e-01    5,949797630e-01    0,000000000e+00    0,000000000e+00    0,000000000e+00    0,000000000e+00
      660000000   -5,385345221e-02   -2,120404877e-02    5,679120421e-01    3,236354887e-01    0,000000000e+00    0,000000000e+00    0,000000000e+00    0,000000000e+00
      674000000   -7,082622498e-02   -1,764364541e-02    6,431470513e-01   -6,562043726e-02    0,000000000e+00    0,000000000e+00    0,000000000e+00    0,000000000e+00
      688000000   -6,822136045e-02    8,059807122e-03    4,718194902e-01   -4,279017746e-01    0,000000000e+00    0,000000000e+00    0,000000000e+00    0,000000000e+00
      702000000   -3,844989091e-02    2,698623016e-02    1,194303259e-01   -6,059762239e-01    0,000000000e+00    0,000000000e+00    0,000000000e+00    0,000000000e+00
      716000000    2,889220836e-03    1,791143231e-02   -2,654450536e-01   -5,472021699e-01    0,000000000e+00    0,000000000e+00    0,000000000e+00    0,000000000e+00
      730000000    3,696816042e-02   -1,023873314e-02   -5,282485485e-01   -2,692540586e-01    0,000000000e+00    0,000000000e+00    0,000000000e+00    0,000000000e+00
      744000000    6,549942493e-02   -6,298238039e-02   -5,644903183e-01    1,061270535e-01    0,000000000e+00    0,000000000e+00    0,000000000e+00    0,000000000e+00
      758000000    6,619357318e-02   -1,523124874e-01   -3,633394241e-01    4,104599357e-01    0,000000000e+00    0,000000000e+00    0,000000000e+00    0,000000000e+00
      772000000   -1,279884763e-02   -2,622526288e-01   -3,493131697e-02    5,154285431e-01    0,000000000e+00    0,000000000e+00    0,000000000e+00    0,000000000e+00
      786000000   -2,062283754e-01   -3,031381965e-01    2,741172314e-01    3,968266845e-01    0,000000000e+00    0,000000000e+00    0,000000000e+00    0,000000000e+00
      800000000   -4,263209701e-01   -1,308177561e-01    4,174096286e-01    9,937962145e-02    0,000000000e+00    0,000000000e+00    0,000000000e+00    0,000000000e+00
      814000000   -3,890075684e-01    2,207494974e-01    2,823965549e-01   -1,736250073e-01    0,000000000e+00    0,000000000e+00    0,000000000e+00    0,000000000e+00
      828000000   -4,972139373e-02    3,680881560e-01    5,527733266e-02   -1,892567724e-01    0,000000000e+00    0,000000000e+00    0,000000000e+00    0,000000000e+00
      842000000    2,349985689e-01    1,857812703e-01   -1,742022671e-02   -7,080077380e-02    0,000000000e+00    0,000000000e+00    0,000000000e+00    0,000000000e+00
      856000000    2,806442380e-01   -1,242388710e-01    4,481479153e-02   -1,353585813e-02    0,000000000e+00    0,000000000e+00    0,000000000e+00    0,000000000e+00
      870000000    7,473903894e-02   -3,763928115e-01    1,135581806e-01   -9,081519395e-02    0,000000000e+00    0,000000000e+00    0,000000000e+00    0,000000000e+00
      884000000   -2,955730259e-01   -3,615159392e-01    2,768309042e-02   -2,450577617e-01    0,000000000e+00    0,000000000e+00    0,000000000e+00    0,000000000e+00
      898000000   -4,716751873e-01    8,220073767e-03   -2,220614851e-01   -2,280240059e-01    0,000000000e+00    0,000000000e+00    0,000000000e+00    0,000000000e+00
      912000000   -2,253740728e-01    2,940770090e-01   -3,522926271e-01    7,088891417e-02    0,000000000e+00    0,000000000e+00    0,000000000e+00    0,000000000e+00
      926000000    6,789951771e-02    2,639482915e-01   -2,146080583e-01    2,662304044e-01    0,000000000e+00    0,000000000e+00    0,000000000e+00    0,000000000e+00
      940000000    2,167174369e-01    8,175371587e-02   -3,642214462e-02    3,295891583e-01    0,000000000e+00    0,000000000e+00    0,000000000e+00    0,000000000e+00
      954000000    2,206274271e-01   -1,257211417e-01    1,301310062e-01    3,074773550e-01    0,000000000e+00    0,000000000e+00    0,000000000e+00    0,000000000e+00
      968000000    1,175047457e-01   -2,986451983e-01    2,703018188e-01    2,192289829e-01    0,000000000e+00    0,000000000e+00    0,000000000e+00    0,000000000e+00
      982000000   -8,190628886e-02   -3,898561895e-01    3,666853309e-01    6,629791111e-02    0,000000000e+00    0,000000000e+00    0,000000000e+00    0,000000000e+00
      996000000   -3,178623617e-01   -3,278527856e-01    3,688718379e-01   -1,450614780e-01    0,000000000e+00    0,000000000e+00    0,000000000e+00    0,000000000e+00
     1010000000   -4,612197578e-01   -1,133148670e-01    2,228312045e-01   -3,411709070e-01    0,000000000e+00    0,000000000e+00    0,000000000e+00    0,000000000e+00
     1024000000   -4,178229272e-01    1,477513313e-01   -3,228463233e-02   -3,932409286e-01    0,000000000e+00    0,000000000e+00    0,000000000e+00    0,000000000e+00
     1038000000   -2,153281420e-01    2,938923538e-01   -2,465568632e-01   -2,620823085e-01    0,000000000e+00    0,000000000e+00    0,000000000e+00    0,000000000e+00
     1052000000   -5,433274899e-03    2,822422385e-01   -3,182124496e-01   -4,673807323e-02    0,000000000e+00    0,000000000e+00    0,000000000e+00    0,000000000e+00
     1066000000    1,354136467e-01    1,650470495e-01   -2,569576800e-01    1,436605901e-01    0,000000000e+00    0,000000000e+00    0,000000000e+00    0,000000000e+00
     1080000000    1,952643692e-01   -2,964436775e-03   -1,197300106e-01    2,639636695e-01    0,000000000e+00    0,000000000e+00    0,000000000e+00    0,000000000e+00
     1094000000    1,564685702e-01   -1,744543165e-01    6,344261020e-02    3,047872782e-01    0,000000000e+00    0,000000000e+00    0,000000000e+00    0,000000000e+00
     1108000000   -1,900733099e-03   -3,083482087e-01    2,760572135e-01    2,445252985e-01    0,000000000e+00    0,000000000e+00    0,000000000e+00    0,000000000e+00
     1122000000   -2,522493005e-01   -2,649157047e-01    4,707071483e-01    1,297246851e-02    0,000000000e+00    0,000000000e+00    0,000000000e+00    0,000000000e+00
     1136000000   -3,156683743e-01    3,417538106e-02    4,000211954e-01   -3,930085897e-01    0,000000000e+00    0,000000000e+00    0,000000000e+00    0,000000000e+00
     1150000000   -4,134260491e-02    1,495043933e-01    6,872880738e-03   -5,440745950e-01    0,000000000e+00    0,000000000e+00    0,000000000e+00    0,000000000e+00
     1164000000    1,222494468e-01   -6,073901057e-02   -2,785286605e-01   -3,789099157e-01    0,000000000e+00    0,000000000e+00    0,000000000e+00    0,000000000e+00
     1178000000    2,200069278e-02   -3,033789098e-01   -3,664956391e-01   -1,498923600e-01    0,000000000e+00    0,000000000e+00    0,000000000e+00    0,000000000e+00
     1192000000   -2,676791847e-01   -3,745293021e-01   -3,227837384e-01    5,405585840e-02    0,000000000e+00    0,000000000e+00    0,000000000e+00    0,000000000e+00
     1206000000   -5,220418572e-01   -1,573016793e-01   -1,694539040e-01    1,824148595e-01    0,000000000e+00    0,000000000e+00    0,000000000e+00    0,000000000e+00
     1220000000   -5,032294989e-01    1,746926606e-01    2,733353758e-03    1,587398350e-01    0,000000000e+00    0,000000000e+00    0,000000000e+00    0,000000000e+00
     1234000000   -2,804104984e-01    3,563190699e-01    7,141739875e-02    5,834250897e-02    0,000000000e+00    0,000000000e+00    0,000000000e+00    0,000000000e+00
     1248000000   -3,967719898e-02    3,634818196e-01    5,720775574e-02   -1,843865030e-03    0,000000000e+00    0,000000000e+00    0,000000000e+00    0,000000000e+00
     1262000000    1,262980849e-01    2,614229620e-01    1,895962097e-02   -1,712873578e-02    0,000000000e+00    0,000000000e+00    0,000000000e+00    0,000000000e+00
     1276000000    2,121352255e-01    9,850320220e-02    1,869252446e-04    5,741489120e-03    0,000000000e+00    0,000000000e+00    0,000000000e+00    0,000000000e+00
     1290000000    2,285892963e-01   -7,576068491e-02    2,277393267e-02    5,468771607e-02    0,000000000e+00    0,000000000e+00    0,000000000e+00    0,000000000e+00
     1304000000    1,550609022e-01   -2,439207286e-01    1,363324672e-01    6,603496522e-02    0,000000000e+00    0,000000000e+00    0,000000000e+00    0,000000000e+00
     1318000000    3,433438763e-02   -3,323449492e-01    1,251085550e-01   -1,668311954e-01    0,000000000e+00    0,000000000e+00    0,000000000e+00    0,000000000e+00
     1332000000   -1,270346045e-01   -4,367200732e-01   -3,989064321e-02   -4,914801568e-02    0,000000000e+00    0,000000000e+00    0,000000000e+00    0,000000000e+00
     1346000000   -3,918924630e-01   -4,004927576e-01    3,028674796e-02    7,194353640e-02    0,000000000e+00    0,000000000e+00    0,000000000e+00    0,000000000e+00
     1360000000   -6,038961411e-01   -1,938358098e-01    1,365782320e-01    6,809037179e-02    0,000000000e+00    0,000000000e+00    0,000000000e+00    0,000000000e+00
     1374000000   -6,363618970e-01    1,279350668e-01    1,974010170e-01    6,988092326e-03    0,000000000e+00    0,000000000e+00    0,000000000e+00    0,000000000e+00
     1388000000   -4,656071961e-01    3,717353642e-01    2,059395611e-01   -6,098181382e-02    0,000000000e+00    0,000000000e+00    0,000000000e+00    0,000000000e+00
     1402000000   -2,285383195e-01    4,546376169e-01    1,927741170e-01   -9,519410133e-02    0,000000000e+00    0,000000000e+00    0,000000000e+00    0,000000000e+00
     1416000000   -3,025332093e-02    4,056324959e-01    1,707834750e-01   -1,100288779e-01    0,000000000e+00    0,000000000e+00    0,000000000e+00    0,000000000e+00
     1430000000    1,192537025e-01    3,023986518e-01    1,828694493e-01   -9,802737087e-02    0,000000000e+00    0,000000000e+00    0,000000000e+00    0,000000000e+00
     1444000000    2,054903954e-01    1,505351365e-01    1,553988010e-01   -9,334170818e-02    0,000000000e+00    0,000000000e+00    0,000000000e+00    0,000000000e+00
     1458000000    2,338542342e-01   -1,836536266e-02    1,380188763e-01   -7,158438861e-02    0,000000000e+00    0,000000000e+00    0,000000000e+00    0,000000000e+00
     1472000000    1,878377050e-01   -2,060919404e-01    1,373517215e-01   -3,221054375e-02    0,000000000e+00    0,000000000e+00    0,000000000e+00    0,000000000e+00
     1486000000    6,571073085e-02   -3,698599935e-01    1,725441664e-01    5,004921928e-02    0,000000000e+00    0,000000000e+00    0,000000000e+00    0,000000000e+00
     1500000000   -1,723019332e-01   -4,999228120e-01    2,377464324e-01    9,298537672e-02    0,000000000e+00    0,000000000e+00    0,000000000e+00    0,000000000e+00
