! NanoVNA-App
! Date: 2025-09-25 15:30:23
! Start: 100MHz Stop: 1,5GHz Points: 101
! S-Parameter data: F S11 S21 S12 S22
# Hz S RI R 50
!     Frequency           S11_Real           S11_Imag           S21_Real           S21_Imag           S12_Real           S12_Imag           S22_Real           S22_Imag
      100000000   -2,886095271e-02   -4,169528373e-03    3,740610778e-01   -7,217937112e-01    0,000000000e+00    0,000000000e+00    0,000000000e+00    0,000000000e+00
      114000000   -1,654941216e-02    1,149151195e-02   -8,915408701e-02   -8,054297566e-01    0,000000000e+00    0,000000000e+00    0,000000000e+00    0,000000000e+00
      128000000    3,417439293e-03    1,058399212e-02   -5,146102905e-01   -6,206840873e-01    0,000000000e+00    0,000000000e+00    0,000000000e+00    0,000000000e+00
      142000000    1,454126649e-02   -2,945048967e-03   -7,670328617e-01   -2,365330011e-01    0,000000000e+00    0,000000000e+00    0,000000000e+00    0,000000000e+00
      156000000    1,549157221e-02   -1,499627810e-02   -7,713275552e-01    2,217014730e-01    0,000000000e+00    0,000000000e+00    0,000000000e+00    0,000000000e+00
      170000000    1,668309979e-02   -2,256873809e-02   -5,181110501e-01    6,047452688e-01    0,000000000e+00    0,000000000e+00    0,000000000e+00    0,000000000e+00
      184000000    2,096549794e-02   -3,705324978e-02   -1,013937891e-01    7,861559391e-01    0,000000000e+00    0,000000000e+00    0,000000000e+00    0,000000000e+00
      198000000    1,297572162e-02   -6,240126491e-02    3,430574834e-01    7,123327851e-01    0,000000000e+00    0,000000000e+00    0,000000000e+00    0,000000000e+00
      212000000   -1,861031353e-02   -8,129310608e-02    6,782262325e-01    4,099478424e-01    0,000000000e+00    0,000000000e+00    0,000000000e+00    0,000000000e+00
      226000000   -6,163240597e-02   -6,920243055e-02    7,957644463e-01   -3,062779643e-02    0,000000000e+00    0,000000000e+00    0,000000000e+00    0,000000000e+00
      240000000   -8,259142190e-02   -2,560055256e-02    6,462611556e-01   -4,670825303e-01    0,000000000e+00    0,000000000e+00    0,000000000e+00    0,000000000e+00
      254000000   -6,352639198e-02    1,724010333e-02    2,761724889e-01   -7,434974909e-01    0,000000000e+00    0,000000000e+00    0,000000000e+00    0,000000000e+00
      268000000   -2,390827797e-02    2,896838635e-02   -1,780262738e-01   -7,643035650e-01    0,000000000e+00    0,000000000e+00    0,000000000e+00    0,000000000e+00
      282000000    4,193572327e-03    1,196504757e-02   -5,620320439e-01   -5,359188318e-01    0,000000000e+00    0,000000000e+00    0,000000000e+00    0,000000000e+00
      296000000    9,677004069e-03   -7,817175239e-03   -7,599821687e-01   -1,398761272e-01    0,000000000e+00    0,000000000e+00    0,000000000e+00    0,000000000e+00
      310000000    1,106432639e-02   -1,628462411e-02   -7,129836679e-01    2,976210415e-01    0,000000000e+00    0,000000000e+00    0,000000000e+00    0,000000000e+00
      324000000    1,948699355e-02   -2,645506151e-02   -4,275047183e-01    6,384880543e-01    0,000000000e+00    0,000000000e+00    0,000000000e+00    0,000000000e+00
      338000000    2,569747716e-02   -5,196828768e-02   -8,984304965e-03    7,596772909e-01    0,000000000e+00    0,000000000e+00    0,000000000e+00    0,000000000e+00
      352000000    7,350899745e-03   -8,460571617e-02    4,069374204e-01    6,404706240e-01    0,000000000e+00    0,000000000e+00    0,000000000e+00    0,000000000e+00
      366000000   -3,480879962e-02   -9,542874247e-02    6,905502677e-01    3,114728332e-01    0,000000000e+00    0,000000000e+00    0,000000000e+00    0,000000000e+00
      380000000   -7,057559490e-02   -7,117428631e-02    7,477200627e-01   -1,262471527e-01    0,000000000e+00    0,000000000e+00    0,000000000e+00    0,000000000e+00
      394000000   -7,271006703e-02   -3,227024898e-02    5,458101630e-01   -5,225374103e-01    0,000000000e+00    0,000000000e+00    0,000000000e+00    0,000000000e+00
      408000000   -4,631258547e-02   -1,607457921e-02    1,620543003e-01   -7,318059206e-01    0,000000000e+00    0,000000000e+00    0,000000000e+00    0,000000000e+00
      422000000   -2,818630449e-02   -3,200043365e-02   -2,678792477e-01   -6,949073076e-01    0,000000000e+00    0,000000000e+00    0,000000000e+00    0,000000000e+00
      436000000   -4,065384716e-02   -5,181637779e-02   -6,036229134e-01   -4,317706525e-01    0,000000000e+00    0,000000000e+00    0,000000000e+00    0,000000000e+00
      450000000   -6,724335253e-02   -4,400568083e-02   -7,405253649e-01   -2,140534110e-02    0,000000000e+00    0,000000000e+00    0,000000000e+00    0,000000000e+00
      464000000   -7,327839732e-02   -1,160785556e-02   -6,184273958e-01    3,974706233e-01    0,000000000e+00    0,000000000e+00    0,000000000e+00    0,000000000e+00
      478000000   -4,759984463e-02    1,169653889e-02   -2,830851972e-01    6,672564149e-01    0,000000000e+00    0,000000000e+00    0,000000000e+00    0,000000000e+00
      492000000   -1,585515030e-02    6,588785443e-03    1,375026405e-01    7,020082474e-01    0,000000000e+00    0,000000000e+00    0,000000000e+00    0,000000000e+00
      506000000   -2,256068867e-03   -1,575962640e-02    4,985651672e-01    5,019497275e-01    0,000000000e+00    0,000000000e+00    0,000000000e+00    0,000000000e+00
      520000000   -4,704933614e-03   -3,181551397e-02    6,892648339e-01    1,417358816e-01    0,000000000e+00    0,000000000e+00    0,000000000e+00    0,000000000e+00
      534000000   -3,819456557e-03   -3,862909600e-02    6,432294846e-01   -2,630049884e-01    0,000000000e+00    0,000000000e+00    0,000000000e+00    0,000000000e+00
      548000000    6,171391811e-03   -5,396483094e-02    3,814181983e-01   -5,674474835e-01    0,000000000e+00    0,000000000e+00    0,000000000e+00    0,000000000e+00
      562000000    3,419623943e-03   -8,931714296e-02    2,856943524e-03   -6,725707054e-01    0,000000000e+00    0,000000000e+00    0,000000000e+00    0,000000000e+00
      576000000   -3,386721388e-02   -1,242054701e-01   -3,692688942e-01   -5,568915009e-01    0,000000000e+00    0,000000000e+00    0,000000000e+00    0,000000000e+00
      590000000   -9,616123140e-02   -1,227055714e-01   -6,221612692e-01   -2,646820247e-01    0,000000000e+00    0,000000000e+00    0,000000000e+00    0,000000000e+00
      604000000   -1,395228654e-01   -7,145760953e-02   -6,650251150e-01    1,383084804e-01    0,000000000e+00    0,000000000e+00    0,000000000e+00    0,000000000e+00
      618000000   -1,291222721e-01   -9,516554885e-03   -4,640382230e-01    4,941383898e-01    0,000000000e+00    0,000000000e+00    0,000000000e+00    0,000000000e+00
      632000000   -8,350772411e-02    1,653611474e-02   -9,860064834e-02    6,634532809e-01    0,000000000e+00    0,000000000e+00    0,000000000e+00    0,000000000e+00
      646000000   -5,045543239e-02    8,790001157e-04    2,876057029e-01    5,957709551e-01    0,000000000e+00    0,000000000e+00    0,000000000e+00    0,000000000e+00
      660000000   -5,317671224e-02   -2,208201773e-02    5,681129694e-01    3,227270544e-01    0,000000000e+00    0,000000000e+00    0,000000000e+00    0,000000000e+00
      674000000   -7,062285393e-02   -1,717485860e-02    6,424993873e-01   -6,540914625e-02    0,000000000e+00    0,000000000e+00    0,000000000e+00    0,000000000e+00
      688000000   -6,902151555e-02    9,257511236e-03    4,717093408e-01   -4,278442264e-01    0,000000000e+00    0,000000000e+00    0,000000000e+00    0,000000000e+00
      702000000   -3,840483725e-02    2,638934553e-02    1,203529313e-01   -6,071053147e-01    0,000000000e+00    0,000000000e+00    0,000000000e+00    0,000000000e+00
      716000000    1,839977340e-03    1,764852554e-02   -2,654844224e-01   -5,468208790e-01    0,000000000e+00    0,000000000e+00    0,000000000e+00    0,000000000e+00
      730000000    3,653124347e-02   -1,150313020e-02   -5,285698175e-01   -2,687838078e-01    0,000000000e+00    0,000000000e+00    0,000000000e+00    0,000000000e+00
      744000000    6,529084593e-02   -6,182502210e-02   -5,641640425e-01    1,060104892e-01    0,000000000e+00    0,000000000e+00    0,000000000e+00    0,000000000e+00
      758000000    6,698572636e-02   -1,523824483e-01   -3,636061549e-01    4,102366865e-01    0,000000000e+00    0,000000000e+00    0,000000000e+00    0,000000000e+00
      772000000   -1,320397668e-02   -2,626841068e-01   -3,369324282e-02    5,146245360e-01    0,000000000e+00    0,000000000e+00    0,000000000e+00    0,000000000e+00
      786000000   -2,070647478e-01   -3,040845096e-01    2,749958038e-01    3,959307075e-01    0,000000000e+00    0,000000000e+00    0,000000000e+00    0,000000000e+00
      800000000   -4,256667197e-01   -1,307001710e-01    4,169296622e-01    9,895002097e-02    0,000000000e+00    0,000000000e+00    0,000000000e+00    0,000000000e+00
      814000000   -3,886982501e-01    2,208851278e-01    2,815862894e-01   -1,729840189e-01    0,000000000e+00    0,000000000e+00    0,000000000e+00    0,000000000e+00
      828000000   -4,967983440e-02    3,672633469e-01    5,489987507e-02   -1,884935796e-01    0,000000000e+00    0,000000000e+00    0,000000000e+00    0,000000000e+00
      842000000    2,350398302e-01    1,860664040e-01   -1,686715893e-02   -7,023236901e-02    0,000000000e+00    0,000000000e+00    0,000000000e+00    0,000000000e+00
      856000000    2,808172107e-01   -1,247836873e-01    4,592231661e-02   -1,271567587e-02    0,000000000e+00    0,000000000e+00    0,000000000e+00    0,000000000e+00
      870000000    7,450442761e-02   -3,756243885e-01    1,141227409e-01   -9,098991007e-02    0,000000000e+00    0,000000000e+00    0,000000000e+00    0,000000000e+00
      884000000   -2,961005867e-01   -3,603148758e-01    2,742805146e-02   -2,448920757e-01    0,000000000e+00    0,000000000e+00    0,000000000e+00    0,000000000e+00
      898000000   -4,712462127e-01    9,062308818e-03   -2,221217453e-01   -2,268627137e-01    0,000000000e+00    0,000000000e+00    0,000000000e+00    0,000000000e+00
      912000000   -2,243420184e-01    2,930240035e-01   -3,454384804e-01    5,935539305e-02    0,000000000e+00    0,000000000e+00    0,000000000e+00    0,000000000e+00
      926000000    6,694125384e-02    2,644634545e-01   -2,174825370e-01    2,670309842e-01    0,000000000e+00    0,000000000e+00    0,000000000e+00    0,000000000e+00
      940000000    2,148998231e-01    7,928563654e-02   -3,573786467e-02    3,292639852e-01    0,000000000e+00    0,000000000e+00    0,000000000e+00    0,000000000e+00
      954000000    2,241548896e-01   -1,262125373e-01    1,301074624e-01    3,078086078e-01    0,000000000e+00    0,000000000e+00    0,000000000e+00    0,000000000e+00
      968000000    1,143249497e-01   -3,020604849e-01    2,691377997e-01    2,180981785e-01    0,000000000e+00    0,000000000e+00    0,000000000e+00    0,000000000e+00
      982000000   -8,141262829e-02   -3,896491230e-01    3,661553860e-01    6,390793622e-02    0,000000000e+00    0,000000000e+00    0,000000000e+00    0,000000000e+00
      996000000   -3,142046928e-01   -3,293581605e-01    3,682578504e-01   -1,455000937e-01    0,000000000e+00    0,000000000e+00    0,000000000e+00    0,000000000e+00
     1010000000   -4,638470411e-01   -1,141683087e-01    2,239271551e-01   -3,397521377e-01    0,000000000e+00    0,000000000e+00    0,000000000e+00    0,000000000e+00
     1024000000   -4,151535928e-01    1,526094228e-01   -3,204394877e-02   -3,918218315e-01    0,000000000e+00    0,000000000e+00    0,000000000e+00    0,000000000e+00
     1038000000   -2,146981210e-01    2,937058508e-01   -2,476099581e-01   -2,600494921e-01    0,000000000e+00    0,000000000e+00    0,000000000e+00    0,000000000e+00
     1052000000   -1,048600301e-02    2,767725885e-01   -3,161762953e-01   -4,800587520e-02    0,000000000e+00    0,000000000e+00    0,000000000e+00    0,000000000e+00
     1066000000    1,361653805e-01    1,660178155e-01   -2,606846988e-01    1,423900127e-01    0,000000000e+00    0,000000000e+00    0,000000000e+00    0,000000000e+00
     1080000000    1,918236017e-01   -1,358676935e-03   -1,177765578e-01    2,637554109e-01    0,000000000e+00    0,000000000e+00    0,000000000e+00    0,000000000e+00
     1094000000    1,522377282e-01   -1,779065728e-01    6,495162845e-02    3,062425554e-01    0,000000000e+00    0,000000000e+00    0,000000000e+00    0,000000000e+00
     1108000000   -2,247373195e-04   -3,070320785e-01    2,750775516e-01    2,453856915e-01    0,000000000e+00    0,000000000e+00    0,000000000e+00    0,000000000e+00
     1122000000   -2,466916144e-01   -2,625364065e-01    4,724084735e-01    1,202000864e-02    0,000000000e+00    0,000000000e+00    0,000000000e+00    0,000000000e+00
     1136000000   -3,199169338e-01    2,998721972e-02    3,983485997e-01   -3,924124241e-01    0,000000000e+00    0,000000000e+00    0,000000000e+00    0,000000000e+00
     1150000000   -3,946883604e-02    1,487960517e-01    7,000978570e-03   -5,448883176e-01    0,000000000e+00    0,000000000e+00    0,000000000e+00    0,000000000e+00
     1164000000    1,192074865e-01   -6,241689250e-02   -2,775150239e-01   -3,776147962e-01    0,000000000e+00    0,000000000e+00    0,000000000e+00    0,000000000e+00
     1178000000    1,549130306e-02   -3,077829480e-01   -3,697600961e-01   -1,523030996e-01    0,000000000e+00    0,000000000e+00    0,000000000e+00    0,000000000e+00
     1192000000   -2,648368776e-01   -3,731731474e-01   -3,239502609e-01    5,611144751e-02    0,000000000e+00    0,000000000e+00    0,000000000e+00    0,000000000e+00
     1206000000   -5,257546306e-01   -1,591937393e-01   -1,686290503e-01    1,843503118e-01    0,000000000e+00    0,000000000e+00    0,000000000e+00    0,000000000e+00
     1220000000   -5,062823892e-01    1,740891635e-01    1,975172199e-03    1,577206552e-01    0,000000000e+00    0,000000000e+00    0,000000000e+00    0,000000000e+00
     1234000000   -2,783269584e-01    3,701538444e-01    7,010967284e-02    6,443129480e-02    0,000000000e+00    0,000000000e+00    0,000000000e+00    0,000000000e+00
     1248000000   -4,568218067e-02    3,695553243e-01    5,545901135e-02   -4,422026686e-03    0,000000000e+00    0,000000000e+00    0,000000000e+00    0,000000000e+00
     1262000000    1,270977259e-01    2,582616806e-01    1,715230010e-02   -2,063289843e-02    0,000000000e+00    0,000000000e+00    0,000000000e+00    0,000000000e+00
     1276000000    2,135024816e-01    1,035265625e-01   -1,792075927e-03    8,056326769e-03    0,000000000e+00    0,000000000e+00    0,000000000e+00    0,000000000e+00
     1290000000    2,253875136e-01   -7,466461509e-02    2,229488455e-02    4,755465314e-02    0,000000000e+00    0,000000000e+00    0,000000000e+00    0,000000000e+00
     1304000000    1,532171816e-01   -2,402660400e-01    1,280785501e-01    6,691493839e-02    0,000000000e+00    0,000000000e+00    0,000000000e+00    0,000000000e+00
     1318000000    3,530222550e-02   -3,389112353e-01    1,250439435e-01   -1,660453230e-01    0,000000000e+00    0,000000000e+00    0,000000000e+00    0,000000000e+00
     1332000000   -1,291438490e-01   -4,342688620e-01   -4,177557677e-02   -4,078369215e-02    0,000000000e+00    0,000000000e+00    0,000000000e+00    0,000000000e+00
     1346000000   -3,927171528e-01   -4,083101451e-01    2,038439736e-02    7,083722949e-02    0,000000000e+00    0,000000000e+00    0,000000000e+00    0,000000000e+00
     1360000000   -6,109746099e-01   -1,940535903e-01    1,276684403e-01    6,424313039e-02    0,000000000e+00    0,000000000e+00    0,000000000e+00    0,000000000e+00
     1374000000   -6,320583820e-01    1,308005154e-01    2,059621662e-01    9,481180459e-03    0,000000000e+00    0,000000000e+00    0,000000000e+00    0,000000000e+00
     1388000000   -4,737215042e-01    3,709008098e-01    2,018227875e-01   -5,836328864e-02    0,000000000e+00    0,000000000e+00    0,000000000e+00    0,000000000e+00
     1402000000   -2,294277847e-01    4,518131614e-01    1,933709830e-01   -1,006773710e-01    0,000000000e+00    0,000000000e+00    0,000000000e+00    0,000000000e+00
     1416000000   -2,298159525e-02    4,138220549e-01    1,762911528e-01   -9,793683887e-02    0,000000000e+00    0,000000000e+00    0,000000000e+00    0,000000000e+00
     1430000000    1,221917868e-01    2,954255044e-01    1,626301408e-01   -9,375684708e-02    0,000000000e+00    0,000000000e+00    0,000000000e+00    0,000000000e+00
     1444000000    2,091472000e-01    1,520622373e-01    1,603169441e-01   -9,286201745e-02    0,000000000e+00    0,000000000e+00    0,000000000e+00    0,000000000e+00
     1458000000    2,363856435e-01   -1,941115037e-02    1,475029290e-01   -7,605085522e-02    0,000000000e+00    0,000000000e+00    0,000000000e+00    0,000000000e+00
     1472000000    1,937377751e-01   -1,996777505e-01    1,506238580e-01   -2,534191869e-02    0,000000000e+00    0,000000000e+00    0,000000000e+00    0,000000000e+00
     1486000000    6,566319615e-02   -3,706246316e-01    1,691928953e-01    4,139184579e-02    0,000000000e+00    0,000000000e+00    0,000000000e+00    0,000000000e+00
     1500000000   -1,699775159e-01   -4,992948174e-01    2,647130191e-01    8,545473218e-02    0,000000000e+00    0,000000000e+00    0,000000000e+00    0,000000000e+00
