! NanoVNA-App
! Date: 2025-09-25 15:34:17
! Start: 100MHz Stop: 1,5GHz Points: 101
! S-Parameter data: F S11 S21 S12 S22
# Hz S RI R 50
!     Frequency           S11_Real           S11_Imag           S21_Real           S21_Imag           S12_Real           S12_Imag           S22_Real           S22_Imag
      100000000   -2,886493318e-02   -4,171072971e-03    3,741328418e-01   -7,217823267e-01    0,000000000e+00    0,000000000e+00    0,000000000e+00    0,000000000e+00
      114000000   -1,653468423e-02    1,150431950e-02   -8,904306591e-02   -8,053661585e-01    0,000000000e+00    0,000000000e+00    0,000000000e+00    0,000000000e+00
      128000000    3,434017999e-03    1,050441433e-02   -5,144724846e-01   -6,203181744e-01    0,000000000e+00    0,000000000e+00    0,000000000e+00    0,000000000e+00
      142000000    1,454287022e-02   -2,963552019e-03   -7,673329711e-01   -2,367116511e-01    0,000000000e+00    0,000000000e+00    0,000000000e+00    0,000000000e+00
      156000000    1,553155202e-02   -1,500610448e-02   -7,713981867e-01    2,217629701e-01    0,000000000e+00    0,000000000e+00    0,000000000e+00    0,000000000e+00
      170000000    1,667830721e-02   -2,251345292e-02   -5,180149674e-01    6,046479344e-01    0,000000000e+00    0,000000000e+00    0,000000000e+00    0,000000000e+00
      184000000    2,101055719e-02   -3,706141189e-02   -1,013883874e-01    7,860946655e-01    0,000000000e+00    0,000000000e+00    0,000000000e+00    0,000000000e+00
      198000000    1,299455110e-02   -6,246193871e-02    3,433159888e-01    7,125419378e-01    0,000000000e+00    0,000000000e+00    0,000000000e+00    0,000000000e+00
      212000000   -1,867941208e-02   -8,131486923e-02    6,783194542e-01    4,101979733e-01    0,000000000e+00    0,000000000e+00    0,000000000e+00    0,000000000e+00
      226000000   -6,175421551e-02   -6,920299679e-02    7,958009839e-01   -3,054496460e-02    0,000000000e+00    0,000000000e+00    0,000000000e+00    0,000000000e+00
      240000000   -8,265389502e-02   -2,558406070e-02    6,459414363e-01   -4,668325186e-01    0,000000000e+00    0,000000000e+00    0,000000000e+00    0,000000000e+00
      254000000   -6,349667907e-02    1,722650789e-02    2,760551572e-01   -7,433453798e-01    0,000000000e+00    0,000000000e+00    0,000000000e+00    0,000000000e+00
      268000000   -2,383283153e-02    2,891178243e-02   -1,780456305e-01   -7,638899684e-01    0,000000000e+00    0,000000000e+00    0,000000000e+00    0,000000000e+00
      282000000    4,222052172e-03    1,198499277e-02   -5,616827011e-01   -5,355345607e-01    0,000000000e+00    0,000000000e+00    0,000000000e+00    0,000000000e+00
      296000000    9,646721184e-03   -7,822700776e-03   -7,596997023e-01   -1,396812201e-01    0,000000000e+00    0,000000000e+00    0,000000000e+00    0,000000000e+00
      310000000    1,100555062e-02   -1,622403786e-02   -7,118059397e-01    2,991139591e-01    0,000000000e+00    0,000000000e+00    0,000000000e+00    0,000000000e+00
      324000000    1,972418092e-02   -2,660655603e-02   -4,272940159e-01    6,381901503e-01    0,000000000e+00    0,000000000e+00    0,000000000e+00    0,000000000e+00
      338000000    2,554828674e-02   -5,185154080e-02   -7,462107576e-03    7,610766888e-01    0,000000000e+00    0,000000000e+00    0,000000000e+00    0,000000000e+00
      352000000    7,586072665e-03   -8,485183120e-02    4,069376588e-01    6,391252279e-01    0,000000000e+00    0,000000000e+00    0,000000000e+00    0,000000000e+00
      366000000   -3,471534327e-02   -9,574773163e-02    6,908617616e-01    3,112226427e-01    0,000000000e+00    0,000000000e+00    0,000000000e+00    0,000000000e+00
      380000000   -7,063584775e-02   -7,099771500e-02    7,475739717e-01   -1,256190240e-01    0,000000000e+00    0,000000000e+00    0,000000000e+00    0,000000000e+00
      394000000   -7,265543193e-02   -3,238062188e-02    5,467692614e-01   -5,215287209e-01    0,000000000e+00    0,000000000e+00    0,000000000e+00    0,000000000e+00
      408000000   -4,640185460e-02   -1,593990438e-02    1,623347253e-01   -7,317455411e-01    0,000000000e+00    0,000000000e+00    0,000000000e+00    0,000000000e+00
      422000000   -2,838585712e-02   -3,207203373e-02   -2,666619122e-01   -6,950115561e-01    0,000000000e+00    0,000000000e+00    0,000000000e+00    0,000000000e+00
      436000000   -4,069300741e-02   -5,193064734e-02   -6,041633487e-01   -4,318303168e-01    0,000000000e+00    0,000000000e+00    0,000000000e+00    0,000000000e+00
      450000000   -6,741692871e-02   -4,397777095e-02   -7,405877113e-01   -2,155535668e-02    0,000000000e+00    0,000000000e+00    0,000000000e+00    0,000000000e+00
      464000000   -7,354228944e-02   -1,156182121e-02   -6,188120842e-01    3,977922201e-01    0,000000000e+00    0,000000000e+00    0,000000000e+00    0,000000000e+00
      478000000   -4,771276191e-02    1,163446344e-02   -2,825260460e-01    6,678481698e-01    0,000000000e+00    0,000000000e+00    0,000000000e+00    0,000000000e+00
      492000000   -1,589257084e-02    5,990937818e-03    1,372828782e-01    7,005722523e-01    0,000000000e+00    0,000000000e+00    0,000000000e+00    0,000000000e+00
      506000000   -2,584303962e-03   -1,561427955e-02    4,984708428e-01    5,032092929e-01    0,000000000e+00    0,000000000e+00    0,000000000e+00    0,000000000e+00
      520000000   -5,070318934e-03   -3,180914372e-02    6,885933876e-01    1,400697082e-01    0,000000000e+00    0,000000000e+00    0,000000000e+00    0,000000000e+00
      534000000   -3,736478509e-03   -3,822413832e-02    6,438935399e-01   -2,627059221e-01    0,000000000e+00    0,000000000e+00    0,000000000e+00    0,000000000e+00
      548000000    6,230699830e-03   -5,366159230e-02    3,813882172e-01   -5,675439239e-01    0,000000000e+00    0,000000000e+00    0,000000000e+00    0,000000000e+00
      562000000    3,175772494e-03   -8,983388543e-02    3,190693446e-03   -6,734597683e-01    0,000000000e+00    0,000000000e+00    0,000000000e+00    0,000000000e+00
      576000000   -3,451203555e-02   -1,242629662e-01   -3,688682616e-01   -5,576312542e-01    0,000000000e+00    0,000000000e+00    0,000000000e+00    0,000000000e+00
      590000000   -9,633522481e-02   -1,226136982e-01   -6,199697852e-01   -2,648502290e-01    0,000000000e+00    0,000000000e+00    0,000000000e+00    0,000000000e+00
      604000000   -1,396628171e-01   -7,181290537e-02   -6,656223536e-01    1,379711032e-01    0,000000000e+00    0,000000000e+00    0,000000000e+00    0,000000000e+00
      618000000   -1,297910064e-01   -9,305919521e-03   -4,647213817e-01    4,950109124e-01    0,000000000e+00    0,000000000e+00    0,000000000e+00    0,000000000e+00
      632000000   -8,427169919e-02    1,690603793e-02   -9,899428487e-02    6,635558009e-01    0,000000000e+00    0,000000000e+00    0,000000000e+00    0,000000000e+00
      646000000   -5,049921572e-02    6,557705346e-04    2,885023057e-01    5,956413150e-01    0,000000000e+00    0,000000000e+00    0,000000000e+00    0,000000000e+00
      660000000   -5,340968445e-02   -2,230086736e-02    5,671594739e-01    3,227553964e-01    0,000000000e+00    0,000000000e+00    0,000000000e+00    0,000000000e+00
      674000000   -6,979589164e-02   -1,814259216e-02    6,431325078e-01   -6,564022601e-02    0,000000000e+00    0,000000000e+00    0,000000000e+00    0,000000000e+00
      688000000   -6,789021939e-02    8,494426496e-03    4,718466401e-01   -4,276618659e-01    0,000000000e+00    0,000000000e+00    0,000000000e+00    0,000000000e+00
      702000000   -3,842414171e-02    2,637428604e-02    1,232877672e-01   -6,157164574e-01    0,000000000e+00    0,000000000e+00    0,000000000e+00    0,000000000e+00
      716000000    2,770324238e-03    1,735700481e-02   -2,646578252e-01   -5,468069911e-01    0,000000000e+00    0,000000000e+00    0,000000000e+00    0,000000000e+00
      730000000    3,751767799e-02   -1,114990748e-02   -5,284940004e-01   -2,694430351e-01    0,000000000e+00    0,000000000e+00    0,000000000e+00    0,000000000e+00
      744000000    6,470508128e-02   -6,296783686e-02   -5,642173290e-01    1,068854630e-01    0,000000000e+00    0,000000000e+00    0,000000000e+00    0,000000000e+00
      758000000    6,661839783e-02   -1,527592987e-01   -3,631861806e-01    4,103508294e-01    0,000000000e+00    0,000000000e+00    0,000000000e+00    0,000000000e+00
      772000000   -1,237428281e-02   -2,623179853e-01   -3,492052108e-02    5,149983168e-01    0,000000000e+00    0,000000000e+00    0,000000000e+00    0,000000000e+00
      786000000   -2,064380646e-01   -3,032653034e-01    2,742812634e-01    3,956339955e-01    0,000000000e+00    0,000000000e+00    0,000000000e+00    0,000000000e+00
      800000000   -4,251976311e-01   -1,309377998e-01    4,169423282e-01    9,935043752e-02    0,000000000e+00    0,000000000e+00    0,000000000e+00    0,000000000e+00
      814000000   -3,904899955e-01    2,216115743e-01    2,819498479e-01   -1,731368452e-01    0,000000000e+00    0,000000000e+00    0,000000000e+00    0,000000000e+00
      828000000   -5,027307570e-02    3,674633503e-01    5,532610789e-02   -1,893652081e-01    0,000000000e+00    0,000000000e+00    0,000000000e+00    0,000000000e+00
      842000000    2,355083227e-01    1,861096770e-01   -1,718135923e-02   -7,071118057e-02    0,000000000e+00    0,000000000e+00    0,000000000e+00    0,000000000e+00
      856000000    2,806907892e-01   -1,241288856e-01    4,525303468e-02   -1,315931790e-02    0,000000000e+00    0,000000000e+00    0,000000000e+00    0,000000000e+00
      870000000    7,439438999e-02   -3,763496578e-01    1,135206074e-01   -9,116989374e-02    0,000000000e+00    0,000000000e+00    0,000000000e+00    0,000000000e+00
      884000000   -2,959446907e-01   -3,624029458e-01    2,867348865e-02   -2,456282824e-01    0,000000000e+00    0,000000000e+00    0,000000000e+00    0,000000000e+00
      898000000   -4,721046388e-01    9,605542757e-03   -2,218019366e-01   -2,272808701e-01    0,000000000e+00    0,000000000e+00    0,000000000e+00    0,000000000e+00
      912000000   -2,253196239e-01    2,944986522e-01   -3,549481332e-01    6,889713556e-02    0,000000000e+00    0,000000000e+00    0,000000000e+00    0,000000000e+00
      926000000    6,720785052e-02    2,654840052e-01   -2,169262767e-01    2,658872902e-01    0,000000000e+00    0,000000000e+00    0,000000000e+00    0,000000000e+00
      940000000    2,147579342e-01    8,111831546e-02   -3,611561283e-02    3,297090530e-01    0,000000000e+00    0,000000000e+00    0,000000000e+00    0,000000000e+00
      954000000    2,240955830e-01   -1,257267147e-01    1,308060586e-01    3,069317639e-01    0,000000000e+00    0,000000000e+00    0,000000000e+00    0,000000000e+00
      968000000    1,175455824e-01   -3,020965755e-01    2,715789676e-01    2,170061022e-01    0,000000000e+00    0,000000000e+00    0,000000000e+00    0,000000000e+00
      982000000   -8,500213176e-02   -3,881224692e-01    3,681834936e-01    6,383679062e-02    0,000000000e+00    0,000000000e+00    0,000000000e+00    0,000000000e+00
      996000000   -3,201570809e-01   -3,301131427e-01    3,677521646e-01   -1,450482011e-01    0,000000000e+00    0,000000000e+00    0,000000000e+00    0,000000000e+00
     1010000000   -4,637998343e-01   -1,074321046e-01    2,229279578e-01   -3,438892066e-01    0,000000000e+00    0,000000000e+00    0,000000000e+00    0,000000000e+00
     1024000000   -4,160384834e-01    1,532127708e-01   -3,254590556e-02   -3,920781314e-01    0,000000000e+00    0,000000000e+00    0,000000000e+00    0,000000000e+00
     1038000000   -2,205861807e-01    2,919745445e-01   -2,467843443e-01   -2,620773017e-01    0,000000000e+00    0,000000000e+00    0,000000000e+00    0,000000000e+00
     1052000000   -9,613058530e-03    2,765692174e-01   -3,162744641e-01   -4,533267394e-02    0,000000000e+00    0,000000000e+00    0,000000000e+00    0,000000000e+00
     1066000000    1,348325312e-01    1,642046571e-01   -2,564308345e-01    1,417300850e-01    0,000000000e+00    0,000000000e+00    0,000000000e+00    0,000000000e+00
     1080000000    1,967820525e-01   -2,103805600e-04   -1,179343984e-01    2,648211718e-01    0,000000000e+00    0,000000000e+00    0,000000000e+00    0,000000000e+00
     1094000000    1,528737992e-01   -1,763651520e-01    6,374562532e-02    3,048864901e-01    0,000000000e+00    0,000000000e+00    0,000000000e+00    0,000000000e+00
     1108000000   -4,199787974e-03   -3,009738624e-01    2,777452767e-01    2,455275357e-01    0,000000000e+00    0,000000000e+00    0,000000000e+00    0,000000000e+00
     1122000000   -2,527289987e-01   -2,642830014e-01    4,739958942e-01    1,097797975e-02    0,000000000e+00    0,000000000e+00    0,000000000e+00    0,000000000e+00
     1136000000   -3,229107857e-01    3,070490249e-02    3,981319368e-01   -3,898990154e-01    0,000000000e+00    0,000000000e+00    0,000000000e+00    0,000000000e+00
     1150000000   -4,286056757e-02    1,475636959e-01    5,077097099e-03   -5,394145250e-01    0,000000000e+00    0,000000000e+00    0,000000000e+00    0,000000000e+00
     1164000000    1,237717122e-01   -6,562991440e-02   -2,766949534e-01   -3,793947697e-01    0,000000000e+00    0,000000000e+00    0,000000000e+00    0,000000000e+00
     1178000000    1,490825508e-02   -3,050948977e-01   -3,714742362e-01   -1,509907246e-01    0,000000000e+00    0,000000000e+00    0,000000000e+00    0,000000000e+00
     1192000000   -2,677838206e-01   -3,739775419e-01   -3,250620663e-01    5,456287786e-02    0,000000000e+00    0,000000000e+00    0,000000000e+00    0,000000000e+00
     1206000000   -5,224893689e-01   -1,566989571e-01   -1,684076041e-01    1,837722510e-01    0,000000000e+00    0,000000000e+00    0,000000000e+00    0,000000000e+00
     1220000000   -5,081540942e-01    1,728115231e-01    3,325483063e-03    1,604942828e-01    0,000000000e+00    0,000000000e+00    0,000000000e+00    0,000000000e+00
     1234000000   -2,873060703e-01    3,618824184e-01    6,546482444e-02    6,204083189e-02    0,000000000e+00    0,000000000e+00    0,000000000e+00    0,000000000e+00
     1248000000   -4,121399671e-02    3,605214059e-01    5,698638037e-02   -8,747910149e-03    0,000000000e+00    0,000000000e+00    0,000000000e+00    0,000000000e+00
     1262000000    1,206238493e-01    2,543369532e-01    2,093248256e-02   -2,369068936e-02    0,000000000e+00    0,000000000e+00    0,000000000e+00    0,000000000e+00
     1276000000    2,120693475e-01    9,833063930e-02   -2,226363169e-03    4,134852905e-03    0,000000000e+00    0,000000000e+00    0,000000000e+00    0,000000000e+00
     1290000000    2,190918475e-01   -7,412086427e-02    1,700837724e-02    4,887774959e-02    0,000000000e+00    0,000000000e+00    0,000000000e+00    0,000000000e+00
     1304000000    1,571513116e-01   -2,400202155e-01    1,334715486e-01    6,723710895e-02    0,000000000e+00    0,000000000e+00    0,000000000e+00    0,000000000e+00
     1318000000    3,464681283e-02   -3,349957764e-01    1,303777695e-01   -1,637747884e-01    0,000000000e+00    0,000000000e+00    0,000000000e+00    0,000000000e+00
     1332000000   -1,274342090e-01   -4,336027801e-01   -4,785911739e-02   -4,550377280e-02    0,000000000e+00    0,000000000e+00    0,000000000e+00    0,000000000e+00
     1346000000   -4,018755257e-01   -4,054767787e-01    2,171847224e-02    7,031660527e-02    0,000000000e+00    0,000000000e+00    0,000000000e+00    0,000000000e+00
     1360000000   -6,178856492e-01   -1,841703951e-01    1,318595558e-01    7,375287265e-02    0,000000000e+00    0,000000000e+00    0,000000000e+00    0,000000000e+00
     1374000000   -6,293525696e-01    1,215084642e-01    2,098599672e-01    2,773026703e-03    0,000000000e+00    0,000000000e+00    0,000000000e+00    0,000000000e+00
     1388000000   -4,714618325e-01    3,693391979e-01    1,944499463e-01   -5,932744220e-02    0,000000000e+00    0,000000000e+00    0,000000000e+00    0,000000000e+00
     1402000000   -2,347692996e-01    4,519056082e-01    1,965308040e-01   -9,084143490e-02    0,000000000e+00    0,000000000e+00    0,000000000e+00    0,000000000e+00
     1416000000   -2,697196975e-02    4,145514965e-01    1,639902443e-01   -9,754317254e-02    0,000000000e+00    0,000000000e+00    0,000000000e+00    0,000000000e+00
     1430000000    1,239029542e-01    3,002265394e-01    2,012875676e-01   -9,418412298e-02    0,000000000e+00    0,000000000e+00    0,000000000e+00    0,000000000e+00
     1444000000    2,056113034e-01    1,494305432e-01    1,491630822e-01   -1,051447242e-01    0,000000000e+00    0,000000000e+00    0,000000000e+00    0,000000000e+00
     1458000000    2,366928905e-01   -1,588828862e-02    1,368204057e-01   -7,030128688e-02    0,000000000e+00    0,000000000e+00    0,000000000e+00    0,000000000e+00
     1472000000    1,928064078e-01   -1,984062046e-01    1,575489342e-01   -2,736667544e-02    0,000000000e+00    0,000000000e+00    0,000000000e+00    0,000000000e+00
     1486000000    6,386391819e-02   -3,781901896e-01    1,649729460e-01    2,393395640e-02    0,000000000e+00    0,000000000e+00    0,000000000e+00    0,000000000e+00
     1500000000   -1,710215062e-01   -4,889357984e-01    2,366963178e-01    1,102890000e-01    0,000000000e+00    0,000000000e+00    0,000000000e+00    0,000000000e+00
