! NanoVNA-App
! Date: 2025-09-25 15:31:37
! Start: 100MHz Stop: 1,5GHz Points: 101
! S-Parameter data: F S11 S21 S12 S22
# Hz S RI R 50
!     Frequency           S11_Real           S11_Imag           S21_Real           S21_Imag           S12_Real           S12_Imag           S22_Real           S22_Imag
      100000000   -2,886470594e-02   -4,175785929e-03    3,741122782e-01   -7,217523456e-01    0,000000000e+00    0,000000000e+00    0,000000000e+00    0,000000000e+00
      114000000   -1,651066914e-02    1,151261572e-02   -8,914039284e-02   -8,054478765e-01    0,000000000e+00    0,000000000e+00    0,000000000e+00    0,000000000e+00
      128000000    3,453822806e-03    1,059573330e-02   -5,147981048e-01   -6,206068993e-01    0,000000000e+00    0,000000000e+00    0,000000000e+00    0,000000000e+00
      142000000    1,454751752e-02   -2,947871108e-03   -7,670214176e-01   -2,365256250e-01    0,000000000e+00    0,000000000e+00    0,000000000e+00    0,000000000e+00
      156000000    1,438050158e-02   -1,481522154e-02   -7,644144297e-01    2,202369869e-01    0,000000000e+00    0,000000000e+00    0,000000000e+00    0,000000000e+00
      170000000    1,663542166e-02   -2,251663618e-02   -5,180098414e-01    6,044934988e-01    0,000000000e+00    0,000000000e+00    0,000000000e+00    0,000000000e+00
      184000000    2,099753357e-02   -3,707911074e-02   -1,015734598e-01    7,863022089e-01    0,000000000e+00    0,000000000e+00    0,000000000e+00    0,000000000e+00
      198000000    1,297896169e-02   -6,246619672e-02    3,431433737e-01    7,124894261e-01    0,000000000e+00    0,000000000e+00    0,000000000e+00    0,000000000e+00
      212000000   -1,866533421e-02   -8,130897582e-02    6,781219840e-01    4,101511538e-01    0,000000000e+00    0,000000000e+00    0,000000000e+00    0,000000000e+00
      226000000   -6,171355397e-02   -6,915859133e-02    7,958253026e-01   -3,064556792e-02    0,000000000e+00    0,000000000e+00    0,000000000e+00    0,000000000e+00
      240000000   -8,260327578e-02   -2,564264461e-02    6,457428932e-01   -4,666291773e-01    0,000000000e+00    0,000000000e+00    0,000000000e+00    0,000000000e+00
      254000000   -6,349572539e-02    1,724890806e-02    2,759719789e-01   -7,435262799e-01    0,000000000e+00    0,000000000e+00    0,000000000e+00    0,000000000e+00
      268000000   -2,381879278e-02    2,891383134e-02   -1,781783402e-01   -7,641146779e-01    0,000000000e+00    0,000000000e+00    0,000000000e+00    0,000000000e+00
      282000000    4,084660672e-03    1,198971458e-02   -5,620288849e-01   -5,355422497e-01    0,000000000e+00    0,000000000e+00    0,000000000e+00    0,000000000e+00
      296000000    9,682198986e-03   -7,873802446e-03   -7,594989538e-01   -1,394386590e-01    0,000000000e+00    0,000000000e+00    0,000000000e+00    0,000000000e+00
      310000000    1,127664000e-02   -1,612509973e-02   -7,124855518e-01    2,979321182e-01    0,000000000e+00    0,000000000e+00    0,000000000e+00    0,000000000e+00
      324000000    1,981434971e-02   -2,641022950e-02   -4,273160398e-01    6,377770901e-01    0,000000000e+00    0,000000000e+00    0,000000000e+00    0,000000000e+00
      338000000    2,562516183e-02   -5,239994079e-02   -1,048249658e-02    7,626992464e-01    0,000000000e+00    0,000000000e+00    0,000000000e+00    0,000000000e+00
      352000000    7,542880252e-03   -8,475615829e-02    4,063985050e-01    6,394947171e-01    0,000000000e+00    0,000000000e+00    0,000000000e+00    0,000000000e+00
      366000000   -3,472588956e-02   -9,536328912e-02    6,899683475e-01    3,107973635e-01    0,000000000e+00    0,000000000e+00    0,000000000e+00    0,000000000e+00
      380000000   -7,078971714e-02   -7,108820975e-02    7,481245399e-01   -1,257960796e-01    0,000000000e+00    0,000000000e+00    0,000000000e+00    0,000000000e+00
      394000000   -7,260657847e-02   -3,223496303e-02    5,470392108e-01   -5,220513940e-01    0,000000000e+00    0,000000000e+00    0,000000000e+00    0,000000000e+00
      408000000   -4,650084302e-02   -1,626624726e-02    1,608265787e-01   -7,327140570e-01    0,000000000e+00    0,000000000e+00    0,000000000e+00    0,000000000e+00
      422000000   -2,828577720e-02   -3,213405237e-02   -2,674921751e-01   -6,951831579e-01    0,000000000e+00    0,000000000e+00    0,000000000e+00    0,000000000e+00
      436000000   -4,069731757e-02   -5,186240748e-02   -6,037275195e-01   -4,312442243e-01    0,000000000e+00    0,000000000e+00    0,000000000e+00    0,000000000e+00
      450000000   -6,734641641e-02   -4,385874420e-02   -7,403746843e-01   -2,116576768e-02    0,000000000e+00    0,000000000e+00    0,000000000e+00    0,000000000e+00
      464000000   -7,339677960e-02   -1,183638163e-02   -6,182467341e-01    3,969412148e-01    0,000000000e+00    0,000000000e+00    0,000000000e+00    0,000000000e+00
      478000000   -4,778138548e-02    1,221061777e-02   -2,820225954e-01    6,674178839e-01    0,000000000e+00    0,000000000e+00    0,000000000e+00    0,000000000e+00
      492000000   -1,597045362e-02    6,517007016e-03    1,380501539e-01    7,016960382e-01    0,000000000e+00    0,000000000e+00    0,000000000e+00    0,000000000e+00
      506000000   -2,676946344e-03   -1,534677483e-02    4,988606572e-01    5,028912425e-01    0,000000000e+00    0,000000000e+00    0,000000000e+00    0,000000000e+00
      520000000   -4,618430976e-03   -3,178438917e-02    6,894447207e-01    1,428960562e-01    0,000000000e+00    0,000000000e+00    0,000000000e+00    0,000000000e+00
      534000000   -3,782544518e-03   -3,837233409e-02    6,435831189e-01   -2,627852261e-01    0,000000000e+00    0,000000000e+00    0,000000000e+00    0,000000000e+00
      548000000    5,982277449e-03   -5,387070403e-02    3,817540407e-01   -5,665041804e-01    0,000000000e+00    0,000000000e+00    0,000000000e+00    0,000000000e+00
      562000000    2,661509905e-03   -8,930157870e-02    2,101711230e-03   -6,724617481e-01    0,000000000e+00    0,000000000e+00    0,000000000e+00    0,000000000e+00
      576000000   -3,446720168e-02   -1,244875118e-01   -3,692097366e-01   -5,581459999e-01    0,000000000e+00    0,000000000e+00    0,000000000e+00    0,000000000e+00
      590000000   -9,616118670e-02   -1,226148754e-01   -6,198474169e-01   -2,650216520e-01    0,000000000e+00    0,000000000e+00    0,000000000e+00    0,000000000e+00
      604000000   -1,391955912e-01   -7,189522684e-02   -6,643284559e-01    1,378130168e-01    0,000000000e+00    0,000000000e+00    0,000000000e+00    0,000000000e+00
      618000000   -1,291935295e-01   -8,922007866e-03   -4,647549689e-01    4,945653379e-01    0,000000000e+00    0,000000000e+00    0,000000000e+00    0,000000000e+00
      632000000   -8,322537690e-02    1,694239862e-02   -9,966434538e-02    6,640487313e-01    0,000000000e+00    0,000000000e+00    0,000000000e+00    0,000000000e+00
      646000000   -5,141266063e-02    1,257669792e-04    2,870396972e-01    5,954160690e-01    0,000000000e+00    0,000000000e+00    0,000000000e+00    0,000000000e+00
      660000000   -5,301176384e-02   -2,098871022e-02    5,669056177e-01    3,237836957e-01    0,000000000e+00    0,000000000e+00    0,000000000e+00    0,000000000e+00
      674000000   -6,963194907e-02   -1,799615659e-02    6,432241201e-01   -6,538528204e-02    0,000000000e+00    0,000000000e+00    0,000000000e+00    0,000000000e+00
      688000000   -6,879316270e-02    8,466108702e-03    4,702794850e-01   -4,276770651e-01    0,000000000e+00    0,000000000e+00    0,000000000e+00    0,000000000e+00
      702000000   -3,662307933e-02    2,620325796e-02    1,172077507e-01   -6,102691889e-01    0,000000000e+00    0,000000000e+00    0,000000000e+00    0,000000000e+00
      716000000    2,793557709e-03    1,771522686e-02   -2,645059228e-01   -5,476003885e-01    0,000000000e+00    0,000000000e+00    0,000000000e+00    0,000000000e+00
      730000000    3,740295395e-02   -1,063865330e-02   -5,288152695e-01   -2,691358328e-01    0,000000000e+00    0,000000000e+00    0,000000000e+00    0,000000000e+00
      744000000    6,534271687e-02   -6,140394136e-02   -5,646885633e-01    1,063465327e-01    0,000000000e+00    0,000000000e+00    0,000000000e+00    0,000000000e+00
      758000000    6,667477638e-02   -1,527483016e-01   -3,639842570e-01    4,103910923e-01    0,000000000e+00    0,000000000e+00    0,000000000e+00    0,000000000e+00
      772000000   -1,232106052e-02   -2,628380358e-01   -3,515192121e-02    5,152456164e-01    0,000000000e+00    0,000000000e+00    0,000000000e+00    0,000000000e+00
      786000000   -2,062249333e-01   -3,023143709e-01    2,737853229e-01    3,954316974e-01    0,000000000e+00    0,000000000e+00    0,000000000e+00    0,000000000e+00
      800000000   -4,258164465e-01   -1,297462285e-01    4,172859192e-01    9,902472794e-02    0,000000000e+00    0,000000000e+00    0,000000000e+00    0,000000000e+00
      814000000   -3,888925612e-01    2,213011533e-01    2,821447551e-01   -1,727930456e-01    0,000000000e+00    0,000000000e+00    0,000000000e+00    0,000000000e+00
      828000000   -4,965066910e-02    3,687854111e-01    5,500602350e-02   -1,889591515e-01    0,000000000e+00    0,000000000e+00    0,000000000e+00    0,000000000e+00
      842000000    2,348742932e-01    1,860479712e-01   -1,731460541e-02   -7,027462125e-02    0,000000000e+00    0,000000000e+00    0,000000000e+00    0,000000000e+00
      856000000    2,805571556e-01   -1,247138456e-01    4,537966475e-02   -1,312314626e-02    0,000000000e+00    0,000000000e+00    0,000000000e+00    0,000000000e+00
      870000000    7,441138476e-02   -3,760946691e-01    1,139168590e-01   -9,052864462e-02    0,000000000e+00    0,000000000e+00    0,000000000e+00    0,000000000e+00
      884000000   -2,960304618e-01   -3,614284098e-01    2,760413662e-02   -2,453141659e-01    0,000000000e+00    0,000000000e+00    0,000000000e+00    0,000000000e+00
      898000000   -4,723970592e-01    8,199059404e-03   -2,220862508e-01   -2,279164791e-01    0,000000000e+00    0,000000000e+00    0,000000000e+00    0,000000000e+00
      912000000   -2,256359607e-01    2,950645685e-01   -3,418052197e-01    6,064116582e-02    0,000000000e+00    0,000000000e+00    0,000000000e+00    0,000000000e+00
      926000000    6,865056604e-02    2,625199258e-01   -2,149057388e-01    2,633336186e-01    0,000000000e+00    0,000000000e+00    0,000000000e+00    0,000000000e+00
      940000000    2,142741233e-01    7,857752591e-02   -3,615529090e-02    3,296422362e-01    0,000000000e+00    0,000000000e+00    0,000000000e+00    0,000000000e+00
      954000000    2,228176445e-01   -1,258654743e-01    1,320241094e-01    3,073091507e-01    0,000000000e+00    0,000000000e+00    0,000000000e+00    0,000000000e+00
      968000000    1,132390872e-01   -2,995509505e-01    2,711922526e-01    2,174864411e-01    0,000000000e+00    0,000000000e+00    0,000000000e+00    0,000000000e+00
      982000000   -8,040551841e-02   -3,864797950e-01    3,671275675e-01    6,430165470e-02    0,000000000e+00    0,000000000e+00    0,000000000e+00    0,000000000e+00
      996000000   -3,175937533e-01   -3,313690424e-01    3,686427176e-01   -1,468315721e-01    0,000000000e+00    0,000000000e+00    0,000000000e+00    0,000000000e+00
     1010000000   -4,593009949e-01   -1,096138880e-01    2,226376384e-01   -3,422829807e-01    0,000000000e+00    0,000000000e+00    0,000000000e+00    0,000000000e+00
     1024000000   -4,168159664e-01    1,475193650e-01   -3,194702044e-02   -3,935964704e-01    0,000000000e+00    0,000000000e+00    0,000000000e+00    0,000000000e+00
     1038000000   -2,179226279e-01    2,882346511e-01   -2,466433346e-01   -2,600618899e-01    0,000000000e+00    0,000000000e+00    0,000000000e+00    0,000000000e+00
     1052000000   -5,170385819e-03    2,804324031e-01   -3,185216486e-01   -4,796163738e-02    0,000000000e+00    0,000000000e+00    0,000000000e+00    0,000000000e+00
     1066000000    1,367671043e-01    1,607183814e-01   -2,569658458e-01    1,453057379e-01    0,000000000e+00    0,000000000e+00    0,000000000e+00    0,000000000e+00
     1080000000    1,959730089e-01   -1,376347500e-03   -1,186112389e-01    2,642738819e-01    0,000000000e+00    0,000000000e+00    0,000000000e+00    0,000000000e+00
     1094000000    1,565193981e-01   -1,745328605e-01    6,346292049e-02    3,029510975e-01    0,000000000e+00    0,000000000e+00    0,000000000e+00    0,000000000e+00
     1108000000   -6,364680012e-04   -3,030321598e-01    2,779739201e-01    2,456624061e-01    0,000000000e+00    0,000000000e+00    0,000000000e+00    0,000000000e+00
     1122000000   -2,512965500e-01   -2,648254037e-01    4,718522131e-01    1,571133547e-02    0,000000000e+00    0,000000000e+00    0,000000000e+00    0,000000000e+00
     1136000000   -3,185605705e-01    2,803266980e-02    3,993801475e-01   -3,915381730e-01    0,000000000e+00    0,000000000e+00    0,000000000e+00    0,000000000e+00
     1150000000   -4,397898540e-02    1,536638737e-01    5,036919843e-03   -5,424282551e-01    0,000000000e+00    0,000000000e+00    0,000000000e+00    0,000000000e+00
     1164000000    1,225337833e-01   -6,460726261e-02   -2,762233019e-01   -3,770562410e-01    0,000000000e+00    0,000000000e+00    0,000000000e+00    0,000000000e+00
     1178000000    1,716061868e-02   -3,081392646e-01   -3,687471449e-01   -1,522181630e-01    0,000000000e+00    0,000000000e+00    0,000000000e+00    0,000000000e+00
     1192000000   -2,651742101e-01   -3,704293668e-01   -3,232830763e-01    5,665129796e-02    0,000000000e+00    0,000000000e+00    0,000000000e+00    0,000000000e+00
     1206000000   -5,178796649e-01   -1,600385010e-01   -1,648308188e-01    1,823563725e-01    0,000000000e+00    0,000000000e+00    0,000000000e+00    0,000000000e+00
     1220000000   -5,062060952e-01    1,777651161e-01    3,516695928e-03    1,547844261e-01    0,000000000e+00    0,000000000e+00    0,000000000e+00    0,000000000e+00
     1234000000   -2,886715531e-01    3,603530824e-01    6,944953650e-02    6,012321264e-02    0,000000000e+00    0,000000000e+00    0,000000000e+00    0,000000000e+00
     1248000000   -4,626334086e-02    3,607197106e-01    5,463630334e-02   -1,053633913e-02    0,000000000e+00    0,000000000e+00    0,000000000e+00    0,000000000e+00
     1262000000    1,194799468e-01    2,605902553e-01    1,390825026e-02   -2,200035937e-02    0,000000000e+00    0,000000000e+00    0,000000000e+00    0,000000000e+00
     1276000000    2,133347392e-01    1,027091891e-01   -1,749990624e-03    7,565246429e-03    0,000000000e+00    0,000000000e+00    0,000000000e+00    0,000000000e+00
     1290000000    2,217488140e-01   -7,421080023e-02    1,749735326e-02    4,733715951e-02    0,000000000e+00    0,000000000e+00    0,000000000e+00    0,000000000e+00
     1304000000    1,555298418e-01   -2,433694601e-01    1,295545399e-01    6,351440400e-02    0,000000000e+00    0,000000000e+00    0,000000000e+00    0,000000000e+00
     1318000000    3,967257962e-02   -3,337217569e-01    1,312536895e-01   -1,628000438e-01    0,000000000e+00    0,000000000e+00    0,000000000e+00    0,000000000e+00
     1332000000   -1,300617903e-01   -4,363800883e-01   -4,023116454e-02   -4,368647188e-02    0,000000000e+00    0,000000000e+00    0,000000000e+00    0,000000000e+00
     1346000000   -3,934567273e-01   -4,076206088e-01    2,446663752e-02    5,845357850e-02    0,000000000e+00    0,000000000e+00    0,000000000e+00    0,000000000e+00
     1360000000   -6,157213449e-01   -1,881645769e-01    1,317863911e-01    7,577924430e-02    0,000000000e+00    0,000000000e+00    0,000000000e+00    0,000000000e+00
     1374000000   -6,377460361e-01    1,246860400e-01    1,982069314e-01    3,310940927e-03    0,000000000e+00    0,000000000e+00    0,000000000e+00    0,000000000e+00
     1388000000   -4,716710746e-01    3,678031862e-01    2,139748037e-01   -5,299512669e-02    0,000000000e+00    0,000000000e+00    0,000000000e+00    0,000000000e+00
     1402000000   -2,288739979e-01    4,487836957e-01    1,904082596e-01   -1,063714623e-01    0,000000000e+00    0,000000000e+00    0,000000000e+00    0,000000000e+00
     1416000000   -2,549170330e-02    4,104598761e-01    1,695602536e-01   -1,111739129e-01    0,000000000e+00    0,000000000e+00    0,000000000e+00    0,000000000e+00
     1430000000    1,212158352e-01    3,018815815e-01    1,913085133e-01   -8,095646650e-02    0,000000000e+00    0,000000000e+00    0,000000000e+00    0,000000000e+00
     1444000000    2,081267387e-01    1,503432691e-01    1,492156535e-01   -1,001532152e-01    0,000000000e+00    0,000000000e+00    0,000000000e+00    0,000000000e+00
     1458000000    2,325333208e-01   -2,211847715e-02    1,386155337e-01   -8,119051903e-02    0,000000000e+00    0,000000000e+00    0,000000000e+00    0,000000000e+00
     1472000000    1,908919662e-01   -2,038423866e-01    1,407048702e-01   -4,131814837e-02    0,000000000e+00    0,000000000e+00    0,000000000e+00    0,000000000e+00
     1486000000    6,431674212e-02   -3,806677759e-01    1,772362292e-01    3,186383843e-02    0,000000000e+00    0,000000000e+00    0,000000000e+00    0,000000000e+00
     1500000000   -1,743310988e-01   -5,029934645e-01    2,385364771e-01    8,758960664e-02    0,000000000e+00    0,000000000e+00    0,000000000e+00    0,000000000e+00
