! NanoVNA-App
! Date: 2025-09-25 15:31:38
! Start: 100MHz Stop: 1,5GHz Points: 101
! S-Parameter data: F S11 S21 S12 S22
# Hz S RI R 50
!     Frequency           S11_Real           S11_Imag           S21_Real           S21_Imag           S12_Real           S12_Imag           S22_Real           S22_Imag
      100000000   -2,886030450e-02   -4,173085093e-03    3,741416037e-01   -7,218033075e-01    0,000000000e+00    0,000000000e+00    0,000000000e+00    0,000000000e+00
      114000000   -1,652975008e-02    1,151757874e-02   -8,897530288e-02   -8,053553700e-01    0,000000000e+00    0,000000000e+00    0,000000000e+00    0,000000000e+00
      128000000    3,449660493e-03    1,056173537e-02   -5,146982074e-01   -6,205533743e-01    0,000000000e+00    0,000000000e+00    0,000000000e+00    0,000000000e+00
      142000000    1,455603912e-02   -2,934378339e-03   -7,671138048e-01   -2,365557253e-01    0,000000000e+00    0,000000000e+00    0,000000000e+00    0,000000000e+00
      156000000    1,473458763e-02   -1,474232227e-02   -7,660484910e-01    2,216260433e-01    0,000000000e+00    0,000000000e+00    0,000000000e+00    0,000000000e+00
      170000000    1,665691845e-02   -2,248941921e-02   -5,182464123e-01    6,048976779e-01    0,000000000e+00    0,000000000e+00    0,000000000e+00    0,000000000e+00
      184000000    2,097671479e-02   -3,706206381e-02   -1,014549136e-01    7,863540649e-01    0,000000000e+00    0,000000000e+00    0,000000000e+00    0,000000000e+00
      198000000    1,296700165e-02   -6,246399879e-02    3,432196379e-01    7,122616768e-01    0,000000000e+00    0,000000000e+00    0,000000000e+00    0,000000000e+00
      212000000   -1,865289360e-02   -8,130472898e-02    6,780551076e-01    4,100641012e-01    0,000000000e+00    0,000000000e+00    0,000000000e+00    0,000000000e+00
      226000000   -6,167308241e-02   -6,915954500e-02    7,958011627e-01   -3,067381121e-02    0,000000000e+00    0,000000000e+00    0,000000000e+00    0,000000000e+00
      240000000   -8,257234097e-02   -2,562533319e-02    6,459074616e-01   -4,669948518e-01    0,000000000e+00    0,000000000e+00    0,000000000e+00    0,000000000e+00
      254000000   -6,352848560e-02    1,723616384e-02    2,758207619e-01   -7,434501052e-01    0,000000000e+00    0,000000000e+00    0,000000000e+00    0,000000000e+00
      268000000   -2,382792160e-02    2,898797765e-02   -1,781102717e-01   -7,642120719e-01    0,000000000e+00    0,000000000e+00    0,000000000e+00    0,000000000e+00
      282000000    4,193473607e-03    1,192618161e-02   -5,619904399e-01   -5,360311270e-01    0,000000000e+00    0,000000000e+00    0,000000000e+00    0,000000000e+00
      296000000    9,664230049e-03   -7,702156901e-03   -7,597685456e-01   -1,396564692e-01    0,000000000e+00    0,000000000e+00    0,000000000e+00    0,000000000e+00
      310000000    1,108829025e-02   -1,622354239e-02   -7,119659781e-01    2,972511947e-01    0,000000000e+00    0,000000000e+00    0,000000000e+00    0,000000000e+00
      324000000    1,970903203e-02   -2,651564218e-02   -4,269185960e-01    6,375524998e-01    0,000000000e+00    0,000000000e+00    0,000000000e+00    0,000000000e+00
      338000000    2,544301376e-02   -5,227790773e-02   -1,048570964e-02    7,598434091e-01    0,000000000e+00    0,000000000e+00    0,000000000e+00    0,000000000e+00
      352000000    7,490629796e-03   -8,457980305e-02    4,068816304e-01    6,394032240e-01    0,000000000e+00    0,000000000e+00    0,000000000e+00    0,000000000e+00
      366000000   -3,460079432e-02   -9,545213729e-02    6,904907227e-01    3,104326725e-01    0,000000000e+00    0,000000000e+00    0,000000000e+00    0,000000000e+00
      380000000   -7,082827389e-02   -7,110255957e-02    7,474942207e-01   -1,258873641e-01    0,000000000e+00    0,000000000e+00    0,000000000e+00    0,000000000e+00
      394000000   -7,271876186e-02   -3,223288804e-02    5,462928414e-01   -5,206565261e-01    0,000000000e+00    0,000000000e+00    0,000000000e+00    0,000000000e+00
      408000000   -4,646630958e-02   -1,626984961e-02    1,594016254e-01   -7,319925427e-01    0,000000000e+00    0,000000000e+00    0,000000000e+00    0,000000000e+00
      422000000   -2,839959413e-02   -3,183842823e-02   -2,676755786e-01   -6,947356462e-01    0,000000000e+00    0,000000000e+00    0,000000000e+00    0,000000000e+00
      436000000   -4,075831920e-02   -5,199090391e-02   -6,038424373e-01   -4,326038957e-01    0,000000000e+00    0,000000000e+00    0,000000000e+00    0,000000000e+00
      450000000   -6,770298630e-02   -4,368555173e-02   -7,403643131e-01   -2,138811536e-02    0,000000000e+00    0,000000000e+00    0,000000000e+00    0,000000000e+00
      464000000   -7,357687503e-02   -1,164311916e-02   -6,189505458e-01    3,974805474e-01    0,000000000e+00    0,000000000e+00    0,000000000e+00    0,000000000e+00
      478000000   -4,740398005e-02    1,184454467e-02   -2,819754481e-01    6,676267982e-01    0,000000000e+00    0,000000000e+00    0,000000000e+00    0,000000000e+00
      492000000   -1,586828008e-02    6,192368921e-03    1,374043077e-01    7,018534541e-01    0,000000000e+00    0,000000000e+00    0,000000000e+00    0,000000000e+00
      506000000   -2,570163226e-03   -1,567116566e-02    4,984401464e-01    5,020273924e-01    0,000000000e+00    0,000000000e+00    0,000000000e+00    0,000000000e+00
      520000000   -5,090060178e-03   -3,135066479e-02    6,894538999e-01    1,413199753e-01    0,000000000e+00    0,000000000e+00    0,000000000e+00    0,000000000e+00
      534000000   -3,835628275e-03   -3,804308176e-02    6,439892650e-01   -2,623087168e-01    0,000000000e+00    0,000000000e+00    0,000000000e+00    0,000000000e+00
      548000000    6,184621248e-03   -5,377196521e-02    3,808532059e-01   -5,675944090e-01    0,000000000e+00    0,000000000e+00    0,000000000e+00    0,000000000e+00
      562000000    2,940447070e-03   -8,918603510e-02    1,973346807e-03   -6,719193459e-01    0,000000000e+00    0,000000000e+00    0,000000000e+00    0,000000000e+00
      576000000   -3,391859680e-02   -1,245297939e-01   -3,687806129e-01   -5,569993258e-01    0,000000000e+00    0,000000000e+00    0,000000000e+00    0,000000000e+00
      590000000   -9,632888436e-02   -1,226196066e-01   -6,226464510e-01   -2,635703087e-01    0,000000000e+00    0,000000000e+00    0,000000000e+00    0,000000000e+00
      604000000   -1,397937685e-01   -7,199043781e-02   -6,652153134e-01    1,378790438e-01    0,000000000e+00    0,000000000e+00    0,000000000e+00    0,000000000e+00
      618000000   -1,291717142e-01   -9,457607754e-03   -4,644257724e-01    4,937509596e-01    0,000000000e+00    0,000000000e+00    0,000000000e+00    0,000000000e+00
      632000000   -8,353193849e-02    1,720506512e-02   -9,777529538e-02    6,634764075e-01    0,000000000e+00    0,000000000e+00    0,000000000e+00    0,000000000e+00
      646000000   -5,126085505e-02    1,235063071e-03    2,880895436e-01    5,954415202e-01    0,000000000e+00    0,000000000e+00    0,000000000e+00    0,000000000e+00
      660000000   -5,280907452e-02   -2,188259363e-02    5,673768520e-01    3,227986693e-01    0,000000000e+00    0,000000000e+00    0,000000000e+00    0,000000000e+00
      674000000   -6,968141347e-02   -1,770069636e-02    6,427519321e-01   -6,572287530e-02    0,000000000e+00    0,000000000e+00    0,000000000e+00    0,000000000e+00
      688000000   -6,787747890e-02    9,172098711e-03    4,707209468e-01   -4,280133843e-01    0,000000000e+00    0,000000000e+00    0,000000000e+00    0,000000000e+00
      702000000   -3,786910325e-02    2,712735161e-02    1,218037382e-01   -6,068016887e-01    0,000000000e+00    0,000000000e+00    0,000000000e+00    0,000000000e+00
      716000000    1,650138991e-03    1,799068786e-02   -2,640644312e-01   -5,464940667e-01    0,000000000e+00    0,000000000e+00    0,000000000e+00    0,000000000e+00
      730000000    3,708697855e-02   -1,041998528e-02   -5,283032060e-01   -2,691661417e-01    0,000000000e+00    0,000000000e+00    0,000000000e+00    0,000000000e+00
      744000000    6,516479701e-02   -6,174232438e-02   -5,641248226e-01    1,065600887e-01    0,000000000e+00    0,000000000e+00    0,000000000e+00    0,000000000e+00
      758000000    6,685619801e-02   -1,528130025e-01   -3,636839688e-01    4,111050069e-01    0,000000000e+00    0,000000000e+00    0,000000000e+00    0,000000000e+00
      772000000   -1,202955097e-02   -2,627549767e-01   -3,449095413e-02    5,148233771e-01    0,000000000e+00    0,000000000e+00    0,000000000e+00    0,000000000e+00
      786000000   -2,060874701e-01   -3,026137054e-01    2,743850052e-01    3,955122232e-01    0,000000000e+00    0,000000000e+00    0,000000000e+00    0,000000000e+00
      800000000   -4,256397784e-01   -1,309548020e-01    4,171096087e-01    9,900876880e-02    0,000000000e+00    0,000000000e+00    0,000000000e+00    0,000000000e+00
      814000000   -3,890020251e-01    2,208265662e-01    2,817324996e-01   -1,727905869e-01    0,000000000e+00    0,000000000e+00    0,000000000e+00    0,000000000e+00
      828000000   -5,027512461e-02    3,680275381e-01    5,479921773e-02   -1,892054230e-01    0,000000000e+00    0,000000000e+00    0,000000000e+00    0,000000000e+00
      842000000    2,352478951e-01    1,853756160e-01   -1,751935855e-02   -7,112760842e-02    0,000000000e+00    0,000000000e+00    0,000000000e+00    0,000000000e+00
      856000000    2,800257802e-01   -1,240111962e-01    4,551889747e-02   -1,273384783e-02    0,000000000e+00    0,000000000e+00    0,000000000e+00    0,000000000e+00
      870000000    7,400818914e-02   -3,761217296e-01    1,141269580e-01   -9,097437561e-02    0,000000000e+00    0,000000000e+00    0,000000000e+00    0,000000000e+00
      884000000   -2,956826389e-01   -3,618152440e-01    2,800782956e-02   -2,459422350e-01    0,000000000e+00    0,000000000e+00    0,000000000e+00    0,000000000e+00
      898000000   -4,711880088e-01    9,095035493e-03   -2,213366777e-01   -2,271736562e-01    0,000000000e+00    0,000000000e+00    0,000000000e+00    0,000000000e+00
      912000000   -2,249007970e-01    2,946761549e-01   -3,491164446e-01    5,885533988e-02    0,000000000e+00    0,000000000e+00    0,000000000e+00    0,000000000e+00
      926000000    6,613268703e-02    2,656908035e-01   -2,166025639e-01    2,666529715e-01    0,000000000e+00    0,000000000e+00    0,000000000e+00    0,000000000e+00
      940000000    2,187948227e-01    8,019682020e-02   -3,432177007e-02    3,299602568e-01    0,000000000e+00    0,000000000e+00    0,000000000e+00    0,000000000e+00
      954000000    2,217850089e-01   -1,297472119e-01    1,299089342e-01    3,068999350e-01    0,000000000e+00    0,000000000e+00    0,000000000e+00    0,000000000e+00
      968000000    1,149244830e-01   -2,978970706e-01    2,711217999e-01    2,201112509e-01    0,000000000e+00    0,000000000e+00    0,000000000e+00    0,000000000e+00
      982000000   -8,411534876e-02   -3,878698945e-01    3,652405739e-01    6,525648385e-02    0,000000000e+00    0,000000000e+00    0,000000000e+00    0,000000000e+00
      996000000   -3,169723749e-01   -3,309727311e-01    3,696858287e-01   -1,452030241e-01    0,000000000e+00    0,000000000e+00    0,000000000e+00    0,000000000e+00
     1010000000   -4,620741308e-01   -1,132098660e-01    2,210693508e-01   -3,434985280e-01    0,000000000e+00    0,000000000e+00    0,000000000e+00    0,000000000e+00
     1024000000   -4,178226292e-01    1,487301290e-01   -3,393571079e-02   -3,938542306e-01    0,000000000e+00    0,000000000e+00    0,000000000e+00    0,000000000e+00
     1038000000   -2,198852897e-01    2,906336486e-01   -2,499901503e-01   -2,623824179e-01    0,000000000e+00    0,000000000e+00    0,000000000e+00    0,000000000e+00
     1052000000   -1,030125748e-02    2,802116871e-01   -3,185248673e-01   -4,575828463e-02    0,000000000e+00    0,000000000e+00    0,000000000e+00    0,000000000e+00
     1066000000    1,347840875e-01    1,631275564e-01   -2,579379678e-01    1,429687738e-01    0,000000000e+00    0,000000000e+00    0,000000000e+00    0,000000000e+00
     1080000000    1,944809705e-01    1,416080282e-03   -1,181272566e-01    2,651235759e-01    0,000000000e+00    0,000000000e+00    0,000000000e+00    0,000000000e+00
     1094000000    1,520793736e-01   -1,718953103e-01    6,438886374e-02    3,019721508e-01    0,000000000e+00    0,000000000e+00    0,000000000e+00    0,000000000e+00
     1108000000    5,793591263e-04   -3,048933446e-01    2,768743932e-01    2,459975481e-01    0,000000000e+00    0,000000000e+00    0,000000000e+00    0,000000000e+00
     1122000000   -2,476691157e-01   -2,603495121e-01    4,749383330e-01    1,433952712e-02    0,000000000e+00    0,000000000e+00    0,000000000e+00    0,000000000e+00
     1136000000   -3,221493065e-01    3,683730587e-02    3,980353773e-01   -3,882169425e-01    0,000000000e+00    0,000000000e+00    0,000000000e+00    0,000000000e+00
     1150000000   -3,692746162e-02    1,532075405e-01    4,493456800e-03   -5,410582423e-01    0,000000000e+00    0,000000000e+00    0,000000000e+00    0,000000000e+00
     1164000000    1,229583994e-01   -6,119070202e-02   -2,786165178e-01   -3,801038265e-01    0,000000000e+00    0,000000000e+00    0,000000000e+00    0,000000000e+00
     1178000000    1,862571575e-02   -3,064676821e-01   -3,663004637e-01   -1,521002501e-01    0,000000000e+00    0,000000000e+00    0,000000000e+00    0,000000000e+00
     1192000000   -2,651467323e-01   -3,710944057e-01   -3,223046958e-01    5,907496810e-02    0,000000000e+00    0,000000000e+00    0,000000000e+00    0,000000000e+00
     1206000000   -5,204994678e-01   -1,579930484e-01   -1,646216512e-01    1,775402874e-01    0,000000000e+00    0,000000000e+00    0,000000000e+00    0,000000000e+00
     1220000000   -5,105434656e-01    1,756277382e-01   -5,146188778e-04    1,587860733e-01    0,000000000e+00    0,000000000e+00    0,000000000e+00    0,000000000e+00
     1234000000   -2,901809216e-01    3,618554175e-01    6,665243953e-02    6,327251345e-02    0,000000000e+00    0,000000000e+00    0,000000000e+00    0,000000000e+00
     1248000000   -4,545651004e-02    3,593649566e-01    6,165974215e-02   -7,660283707e-03    0,000000000e+00    0,000000000e+00    0,000000000e+00    0,000000000e+00
     1262000000    1,243759021e-01    2,575102150e-01    2,298722602e-02   -1,951762661e-02    0,000000000e+00    0,000000000e+00    0,000000000e+00    0,000000000e+00
     1276000000    2,067916691e-01    9,988035262e-02   -3,544671927e-03   -2,529705816e-04    0,000000000e+00    0,000000000e+00    0,000000000e+00    0,000000000e+00
     1290000000    2,238276750e-01   -7,352614403e-02    1,611031033e-02    5,431165919e-02    0,000000000e+00    0,000000000e+00    0,000000000e+00    0,000000000e+00
     1304000000    1,516734660e-01   -2,400891632e-01    1,284871846e-01    7,143837959e-02    0,000000000e+00    0,000000000e+00    0,000000000e+00    0,000000000e+00
     1318000000    3,718236461e-02   -3,364512026e-01    1,321564615e-01   -1,654993147e-01    0,000000000e+00    0,000000000e+00    0,000000000e+00    0,000000000e+00
     1332000000   -1,312434971e-01   -4,407559037e-01   -5,087556317e-02   -5,446762592e-02    0,000000000e+00    0,000000000e+00    0,000000000e+00    0,000000000e+00
     1346000000   -3,965233862e-01   -4,063160121e-01    1,774993725e-02    6,961135566e-02    0,000000000e+00    0,000000000e+00    0,000000000e+00    0,000000000e+00
     1360000000   -6,057868600e-01   -1,879208386e-01    1,446928531e-01    7,846591622e-02    0,000000000e+00    0,000000000e+00    0,000000000e+00    0,000000000e+00
     1374000000   -6,440532207e-01    1,286025792e-01    1,950123012e-01    5,476229708e-04    0,000000000e+00    0,000000000e+00    0,000000000e+00    0,000000000e+00
     1388000000   -4,691787660e-01    3,640036881e-01    2,082605660e-01   -6,814517826e-02    0,000000000e+00    0,000000000e+00    0,000000000e+00    0,000000000e+00
     1402000000   -2,298677415e-01    4,501262903e-01    1,862729341e-01   -9,576165676e-02    0,000000000e+00    0,000000000e+00    0,000000000e+00    0,000000000e+00
     1416000000   -2,774464712e-02    4,138415456e-01    1,821400821e-01   -1,035254151e-01    0,000000000e+00    0,000000000e+00    0,000000000e+00    0,000000000e+00
     1430000000    1,203216612e-01    3,067443073e-01    1,630717814e-01   -9,335747361e-02    0,000000000e+00    0,000000000e+00    0,000000000e+00    0,000000000e+00
     1444000000    2,105519176e-01    1,506368667e-01    1,580472589e-01   -9,140916914e-02    0,000000000e+00    0,000000000e+00    0,000000000e+00    0,000000000e+00
     1458000000    2,367881089e-01   -2,402635850e-02    1,453906149e-01   -8,210316300e-02    0,000000000e+00    0,000000000e+00    0,000000000e+00    0,000000000e+00
     1472000000    1,914774328e-01   -2,067414522e-01    1,512213051e-01   -3,587773070e-02    0,000000000e+00    0,000000000e+00    0,000000000e+00    0,000000000e+00
     1486000000    6,113718078e-02   -3,788608611e-01    1,601041853e-01    3,351740539e-02    0,000000000e+00    0,000000000e+00    0,000000000e+00    0,000000000e+00
     1500000000   -1,646935195e-01   -4,939235151e-01    2,567933202e-01    9,563440084e-02    0,000000000e+00    0,000000000e+00    0,000000000e+00    0,000000000e+00
