! NanoVNA-App
! Date: 2025-09-25 15:35:45
! Start: 100MHz Stop: 1,5GHz Points: 101
! S-Parameter data: F S11 S21 S12 S22
# Hz S RI R 50
!     Frequency           S11_Real           S11_Imag           S21_Real           S21_Imag           S12_Real           S12_Imag           S22_Real           S22_Imag
      100000000   -2,882743441e-02   -4,165767692e-03    3,741179705e-01   -7,217875123e-01    0,000000000e+00    0,000000000e+00    0,000000000e+00    0,000000000e+00
      114000000   -1,646255516e-02    1,152224280e-02   -8,917794377e-02   -8,052589893e-01    0,000000000e+00    0,000000000e+00    0,000000000e+00    0,000000000e+00
      128000000    3,522723448e-03    1,052540541e-02   -5,145466924e-01   -6,206840277e-01    0,000000000e+00    0,000000000e+00    0,000000000e+00    0,000000000e+00
      142000000    1,456717029e-02   -2,977862023e-03   -7,671810985e-01   -2,366828918e-01    0,000000000e+00    0,000000000e+00    0,000000000e+00    0,000000000e+00
      156000000    1,607352123e-02   -1,430923957e-02   -7,703940272e-01    2,243113518e-01    0,000000000e+00    0,000000000e+00    0,000000000e+00    0,000000000e+00
      170000000    1,674605533e-02   -2,255274169e-02   -5,182668567e-01    6,047885418e-01    0,000000000e+00    0,000000000e+00    0,000000000e+00    0,000000000e+00
      184000000    2,098639682e-02   -3,705725819e-02   -1,016351581e-01    7,864053845e-01    0,000000000e+00    0,000000000e+00    0,000000000e+00    0,000000000e+00
      198000000    1,305627730e-02   -6,246903911e-02    3,434045613e-01    7,122718096e-01    0,000000000e+00    0,000000000e+00    0,000000000e+00    0,000000000e+00
      212000000   -1,866345853e-02   -8,126975596e-02    6,782110929e-01    4,100546241e-01    0,000000000e+00    0,000000000e+00    0,000000000e+00    0,000000000e+00
      226000000   -6,170723960e-02   -6,924080849e-02    7,958044410e-01   -3,060706146e-02    0,000000000e+00    0,000000000e+00    0,000000000e+00    0,000000000e+00
      240000000   -8,251294494e-02   -2,557554655e-02    6,461536288e-01   -4,673045278e-01    0,000000000e+00    0,000000000e+00    0,000000000e+00    0,000000000e+00
      254000000   -6,349287927e-02    1,726254635e-02    2,758863866e-01   -7,432945967e-01    0,000000000e+00    0,000000000e+00    0,000000000e+00    0,000000000e+00
      268000000   -2,390198596e-02    2,895804122e-02   -1,781973392e-01   -7,643064260e-01    0,000000000e+00    0,000000000e+00    0,000000000e+00    0,000000000e+00
      282000000    4,151925445e-03    1,194537431e-02   -5,616891384e-01   -5,357007384e-01    0,000000000e+00    0,000000000e+00    0,000000000e+00    0,000000000e+00
      296000000    9,777277708e-03   -7,898433134e-03   -7,596464157e-01   -1,394172907e-01    0,000000000e+00    0,000000000e+00    0,000000000e+00    0,000000000e+00
      310000000    1,121234149e-02   -1,605280489e-02   -7,128265500e-01    2,991744280e-01    0,000000000e+00    0,000000000e+00    0,000000000e+00    0,000000000e+00
      324000000    1,979508623e-02   -2,643578872e-02   -4,281609654e-01    6,383757591e-01    0,000000000e+00    0,000000000e+00    0,000000000e+00    0,000000000e+00
      338000000    2,553340234e-02   -5,217550322e-02   -9,372130968e-03    7,604749799e-01    0,000000000e+00    0,000000000e+00    0,000000000e+00    0,000000000e+00
      352000000    7,487457711e-03   -8,504908532e-02    4,075078368e-01    6,396924853e-01    0,000000000e+00    0,000000000e+00    0,000000000e+00    0,000000000e+00
      366000000   -3,474744409e-02   -9,553977847e-02    6,905585527e-01    3,106633425e-01    0,000000000e+00    0,000000000e+00    0,000000000e+00    0,000000000e+00
      380000000   -7,075165957e-02   -7,141800970e-02    7,475491762e-01   -1,267298460e-01    0,000000000e+00    0,000000000e+00    0,000000000e+00    0,000000000e+00
      394000000   -7,298057526e-02   -3,250235692e-02    5,471214652e-01   -5,218871236e-01    0,000000000e+00    0,000000000e+00    0,000000000e+00    0,000000000e+00
      408000000   -4,652318358e-02   -1,603802294e-02    1,606276631e-01   -7,307654619e-01    0,000000000e+00    0,000000000e+00    0,000000000e+00    0,000000000e+00
      422000000   -2,823324315e-02   -3,188261762e-02   -2,679859102e-01   -6,948342919e-01    0,000000000e+00    0,000000000e+00    0,000000000e+00    0,000000000e+00
      436000000   -4,053681344e-02   -5,193530768e-02   -6,035957336e-01   -4,320236742e-01    0,000000000e+00    0,000000000e+00    0,000000000e+00    0,000000000e+00
      450000000   -6,749679148e-02   -4,375498369e-02   -7,408020496e-01   -2,104528248e-02    0,000000000e+00    0,000000000e+00    0,000000000e+00    0,000000000e+00
      464000000   -7,351360470e-02   -1,146812830e-02   -6,186482906e-01    3,979092240e-01    0,000000000e+00    0,000000000e+00    0,000000000e+00    0,000000000e+00
      478000000   -4,767842218e-02    1,161543839e-02   -2,831088603e-01    6,678987145e-01    0,000000000e+00    0,000000000e+00    0,000000000e+00    0,000000000e+00
      492000000   -1,574333012e-02    5,986818578e-03    1,373600960e-01    7,017250657e-01    0,000000000e+00    0,000000000e+00    0,000000000e+00    0,000000000e+00
      506000000   -2,536408836e-03   -1,581895351e-02    4,980589449e-01    5,025266409e-01    0,000000000e+00    0,000000000e+00    0,000000000e+00    0,000000000e+00
      520000000   -5,053677596e-03   -3,129278123e-02    6,870838404e-01    1,425283551e-01    0,000000000e+00    0,000000000e+00    0,000000000e+00    0,000000000e+00
      534000000   -3,765085945e-03   -3,797071800e-02    6,439489126e-01   -2,623486817e-01    0,000000000e+00    0,000000000e+00    0,000000000e+00    0,000000000e+00
      548000000    6,239832845e-03   -5,412093922e-02    3,814325929e-01   -5,677612424e-01    0,000000000e+00    0,000000000e+00    0,000000000e+00    0,000000000e+00
      562000000    3,072679276e-03   -8,933701366e-02    2,246381482e-03   -6,728311181e-01    0,000000000e+00    0,000000000e+00    0,000000000e+00    0,000000000e+00
      576000000   -3,438373283e-02   -1,244106740e-01   -3,701732159e-01   -5,578762889e-01    0,000000000e+00    0,000000000e+00    0,000000000e+00    0,000000000e+00
      590000000   -9,618004411e-02   -1,228065640e-01   -6,206719875e-01   -2,649205625e-01    0,000000000e+00    0,000000000e+00    0,000000000e+00    0,000000000e+00
      604000000   -1,396753788e-01   -7,189045846e-02   -6,645929217e-01    1,379435062e-01    0,000000000e+00    0,000000000e+00    0,000000000e+00    0,000000000e+00
      618000000   -1,296447664e-01   -9,513703175e-03   -4,644348919e-01    4,951019585e-01    0,000000000e+00    0,000000000e+00    0,000000000e+00    0,000000000e+00
      632000000   -8,406291902e-02    1,709262095e-02   -9,893662483e-02    6,635134816e-01    0,000000000e+00    0,000000000e+00    0,000000000e+00    0,000000000e+00
      646000000   -5,075324699e-02   -4,755720147e-05    2,871168852e-01    5,956785679e-01    0,000000000e+00    0,000000000e+00    0,000000000e+00    0,000000000e+00
      660000000   -5,367155746e-02   -2,192375995e-02    5,679268241e-01    3,223224282e-01    0,000000000e+00    0,000000000e+00    0,000000000e+00    0,000000000e+00
      674000000   -7,021618634e-02   -1,693033613e-02    6,433468461e-01   -6,543102115e-02    0,000000000e+00    0,000000000e+00    0,000000000e+00    0,000000000e+00
      688000000   -6,882308424e-02    8,905251510e-03    4,705172479e-01   -4,278684258e-01    0,000000000e+00    0,000000000e+00    0,000000000e+00    0,000000000e+00
      702000000   -3,802540898e-02    2,660677396e-02    1,118151024e-01   -6,084362268e-01    0,000000000e+00    0,000000000e+00    0,000000000e+00    0,000000000e+00
      716000000    2,477496630e-03    1,872230507e-02   -2,643970549e-01   -5,466030240e-01    0,000000000e+00    0,000000000e+00    0,000000000e+00    0,000000000e+00
      730000000    3,694681451e-02   -1,162778586e-02   -5,285283327e-01   -2,690281868e-01    0,000000000e+00    0,000000000e+00    0,000000000e+00    0,000000000e+00
      744000000    6,576108932e-02   -6,236666441e-02   -5,643292069e-01    1,064537689e-01    0,000000000e+00    0,000000000e+00    0,000000000e+00    0,000000000e+00
      758000000    6,699880213e-02   -1,517162323e-01   -3,635739684e-01    4,105283618e-01    0,000000000e+00    0,000000000e+00    0,000000000e+00    0,000000000e+00
      772000000   -1,293112244e-02   -2,619830370e-01   -3,444780409e-02    5,147128701e-01    0,000000000e+00    0,000000000e+00    0,000000000e+00    0,000000000e+00
      786000000   -2,061545998e-01   -3,026131094e-01    2,743516266e-01    3,950285614e-01    0,000000000e+00    0,000000000e+00    0,000000000e+00    0,000000000e+00
      800000000   -4,261354804e-01   -1,312108040e-01    4,172479212e-01    9,936863184e-02    0,000000000e+00    0,000000000e+00    0,000000000e+00    0,000000000e+00
      814000000   -3,889973462e-01    2,207717896e-01    2,824369669e-01   -1,735834777e-01    0,000000000e+00    0,000000000e+00    0,000000000e+00    0,000000000e+00
      828000000   -4,919119924e-02    3,679229617e-01    5,544664711e-02   -1,895254254e-01    0,000000000e+00    0,000000000e+00    0,000000000e+00    0,000000000e+00
      842000000    2,355462611e-01    1,862595975e-01   -1,719686389e-02   -7,083316892e-02    0,000000000e+00    0,000000000e+00    0,000000000e+00    0,000000000e+00
      856000000    2,803545892e-01   -1,237357408e-01    4,488939047e-02   -1,278286707e-02    0,000000000e+00    0,000000000e+00    0,000000000e+00    0,000000000e+00
      870000000    7,490894198e-02   -3,766878545e-01    1,133082435e-01   -9,103722125e-02    0,000000000e+00    0,000000000e+00    0,000000000e+00    0,000000000e+00
      884000000   -2,949368954e-01   -3,622741401e-01    2,807817981e-02   -2,458793521e-01    0,000000000e+00    0,000000000e+00    0,000000000e+00    0,000000000e+00
      898000000   -4,728586078e-01    9,147422388e-03   -2,225830555e-01   -2,270978242e-01    0,000000000e+00    0,000000000e+00    0,000000000e+00    0,000000000e+00
      912000000   -2,264409661e-01    2,939454019e-01   -3,537444174e-01    6,915655732e-02    0,000000000e+00    0,000000000e+00    0,000000000e+00    0,000000000e+00
      926000000    6,606704742e-02    2,620164454e-01   -2,176446170e-01    2,620880902e-01    0,000000000e+00    0,000000000e+00    0,000000000e+00    0,000000000e+00
      940000000    2,159146369e-01    7,777030766e-02   -3,524740785e-02    3,297098279e-01    0,000000000e+00    0,000000000e+00    0,000000000e+00    0,000000000e+00
      954000000    2,209304124e-01   -1,260615140e-01    1,300230324e-01    3,065264523e-01    0,000000000e+00    0,000000000e+00    0,000000000e+00    0,000000000e+00
      968000000    1,178683341e-01   -2,995322943e-01    2,704459131e-01    2,169801295e-01    0,000000000e+00    0,000000000e+00    0,000000000e+00    0,000000000e+00
      982000000   -8,336935937e-02   -3,887003064e-01    3,675866127e-01    6,555120647e-02    0,000000000e+00    0,000000000e+00    0,000000000e+00    0,000000000e+00
      996000000   -3,152564764e-01   -3,265437782e-01    3,686197102e-01   -1,457927674e-01    0,000000000e+00    0,000000000e+00    0,000000000e+00    0,000000000e+00
     1010000000   -4,608971775e-01   -1,132089496e-01    2,229346633e-01   -3,422012627e-01    0,000000000e+00    0,000000000e+00    0,000000000e+00    0,000000000e+00
     1024000000   -4,103607237e-01    1,506784558e-01   -3,189582005e-02   -3,931455314e-01    0,000000000e+00    0,000000000e+00    0,000000000e+00    0,000000000e+00
     1038000000   -2,189734429e-01    2,882057726e-01   -2,480468005e-01   -2,617269158e-01    0,000000000e+00    0,000000000e+00    0,000000000e+00    0,000000000e+00
     1052000000   -6,440056488e-03    2,761031091e-01   -3,173979521e-01   -4,651817307e-02    0,000000000e+00    0,000000000e+00    0,000000000e+00    0,000000000e+00
     1066000000    1,337171793e-01    1,626316309e-01   -2,567245662e-01    1,461194158e-01    0,000000000e+00    0,000000000e+00    0,000000000e+00    0,000000000e+00
     1080000000    1,916113049e-01   -2,079487545e-03   -1,200015843e-01    2,657454610e-01    0,000000000e+00    0,000000000e+00    0,000000000e+00    0,000000000e+00
     1094000000    1,544835418e-01   -1,725262851e-01    6,466925144e-02    3,049414754e-01    0,000000000e+00    0,000000000e+00    0,000000000e+00    0,000000000e+00
     1108000000    1,221249695e-03   -3,073253334e-01    2,771525383e-01    2,465831041e-01    0,000000000e+00    0,000000000e+00    0,000000000e+00    0,000000000e+00
     1122000000   -2,451851368e-01   -2,585651278e-01    4,713783860e-01    1,300609484e-02    0,000000000e+00    0,000000000e+00    0,000000000e+00    0,000000000e+00
     1136000000   -3,184626400e-01    2,843288518e-02    3,979556859e-01   -3,951047361e-01    0,000000000e+00    0,000000000e+00    0,000000000e+00    0,000000000e+00
     1150000000   -3,626370803e-02    1,513242275e-01    4,625257570e-03   -5,417656898e-01    0,000000000e+00    0,000000000e+00    0,000000000e+00    0,000000000e+00
     1164000000    1,221645251e-01   -6,436806172e-02   -2,759681642e-01   -3,798243999e-01    0,000000000e+00    0,000000000e+00    0,000000000e+00    0,000000000e+00
     1178000000    2,030806802e-02   -3,071067631e-01   -3,667337000e-01   -1,512055546e-01    0,000000000e+00    0,000000000e+00    0,000000000e+00    0,000000000e+00
     1192000000   -2,657879591e-01   -3,671570718e-01   -3,241324425e-01    5,890708789e-02    0,000000000e+00    0,000000000e+00    0,000000000e+00    0,000000000e+00
     1206000000   -5,243123770e-01   -1,639091522e-01   -1,666225642e-01    1,759783924e-01    0,000000000e+00    0,000000000e+00    0,000000000e+00    0,000000000e+00
     1220000000   -5,099898577e-01    1,780820787e-01   -1,556846080e-03    1,563477963e-01    0,000000000e+00    0,000000000e+00    0,000000000e+00    0,000000000e+00
     1234000000   -2,865056992e-01    3,671652377e-01    7,186939567e-02    6,204325333e-02    0,000000000e+00    0,000000000e+00    0,000000000e+00    0,000000000e+00
     1248000000   -4,897674546e-02    3,640683889e-01    5,547832325e-02   -3,745627357e-03    0,000000000e+00    0,000000000e+00    0,000000000e+00    0,000000000e+00
     1262000000    1,258810312e-01    2,510221601e-01    1,480632462e-02   -2,602513880e-02    0,000000000e+00    0,000000000e+00    0,000000000e+00    0,000000000e+00
     1276000000    2,127283216e-01    1,019715145e-01   -9,465072653e-04    5,719489884e-03    0,000000000e+00    0,000000000e+00    0,000000000e+00    0,000000000e+00
     1290000000    2,209174633e-01   -7,191275805e-02    1,864613779e-02    5,413237959e-02    0,000000000e+00    0,000000000e+00    0,000000000e+00    0,000000000e+00
     1304000000    1,557133794e-01   -2,419514954e-01    1,343718320e-01    6,317055225e-02    0,000000000e+00    0,000000000e+00    0,000000000e+00    0,000000000e+00
     1318000000    3,658190742e-02   -3,311461210e-01    1,261559576e-01   -1,630712599e-01    0,000000000e+00    0,000000000e+00    0,000000000e+00    0,000000000e+00
     1332000000   -1,344738901e-01   -4,358796179e-01   -5,311580747e-02   -4,118887335e-02    0,000000000e+00    0,000000000e+00    0,000000000e+00    0,000000000e+00
     1346000000   -3,937990367e-01   -4,066952169e-01    3,089904226e-02    7,067681849e-02    0,000000000e+00    0,000000000e+00    0,000000000e+00    0,000000000e+00
     1360000000   -6,104430556e-01   -1,859273762e-01    1,438397616e-01    7,824964076e-02    0,000000000e+00    0,000000000e+00    0,000000000e+00    0,000000000e+00
     1374000000   -6,399344802e-01    1,284780949e-01    1,944351643e-01    9,754208848e-03    0,000000000e+00    0,000000000e+00    0,000000000e+00    0,000000000e+00
     1388000000   -4,655454159e-01    3,702907562e-01    2,151675373e-01   -5,916949362e-02    0,000000000e+00    0,000000000e+00    0,000000000e+00    0,000000000e+00
     1402000000   -2,310220301e-01    4,491269886e-01    1,891171634e-01   -1,018736288e-01    0,000000000e+00    0,000000000e+00    0,000000000e+00    0,000000000e+00
     1416000000   -3,285610303e-02    4,115912020e-01    1,616600305e-01   -1,048775539e-01    0,000000000e+00    0,000000000e+00    0,000000000e+00    0,000000000e+00
     1430000000    1,220841855e-01    2,937465012e-01    1,508180499e-01   -8,626221120e-02    0,000000000e+00    0,000000000e+00    0,000000000e+00    0,000000000e+00
     1444000000    2,054257840e-01    1,498835832e-01    1,610344797e-01   -1,035742983e-01    0,000000000e+00    0,000000000e+00    0,000000000e+00    0,000000000e+00
     1458000000    2,299691886e-01   -2,158418857e-02    1,371890306e-01   -7,708800584e-02    0,000000000e+00    0,000000000e+00    0,000000000e+00    0,000000000e+00
     1472000000    1,888563484e-01   -2,007129043e-01    1,399479806e-01   -2,129887231e-02    0,000000000e+00    0,000000000e+00    0,000000000e+00    0,000000000e+00
     1486000000    6,172602251e-02   -3,732486069e-01    1,814557761e-01    3,864906356e-02    0,000000000e+00    0,000000000e+00    0,000000000e+00    0,000000000e+00
     1500000000   -1,720674485e-01   -4,979141355e-01    2,540174425e-01    9,211370349e-02    0,000000000e+00    0,000000000e+00    0,000000000e+00    0,000000000e+00
