! NanoVNA-App
! Date: 2025-09-25 15:35:14
! Start: 100MHz Stop: 1,5GHz Points: 101
! S-Parameter data: F S11 S21 S12 S22
# Hz S RI R 50
!     Frequency           S11_Real           S11_Imag           S21_Real           S21_Imag           S12_Real           S12_Imag           S22_Real           S22_Imag
      100000000   -2,882580645e-02   -4,166849889e-03    3,740740716e-01   -7,217576504e-01    0,000000000e+00    0,000000000e+00    0,000000000e+00    0,000000000e+00
      114000000   -1,646897011e-02    1,153048500e-02   -8,894365281e-02   -8,054260612e-01    0,000000000e+00    0,000000000e+00    0,000000000e+00    0,000000000e+00
      128000000    3,501153551e-03    1,056337636e-02   -5,144814253e-01   -6,203858256e-01    0,000000000e+00    0,000000000e+00    0,000000000e+00    0,000000000e+00
      142000000    1,458712947e-02   -2,951607341e-03   -7,670201063e-01   -2,364644706e-01    0,000000000e+00    0,000000000e+00    0,000000000e+00    0,000000000e+00
      156000000    1,584426314e-02   -1,464245655e-02   -7,723281980e-01    2,235865295e-01    0,000000000e+00    0,000000000e+00    0,000000000e+00    0,000000000e+00
      170000000    1,670020260e-02   -2,248459868e-02   -5,179523230e-01    6,046940684e-01    0,000000000e+00    0,000000000e+00    0,000000000e+00    0,000000000e+00
      184000000    2,105104178e-02   -3,711834550e-02   -1,014300883e-01    7,860293984e-01    0,000000000e+00    0,000000000e+00    0,000000000e+00    0,000000000e+00
      198000000    1,306664478e-02   -6,249007583e-02    3,432022333e-01    7,122325897e-01    0,000000000e+00    0,000000000e+00    0,000000000e+00    0,000000000e+00
      212000000   -1,861156337e-02   -8,128420264e-02    6,779126525e-01    4,099242389e-01    0,000000000e+00    0,000000000e+00    0,000000000e+00    0,000000000e+00
      226000000   -6,168287992e-02   -6,918961555e-02    7,959021330e-01   -3,054741584e-02    0,000000000e+00    0,000000000e+00    0,000000000e+00    0,000000000e+00
      240000000   -8,259224147e-02   -2,564080991e-02    6,462383270e-01   -4,670062363e-01    0,000000000e+00    0,000000000e+00    0,000000000e+00    0,000000000e+00
      254000000   -6,346773356e-02    1,724521816e-02    2,758088410e-01   -7,428957224e-01    0,000000000e+00    0,000000000e+00    0,000000000e+00    0,000000000e+00
      268000000   -2,380636521e-02    2,888220549e-02   -1,779279709e-01   -7,642880082e-01    0,000000000e+00    0,000000000e+00    0,000000000e+00    0,000000000e+00
      282000000    4,253086168e-03    1,194723602e-02   -5,620705485e-01   -5,357832313e-01    0,000000000e+00    0,000000000e+00    0,000000000e+00    0,000000000e+00
      296000000    9,682981297e-03   -7,890501060e-03   -7,600638270e-01   -1,394919902e-01    0,000000000e+00    0,000000000e+00    0,000000000e+00    0,000000000e+00
      310000000    1,128946897e-02   -1,619910076e-02   -7,118813992e-01    2,979514003e-01    0,000000000e+00    0,000000000e+00    0,000000000e+00    0,000000000e+00
      324000000    1,984155737e-02   -2,649257332e-02   -4,267660677e-01    6,379494071e-01    0,000000000e+00    0,000000000e+00    0,000000000e+00    0,000000000e+00
      338000000    2,574856021e-02   -5,196167156e-02   -6,611182354e-03    7,608945966e-01    0,000000000e+00    0,000000000e+00    0,000000000e+00    0,000000000e+00
      352000000    7,594328839e-03   -8,468250930e-02    4,073902071e-01    6,388580203e-01    0,000000000e+00    0,000000000e+00    0,000000000e+00    0,000000000e+00
      366000000   -3,480522707e-02   -9,532817453e-02    6,902719736e-01    3,109934330e-01    0,000000000e+00    0,000000000e+00    0,000000000e+00    0,000000000e+00
      380000000   -7,073901594e-02   -7,121331245e-02    7,471472621e-01   -1,262096912e-01    0,000000000e+00    0,000000000e+00    0,000000000e+00    0,000000000e+00
      394000000   -7,250593603e-02   -3,227529302e-02    5,450515151e-01   -5,211474299e-01    0,000000000e+00    0,000000000e+00    0,000000000e+00    0,000000000e+00
      408000000   -4,652893171e-02   -1,620530896e-02    1,600162238e-01   -7,330885530e-01    0,000000000e+00    0,000000000e+00    0,000000000e+00    0,000000000e+00
      422000000   -2,834461071e-02   -3,209614754e-02   -2,666346729e-01   -6,958352327e-01    0,000000000e+00    0,000000000e+00    0,000000000e+00    0,000000000e+00
      436000000   -4,055575654e-02   -5,196212232e-02   -6,032022238e-01   -4,324041307e-01    0,000000000e+00    0,000000000e+00    0,000000000e+00    0,000000000e+00
      450000000   -6,755200028e-02   -4,397292063e-02   -7,407165766e-01   -2,161582746e-02    0,000000000e+00    0,000000000e+00    0,000000000e+00    0,000000000e+00
      464000000   -7,345331460e-02   -1,140207797e-02   -6,183233261e-01    3,974310160e-01    0,000000000e+00    0,000000000e+00    0,000000000e+00    0,000000000e+00
      478000000   -4,737761617e-02    1,158349030e-02   -2,821050882e-01    6,684617996e-01    0,000000000e+00    0,000000000e+00    0,000000000e+00    0,000000000e+00
      492000000   -1,570289582e-02    6,139876321e-03    1,379768550e-01    7,021953464e-01    0,000000000e+00    0,000000000e+00    0,000000000e+00    0,000000000e+00
      506000000   -2,452708548e-03   -1,556606125e-02    4,983016849e-01    5,026472211e-01    0,000000000e+00    0,000000000e+00    0,000000000e+00    0,000000000e+00
      520000000   -5,018687807e-03   -3,159806505e-02    6,878664494e-01    1,414322108e-01    0,000000000e+00    0,000000000e+00    0,000000000e+00    0,000000000e+00
      534000000   -3,713197308e-03   -3,797282279e-02    6,436774135e-01   -2,623232305e-01    0,000000000e+00    0,000000000e+00    0,000000000e+00    0,000000000e+00
      548000000    6,231746171e-03   -5,381425098e-02    3,815103471e-01   -5,675883293e-01    0,000000000e+00    0,000000000e+00    0,000000000e+00    0,000000000e+00
      562000000    2,713918919e-03   -8,939459175e-02    1,759963110e-03   -6,718081236e-01    0,000000000e+00    0,000000000e+00    0,000000000e+00    0,000000000e+00
      576000000   -3,407799453e-02   -1,240171865e-01   -3,686240315e-01   -5,579831600e-01    0,000000000e+00    0,000000000e+00    0,000000000e+00    0,000000000e+00
      590000000   -9,653434902e-02   -1,226245239e-01   -6,226646900e-01   -2,638898790e-01    0,000000000e+00    0,000000000e+00    0,000000000e+00    0,000000000e+00
      604000000   -1,393880248e-01   -7,160698622e-02   -6,648104787e-01    1,383157074e-01    0,000000000e+00    0,000000000e+00    0,000000000e+00    0,000000000e+00
      618000000   -1,293247640e-01   -9,556363337e-03   -4,639228284e-01    4,948252738e-01    0,000000000e+00    0,000000000e+00    0,000000000e+00    0,000000000e+00
      632000000   -8,352418989e-02    1,674660482e-02   -9,828972071e-02    6,631978154e-01    0,000000000e+00    0,000000000e+00    0,000000000e+00    0,000000000e+00
      646000000   -5,052731931e-02    8,198919822e-04    2,878593504e-01    5,957379937e-01    0,000000000e+00    0,000000000e+00    0,000000000e+00    0,000000000e+00
      660000000   -5,321217701e-02   -2,205799893e-02    5,676625967e-01    3,229283392e-01    0,000000000e+00    0,000000000e+00    0,000000000e+00    0,000000000e+00
      674000000   -7,063475251e-02   -1,736677811e-02    6,433091760e-01   -6,564208865e-02    0,000000000e+00    0,000000000e+00    0,000000000e+00    0,000000000e+00
      688000000   -6,789850444e-02    9,152949788e-03    4,714928269e-01   -4,284941256e-01    0,000000000e+00    0,000000000e+00    0,000000000e+00    0,000000000e+00
      702000000   -3,807947785e-02    2,698091045e-02    1,224489436e-01   -6,120690107e-01    0,000000000e+00    0,000000000e+00    0,000000000e+00    0,000000000e+00
      716000000    1,902469434e-03    1,852110215e-02   -2,657323480e-01   -5,477390289e-01    0,000000000e+00    0,000000000e+00    0,000000000e+00    0,000000000e+00
      730000000    3,617650643e-02   -1,130246930e-02   -5,285627842e-01   -2,688226402e-01    0,000000000e+00    0,000000000e+00    0,000000000e+00    0,000000000e+00
      744000000    6,502449512e-02   -6,188142300e-02   -5,639657974e-01    1,062949374e-01    0,000000000e+00    0,000000000e+00    0,000000000e+00    0,000000000e+00
      758000000    6,742683798e-02   -1,522198170e-01   -3,636160493e-01    4,109106064e-01    0,000000000e+00    0,000000000e+00    0,000000000e+00    0,000000000e+00
      772000000   -1,317628287e-02   -2,626546025e-01   -3,445647657e-02    5,154585838e-01    0,000000000e+00    0,000000000e+00    0,000000000e+00    0,000000000e+00
      786000000   -2,060943991e-01   -3,038671613e-01    2,740789652e-01    3,961678147e-01    0,000000000e+00    0,000000000e+00    0,000000000e+00    0,000000000e+00
      800000000   -4,249711037e-01   -1,300178170e-01    4,174949825e-01    9,948182851e-02    0,000000000e+00    0,000000000e+00    0,000000000e+00    0,000000000e+00
      814000000   -3,896816373e-01    2,200936675e-01    2,824076116e-01   -1,735438854e-01    0,000000000e+00    0,000000000e+00    0,000000000e+00    0,000000000e+00
      828000000   -4,954574257e-02    3,677947819e-01    5,557184294e-02   -1,897589117e-01    0,000000000e+00    0,000000000e+00    0,000000000e+00    0,000000000e+00
      842000000    2,353115976e-01    1,861233860e-01   -1,700780168e-02   -7,061233371e-02    0,000000000e+00    0,000000000e+00    0,000000000e+00    0,000000000e+00
      856000000    2,804999650e-01   -1,245874390e-01    4,504504055e-02   -1,359427720e-02    0,000000000e+00    0,000000000e+00    0,000000000e+00    0,000000000e+00
      870000000    7,514744252e-02   -3,767536879e-01    1,134951040e-01   -9,079691768e-02    0,000000000e+00    0,000000000e+00    0,000000000e+00    0,000000000e+00
      884000000   -2,951551080e-01   -3,609368503e-01    2,879608981e-02   -2,455064356e-01    0,000000000e+00    0,000000000e+00    0,000000000e+00    0,000000000e+00
      898000000   -4,719273150e-01    7,809395436e-03   -2,217774838e-01   -2,273751497e-01    0,000000000e+00    0,000000000e+00    0,000000000e+00    0,000000000e+00
      912000000   -2,275099158e-01    2,945289314e-01   -3,380382061e-01    7,394266129e-02    0,000000000e+00    0,000000000e+00    0,000000000e+00    0,000000000e+00
      926000000    6,579901278e-02    2,630043328e-01   -2,155923396e-01    2,636297941e-01    0,000000000e+00    0,000000000e+00    0,000000000e+00    0,000000000e+00
      940000000    2,144681066e-01    8,018456399e-02   -3,522249684e-02    3,278572857e-01    0,000000000e+00    0,000000000e+00    0,000000000e+00    0,000000000e+00
      954000000    2,238057107e-01   -1,251865625e-01    1,310112774e-01    3,064005673e-01    0,000000000e+00    0,000000000e+00    0,000000000e+00    0,000000000e+00
      968000000    1,159468293e-01   -2,989676297e-01    2,691778243e-01    2,177095115e-01    0,000000000e+00    0,000000000e+00    0,000000000e+00    0,000000000e+00
      982000000   -8,481362462e-02   -3,871772885e-01    3,654934764e-01    6,514047086e-02    0,000000000e+00    0,000000000e+00    0,000000000e+00    0,000000000e+00
      996000000   -3,191214502e-01   -3,287931979e-01    3,692201376e-01   -1,443593502e-01    0,000000000e+00    0,000000000e+00    0,000000000e+00    0,000000000e+00
     1010000000   -4,624893665e-01   -1,074516103e-01    2,220966071e-01   -3,396907747e-01    0,000000000e+00    0,000000000e+00    0,000000000e+00    0,000000000e+00
     1024000000   -4,187555611e-01    1,522067636e-01   -3,324181959e-02   -3,955604136e-01    0,000000000e+00    0,000000000e+00    0,000000000e+00    0,000000000e+00
     1038000000   -2,136064172e-01    2,903490365e-01   -2,487164140e-01   -2,611103952e-01    0,000000000e+00    0,000000000e+00    0,000000000e+00    0,000000000e+00
     1052000000   -1,159929205e-02    2,777695060e-01   -3,182598948e-01   -4,601284489e-02    0,000000000e+00    0,000000000e+00    0,000000000e+00    0,000000000e+00
     1066000000    1,339879483e-01    1,605930179e-01   -2,574619949e-01    1,444834769e-01    0,000000000e+00    0,000000000e+00    0,000000000e+00    0,000000000e+00
     1080000000    1,944102645e-01   -3,058274277e-03   -1,231785864e-01    2,619078755e-01    0,000000000e+00    0,000000000e+00    0,000000000e+00    0,000000000e+00
     1094000000    1,575519145e-01   -1,766483337e-01    6,370911747e-02    3,055630922e-01    0,000000000e+00    0,000000000e+00    0,000000000e+00    0,000000000e+00
     1108000000    4,115696065e-04   -3,027577400e-01    2,777416110e-01    2,466744035e-01    0,000000000e+00    0,000000000e+00    0,000000000e+00    0,000000000e+00
     1122000000   -2,483853847e-01   -2,668360770e-01    4,701286852e-01    1,309968904e-02    0,000000000e+00    0,000000000e+00    0,000000000e+00    0,000000000e+00
     1136000000   -3,195886612e-01    3,747168183e-02    3,987651467e-01   -3,936099410e-01    0,000000000e+00    0,000000000e+00    0,000000000e+00    0,000000000e+00
     1150000000   -4,249858856e-02    1,557355672e-01    4,870380741e-03   -5,422715545e-01    0,000000000e+00    0,000000000e+00    0,000000000e+00    0,000000000e+00
     1164000000    1,272911280e-01   -6,343099475e-02   -2,769960165e-01   -3,756812811e-01    0,000000000e+00    0,000000000e+00    0,000000000e+00    0,000000000e+00
     1178000000    1,729305461e-02   -3,051815927e-01   -3,688795865e-01   -1,499212235e-01    0,000000000e+00    0,000000000e+00    0,000000000e+00    0,000000000e+00
     1192000000   -2,668060064e-01   -3,688166738e-01   -3,232827485e-01    5,915814266e-02    0,000000000e+00    0,000000000e+00    0,000000000e+00    0,000000000e+00
     1206000000   -5,211679935e-01   -1,578387171e-01   -1,662119180e-01    1,804310232e-01    0,000000000e+00    0,000000000e+00    0,000000000e+00    0,000000000e+00
     1220000000   -5,042583942e-01    1,732745469e-01    2,868634881e-03    1,567963511e-01    0,000000000e+00    0,000000000e+00    0,000000000e+00    0,000000000e+00
     1234000000   -2,887684405e-01    3,629263639e-01    6,714024395e-02    6,102306023e-02    0,000000000e+00    0,000000000e+00    0,000000000e+00    0,000000000e+00
     1248000000   -4,435602203e-02    3,694410324e-01    5,895448104e-02   -2,401196165e-03    0,000000000e+00    0,000000000e+00    0,000000000e+00    0,000000000e+00
     1262000000    1,246491298e-01    2,614823580e-01    1,668879017e-02   -1,938921586e-02    0,000000000e+00    0,000000000e+00    0,000000000e+00    0,000000000e+00
     1276000000    2,103279233e-01    9,952075034e-02   -5,235767923e-03    7,549684029e-03    0,000000000e+00    0,000000000e+00    0,000000000e+00    0,000000000e+00
     1290000000    2,217459977e-01   -7,586150616e-02    1,847909950e-02    5,008872226e-02    0,000000000e+00    0,000000000e+00    0,000000000e+00    0,000000000e+00
     1304000000    1,554662883e-01   -2,389485240e-01    1,308860779e-01    6,987331063e-02    0,000000000e+00    0,000000000e+00    0,000000000e+00    0,000000000e+00
     1318000000    3,430204466e-02   -3,378528953e-01    1,286361814e-01   -1,630441099e-01    0,000000000e+00    0,000000000e+00    0,000000000e+00    0,000000000e+00
     1332000000   -1,305678636e-01   -4,410364330e-01   -4,164648801e-02   -4,760637507e-02    0,000000000e+00    0,000000000e+00    0,000000000e+00    0,000000000e+00
     1346000000   -3,987819552e-01   -4,061031640e-01    1,824029349e-02    6,950836629e-02    0,000000000e+00    0,000000000e+00    0,000000000e+00    0,000000000e+00
     1360000000   -6,119033694e-01   -1,958842278e-01    1,351138353e-01    5,388599262e-02    0,000000000e+00    0,000000000e+00    0,000000000e+00    0,000000000e+00
     1374000000   -6,306613684e-01    1,254029572e-01    2,135794610e-01   -8,601066656e-04    0,000000000e+00    0,000000000e+00    0,000000000e+00    0,000000000e+00
     1388000000   -4,600460827e-01    3,701963127e-01    2,209737301e-01   -6,738211215e-02    0,000000000e+00    0,000000000e+00    0,000000000e+00    0,000000000e+00
     1402000000   -2,276078314e-01    4,517796934e-01    1,892186701e-01   -1,033965051e-01    0,000000000e+00    0,000000000e+00    0,000000000e+00    0,000000000e+00
     1416000000   -2,606602572e-02    4,164080918e-01    1,672020704e-01   -9,317658842e-02    0,000000000e+00    0,000000000e+00    0,000000000e+00    0,000000000e+00
     1430000000    1,241869107e-01    3,001194298e-01    1,819308549e-01   -7,492353767e-02    0,000000000e+00    0,000000000e+00    0,000000000e+00    0,000000000e+00
     1444000000    2,095348090e-01    1,517917067e-01    1,577096134e-01   -9,302952141e-02    0,000000000e+00    0,000000000e+00    0,000000000e+00    0,000000000e+00
     1458000000    2,355494201e-01   -2,161230519e-02    1,480491906e-01   -7,551445812e-02    0,000000000e+00    0,000000000e+00    0,000000000e+00    0,000000000e+00
     1472000000    1,913991272e-01   -2,056946158e-01    1,462665498e-01   -4,261651635e-02    0,000000000e+00    0,000000000e+00    0,000000000e+00    0,000000000e+00
     1486000000    6,323061883e-02   -3,811475635e-01    1,742907614e-01    2,454097010e-02    0,000000000e+00    0,000000000e+00    0,000000000e+00    0,000000000e+00
     1500000000   -1,663200408e-01   -4,921191931e-01    2,569074333e-01    9,448337555e-02    0,000000000e+00    0,000000000e+00    0,000000000e+00    0,000000000e+00
