! NanoVNA-App
! Date: 2025-09-25 15:33:34
! Start: 100MHz Stop: 1,5GHz Points: 101
! S-Parameter data: F S11 S21 S12 S22
# Hz S RI R 50
!     Frequency           S11_Real           S11_Imag           S21_Real           S21_Imag           S12_Real           S12_Imag           S22_Real           S22_Imag
      100000000   -2,886577696e-02   -4,163763486e-03    3,741003871e-01   -7,217578292e-01    0,000000000e+00    0,000000000e+00    0,000000000e+00    0,000000000e+00
      114000000   -1,653245278e-02    1,152768079e-02   -8,911338449e-02   -8,054699302e-01    0,000000000e+00    0,000000000e+00    0,000000000e+00    0,000000000e+00
      128000000    3,453575540e-03    1,049193740e-02   -5,146807432e-01   -6,204849482e-01    0,000000000e+00    0,000000000e+00    0,000000000e+00    0,000000000e+00
      142000000    1,454324555e-02   -2,950963331e-03   -7,670478821e-01   -2,366077006e-01    0,000000000e+00    0,000000000e+00    0,000000000e+00    0,000000000e+00
      156000000    1,610573754e-02   -1,430792827e-02   -7,722710371e-01    2,245347649e-01    0,000000000e+00    0,000000000e+00    0,000000000e+00    0,000000000e+00
      170000000    1,665132679e-02   -2,260349691e-02   -5,183243155e-01    6,048275828e-01    0,000000000e+00    0,000000000e+00    0,000000000e+00    0,000000000e+00
      184000000    2,100102976e-02   -3,702278435e-02   -1,013482064e-01    7,861053348e-01    0,000000000e+00    0,000000000e+00    0,000000000e+00    0,000000000e+00
      198000000    1,298080292e-02   -6,245566532e-02    3,434103131e-01    7,123525739e-01    0,000000000e+00    0,000000000e+00    0,000000000e+00    0,000000000e+00
      212000000   -1,861675829e-02   -8,131542057e-02    6,779988408e-01    4,099747837e-01    0,000000000e+00    0,000000000e+00    0,000000000e+00    0,000000000e+00
      226000000   -6,173661724e-02   -6,919571012e-02    7,958406806e-01   -3,058746643e-02    0,000000000e+00    0,000000000e+00    0,000000000e+00    0,000000000e+00
      240000000   -8,255804330e-02   -2,556844614e-02    6,461896896e-01   -4,669662714e-01    0,000000000e+00    0,000000000e+00    0,000000000e+00    0,000000000e+00
      254000000   -6,354141235e-02    1,723287627e-02    2,761338949e-01   -7,434391975e-01    0,000000000e+00    0,000000000e+00    0,000000000e+00    0,000000000e+00
      268000000   -2,394032851e-02    2,900209650e-02   -1,780403256e-01   -7,642883062e-01    0,000000000e+00    0,000000000e+00    0,000000000e+00    0,000000000e+00
      282000000    4,107676446e-03    1,194468606e-02   -5,617462993e-01   -5,356952548e-01    0,000000000e+00    0,000000000e+00    0,000000000e+00    0,000000000e+00
      296000000    9,777712636e-03   -7,831490599e-03   -7,597594261e-01   -1,395531446e-01    0,000000000e+00    0,000000000e+00    0,000000000e+00    0,000000000e+00
      310000000    1,109522395e-02   -1,626520045e-02   -7,116438150e-01    2,982271314e-01    0,000000000e+00    0,000000000e+00    0,000000000e+00    0,000000000e+00
      324000000    1,959580742e-02   -2,658683434e-02   -4,274332523e-01    6,382317543e-01    0,000000000e+00    0,000000000e+00    0,000000000e+00    0,000000000e+00
      338000000    2,559308149e-02   -5,202672258e-02   -9,665665217e-03    7,603310347e-01    0,000000000e+00    0,000000000e+00    0,000000000e+00    0,000000000e+00
      352000000    7,513448596e-03   -8,479751647e-02    4,073515534e-01    6,396881342e-01    0,000000000e+00    0,000000000e+00    0,000000000e+00    0,000000000e+00
      366000000   -3,456569090e-02   -9,553178400e-02    6,908502579e-01    3,118857145e-01    0,000000000e+00    0,000000000e+00    0,000000000e+00    0,000000000e+00
      380000000   -7,074591517e-02   -7,123932987e-02    7,474325299e-01   -1,259376854e-01    0,000000000e+00    0,000000000e+00    0,000000000e+00    0,000000000e+00
      394000000   -7,277146727e-02   -3,218371421e-02    5,455151200e-01   -5,217636824e-01    0,000000000e+00    0,000000000e+00    0,000000000e+00    0,000000000e+00
      408000000   -4,642529413e-02   -1,605455577e-02    1,609224975e-01   -7,323285937e-01    0,000000000e+00    0,000000000e+00    0,000000000e+00    0,000000000e+00
      422000000   -2,826930024e-02   -3,201726824e-02   -2,679191828e-01   -6,955216527e-01    0,000000000e+00    0,000000000e+00    0,000000000e+00    0,000000000e+00
      436000000   -4,068858176e-02   -5,187253281e-02   -6,043813825e-01   -4,315075576e-01    0,000000000e+00    0,000000000e+00    0,000000000e+00    0,000000000e+00
      450000000   -6,745289266e-02   -4,373317584e-02   -7,406336069e-01   -2,101194300e-02    0,000000000e+00    0,000000000e+00    0,000000000e+00    0,000000000e+00
      464000000   -7,345726341e-02   -1,167582907e-02   -6,182181835e-01    3,977850080e-01    0,000000000e+00    0,000000000e+00    0,000000000e+00    0,000000000e+00
      478000000   -4,776055366e-02    1,168079861e-02   -2,822000980e-01    6,680974364e-01    0,000000000e+00    0,000000000e+00    0,000000000e+00    0,000000000e+00
      492000000   -1,591293514e-02    6,194359157e-03    1,368986219e-01    7,014422417e-01    0,000000000e+00    0,000000000e+00    0,000000000e+00    0,000000000e+00
      506000000   -2,443758538e-03   -1,578877494e-02    4,984796047e-01    5,022616386e-01    0,000000000e+00    0,000000000e+00    0,000000000e+00    0,000000000e+00
      520000000   -5,134836771e-03   -3,161442652e-02    6,890959144e-01    1,403745562e-01    0,000000000e+00    0,000000000e+00    0,000000000e+00    0,000000000e+00
      534000000   -3,794570453e-03   -3,837950528e-02    6,440755725e-01   -2,627898753e-01    0,000000000e+00    0,000000000e+00    0,000000000e+00    0,000000000e+00
      548000000    6,242419593e-03   -5,412283540e-02    3,811334968e-01   -5,667529106e-01    0,000000000e+00    0,000000000e+00    0,000000000e+00    0,000000000e+00
      562000000    3,588097636e-03   -8,962337673e-02    1,704971539e-03   -6,732349992e-01    0,000000000e+00    0,000000000e+00    0,000000000e+00    0,000000000e+00
      576000000   -3,459625319e-02   -1,246637851e-01   -3,696286976e-01   -5,574833155e-01    0,000000000e+00    0,000000000e+00    0,000000000e+00    0,000000000e+00
      590000000   -9,691154957e-02   -1,227694452e-01   -6,225022674e-01   -2,622672319e-01    0,000000000e+00    0,000000000e+00    0,000000000e+00    0,000000000e+00
      604000000   -1,392021030e-01   -7,183463126e-02   -6,648699641e-01    1,381216049e-01    0,000000000e+00    0,000000000e+00    0,000000000e+00    0,000000000e+00
      618000000   -1,295059770e-01   -8,535335772e-03   -4,639754891e-01    4,949768782e-01    0,000000000e+00    0,000000000e+00    0,000000000e+00    0,000000000e+00
      632000000   -8,445905149e-02    1,718673110e-02   -9,899781644e-02    6,637633443e-01    0,000000000e+00    0,000000000e+00    0,000000000e+00    0,000000000e+00
      646000000   -5,052044988e-02    7,521985681e-04    2,876711786e-01    5,946450233e-01    0,000000000e+00    0,000000000e+00    0,000000000e+00    0,000000000e+00
      660000000   -5,318010226e-02   -2,217632346e-02    5,678352118e-01    3,225011528e-01    0,000000000e+00    0,000000000e+00    0,000000000e+00    0,000000000e+00
      674000000   -6,974068284e-02   -1,775841042e-02    6,428774595e-01   -6,562585384e-02    0,000000000e+00    0,000000000e+00    0,000000000e+00    0,000000000e+00
      688000000   -6,760390103e-02    8,543048985e-03    4,713694155e-01   -4,281825423e-01    0,000000000e+00    0,000000000e+00    0,000000000e+00    0,000000000e+00
      702000000   -3,667709976e-02    2,670812793e-02    1,172377691e-01   -6,085687876e-01    0,000000000e+00    0,000000000e+00    0,000000000e+00    0,000000000e+00
      716000000    2,159778960e-03    1,721108146e-02   -2,636192143e-01   -5,470208526e-01    0,000000000e+00    0,000000000e+00    0,000000000e+00    0,000000000e+00
      730000000    3,625592962e-02   -1,052702032e-02   -5,288297534e-01   -2,689596415e-01    0,000000000e+00    0,000000000e+00    0,000000000e+00    0,000000000e+00
      744000000    6,467080861e-02   -6,228628010e-02   -5,642033219e-01    1,065335795e-01    0,000000000e+00    0,000000000e+00    0,000000000e+00    0,000000000e+00
      758000000    6,604914367e-02   -1,521594524e-01   -3,639470041e-01    4,100449383e-01    0,000000000e+00    0,000000000e+00    0,000000000e+00    0,000000000e+00
      772000000   -1,282080170e-02   -2,627810240e-01   -3,461101651e-02    5,161583424e-01    0,000000000e+00    0,000000000e+00    0,000000000e+00    0,000000000e+00
      786000000   -2,068581134e-01   -3,025581837e-01    2,745074928e-01    3,956958055e-01    0,000000000e+00    0,000000000e+00    0,000000000e+00    0,000000000e+00
      800000000   -4,248904586e-01   -1,301879734e-01    4,171803296e-01    9,921026975e-02    0,000000000e+00    0,000000000e+00    0,000000000e+00    0,000000000e+00
      814000000   -3,892678916e-01    2,223260403e-01    2,825973034e-01   -1,729924977e-01    0,000000000e+00    0,000000000e+00    0,000000000e+00    0,000000000e+00
      828000000   -4,987656698e-02    3,682565987e-01    5,516555533e-02   -1,895661503e-01    0,000000000e+00    0,000000000e+00    0,000000000e+00    0,000000000e+00
      842000000    2,357315123e-01    1,859877110e-01   -1,694115996e-02   -7,083464414e-02    0,000000000e+00    0,000000000e+00    0,000000000e+00    0,000000000e+00
      856000000    2,802625597e-01   -1,247401014e-01    4,515630379e-02   -1,342985313e-02    0,000000000e+00    0,000000000e+00    0,000000000e+00    0,000000000e+00
      870000000    7,577199489e-02   -3,766511083e-01    1,135323718e-01   -9,141270816e-02    0,000000000e+00    0,000000000e+00    0,000000000e+00    0,000000000e+00
      884000000   -2,951773107e-01   -3,613601327e-01    2,827003226e-02   -2,454847991e-01    0,000000000e+00    0,000000000e+00    0,000000000e+00    0,000000000e+00
      898000000   -4,727391303e-01    9,538140148e-03   -2,231938839e-01   -2,276509851e-01    0,000000000e+00    0,000000000e+00    0,000000000e+00    0,000000000e+00
      912000000   -2,266016155e-01    2,937352061e-01   -3,453618288e-01    7,794510573e-02    0,000000000e+00    0,000000000e+00    0,000000000e+00    0,000000000e+00
      926000000    6,944596767e-02    2,631870210e-01   -2,147170305e-01    2,640557587e-01    0,000000000e+00    0,000000000e+00    0,000000000e+00    0,000000000e+00
      940000000    2,177613974e-01    8,157627285e-02   -3,534223512e-02    3,295477629e-01    0,000000000e+00    0,000000000e+00    0,000000000e+00    0,000000000e+00
      954000000    2,235026807e-01   -1,250517219e-01    1,318337321e-01    3,095530272e-01    0,000000000e+00    0,000000000e+00    0,000000000e+00    0,000000000e+00
      968000000    1,143036187e-01   -2,981125414e-01    2,706038356e-01    2,176882476e-01    0,000000000e+00    0,000000000e+00    0,000000000e+00    0,000000000e+00
      982000000   -8,107540011e-02   -3,868118525e-01    3,670848906e-01    6,401316077e-02    0,000000000e+00    0,000000000e+00    0,000000000e+00    0,000000000e+00
      996000000   -3,168982863e-01   -3,261643946e-01    3,708899319e-01   -1,453812271e-01    0,000000000e+00    0,000000000e+00    0,000000000e+00    0,000000000e+00
     1010000000   -4,610893130e-01   -1,142898276e-01    2,221289575e-01   -3,426180780e-01    0,000000000e+00    0,000000000e+00    0,000000000e+00    0,000000000e+00
     1024000000   -4,171643257e-01    1,508573145e-01   -3,310096264e-02   -3,937039375e-01    0,000000000e+00    0,000000000e+00    0,000000000e+00    0,000000000e+00
     1038000000   -2,192493081e-01    2,905013859e-01   -2,472065389e-01   -2,601639926e-01    0,000000000e+00    0,000000000e+00    0,000000000e+00    0,000000000e+00
     1052000000   -8,301152848e-03    2,771286368e-01   -3,158071041e-01   -4,420239106e-02    0,000000000e+00    0,000000000e+00    0,000000000e+00    0,000000000e+00
     1066000000    1,344477981e-01    1,640847623e-01   -2,577292323e-01    1,431587189e-01    0,000000000e+00    0,000000000e+00    0,000000000e+00    0,000000000e+00
     1080000000    1,931103170e-01   -1,848885906e-03   -1,185290962e-01    2,637890577e-01    0,000000000e+00    0,000000000e+00    0,000000000e+00    0,000000000e+00
     1094000000    1,534767747e-01   -1,725241989e-01    6,398440152e-02    3,049945235e-01    0,000000000e+00    0,000000000e+00    0,000000000e+00    0,000000000e+00
     1108000000    2,794259926e-03   -3,039278388e-01    2,749148607e-01    2,453232557e-01    0,000000000e+00    0,000000000e+00    0,000000000e+00    0,000000000e+00
     1122000000   -2,493006587e-01   -2,677640021e-01    4,711622894e-01    1,347568445e-02    0,000000000e+00    0,000000000e+00    0,000000000e+00    0,000000000e+00
     1136000000   -3,148368299e-01    3,057585843e-02    3,975758851e-01   -3,899874091e-01    0,000000000e+00    0,000000000e+00    0,000000000e+00    0,000000000e+00
     1150000000   -3,475544974e-02    1,518478394e-01    6,045849063e-03   -5,421107411e-01    0,000000000e+00    0,000000000e+00    0,000000000e+00    0,000000000e+00
     1164000000    1,226774827e-01   -6,587282568e-02   -2,799811363e-01   -3,806197345e-01    0,000000000e+00    0,000000000e+00    0,000000000e+00    0,000000000e+00
     1178000000    1,562811434e-02   -3,041810095e-01   -3,686166406e-01   -1,522334814e-01    0,000000000e+00    0,000000000e+00    0,000000000e+00    0,000000000e+00
     1192000000   -2,682453394e-01   -3,719946146e-01   -3,238517642e-01    5,712940916e-02    0,000000000e+00    0,000000000e+00    0,000000000e+00    0,000000000e+00
     1206000000   -5,226908326e-01   -1,552732140e-01   -1,665390730e-01    1,860295981e-01    0,000000000e+00    0,000000000e+00    0,000000000e+00    0,000000000e+00
     1220000000   -5,133237839e-01    1,739629060e-01    1,793024596e-03    1,602939069e-01    0,000000000e+00    0,000000000e+00    0,000000000e+00    0,000000000e+00
     1234000000   -2,887549996e-01    3,623169363e-01    6,933055073e-02    6,082652882e-02    0,000000000e+00    0,000000000e+00    0,000000000e+00    0,000000000e+00
     1248000000   -4,507362843e-02    3,713114262e-01    5,478292331e-02   -1,548950910e-03    0,000000000e+00    0,000000000e+00    0,000000000e+00    0,000000000e+00
     1262000000    1,268943697e-01    2,564472556e-01    2,135976031e-02   -2,293764241e-02    0,000000000e+00    0,000000000e+00    0,000000000e+00    0,000000000e+00
     1276000000    2,113431692e-01    1,030769721e-01   -5,759296007e-03    9,198141284e-03    0,000000000e+00    0,000000000e+00    0,000000000e+00    0,000000000e+00
     1290000000    2,221068144e-01   -7,428133488e-02    1,184963621e-02    4,930514842e-02    0,000000000e+00    0,000000000e+00    0,000000000e+00    0,000000000e+00
     1304000000    1,578651965e-01   -2,385696918e-01    1,354360133e-01    7,460308820e-02    0,000000000e+00    0,000000000e+00    0,000000000e+00    0,000000000e+00
     1318000000    3,774636611e-02   -3,342431784e-01    1,363117844e-01   -1,674232930e-01    0,000000000e+00    0,000000000e+00    0,000000000e+00    0,000000000e+00
     1332000000   -1,350916326e-01   -4,370070100e-01   -4,959961027e-02   -4,078689218e-02    0,000000000e+00    0,000000000e+00    0,000000000e+00    0,000000000e+00
     1346000000   -3,950965106e-01   -4,121344686e-01    2,448477037e-02    6,369032711e-02    0,000000000e+00    0,000000000e+00    0,000000000e+00    0,000000000e+00
     1360000000   -6,009082198e-01   -1,922558993e-01    1,417122185e-01    6,586530060e-02    0,000000000e+00    0,000000000e+00    0,000000000e+00    0,000000000e+00
     1374000000   -6,327381134e-01    1,266394109e-01    1,946887523e-01    7,041287143e-03    0,000000000e+00    0,000000000e+00    0,000000000e+00    0,000000000e+00
     1388000000   -4,680286050e-01    3,658851981e-01    2,049593329e-01   -6,608734280e-02    0,000000000e+00    0,000000000e+00    0,000000000e+00    0,000000000e+00
     1402000000   -2,326895148e-01    4,564019144e-01    1,887443811e-01   -9,680442512e-02    0,000000000e+00    0,000000000e+00    0,000000000e+00    0,000000000e+00
     1416000000   -2,568710223e-02    4,156678319e-01    1,710554808e-01   -1,011175960e-01    0,000000000e+00    0,000000000e+00    0,000000000e+00    0,000000000e+00
     1430000000    1,193351448e-01    2,919842899e-01    1,488097608e-01   -1,133068874e-01    0,000000000e+00    0,000000000e+00    0,000000000e+00    0,000000000e+00
     1444000000    2,033528686e-01    1,452550739e-01    1,488056928e-01   -1,051538140e-01    0,000000000e+00    0,000000000e+00    0,000000000e+00    0,000000000e+00
     1458000000    2,335366607e-01   -2,389844321e-02    1,471663415e-01   -7,322587818e-02    0,000000000e+00    0,000000000e+00    0,000000000e+00    0,000000000e+00
     1472000000    1,915416121e-01   -2,046583742e-01    1,486589164e-01   -3,099869750e-02    0,000000000e+00    0,000000000e+00    0,000000000e+00    0,000000000e+00
     1486000000    5,879051611e-02   -3,793155253e-01    1,711305231e-01    3,288272396e-02    0,000000000e+00    0,000000000e+00    0,000000000e+00    0,000000000e+00
     1500000000   -1,609729528e-01   -4,924136996e-01    2,544060349e-01    1,014142558e-01    0,000000000e+00    0,000000000e+00    0,000000000e+00    0,000000000e+00
