! NanoVNA-App
! Date: 2025-09-25 15:35:45
! Start: 100MHz Stop: 1,5GHz Points: 101
! S-Parameter data: F S11 S21 S12 S22
# Hz S RI R 50
!     Frequency           S11_Real           S11_Imag           S21_Real           S21_Imag           S12_Real           S12_Imag           S22_Real           S22_Imag
      100000000   -2,882800251e-02   -4,177992698e-03    3,740992844e-01   -7,217355371e-01    0,000000000e+00    0,000000000e+00    0,000000000e+00    0,000000000e+00
      114000000   -1,649290137e-02    1,153094228e-02   -8,908002824e-02   -8,055003881e-01    0,000000000e+00    0,000000000e+00    0,000000000e+00    0,000000000e+00
      128000000    3,503169399e-03    1,047321316e-02   -5,147365928e-01   -6,204807758e-01    0,000000000e+00    0,000000000e+00    0,000000000e+00    0,000000000e+00
      142000000    1,457061153e-02   -2,952424111e-03   -7,670298815e-01   -2,366102636e-01    0,000000000e+00    0,000000000e+00    0,000000000e+00    0,000000000e+00
      156000000    1,444507204e-02   -1,493880618e-02   -7,647667527e-01    2,180619091e-01    0,000000000e+00    0,000000000e+00    0,000000000e+00    0,000000000e+00
      170000000    1,668292657e-02   -2,257678472e-02   -5,181092620e-01    6,046289802e-01    0,000000000e+00    0,000000000e+00    0,000000000e+00    0,000000000e+00
      184000000    2,103882656e-02   -3,704148158e-02   -1,015870199e-01    7,861591578e-01    0,000000000e+00    0,000000000e+00    0,000000000e+00    0,000000000e+00
      198000000    1,301812194e-02   -6,244473532e-02    3,435482681e-01    7,121835351e-01    0,000000000e+00    0,000000000e+00    0,000000000e+00    0,000000000e+00
      212000000   -1,864968427e-02   -8,133376390e-02    6,780797243e-01    4,101224244e-01    0,000000000e+00    0,000000000e+00    0,000000000e+00    0,000000000e+00
      226000000   -6,166571006e-02   -6,922648847e-02    7,957687974e-01   -3,048580512e-02    0,000000000e+00    0,000000000e+00    0,000000000e+00    0,000000000e+00
      240000000   -8,260846138e-02   -2,560734563e-02    6,463370919e-01   -4,671250284e-01    0,000000000e+00    0,000000000e+00    0,000000000e+00    0,000000000e+00
      254000000   -6,351590157e-02    1,724760234e-02    2,760682702e-01   -7,432452440e-01    0,000000000e+00    0,000000000e+00    0,000000000e+00    0,000000000e+00
      268000000   -2,385815792e-02    2,887241356e-02   -1,781661958e-01   -7,643244267e-01    0,000000000e+00    0,000000000e+00    0,000000000e+00    0,000000000e+00
      282000000    4,169441294e-03    1,189527381e-02   -5,617589951e-01   -5,353405476e-01    0,000000000e+00    0,000000000e+00    0,000000000e+00    0,000000000e+00
      296000000    9,794481099e-03   -7,881540805e-03   -7,597677708e-01   -1,395420730e-01    0,000000000e+00    0,000000000e+00    0,000000000e+00    0,000000000e+00
      310000000    1,110891998e-02   -1,617704332e-02   -7,115629911e-01    2,990398705e-01    0,000000000e+00    0,000000000e+00    0,000000000e+00    0,000000000e+00
      324000000    1,965848543e-02   -2,665888704e-02   -4,271761179e-01    6,372057199e-01    0,000000000e+00    0,000000000e+00    0,000000000e+00    0,000000000e+00
      338000000    2,560603432e-02   -5,226760358e-02   -7,301534060e-03    7,625868320e-01    0,000000000e+00    0,000000000e+00    0,000000000e+00    0,000000000e+00
      352000000    7,288425695e-03   -8,487850428e-02    4,067175984e-01    6,389755607e-01    0,000000000e+00    0,000000000e+00    0,000000000e+00    0,000000000e+00
      366000000   -3,442008793e-02   -9,577447176e-02    6,901927590e-01    3,109326065e-01    0,000000000e+00    0,000000000e+00    0,000000000e+00    0,000000000e+00
      380000000   -7,056806237e-02   -7,122104615e-02    7,477885485e-01   -1,262838542e-01    0,000000000e+00    0,000000000e+00    0,000000000e+00    0,000000000e+00
      394000000   -7,247345895e-02   -3,218709305e-02    5,468364358e-01   -5,224137306e-01    0,000000000e+00    0,000000000e+00    0,000000000e+00    0,000000000e+00
      408000000   -4,645906761e-02   -1,588734984e-02    1,598359942e-01   -7,330192327e-01    0,000000000e+00    0,000000000e+00    0,000000000e+00    0,000000000e+00
      422000000   -2,843771130e-02   -3,186665848e-02   -2,677620351e-01   -6,936311722e-01    0,000000000e+00    0,000000000e+00    0,000000000e+00    0,000000000e+00
      436000000   -4,061522707e-02   -5,174394697e-02   -6,040377617e-01   -4,318905175e-01    0,000000000e+00    0,000000000e+00    0,000000000e+00    0,000000000e+00
      450000000   -6,752855331e-02   -4,398513958e-02   -7,404514551e-01   -2,135666646e-02    0,000000000e+00    0,000000000e+00    0,000000000e+00    0,000000000e+00
      464000000   -7,333122939e-02   -1,176575944e-02   -6,184327006e-01    3,969648182e-01    0,000000000e+00    0,000000000e+00    0,000000000e+00    0,000000000e+00
      478000000   -4,730033502e-02    1,190124545e-02   -2,816627920e-01    6,674824357e-01    0,000000000e+00    0,000000000e+00    0,000000000e+00    0,000000000e+00
      492000000   -1,564836502e-02    5,889249500e-03    1,374432296e-01    7,013756633e-01    0,000000000e+00    0,000000000e+00    0,000000000e+00    0,000000000e+00
      506000000   -2,460026881e-03   -1,544135530e-02    4,981349409e-01    5,033314228e-01    0,000000000e+00    0,000000000e+00    0,000000000e+00    0,000000000e+00
      520000000   -4,825912416e-03   -3,158234060e-02    6,873049736e-01    1,414375007e-01    0,000000000e+00    0,000000000e+00    0,000000000e+00    0,000000000e+00
      534000000   -4,161797930e-03   -3,803437203e-02    6,436255574e-01   -2,624962926e-01    0,000000000e+00    0,000000000e+00    0,000000000e+00    0,000000000e+00
      548000000    6,304921117e-03   -5,368824303e-02    3,813610673e-01   -5,668938756e-01    0,000000000e+00    0,000000000e+00    0,000000000e+00    0,000000000e+00
      562000000    3,359284485e-03   -8,952754736e-02    2,375560114e-03   -6,725726128e-01    0,000000000e+00    0,000000000e+00    0,000000000e+00    0,000000000e+00
      576000000   -3,372187540e-02   -1,240161657e-01   -3,696199358e-01   -5,575871468e-01    0,000000000e+00    0,000000000e+00    0,000000000e+00    0,000000000e+00
      590000000   -9,652964026e-02   -1,229083538e-01   -6,221836209e-01   -2,623858452e-01    0,000000000e+00    0,000000000e+00    0,000000000e+00    0,000000000e+00
      604000000   -1,391917020e-01   -7,167061418e-02   -6,644507051e-01    1,377757937e-01    0,000000000e+00    0,000000000e+00    0,000000000e+00    0,000000000e+00
      618000000   -1,299269348e-01   -8,896483108e-03   -4,654279947e-01    4,948359728e-01    0,000000000e+00    0,000000000e+00    0,000000000e+00    0,000000000e+00
      632000000   -8,448646218e-02    1,610886119e-02   -9,808699042e-02    6,630294323e-01    0,000000000e+00    0,000000000e+00    0,000000000e+00    0,000000000e+00
      646000000   -5,100697279e-02    1,042394433e-03    2,881890833e-01    5,942066908e-01    0,000000000e+00    0,000000000e+00    0,000000000e+00    0,000000000e+00
      660000000   -5,262916163e-02   -2,191789821e-02    5,669863224e-01    3,222787082e-01    0,000000000e+00    0,000000000e+00    0,000000000e+00    0,000000000e+00
      674000000   -6,977817416e-02   -1,790422760e-02    6,431553364e-01   -6,580159813e-02    0,000000000e+00    0,000000000e+00    0,000000000e+00    0,000000000e+00
      688000000   -6,756556779e-02    9,282138199e-03    4,715082645e-01   -4,283346832e-01    0,000000000e+00    0,000000000e+00    0,000000000e+00    0,000000000e+00
      702000000   -3,751666844e-02    2,743405662e-02    1,166213900e-01   -6,128237247e-01    0,000000000e+00    0,000000000e+00    0,000000000e+00    0,000000000e+00
      716000000    1,928718062e-03    1,811587811e-02   -2,643313110e-01   -5,470286012e-01    0,000000000e+00    0,000000000e+00    0,000000000e+00    0,000000000e+00
      730000000    3,753652796e-02   -1,056451350e-02   -5,286979675e-01   -2,690224946e-01    0,000000000e+00    0,000000000e+00    0,000000000e+00    0,000000000e+00
      744000000    6,458942592e-02   -6,315969676e-02   -5,644241571e-01    1,061574593e-01    0,000000000e+00    0,000000000e+00    0,000000000e+00    0,000000000e+00
      758000000    6,667348742e-02   -1,516883671e-01   -3,628228605e-01    4,103599787e-01    0,000000000e+00    0,000000000e+00    0,000000000e+00    0,000000000e+00
      772000000   -1,330609620e-02   -2,625068426e-01   -3,324303776e-02    5,158530474e-01    0,000000000e+00    0,000000000e+00    0,000000000e+00    0,000000000e+00
      786000000   -2,075170577e-01   -3,031707406e-01    2,740978897e-01    3,954511881e-01    0,000000000e+00    0,000000000e+00    0,000000000e+00    0,000000000e+00
      800000000   -4,250717461e-01   -1,312483847e-01    4,170553982e-01    9,883908182e-02    0,000000000e+00    0,000000000e+00    0,000000000e+00    0,000000000e+00
      814000000   -3,899738193e-01    2,218626738e-01    2,824286222e-01   -1,735687405e-01    0,000000000e+00    0,000000000e+00    0,000000000e+00    0,000000000e+00
      828000000   -5,075815320e-02    3,675457835e-01    5,510887131e-02   -1,897197962e-01    0,000000000e+00    0,000000000e+00    0,000000000e+00    0,000000000e+00
      842000000    2,356833220e-01    1,857486963e-01   -1,732693799e-02   -7,104489952e-02    0,000000000e+00    0,000000000e+00    0,000000000e+00    0,000000000e+00
      856000000    2,811737955e-01   -1,243551001e-01    4,517796636e-02   -1,317592803e-02    0,000000000e+00    0,000000000e+00    0,000000000e+00    0,000000000e+00
      870000000    7,500527799e-02   -3,760570288e-01    1,135749295e-01   -9,037177265e-02    0,000000000e+00    0,000000000e+00    0,000000000e+00    0,000000000e+00
      884000000   -2,948038280e-01   -3,616235852e-01    2,791024931e-02   -2,449019551e-01    0,000000000e+00    0,000000000e+00    0,000000000e+00    0,000000000e+00
      898000000   -4,725459814e-01    9,332095273e-03   -2,219367176e-01   -2,278017551e-01    0,000000000e+00    0,000000000e+00    0,000000000e+00    0,000000000e+00
      912000000   -2,258202583e-01    2,944591939e-01   -3,370341361e-01    6,798814982e-02    0,000000000e+00    0,000000000e+00    0,000000000e+00    0,000000000e+00
      926000000    6,670378149e-02    2,630278468e-01   -2,162727416e-01    2,641569376e-01    0,000000000e+00    0,000000000e+00    0,000000000e+00    0,000000000e+00
      940000000    2,153773457e-01    8,080762625e-02   -3,718360886e-02    3,301155567e-01    0,000000000e+00    0,000000000e+00    0,000000000e+00    0,000000000e+00
      954000000    2,211297452e-01   -1,285184920e-01    1,312477440e-01    3,068325520e-01    0,000000000e+00    0,000000000e+00    0,000000000e+00    0,000000000e+00
      968000000    1,163533777e-01   -3,029289246e-01    2,724576890e-01    2,195154727e-01    0,000000000e+00    0,000000000e+00    0,000000000e+00    0,000000000e+00
      982000000   -8,440112323e-02   -3,872741461e-01    3,663089871e-01    6,421476603e-02    0,000000000e+00    0,000000000e+00    0,000000000e+00    0,000000000e+00
      996000000   -3,137222826e-01   -3,275100291e-01    3,702625930e-01   -1,466710567e-01    0,000000000e+00    0,000000000e+00    0,000000000e+00    0,000000000e+00
     1010000000   -4,630812407e-01   -1,075544804e-01    2,217416763e-01   -3,414118588e-01    0,000000000e+00    0,000000000e+00    0,000000000e+00    0,000000000e+00
     1024000000   -4,163753092e-01    1,488434970e-01   -3,374183550e-02   -3,936677873e-01    0,000000000e+00    0,000000000e+00    0,000000000e+00    0,000000000e+00
     1038000000   -2,195531279e-01    2,892259955e-01   -2,459757924e-01   -2,605628371e-01    0,000000000e+00    0,000000000e+00    0,000000000e+00    0,000000000e+00
     1052000000   -6,303640082e-03    2,791691720e-01   -3,164864779e-01   -4,693654180e-02    0,000000000e+00    0,000000000e+00    0,000000000e+00    0,000000000e+00
     1066000000    1,359052509e-01    1,600177735e-01   -2,575926483e-01    1,435737759e-01    0,000000000e+00    0,000000000e+00    0,000000000e+00    0,000000000e+00
     1080000000    1,910126209e-01   -7,581422688e-05   -1,167789102e-01    2,650282383e-01    0,000000000e+00    0,000000000e+00    0,000000000e+00    0,000000000e+00
     1094000000    1,555414498e-01   -1,715612262e-01    6,252221763e-02    3,042900264e-01    0,000000000e+00    0,000000000e+00    0,000000000e+00    0,000000000e+00
     1108000000   -5,979058333e-03   -3,029823303e-01    2,764193714e-01    2,459127605e-01    0,000000000e+00    0,000000000e+00    0,000000000e+00    0,000000000e+00
     1122000000   -2,518382967e-01   -2,647510171e-01    4,728960693e-01    1,470273267e-02    0,000000000e+00    0,000000000e+00    0,000000000e+00    0,000000000e+00
     1136000000   -3,164635301e-01    3,559667245e-02    3,969154060e-01   -3,906417489e-01    0,000000000e+00    0,000000000e+00    0,000000000e+00    0,000000000e+00
     1150000000   -3,906138986e-02    1,568082273e-01    3,939550370e-03   -5,421724916e-01    0,000000000e+00    0,000000000e+00    0,000000000e+00    0,000000000e+00
     1164000000    1,208447665e-01   -6,380306929e-02   -2,798907757e-01   -3,792486787e-01    0,000000000e+00    0,000000000e+00    0,000000000e+00    0,000000000e+00
     1178000000    1,838464662e-02   -3,064686060e-01   -3,675946593e-01   -1,531126797e-01    0,000000000e+00    0,000000000e+00    0,000000000e+00    0,000000000e+00
     1192000000   -2,678280771e-01   -3,706749678e-01   -3,282201290e-01    6,073395163e-02    0,000000000e+00    0,000000000e+00    0,000000000e+00    0,000000000e+00
     1206000000   -5,232606530e-01   -1,587635130e-01   -1,678876728e-01    1,769889891e-01    0,000000000e+00    0,000000000e+00    0,000000000e+00    0,000000000e+00
     1220000000   -5,083385706e-01    1,695408076e-01    3,822430968e-03    1,553642750e-01    0,000000000e+00    0,000000000e+00    0,000000000e+00    0,000000000e+00
     1234000000   -2,825109959e-01    3,614061177e-01    6,820166111e-02    5,989448726e-02    0,000000000e+00    0,000000000e+00    0,000000000e+00    0,000000000e+00
     1248000000   -4,806507006e-02    3,618869781e-01    5,138248950e-02   -4,554674029e-03    0,000000000e+00    0,000000000e+00    0,000000000e+00    0,000000000e+00
     1262000000    1,278672814e-01    2,586653531e-01    2,014337853e-02   -2,385421842e-02    0,000000000e+00    0,000000000e+00    0,000000000e+00    0,000000000e+00
     1276000000    2,110033333e-01    1,022792608e-01   -3,066354198e-03    7,391715422e-03    0,000000000e+00    0,000000000e+00    0,000000000e+00    0,000000000e+00
     1290000000    2,216082960e-01   -7,462675124e-02    1,719762944e-02    5,419370160e-02    0,000000000e+00    0,000000000e+00    0,000000000e+00    0,000000000e+00
     1304000000    1,516520083e-01   -2,422322780e-01    1,237094402e-01    6,635502726e-02    0,000000000e+00    0,000000000e+00    0,000000000e+00    0,000000000e+00
     1318000000    3,578340635e-02   -3,386665881e-01    1,308492422e-01   -1,632817388e-01    0,000000000e+00    0,000000000e+00    0,000000000e+00    0,000000000e+00
     1332000000   -1,327421218e-01   -4,399636686e-01   -5,255690590e-02   -5,137421563e-02    0,000000000e+00    0,000000000e+00    0,000000000e+00    0,000000000e+00
     1346000000   -3,902220428e-01   -4,060178399e-01    3,762910515e-02    6,568248570e-02    0,000000000e+00    0,000000000e+00    0,000000000e+00    0,000000000e+00
     1360000000   -6,095652580e-01   -1,958046705e-01    1,386468112e-01    6,465347111e-02    0,000000000e+00    0,000000000e+00    0,000000000e+00    0,000000000e+00
     1374000000   -6,338538527e-01    1,214151457e-01    2,063101232e-01   -4,638450220e-03    0,000000000e+00    0,000000000e+00    0,000000000e+00    0,000000000e+00
     1388000000   -4,634521902e-01    3,682258129e-01    2,106278986e-01   -7,077635825e-02    0,000000000e+00    0,000000000e+00    0,000000000e+00    0,000000000e+00
     1402000000   -2,298105657e-01    4,520896077e-01    1,950911134e-01   -1,018355861e-01    0,000000000e+00    0,000000000e+00    0,000000000e+00    0,000000000e+00
     1416000000   -2,561946213e-02    4,102053344e-01    1,637743860e-01   -1,090130359e-01    0,000000000e+00    0,000000000e+00    0,000000000e+00    0,000000000e+00
     1430000000    1,339124590e-01    2,972118258e-01    1,574352682e-01   -1,409359723e-01    0,000000000e+00    0,000000000e+00    0,000000000e+00    0,000000000e+00
     1444000000    2,108358741e-01    1,528502405e-01    1,576216817e-01   -9,220214188e-02    0,000000000e+00    0,000000000e+00    0,000000000e+00    0,000000000e+00
     1458000000    2,359922826e-01   -2,089647204e-02    1,405255049e-01   -7,996011525e-02    0,000000000e+00    0,000000000e+00    0,000000000e+00    0,000000000e+00
     1472000000    1,985568404e-01   -2,071360201e-01    1,501017511e-01   -3,459840268e-02    0,000000000e+00    0,000000000e+00    0,000000000e+00    0,000000000e+00
     1486000000    5,968817696e-02   -3,651502728e-01    1,798004806e-01    3,880809993e-02    0,000000000e+00    0,000000000e+00    0,000000000e+00    0,000000000e+00
     1500000000   -1,675369889e-01   -4,960476756e-01    2,426127046e-01    8,543854952e-02    0,000000000e+00    0,000000000e+00    0,000000000e+00    0,000000000e+00
