! NanoVNA-App
! Date: 2025-09-25 15:31:28
! Start: 100MHz Stop: 1,5GHz Points: 101
! S-Parameter data: F S11 S21 S12 S22
# Hz S RI R 50
!     Frequency           S11_Real           S11_Imag           S21_Real           S21_Imag           S12_Real           S12_Imag           S22_Real           S22_Imag
      100000000   -2,887426876e-02   -4,172762856e-03    3,740992248e-01   -7,217384577e-01    0,000000000e+00    0,000000000e+00    0,000000000e+00    0,000000000e+00
      114000000   -1,651846617e-02    1,151244249e-02   -8,896847069e-02   -8,053532839e-01    0,000000000e+00    0,000000000e+00    0,000000000e+00    0,000000000e+00
      128000000    3,472632961e-03    1,054008398e-02   -5,145465732e-01   -6,202435493e-01    0,000000000e+00    0,000000000e+00    0,000000000e+00    0,000000000e+00
      142000000    1,454103366e-02   -2,945536980e-03   -7,673126459e-01   -2,367067635e-01    0,000000000e+00    0,000000000e+00    0,000000000e+00    0,000000000e+00
      156000000    1,545566507e-02   -1,499803551e-02   -7,713537812e-01    2,218081057e-01    0,000000000e+00    0,000000000e+00    0,000000000e+00    0,000000000e+00
      170000000    1,666205935e-02   -2,257640101e-02   -5,180429220e-01    6,048304439e-01    0,000000000e+00    0,000000000e+00    0,000000000e+00    0,000000000e+00
      184000000    2,098455839e-02   -3,704129532e-02   -1,012993082e-01    7,862686515e-01    0,000000000e+00    0,000000000e+00    0,000000000e+00    0,000000000e+00
      198000000    1,308530755e-02   -6,247895211e-02    3,431324661e-01    7,123564482e-01    0,000000000e+00    0,000000000e+00    0,000000000e+00    0,000000000e+00
      212000000   -1,868676580e-02   -8,127089590e-02    6,782984138e-01    4,099853039e-01    0,000000000e+00    0,000000000e+00    0,000000000e+00    0,000000000e+00
      226000000   -6,170560420e-02   -6,914964318e-02    7,958599329e-01   -3,065587580e-02    0,000000000e+00    0,000000000e+00    0,000000000e+00    0,000000000e+00
      240000000   -8,258682489e-02   -2,565054223e-02    6,461446285e-01   -4,669526219e-01    0,000000000e+00    0,000000000e+00    0,000000000e+00    0,000000000e+00
      254000000   -6,349369884e-02    1,721265353e-02    2,758566141e-01   -7,432448864e-01    0,000000000e+00    0,000000000e+00    0,000000000e+00    0,000000000e+00
      268000000   -2,391658165e-02    2,889883704e-02   -1,783362329e-01   -7,642757297e-01    0,000000000e+00    0,000000000e+00    0,000000000e+00    0,000000000e+00
      282000000    4,110996611e-03    1,193887740e-02   -5,615989566e-01   -5,355863571e-01    0,000000000e+00    0,000000000e+00    0,000000000e+00    0,000000000e+00
      296000000    9,757540189e-03   -7,671504281e-03   -7,597464323e-01   -1,396288872e-01    0,000000000e+00    0,000000000e+00    0,000000000e+00    0,000000000e+00
      310000000    1,122380048e-02   -1,616987213e-02   -7,114573717e-01    2,982884347e-01    0,000000000e+00    0,000000000e+00    0,000000000e+00    0,000000000e+00
      324000000    1,969332807e-02   -2,646734752e-02   -4,280556738e-01    6,385700703e-01    0,000000000e+00    0,000000000e+00    0,000000000e+00    0,000000000e+00
      338000000    2,551443875e-02   -5,199236423e-02   -9,752875194e-03    7,591226697e-01    0,000000000e+00    0,000000000e+00    0,000000000e+00    0,000000000e+00
      352000000    7,537021767e-03   -8,454225957e-02    4,064506590e-01    6,397698522e-01    0,000000000e+00    0,000000000e+00    0,000000000e+00    0,000000000e+00
      366000000   -3,454392403e-02   -9,560110420e-02    6,907358766e-01    3,112325370e-01    0,000000000e+00    0,000000000e+00    0,000000000e+00    0,000000000e+00
      380000000   -7,081434876e-02   -7,113958895e-02    7,471647859e-01   -1,257353425e-01    0,000000000e+00    0,000000000e+00    0,000000000e+00    0,000000000e+00
      394000000   -7,261663675e-02   -3,240671009e-02    5,453679562e-01   -5,229125619e-01    0,000000000e+00    0,000000000e+00    0,000000000e+00    0,000000000e+00
      408000000   -4,658544809e-02   -1,619683579e-02    1,606051922e-01   -7,315537930e-01    0,000000000e+00    0,000000000e+00    0,000000000e+00    0,000000000e+00
      422000000   -2,820777521e-02   -3,186528012e-02   -2,683153450e-01   -6,946540475e-01    0,000000000e+00    0,000000000e+00    0,000000000e+00    0,000000000e+00
      436000000   -4,073652253e-02   -5,191640556e-02   -6,042433977e-01   -4,322702289e-01    0,000000000e+00    0,000000000e+00    0,000000000e+00    0,000000000e+00
      450000000   -6,750515103e-02   -4,400854930e-02   -7,405372858e-01   -2,148803324e-02    0,000000000e+00    0,000000000e+00    0,000000000e+00    0,000000000e+00
      464000000   -7,334022224e-02   -1,183720678e-02   -6,183778048e-01    3,968638182e-01    0,000000000e+00    0,000000000e+00    0,000000000e+00    0,000000000e+00
      478000000   -4,757767916e-02    1,175625995e-02   -2,816796601e-01    6,678518057e-01    0,000000000e+00    0,000000000e+00    0,000000000e+00    0,000000000e+00
      492000000   -1,579678245e-02    6,070029922e-03    1,375809312e-01    7,018392086e-01    0,000000000e+00    0,000000000e+00    0,000000000e+00    0,000000000e+00
      506000000   -2,681630198e-03   -1,577760652e-02    4,979823828e-01    5,020062923e-01    0,000000000e+00    0,000000000e+00    0,000000000e+00    0,000000000e+00
      520000000   -4,865299445e-03   -3,151271120e-02    6,879053116e-01    1,410375983e-01    0,000000000e+00    0,000000000e+00    0,000000000e+00    0,000000000e+00
      534000000   -3,912711982e-03   -3,842728958e-02    6,435731649e-01   -2,632081807e-01    0,000000000e+00    0,000000000e+00    0,000000000e+00    0,000000000e+00
      548000000    6,012275349e-03   -5,372982472e-02    3,812044263e-01   -5,673310161e-01    0,000000000e+00    0,000000000e+00    0,000000000e+00    0,000000000e+00
      562000000    2,980009420e-03   -8,919389546e-02    1,622742042e-03   -6,721825600e-01    0,000000000e+00    0,000000000e+00    0,000000000e+00    0,000000000e+00
      576000000   -3,376435488e-02   -1,240599006e-01   -3,688342571e-01   -5,578469038e-01    0,000000000e+00    0,000000000e+00    0,000000000e+00    0,000000000e+00
      590000000   -9,627881646e-02   -1,225512698e-01   -6,200364232e-01   -2,644371688e-01    0,000000000e+00    0,000000000e+00    0,000000000e+00    0,000000000e+00
      604000000   -1,393457204e-01   -7,193569839e-02   -6,645435691e-01    1,377528906e-01    0,000000000e+00    0,000000000e+00    0,000000000e+00    0,000000000e+00
      618000000   -1,294868886e-01   -9,441398084e-03   -4,643627405e-01    4,943952560e-01    0,000000000e+00    0,000000000e+00    0,000000000e+00    0,000000000e+00
      632000000   -8,376996219e-02    1,717174985e-02   -9,890837967e-02    6,630095243e-01    0,000000000e+00    0,000000000e+00    0,000000000e+00    0,000000000e+00
      646000000   -5,119476095e-02    1,058986527e-03    2,874980271e-01    5,960473418e-01    0,000000000e+00    0,000000000e+00    0,000000000e+00    0,000000000e+00
      660000000   -5,365974084e-02   -2,145720460e-02    5,678913593e-01    3,231812716e-01    0,000000000e+00    0,000000000e+00    0,000000000e+00    0,000000000e+00
      674000000   -7,074391842e-02   -1,791047305e-02    6,429028511e-01   -6,553827971e-02    0,000000000e+00    0,000000000e+00    0,000000000e+00    0,000000000e+00
      688000000   -6,848289073e-02    9,529550560e-03    4,709471762e-01   -4,276346862e-01    0,000000000e+00    0,000000000e+00    0,000000000e+00    0,000000000e+00
      702000000   -3,777602315e-02    2,733327448e-02    1,130468547e-01   -6,092160344e-01    0,000000000e+00    0,000000000e+00    0,000000000e+00    0,000000000e+00
      716000000    2,865528921e-03    1,762114279e-02   -2,647531033e-01   -5,473648906e-01    0,000000000e+00    0,000000000e+00    0,000000000e+00    0,000000000e+00
      730000000    3,719147667e-02   -1,067400817e-02   -5,285777450e-01   -2,687492073e-01    0,000000000e+00    0,000000000e+00    0,000000000e+00    0,000000000e+00
      744000000    6,538192183e-02   -6,193890423e-02   -5,641701221e-01    1,067345515e-01    0,000000000e+00    0,000000000e+00    0,000000000e+00    0,000000000e+00
      758000000    6,640244275e-02   -1,525160968e-01   -3,631986380e-01    4,110067189e-01    0,000000000e+00    0,000000000e+00    0,000000000e+00    0,000000000e+00
      772000000   -1,331764460e-02   -2,617001832e-01   -3,447875008e-02    5,149043798e-01    0,000000000e+00    0,000000000e+00    0,000000000e+00    0,000000000e+00
      786000000   -2,069284022e-01   -3,019548953e-01    2,752405703e-01    3,950535059e-01    0,000000000e+00    0,000000000e+00    0,000000000e+00    0,000000000e+00
      800000000   -4,256628752e-01   -1,307882816e-01    4,170944989e-01    9,901016951e-02    0,000000000e+00    0,000000000e+00    0,000000000e+00    0,000000000e+00
      814000000   -3,893063664e-01    2,203918844e-01    2,825852633e-01   -1,727345735e-01    0,000000000e+00    0,000000000e+00    0,000000000e+00    0,000000000e+00
      828000000   -4,947899282e-02    3,678620160e-01    5,491548777e-02   -1,888418347e-01    0,000000000e+00    0,000000000e+00    0,000000000e+00    0,000000000e+00
      842000000    2,350587696e-01    1,856432110e-01   -1,687845774e-02   -7,056070119e-02    0,000000000e+00    0,000000000e+00    0,000000000e+00    0,000000000e+00
      856000000    2,805700004e-01   -1,245847270e-01    4,535297677e-02   -1,314936485e-02    0,000000000e+00    0,000000000e+00    0,000000000e+00    0,000000000e+00
      870000000    7,514642179e-02   -3,764604032e-01    1,134765372e-01   -9,097944200e-02    0,000000000e+00    0,000000000e+00    0,000000000e+00    0,000000000e+00
      884000000   -2,957591712e-01   -3,625358343e-01    2,831751667e-02   -2,458959967e-01    0,000000000e+00    0,000000000e+00    0,000000000e+00    0,000000000e+00
      898000000   -4,713152945e-01    9,046171792e-03   -2,214349359e-01   -2,274398804e-01    0,000000000e+00    0,000000000e+00    0,000000000e+00    0,000000000e+00
      912000000   -2,258045971e-01    2,937452495e-01   -3,401640058e-01    7,455278933e-02    0,000000000e+00    0,000000000e+00    0,000000000e+00    0,000000000e+00
      926000000    6,680608541e-02    2,658224106e-01   -2,182628065e-01    2,659933865e-01    0,000000000e+00    0,000000000e+00    0,000000000e+00    0,000000000e+00
      940000000    2,150947452e-01    8,072796464e-02   -3,690980375e-02    3,287626207e-01    0,000000000e+00    0,000000000e+00    0,000000000e+00    0,000000000e+00
      954000000    2,232148498e-01   -1,260378957e-01    1,319354624e-01    3,053917587e-01    0,000000000e+00    0,000000000e+00    0,000000000e+00    0,000000000e+00
      968000000    1,188460365e-01   -3,006007671e-01    2,709510326e-01    2,189432234e-01    0,000000000e+00    0,000000000e+00    0,000000000e+00    0,000000000e+00
      982000000   -7,970834523e-02   -3,881865144e-01    3,661396503e-01    6,667007506e-02    0,000000000e+00    0,000000000e+00    0,000000000e+00    0,000000000e+00
      996000000   -3,184505701e-01   -3,299647868e-01    3,675633669e-01   -1,445035934e-01    0,000000000e+00    0,000000000e+00    0,000000000e+00    0,000000000e+00
     1010000000   -4,638356268e-01   -1,134060845e-01    2,236333936e-01   -3,416995704e-01    0,000000000e+00    0,000000000e+00    0,000000000e+00    0,000000000e+00
     1024000000   -4,126659334e-01    1,446254402e-01   -3,362652287e-02   -3,931170702e-01    0,000000000e+00    0,000000000e+00    0,000000000e+00    0,000000000e+00
     1038000000   -2,137844861e-01    2,902427316e-01   -2,478974760e-01   -2,604057789e-01    0,000000000e+00    0,000000000e+00    0,000000000e+00    0,000000000e+00
     1052000000   -4,989850800e-03    2,791519761e-01   -3,171895146e-01   -4,563293979e-02    0,000000000e+00    0,000000000e+00    0,000000000e+00    0,000000000e+00
     1066000000    1,376154423e-01    1,652903855e-01   -2,545461655e-01    1,408290267e-01    0,000000000e+00    0,000000000e+00    0,000000000e+00    0,000000000e+00
     1080000000    1,947138906e-01    1,392630278e-03   -1,204275191e-01    2,626439929e-01    0,000000000e+00    0,000000000e+00    0,000000000e+00    0,000000000e+00
     1094000000    1,512590647e-01   -1,723850220e-01    6,368073821e-02    3,048262894e-01    0,000000000e+00    0,000000000e+00    0,000000000e+00    0,000000000e+00
     1108000000   -4,265097436e-03   -3,064625859e-01    2,809260488e-01    2,454696149e-01    0,000000000e+00    0,000000000e+00    0,000000000e+00    0,000000000e+00
     1122000000   -2,501419187e-01   -2,609823346e-01    4,718180299e-01    1,199466269e-02    0,000000000e+00    0,000000000e+00    0,000000000e+00    0,000000000e+00
     1136000000   -3,211000264e-01    3,666366637e-02    3,988495469e-01   -3,916635811e-01    0,000000000e+00    0,000000000e+00    0,000000000e+00    0,000000000e+00
     1150000000   -3,760878369e-02    1,540864557e-01    3,730958560e-03   -5,441978574e-01    0,000000000e+00    0,000000000e+00    0,000000000e+00    0,000000000e+00
     1164000000    1,231764033e-01   -6,700358540e-02   -2,768623829e-01   -3,810310364e-01    0,000000000e+00    0,000000000e+00    0,000000000e+00    0,000000000e+00
     1178000000    1,992960833e-02   -3,057187498e-01   -3,645398319e-01   -1,528735608e-01    0,000000000e+00    0,000000000e+00    0,000000000e+00    0,000000000e+00
     1192000000   -2,683282793e-01   -3,721633852e-01   -3,227072060e-01    5,632662401e-02    0,000000000e+00    0,000000000e+00    0,000000000e+00    0,000000000e+00
     1206000000   -5,203082561e-01   -1,642320901e-01   -1,647140980e-01    1,768563390e-01    0,000000000e+00    0,000000000e+00    0,000000000e+00    0,000000000e+00
     1220000000   -5,037944317e-01    1,732169390e-01    4,746574443e-03    1,569997221e-01    0,000000000e+00    0,000000000e+00    0,000000000e+00    0,000000000e+00
     1234000000   -2,799916267e-01    3,613051176e-01    7,237078995e-02    6,208562851e-02    0,000000000e+00    0,000000000e+00    0,000000000e+00    0,000000000e+00
     1248000000   -4,001925513e-02    3,620840311e-01    5,736030266e-02   -7,724601310e-03    0,000000000e+00    0,000000000e+00    0,000000000e+00    0,000000000e+00
     1262000000    1,213643700e-01    2,523687482e-01    1,496630162e-02   -2,561490051e-02    0,000000000e+00    0,000000000e+00    0,000000000e+00    0,000000000e+00
     1276000000    2,111193240e-01    9,640514106e-02   -2,745470498e-03    6,899415166e-05    0,000000000e+00    0,000000000e+00    0,000000000e+00    0,000000000e+00
     1290000000    2,212946713e-01   -7,448576391e-02    1,455872040e-02    5,417744070e-02    0,000000000e+00    0,000000000e+00    0,000000000e+00    0,000000000e+00
     1304000000    1,532510966e-01   -2,419779748e-01    1,287723184e-01    6,166145578e-02    0,000000000e+00    0,000000000e+00    0,000000000e+00    0,000000000e+00
     1318000000    3,702193499e-02   -3,377197981e-01    1,320515722e-01   -1,699639261e-01    0,000000000e+00    0,000000000e+00    0,000000000e+00    0,000000000e+00
     1332000000   -1,267386079e-01   -4,371815920e-01   -3,865584731e-02   -5,074208975e-02    0,000000000e+00    0,000000000e+00    0,000000000e+00    0,000000000e+00
     1346000000   -3,934013546e-01   -4,017642736e-01    2,351938747e-02    7,544614375e-02    0,000000000e+00    0,000000000e+00    0,000000000e+00    0,000000000e+00
     1360000000   -6,078279614e-01   -1,863777041e-01    1,392255276e-01    7,955775410e-02    0,000000000e+00    0,000000000e+00    0,000000000e+00    0,000000000e+00
     1374000000   -6,247630119e-01    1,246848181e-01    2,064559609e-01    2,284771064e-03    0,000000000e+00    0,000000000e+00    0,000000000e+00    0,000000000e+00
     1388000000   -4,702225626e-01    3,695091307e-01    2,006094456e-01   -5,951305106e-02    0,000000000e+00    0,000000000e+00    0,000000000e+00    0,000000000e+00
     1402000000   -2,369031012e-01    4,604629576e-01    1,880864352e-01   -8,402311802e-02    0,000000000e+00    0,000000000e+00    0,000000000e+00    0,000000000e+00
     1416000000   -3,146237880e-02    4,133996964e-01    1,660300493e-01   -1,085933298e-01    0,000000000e+00    0,000000000e+00    0,000000000e+00    0,000000000e+00
     1430000000    1,211204082e-01    3,006705642e-01    1,665927172e-01   -9,351309389e-02    0,000000000e+00    0,000000000e+00    0,000000000e+00    0,000000000e+00
     1444000000    2,107516825e-01    1,503312290e-01    1,548455954e-01   -8,664512634e-02    0,000000000e+00    0,000000000e+00    0,000000000e+00    0,000000000e+00
     1458000000    2,354941666e-01   -2,626327612e-02    1,524773240e-01   -7,873702049e-02    0,000000000e+00    0,000000000e+00    0,000000000e+00    0,000000000e+00
     1472000000    1,873634756e-01   -2,039856464e-01    1,358169168e-01   -3,708060458e-02    0,000000000e+00    0,000000000e+00    0,000000000e+00    0,000000000e+00
     1486000000    5,749327317e-02   -3,684295118e-01    1,615658700e-01    3,679067269e-02    0,000000000e+00    0,000000000e+00    0,000000000e+00    0,000000000e+00
     1500000000   -1,763998568e-01   -4,946314991e-01    2,561998963e-01    9,031803161e-02    0,000000000e+00    0,000000000e+00    0,000000000e+00    0,000000000e+00
