! NanoVNA-App
! Date: 2025-09-25 15:32:39
! Start: 100MHz Stop: 1,5GHz Points: 101
! S-Parameter data: F S11 S21 S12 S22
# Hz S RI R 50
!     Frequency           S11_Real           S11_Imag           S21_Real           S21_Imag           S12_Real           S12_Imag           S22_Real           S22_Imag
      100000000   -2,886850573e-02   -4,174920265e-03    3,741055131e-01   -7,217959762e-01    0,000000000e+00    0,000000000e+00    0,000000000e+00    0,000000000e+00
      114000000   -1,653777435e-02    1,150899939e-02   -8,899323642e-02   -8,054106236e-01    0,000000000e+00    0,000000000e+00    0,000000000e+00    0,000000000e+00
      128000000    3,407041775e-03    1,051575504e-02   -5,146178603e-01   -6,205454469e-01    0,000000000e+00    0,000000000e+00    0,000000000e+00    0,000000000e+00
      142000000    1,453602780e-02   -2,953122137e-03   -7,672444582e-01   -2,367822975e-01    0,000000000e+00    0,000000000e+00    0,000000000e+00    0,000000000e+00
      156000000    1,548990235e-02   -1,491207164e-02   -7,713653445e-01    2,217130363e-01    0,000000000e+00    0,000000000e+00    0,000000000e+00    0,000000000e+00
      170000000    1,668696851e-02   -2,256943844e-02   -5,184845328e-01    6,047200561e-01    0,000000000e+00    0,000000000e+00    0,000000000e+00    0,000000000e+00
      184000000    2,097681724e-02   -3,701766953e-02   -1,014145464e-01    7,861354351e-01    0,000000000e+00    0,000000000e+00    0,000000000e+00    0,000000000e+00
      198000000    1,304525603e-02   -6,247815117e-02    3,432218432e-01    7,123510242e-01    0,000000000e+00    0,000000000e+00    0,000000000e+00    0,000000000e+00
      212000000   -1,864743978e-02   -8,131411672e-02    6,782140136e-01    4,100944102e-01    0,000000000e+00    0,000000000e+00    0,000000000e+00    0,000000000e+00
      226000000   -6,175203621e-02   -6,917108595e-02    7,959245443e-01   -3,050206043e-02    0,000000000e+00    0,000000000e+00    0,000000000e+00    0,000000000e+00
      240000000   -8,264686167e-02   -2,564295754e-02    6,460305452e-01   -4,666181207e-01    0,000000000e+00    0,000000000e+00    0,000000000e+00    0,000000000e+00
      254000000   -6,351657212e-02    1,722911187e-02    2,761130631e-01   -7,432790995e-01    0,000000000e+00    0,000000000e+00    0,000000000e+00    0,000000000e+00
      268000000   -2,386890352e-02    2,896192670e-02   -1,778345108e-01   -7,641279101e-01    0,000000000e+00    0,000000000e+00    0,000000000e+00    0,000000000e+00
      282000000    4,198449664e-03    1,194948051e-02   -5,618700981e-01   -5,357253551e-01    0,000000000e+00    0,000000000e+00    0,000000000e+00    0,000000000e+00
      296000000    9,584599175e-03   -7,855138741e-03   -7,596722245e-01   -1,395857185e-01    0,000000000e+00    0,000000000e+00    0,000000000e+00    0,000000000e+00
      310000000    1,114185713e-02   -1,630929671e-02   -7,125636935e-01    2,993530929e-01    0,000000000e+00    0,000000000e+00    0,000000000e+00    0,000000000e+00
      324000000    1,977722161e-02   -2,646847442e-02   -4,280299544e-01    6,381261945e-01    0,000000000e+00    0,000000000e+00    0,000000000e+00    0,000000000e+00
      338000000    2,553967200e-02   -5,231472477e-02   -9,720604867e-03    7,632211447e-01    0,000000000e+00    0,000000000e+00    0,000000000e+00    0,000000000e+00
      352000000    7,583516650e-03   -8,469709754e-02    4,067542553e-01    6,396917105e-01    0,000000000e+00    0,000000000e+00    0,000000000e+00    0,000000000e+00
      366000000   -3,472791240e-02   -9,568464011e-02    6,908568740e-01    3,108214140e-01    0,000000000e+00    0,000000000e+00    0,000000000e+00    0,000000000e+00
      380000000   -7,091601938e-02   -7,108328491e-02    7,472420335e-01   -1,258916110e-01    0,000000000e+00    0,000000000e+00    0,000000000e+00    0,000000000e+00
      394000000   -7,260835171e-02   -3,231494501e-02    5,462239981e-01   -5,228355527e-01    0,000000000e+00    0,000000000e+00    0,000000000e+00    0,000000000e+00
      408000000   -4,641649872e-02   -1,585035771e-02    1,608867794e-01   -7,319267988e-01    0,000000000e+00    0,000000000e+00    0,000000000e+00    0,000000000e+00
      422000000   -2,861023881e-02   -3,190670907e-02   -2,677349150e-01   -6,958780289e-01    0,000000000e+00    0,000000000e+00    0,000000000e+00    0,000000000e+00
      436000000   -4,063236713e-02   -5,164850131e-02   -6,042234898e-01   -4,319669306e-01    0,000000000e+00    0,000000000e+00    0,000000000e+00    0,000000000e+00
      450000000   -6,716378778e-02   -4,386265203e-02   -7,404912114e-01   -2,122307383e-02    0,000000000e+00    0,000000000e+00    0,000000000e+00    0,000000000e+00
      464000000   -7,347102463e-02   -1,170704607e-02   -6,188104749e-01    3,973987997e-01    0,000000000e+00    0,000000000e+00    0,000000000e+00    0,000000000e+00
      478000000   -4,776595160e-02    1,148439385e-02   -2,817675471e-01    6,677534580e-01    0,000000000e+00    0,000000000e+00    0,000000000e+00    0,000000000e+00
      492000000   -1,552257966e-02    6,001362577e-03    1,387193203e-01    7,015333772e-01    0,000000000e+00    0,000000000e+00    0,000000000e+00    0,000000000e+00
      506000000   -2,170334803e-03   -1,564071700e-02    4,988681972e-01    5,022650361e-01    0,000000000e+00    0,000000000e+00    0,000000000e+00    0,000000000e+00
      520000000   -5,094670691e-03   -3,128426522e-02    6,887491345e-01    1,402070373e-01    0,000000000e+00    0,000000000e+00    0,000000000e+00    0,000000000e+00
      534000000   -3,809959162e-03   -3,811274841e-02    6,437935829e-01   -2,625805140e-01    0,000000000e+00    0,000000000e+00    0,000000000e+00    0,000000000e+00
      548000000    6,616446190e-03   -5,365154892e-02    3,815088868e-01   -5,672141910e-01    0,000000000e+00    0,000000000e+00    0,000000000e+00    0,000000000e+00
      562000000    3,136201994e-03   -8,898519725e-02    2,499928698e-03   -6,724790931e-01    0,000000000e+00    0,000000000e+00    0,000000000e+00    0,000000000e+00
      576000000   -3,387004510e-02   -1,243524402e-01   -3,685562611e-01   -5,565721989e-01    0,000000000e+00    0,000000000e+00    0,000000000e+00    0,000000000e+00
      590000000   -9,622003138e-02   -1,225653067e-01   -6,193306446e-01   -2,632963061e-01    0,000000000e+00    0,000000000e+00    0,000000000e+00    0,000000000e+00
      604000000   -1,396728754e-01   -7,216762751e-02   -6,653006077e-01    1,373897344e-01    0,000000000e+00    0,000000000e+00    0,000000000e+00    0,000000000e+00
      618000000   -1,294250339e-01   -9,496932849e-03   -4,643318951e-01    4,952492714e-01    0,000000000e+00    0,000000000e+00    0,000000000e+00    0,000000000e+00
      632000000   -8,332723379e-02    1,654652506e-02   -9,878952801e-02    6,627318263e-01    0,000000000e+00    0,000000000e+00    0,000000000e+00    0,000000000e+00
      646000000   -5,058382452e-02    4,452009453e-04    2,875871658e-01    5,955780745e-01    0,000000000e+00    0,000000000e+00    0,000000000e+00    0,000000000e+00
      660000000   -5,280447751e-02   -2,104581147e-02    5,675493479e-01    3,230119944e-01    0,000000000e+00    0,000000000e+00    0,000000000e+00    0,000000000e+00
      674000000   -7,010842115e-02   -1,814468205e-02    6,430047154e-01   -6,557542831e-02    0,000000000e+00    0,000000000e+00    0,000000000e+00    0,000000000e+00
      688000000   -6,905782968e-02    9,177060798e-03    4,712877870e-01   -4,278937578e-01    0,000000000e+00    0,000000000e+00    0,000000000e+00    0,000000000e+00
      702000000   -3,798381239e-02    2,655156329e-02    1,166357100e-01   -6,106467247e-01    0,000000000e+00    0,000000000e+00    0,000000000e+00    0,000000000e+00
      716000000    1,947595389e-03    1,719555818e-02   -2,644749880e-01   -5,461177230e-01    0,000000000e+00    0,000000000e+00    0,000000000e+00    0,000000000e+00
      730000000    3,718870133e-02   -1,149879023e-02   -5,284967422e-01   -2,683790922e-01    0,000000000e+00    0,000000000e+00    0,000000000e+00    0,000000000e+00
      744000000    6,447706372e-02   -6,211797521e-02   -5,642388463e-01    1,065349951e-01    0,000000000e+00    0,000000000e+00    0,000000000e+00    0,000000000e+00
      758000000    6,600297242e-02   -1,526453048e-01   -3,633153141e-01    4,107054770e-01    0,000000000e+00    0,000000000e+00    0,000000000e+00    0,000000000e+00
      772000000   -1,255691424e-02   -2,629464269e-01   -3,443046659e-02    5,165753365e-01    0,000000000e+00    0,000000000e+00    0,000000000e+00    0,000000000e+00
      786000000   -2,076569945e-01   -3,027551770e-01    2,746325731e-01    3,950144053e-01    0,000000000e+00    0,000000000e+00    0,000000000e+00    0,000000000e+00
      800000000   -4,263337553e-01   -1,306277663e-01    4,174636900e-01    9,897790104e-02    0,000000000e+00    0,000000000e+00    0,000000000e+00    0,000000000e+00
      814000000   -3,896745443e-01    2,225857377e-01    2,821586132e-01   -1,731112450e-01    0,000000000e+00    0,000000000e+00    0,000000000e+00    0,000000000e+00
      828000000   -4,965204373e-02    3,690336645e-01    5,477053300e-02   -1,894256026e-01    0,000000000e+00    0,000000000e+00    0,000000000e+00    0,000000000e+00
      842000000    2,350724190e-01    1,855174154e-01   -1,715074480e-02   -7,055365294e-02    0,000000000e+00    0,000000000e+00    0,000000000e+00    0,000000000e+00
      856000000    2,803487480e-01   -1,243363693e-01    4,523182288e-02   -1,290183421e-02    0,000000000e+00    0,000000000e+00    0,000000000e+00    0,000000000e+00
      870000000    7,533071935e-02   -3,759386241e-01    1,142596230e-01   -9,065874666e-02    0,000000000e+00    0,000000000e+00    0,000000000e+00    0,000000000e+00
      884000000   -2,967264354e-01   -3,620475531e-01    2,890492789e-02   -2,462843060e-01    0,000000000e+00    0,000000000e+00    0,000000000e+00    0,000000000e+00
      898000000   -4,718530774e-01    8,641713299e-03   -2,221041024e-01   -2,278487831e-01    0,000000000e+00    0,000000000e+00    0,000000000e+00    0,000000000e+00
      912000000   -2,256368995e-01    2,957352400e-01   -3,368196487e-01    7,250452787e-02    0,000000000e+00    0,000000000e+00    0,000000000e+00    0,000000000e+00
      926000000    6,621995568e-02    2,628203034e-01   -2,169964910e-01    2,627183795e-01    0,000000000e+00    0,000000000e+00    0,000000000e+00    0,000000000e+00
      940000000    2,176166475e-01    7,890861481e-02   -3,491867706e-02    3,293446302e-01    0,000000000e+00    0,000000000e+00    0,000000000e+00    0,000000000e+00
      954000000    2,212551385e-01   -1,298588812e-01    1,307159662e-01    3,067515790e-01    0,000000000e+00    0,000000000e+00    0,000000000e+00    0,000000000e+00
      968000000    1,169096455e-01   -3,021965921e-01    2,703843117e-01    2,195120156e-01    0,000000000e+00    0,000000000e+00    0,000000000e+00    0,000000000e+00
      982000000   -8,292529732e-02   -3,849542737e-01    3,653687239e-01    6,615752727e-02    0,000000000e+00    0,000000000e+00    0,000000000e+00    0,000000000e+00
      996000000   -3,158289492e-01   -3,313487172e-01    3,690560162e-01   -1,437629014e-01    0,000000000e+00    0,000000000e+00    0,000000000e+00    0,000000000e+00
     1010000000   -4,608501196e-01   -1,072944552e-01    2,239062041e-01   -3,406612575e-01    0,000000000e+00    0,000000000e+00    0,000000000e+00    0,000000000e+00
     1024000000   -4,158209562e-01    1,520882100e-01   -3,202984482e-02   -3,924253583e-01    0,000000000e+00    0,000000000e+00    0,000000000e+00    0,000000000e+00
     1038000000   -2,210384607e-01    2,915236354e-01   -2,485555112e-01   -2,602389455e-01    0,000000000e+00    0,000000000e+00    0,000000000e+00    0,000000000e+00
     1052000000   -6,655469071e-03    2,794769704e-01   -3,170452714e-01   -4,745181650e-02    0,000000000e+00    0,000000000e+00    0,000000000e+00    0,000000000e+00
     1066000000    1,361214817e-01    1,612398624e-01   -2,559834421e-01    1,438762695e-01    0,000000000e+00    0,000000000e+00    0,000000000e+00    0,000000000e+00
     1080000000    1,968308240e-01   -2,180973301e-03   -1,193765104e-01    2,642570734e-01    0,000000000e+00    0,000000000e+00    0,000000000e+00    0,000000000e+00
     1094000000    1,572263986e-01   -1,740010828e-01    6,384540349e-02    3,045441210e-01    0,000000000e+00    0,000000000e+00    0,000000000e+00    0,000000000e+00
     1108000000   -2,420573262e-03   -3,080927730e-01    2,794374824e-01    2,470797598e-01    0,000000000e+00    0,000000000e+00    0,000000000e+00    0,000000000e+00
     1122000000   -2,478069514e-01   -2,667733431e-01    4,715833664e-01    1,398054510e-02    0,000000000e+00    0,000000000e+00    0,000000000e+00    0,000000000e+00
     1136000000   -3,215709031e-01    3,154226765e-02    4,012638032e-01   -3,939920068e-01    0,000000000e+00    0,000000000e+00    0,000000000e+00    0,000000000e+00
     1150000000   -3,985674307e-02    1,556379795e-01    4,702135455e-03   -5,428022742e-01    0,000000000e+00    0,000000000e+00    0,000000000e+00    0,000000000e+00
     1164000000    1,240246370e-01   -6,518330425e-02   -2,748300731e-01   -3,802809417e-01    0,000000000e+00    0,000000000e+00    0,000000000e+00    0,000000000e+00
     1178000000    1,991194673e-02   -3,030199707e-01   -3,682793677e-01   -1,516455263e-01    0,000000000e+00    0,000000000e+00    0,000000000e+00    0,000000000e+00
     1192000000   -2,658869922e-01   -3,674916029e-01   -3,237735033e-01    5,743665248e-02    0,000000000e+00    0,000000000e+00    0,000000000e+00    0,000000000e+00
     1206000000   -5,179952979e-01   -1,617222279e-01   -1,627100110e-01    1,803711206e-01    0,000000000e+00    0,000000000e+00    0,000000000e+00    0,000000000e+00
     1220000000   -5,144912601e-01    1,770342588e-01    1,330316300e-04    1,547455788e-01    0,000000000e+00    0,000000000e+00    0,000000000e+00    0,000000000e+00
     1234000000   -2,814867795e-01    3,692984581e-01    7,203673571e-02    6,282676756e-02    0,000000000e+00    0,000000000e+00    0,000000000e+00    0,000000000e+00
     1248000000   -4,424126074e-02    3,595306873e-01    5,908028409e-02   -6,012551486e-03    0,000000000e+00    0,000000000e+00    0,000000000e+00    0,000000000e+00
     1262000000    1,176324338e-01    2,567147911e-01    1,340421662e-02   -2,076216601e-02    0,000000000e+00    0,000000000e+00    0,000000000e+00    0,000000000e+00
     1276000000    2,100214660e-01    9,884500504e-02   -4,949208815e-03    4,036379978e-03    0,000000000e+00    0,000000000e+00    0,000000000e+00    0,000000000e+00
     1290000000    2,218469679e-01   -7,485164702e-02    1,402444299e-02    4,929638281e-02    0,000000000e+00    0,000000000e+00    0,000000000e+00    0,000000000e+00
     1304000000    1,542050391e-01   -2,418360263e-01    1,300816089e-01    6,963110715e-02    0,000000000e+00    0,000000000e+00    0,000000000e+00    0,000000000e+00
     1318000000    3,435524553e-02   -3,377514482e-01    1,313619167e-01   -1,668192893e-01    0,000000000e+00    0,000000000e+00    0,000000000e+00    0,000000000e+00
     1332000000   -1,267807037e-01   -4,377865493e-01   -3,755491227e-02   -4,208698869e-02    0,000000000e+00    0,000000000e+00    0,000000000e+00    0,000000000e+00
     1346000000   -3,939062357e-01   -4,032731950e-01    2,821571194e-02    8,209411800e-02    0,000000000e+00    0,000000000e+00    0,000000000e+00    0,000000000e+00
     1360000000   -6,030923128e-01   -1,956985891e-01    1,371520013e-01    5,889550596e-02    0,000000000e+00    0,000000000e+00    0,000000000e+00    0,000000000e+00
     1374000000   -6,348131895e-01    1,308913976e-01    1,924133748e-01    6,766654085e-03    0,000000000e+00    0,000000000e+00    0,000000000e+00    0,000000000e+00
     1388000000   -4,626356065e-01    3,710408509e-01    2,138619870e-01   -5,905640498e-02    0,000000000e+00    0,000000000e+00    0,000000000e+00    0,000000000e+00
     1402000000   -2,317178398e-01    4,458785057e-01    1,900277436e-01   -1,041951478e-01    0,000000000e+00    0,000000000e+00    0,000000000e+00    0,000000000e+00
     1416000000   -2,738949470e-02    4,123175144e-01    1,660726964e-01   -1,037681848e-01    0,000000000e+00    0,000000000e+00    0,000000000e+00    0,000000000e+00
     1430000000    1,213800386e-01    2,994376719e-01    1,910373569e-01   -8,334748447e-02    0,000000000e+00    0,000000000e+00    0,000000000e+00    0,000000000e+00
     1444000000    2,104727924e-01    1,544599682e-01    1,582359225e-01   -1,002212837e-01    0,000000000e+00    0,000000000e+00    0,000000000e+00    0,000000000e+00
     1458000000    2,330646962e-01   -1,710072905e-02    1,488501728e-01   -7,450191677e-02    0,000000000e+00    0,000000000e+00    0,000000000e+00    0,000000000e+00
     1472000000    1,945092678e-01   -1,963543296e-01    1,413744390e-01   -2,160286717e-02    0,000000000e+00    0,000000000e+00    0,000000000e+00    0,000000000e+00
     1486000000    6,074221805e-02   -3,720083833e-01    1,575405747e-01    3,642360866e-02    0,000000000e+00    0,000000000e+00    0,000000000e+00    0,000000000e+00
     1500000000   -1,711372286e-01   -5,002709627e-01    2,444053739e-01    8,872830868e-02    0,000000000e+00    0,000000000e+00    0,000000000e+00    0,000000000e+00
