! NanoVNA-App
! Date: 2025-09-25 15:33:42
! Start: 100MHz Stop: 1,5GHz Points: 101
! S-Parameter data: F S11 S21 S12 S22
# Hz S RI R 50
!     Frequency           S11_Real           S11_Imag           S21_Real           S21_Imag           S12_Real           S12_Imag           S22_Real           S22_Imag
      100000000   -2,886314876e-02   -4,161055665e-03    3,741129339e-01   -7,218222022e-01    0,000000000e+00    0,000000000e+00    0,000000000e+00    0,000000000e+00
      114000000   -1,650415175e-02    1,152237598e-02   -8,895065635e-02   -8,053756356e-01    0,000000000e+00    0,000000000e+00    0,000000000e+00    0,000000000e+00
      128000000    3,485569032e-03    1,055874024e-02   -5,144001842e-01   -6,205884814e-01    0,000000000e+00    0,000000000e+00    0,000000000e+00    0,000000000e+00
      142000000    1,455088891e-02   -2,933143172e-03   -7,670955062e-01   -2,365329862e-01    0,000000000e+00    0,000000000e+00    0,000000000e+00    0,000000000e+00
      156000000    1,593847200e-02   -1,443712413e-02   -7,697902322e-01    2,241235822e-01    0,000000000e+00    0,000000000e+00    0,000000000e+00    0,000000000e+00
      170000000    1,670604572e-02   -2,255427279e-02   -5,180709958e-01    6,046605110e-01    0,000000000e+00    0,000000000e+00    0,000000000e+00    0,000000000e+00
      184000000    2,103003301e-02   -3,708912432e-02   -1,013850421e-01    7,864488959e-01    0,000000000e+00    0,000000000e+00    0,000000000e+00    0,000000000e+00
      198000000    1,302499045e-02   -6,248356774e-02    3,430447876e-01    7,124150991e-01    0,000000000e+00    0,000000000e+00    0,000000000e+00    0,000000000e+00
      212000000   -1,863414235e-02   -8,128143847e-02    6,780150533e-01    4,099227786e-01    0,000000000e+00    0,000000000e+00    0,000000000e+00    0,000000000e+00
      226000000   -6,171102449e-02   -6,922468543e-02    7,958103418e-01   -3,042548336e-02    0,000000000e+00    0,000000000e+00    0,000000000e+00    0,000000000e+00
      240000000   -8,263590932e-02   -2,567703836e-02    6,460307837e-01   -4,669864476e-01    0,000000000e+00    0,000000000e+00    0,000000000e+00    0,000000000e+00
      254000000   -6,353221834e-02    1,731321216e-02    2,761057615e-01   -7,435796261e-01    0,000000000e+00    0,000000000e+00    0,000000000e+00    0,000000000e+00
      268000000   -2,380797453e-02    2,893214487e-02   -1,782443076e-01   -7,645078897e-01    0,000000000e+00    0,000000000e+00    0,000000000e+00    0,000000000e+00
      282000000    4,191256594e-03    1,200858224e-02   -5,619800091e-01   -5,356382728e-01    0,000000000e+00    0,000000000e+00    0,000000000e+00    0,000000000e+00
      296000000    9,650790133e-03   -7,841768675e-03   -7,598547935e-01   -1,396553814e-01    0,000000000e+00    0,000000000e+00    0,000000000e+00    0,000000000e+00
      310000000    1,113284566e-02   -1,609793119e-02   -7,128904462e-01    2,995155752e-01    0,000000000e+00    0,000000000e+00    0,000000000e+00    0,000000000e+00
      324000000    1,980418339e-02   -2,669561282e-02   -4,271499515e-01    6,379472017e-01    0,000000000e+00    0,000000000e+00    0,000000000e+00    0,000000000e+00
      338000000    2,565011941e-02   -5,212535709e-02   -9,639609605e-03    7,604309916e-01    0,000000000e+00    0,000000000e+00    0,000000000e+00    0,000000000e+00
      352000000    7,193048485e-03   -8,494011313e-02    4,071238935e-01    6,401166916e-01    0,000000000e+00    0,000000000e+00    0,000000000e+00    0,000000000e+00
      366000000   -3,443995863e-02   -9,554138035e-02    6,906487346e-01    3,109444678e-01    0,000000000e+00    0,000000000e+00    0,000000000e+00    0,000000000e+00
      380000000   -7,073740661e-02   -7,101292908e-02    7,471174002e-01   -1,256775111e-01    0,000000000e+00    0,000000000e+00    0,000000000e+00    0,000000000e+00
      394000000   -7,271012664e-02   -3,234793991e-02    5,465904474e-01   -5,214393139e-01    0,000000000e+00    0,000000000e+00    0,000000000e+00    0,000000000e+00
      408000000   -4,631825536e-02   -1,616073027e-02    1,615489572e-01   -7,331866622e-01    0,000000000e+00    0,000000000e+00    0,000000000e+00    0,000000000e+00
      422000000   -2,834199183e-02   -3,210675716e-02   -2,678273320e-01   -6,956382394e-01    0,000000000e+00    0,000000000e+00    0,000000000e+00    0,000000000e+00
      436000000   -4,078286141e-02   -5,197175592e-02   -6,046391129e-01   -4,316149652e-01    0,000000000e+00    0,000000000e+00    0,000000000e+00    0,000000000e+00
      450000000   -6,737126410e-02   -4,390414432e-02   -7,405753136e-01   -2,125950344e-02    0,000000000e+00    0,000000000e+00    0,000000000e+00    0,000000000e+00
      464000000   -7,343306392e-02   -1,184549090e-02   -6,180815101e-01    3,975202143e-01    0,000000000e+00    0,000000000e+00    0,000000000e+00    0,000000000e+00
      478000000   -4,753658548e-02    1,159193926e-02   -2,825571299e-01    6,682291627e-01    0,000000000e+00    0,000000000e+00    0,000000000e+00    0,000000000e+00
      492000000   -1,538700983e-02    6,261154544e-03    1,382651478e-01    7,017938495e-01    0,000000000e+00    0,000000000e+00    0,000000000e+00    0,000000000e+00
      506000000   -2,610501833e-03   -1,586861722e-02    4,979415834e-01    5,024895072e-01    0,000000000e+00    0,000000000e+00    0,000000000e+00    0,000000000e+00
      520000000   -5,171698984e-03   -3,184248507e-02    6,885513663e-01    1,407011896e-01    0,000000000e+00    0,000000000e+00    0,000000000e+00    0,000000000e+00
      534000000   -3,577826777e-03   -3,823438287e-02    6,437667608e-01   -2,629138231e-01    0,000000000e+00    0,000000000e+00    0,000000000e+00    0,000000000e+00
      548000000    5,959162489e-03   -5,390378088e-02    3,814825714e-01   -5,671486855e-01    0,000000000e+00    0,000000000e+00    0,000000000e+00    0,000000000e+00
      562000000    3,061417723e-03   -8,898780495e-02    2,092962852e-03   -6,722052097e-01    0,000000000e+00    0,000000000e+00    0,000000000e+00    0,000000000e+00
      576000000   -3,392782807e-02   -1,244358569e-01   -3,694417179e-01   -5,579094887e-01    0,000000000e+00    0,000000000e+00    0,000000000e+00    0,000000000e+00
      590000000   -9,644199908e-02   -1,227116883e-01   -6,190910339e-01   -2,641303539e-01    0,000000000e+00    0,000000000e+00    0,000000000e+00    0,000000000e+00
      604000000   -1,393093169e-01   -7,198576629e-02   -6,643863320e-01    1,380318254e-01    0,000000000e+00    0,000000000e+00    0,000000000e+00    0,000000000e+00
      618000000   -1,294999123e-01   -9,560883045e-03   -4,646322727e-01    4,943509400e-01    0,000000000e+00    0,000000000e+00    0,000000000e+00    0,000000000e+00
      632000000   -8,358994871e-02    1,656452566e-02   -9,872750193e-02    6,632450223e-01    0,000000000e+00    0,000000000e+00    0,000000000e+00    0,000000000e+00
      646000000   -5,172266066e-02    7,597260992e-04    2,866352797e-01    5,955548286e-01    0,000000000e+00    0,000000000e+00    0,000000000e+00    0,000000000e+00
      660000000   -5,321731046e-02   -2,238892019e-02    5,672423840e-01    3,225505948e-01    0,000000000e+00    0,000000000e+00    0,000000000e+00    0,000000000e+00
      674000000   -7,005181909e-02   -1,823303662e-02    6,431594491e-01   -6,535936892e-02    0,000000000e+00    0,000000000e+00    0,000000000e+00    0,000000000e+00
      688000000   -6,890186667e-02    9,087471291e-03    4,708501697e-01   -4,281666875e-01    0,000000000e+00    0,000000000e+00    0,000000000e+00    0,000000000e+00
      702000000   -3,775937110e-02    2,568149939e-02    1,198188141e-01   -6,079395413e-01    0,000000000e+00    0,000000000e+00    0,000000000e+00    0,000000000e+00
      716000000    2,602593740e-03    1,704491302e-02   -2,651256919e-01   -5,470185280e-01    0,000000000e+00    0,000000000e+00    0,000000000e+00    0,000000000e+00
      730000000    3,622993454e-02   -1,103240158e-02   -5,289362669e-01   -2,694089115e-01    0,000000000e+00    0,000000000e+00    0,000000000e+00    0,000000000e+00
      744000000    6,527441740e-02   -6,178762764e-02   -5,643096566e-01    1,062712520e-01    0,000000000e+00    0,000000000e+00    0,000000000e+00    0,000000000e+00
      758000000    6,609271467e-02   -1,522089392e-01   -3,629244566e-01    4,104686379e-01    0,000000000e+00    0,000000000e+00    0,000000000e+00    0,000000000e+00
      772000000   -1,285824087e-02   -2,629019022e-01   -3,465557843e-02    5,155290961e-01    0,000000000e+00    0,000000000e+00    0,000000000e+00    0,000000000e+00
      786000000   -2,065811157e-01   -3,021928668e-01    2,747488022e-01    3,953061998e-01    0,000000000e+00    0,000000000e+00    0,000000000e+00    0,000000000e+00
      800000000   -4,248606265e-01   -1,302810609e-01    4,169615209e-01    9,910105914e-02    0,000000000e+00    0,000000000e+00    0,000000000e+00    0,000000000e+00
      814000000   -3,887658715e-01    2,220337689e-01    2,818912268e-01   -1,731021851e-01    0,000000000e+00    0,000000000e+00    0,000000000e+00    0,000000000e+00
      828000000   -4,974738508e-02    3,691235483e-01    5,500432476e-02   -1,890258044e-01    0,000000000e+00    0,000000000e+00    0,000000000e+00    0,000000000e+00
      842000000    2,351277769e-01    1,854697615e-01   -1,674600691e-02   -7,081773877e-02    0,000000000e+00    0,000000000e+00    0,000000000e+00    0,000000000e+00
      856000000    2,806991339e-01   -1,243957579e-01    4,552706704e-02   -1,248094998e-02    0,000000000e+00    0,000000000e+00    0,000000000e+00    0,000000000e+00
      870000000    7,548948377e-02   -3,763128221e-01    1,141727641e-01   -9,074139595e-02    0,000000000e+00    0,000000000e+00    0,000000000e+00    0,000000000e+00
      884000000   -2,957237661e-01   -3,614007831e-01    2,879475988e-02   -2,465382963e-01    0,000000000e+00    0,000000000e+00    0,000000000e+00    0,000000000e+00
      898000000   -4,712902606e-01    9,176480584e-03   -2,217946947e-01   -2,277645767e-01    0,000000000e+00    0,000000000e+00    0,000000000e+00    0,000000000e+00
      912000000   -2,253409624e-01    2,942938507e-01   -3,406136930e-01    6,101819500e-02    0,000000000e+00    0,000000000e+00    0,000000000e+00    0,000000000e+00
      926000000    6,564485282e-02    2,646978796e-01   -2,175717503e-01    2,634505332e-01    0,000000000e+00    0,000000000e+00    0,000000000e+00    0,000000000e+00
      940000000    2,170361280e-01    8,140834421e-02   -3,511198238e-02    3,310821354e-01    0,000000000e+00    0,000000000e+00    0,000000000e+00    0,000000000e+00
      954000000    2,232095897e-01   -1,292236149e-01    1,319454461e-01    3,078370094e-01    0,000000000e+00    0,000000000e+00    0,000000000e+00    0,000000000e+00
      968000000    1,144690290e-01   -2,999700606e-01    2,700740695e-01    2,166557014e-01    0,000000000e+00    0,000000000e+00    0,000000000e+00    0,000000000e+00
      982000000   -8,544618636e-02   -3,888000548e-01    3,672534227e-01    6,432201713e-02    0,000000000e+00    0,000000000e+00    0,000000000e+00    0,000000000e+00
      996000000   -3,184690177e-01   -3,317548037e-01    3,703590035e-01   -1,453781724e-01    0,000000000e+00    0,000000000e+00    0,000000000e+00    0,000000000e+00
     1010000000   -4,656202495e-01   -1,075135395e-01    2,222536653e-01   -3,416263163e-01    0,000000000e+00    0,000000000e+00    0,000000000e+00    0,000000000e+00
     1024000000   -4,106432498e-01    1,467981040e-01   -3,446860611e-02   -3,918821812e-01    0,000000000e+00    0,000000000e+00    0,000000000e+00    0,000000000e+00
     1038000000   -2,147644758e-01    2,945087552e-01   -2,467709333e-01   -2,614530325e-01    0,000000000e+00    0,000000000e+00    0,000000000e+00    0,000000000e+00
     1052000000   -7,477193139e-03    2,810162902e-01   -3,178864419e-01   -4,654129595e-02    0,000000000e+00    0,000000000e+00    0,000000000e+00    0,000000000e+00
     1066000000    1,389234513e-01    1,624210030e-01   -2,573068738e-01    1,421972513e-01    0,000000000e+00    0,000000000e+00    0,000000000e+00    0,000000000e+00
     1080000000    1,934224367e-01    2,468483057e-03   -1,195728034e-01    2,621884644e-01    0,000000000e+00    0,000000000e+00    0,000000000e+00    0,000000000e+00
     1094000000    1,569878906e-01   -1,767874509e-01    6,396792084e-02    3,077531457e-01    0,000000000e+00    0,000000000e+00    0,000000000e+00    0,000000000e+00
     1108000000   -4,841769580e-03   -3,054569364e-01    2,784636319e-01    2,478097230e-01    0,000000000e+00    0,000000000e+00    0,000000000e+00    0,000000000e+00
     1122000000   -2,510216534e-01   -2,594732940e-01    4,692982435e-01    1,291554514e-02    0,000000000e+00    0,000000000e+00    0,000000000e+00    0,000000000e+00
     1136000000   -3,242897391e-01    3,215110675e-02    4,010277390e-01   -3,932964802e-01    0,000000000e+00    0,000000000e+00    0,000000000e+00    0,000000000e+00
     1150000000   -3,762882203e-02    1,535217464e-01    8,061857894e-03   -5,414038897e-01    0,000000000e+00    0,000000000e+00    0,000000000e+00    0,000000000e+00
     1164000000    1,262893975e-01   -6,640248001e-02   -2,773905993e-01   -3,818127811e-01    0,000000000e+00    0,000000000e+00    0,000000000e+00    0,000000000e+00
     1178000000    1,940158196e-02   -3,043681979e-01   -3,648677468e-01   -1,512014717e-01    0,000000000e+00    0,000000000e+00    0,000000000e+00    0,000000000e+00
     1192000000   -2,674938142e-01   -3,686307967e-01   -3,233015239e-01    6,115018576e-02    0,000000000e+00    0,000000000e+00    0,000000000e+00    0,000000000e+00
     1206000000   -5,227236748e-01   -1,582282335e-01   -1,643901020e-01    1,817944050e-01    0,000000000e+00    0,000000000e+00    0,000000000e+00    0,000000000e+00
     1220000000   -5,073271990e-01    1,713056713e-01    2,801123541e-03    1,556722969e-01    0,000000000e+00    0,000000000e+00    0,000000000e+00    0,000000000e+00
     1234000000   -2,869367003e-01    3,619111478e-01    6,564380229e-02    6,427394599e-02    0,000000000e+00    0,000000000e+00    0,000000000e+00    0,000000000e+00
     1248000000   -4,024786875e-02    3,668563366e-01    5,768443272e-02   -4,778499715e-03    0,000000000e+00    0,000000000e+00    0,000000000e+00    0,000000000e+00
     1262000000    1,182004139e-01    2,608277500e-01    1,676070318e-02   -2,007291839e-02    0,000000000e+00    0,000000000e+00    0,000000000e+00    0,000000000e+00
     1276000000    2,142465860e-01    9,636481106e-02    2,413804643e-03    4,949067719e-03    0,000000000e+00    0,000000000e+00    0,000000000e+00    0,000000000e+00
     1290000000    2,214520425e-01   -7,490222156e-02    1,821921207e-02    4,529898241e-02    0,000000000e+00    0,000000000e+00    0,000000000e+00    0,000000000e+00
     1304000000    1,517725289e-01   -2,430517524e-01    1,309530288e-01    6,385397911e-02    0,000000000e+00    0,000000000e+00    0,000000000e+00    0,000000000e+00
     1318000000    3,459230810e-02   -3,332322836e-01    1,259156018e-01   -1,596475542e-01    0,000000000e+00    0,000000000e+00    0,000000000e+00    0,000000000e+00
     1332000000   -1,301772296e-01   -4,422835112e-01   -5,215875432e-02   -4,694076627e-02    0,000000000e+00    0,000000000e+00    0,000000000e+00    0,000000000e+00
     1346000000   -3,964925408e-01   -4,147689939e-01    2,779199369e-02    6,478269398e-02    0,000000000e+00    0,000000000e+00    0,000000000e+00    0,000000000e+00
     1360000000   -6,125507951e-01   -1,852363050e-01    1,366353035e-01    7,533716410e-02    0,000000000e+00    0,000000000e+00    0,000000000e+00    0,000000000e+00
     1374000000   -6,289067268e-01    1,267229766e-01    1,986326724e-01   -1,548812957e-03    0,000000000e+00    0,000000000e+00    0,000000000e+00    0,000000000e+00
     1388000000   -4,615837634e-01    3,640421629e-01    2,038032860e-01   -6,957912445e-02    0,000000000e+00    0,000000000e+00    0,000000000e+00    0,000000000e+00
     1402000000   -2,337538153e-01    4,518478215e-01    2,010418028e-01   -9,799247235e-02    0,000000000e+00    0,000000000e+00    0,000000000e+00    0,000000000e+00
     1416000000   -2,568965405e-02    4,090839624e-01    1,779995412e-01   -1,034532115e-01    0,000000000e+00    0,000000000e+00    0,000000000e+00    0,000000000e+00
     1430000000    1,179306060e-01    2,985171974e-01    1,645829678e-01   -8,561086655e-02    0,000000000e+00    0,000000000e+00    0,000000000e+00    0,000000000e+00
     1444000000    2,087195069e-01    1,541677415e-01    1,644245088e-01   -9,411484003e-02    0,000000000e+00    0,000000000e+00    0,000000000e+00    0,000000000e+00
     1458000000    2,368463278e-01   -2,254498564e-02    1,397591829e-01   -6,710764021e-02    0,000000000e+00    0,000000000e+00    0,000000000e+00    0,000000000e+00
     1472000000    1,869668663e-01   -2,003448904e-01    1,334733665e-01   -3,315682709e-02    0,000000000e+00    0,000000000e+00    0,000000000e+00    0,000000000e+00
     1486000000    6,299703568e-02   -3,729932010e-01    1,655151546e-01    4,316259548e-02    0,000000000e+00    0,000000000e+00    0,000000000e+00    0,000000000e+00
     1500000000   -1,740464866e-01   -4,945624173e-01    2,417868078e-01    1,027986184e-01    0,000000000e+00    0,000000000e+00    0,000000000e+00    0,000000000e+00
