! NanoVNA-App
! Date: 2025-09-25 15:33:54
! Start: 100MHz Stop: 1,5GHz Points: 101
! S-Parameter data: F S11 S21 S12 S22
# Hz S RI R 50
!     Frequency           S11_Real           S11_Imag           S21_Real           S21_Imag           S12_Real           S12_Imag           S22_Real           S22_Imag
      100000000   -2,886439301e-02   -4,162011202e-03    3,741338849e-01   -7,218001485e-01    0,000000000e+00    0,000000000e+00    0,000000000e+00    0,000000000e+00
      114000000   -1,649558730e-02    1,150280610e-02   -8,913397789e-02   -8,055546284e-01    0,000000000e+00    0,000000000e+00    0,000000000e+00    0,000000000e+00
      128000000    3,464138135e-03    1,057592127e-02   -5,146798491e-01   -6,206231117e-01    0,000000000e+00    0,000000000e+00    0,000000000e+00    0,000000000e+00
      142000000    1,454593893e-02   -2,937177196e-03   -7,669818997e-01   -2,367126346e-01    0,000000000e+00    0,000000000e+00    0,000000000e+00    0,000000000e+00
      156000000    1,550881937e-02   -1,496208925e-02   -7,713231444e-01    2,217816859e-01    0,000000000e+00    0,000000000e+00    0,000000000e+00    0,000000000e+00
      170000000    1,671729051e-02   -2,254059538e-02   -5,182557702e-01    6,048184037e-01    0,000000000e+00    0,000000000e+00    0,000000000e+00    0,000000000e+00
      184000000    2,096709982e-02   -3,705384582e-02   -1,014260724e-01    7,861873507e-01    0,000000000e+00    0,000000000e+00    0,000000000e+00    0,000000000e+00
      198000000    1,301934943e-02   -6,245545670e-02    3,429655433e-01    7,122710347e-01    0,000000000e+00    0,000000000e+00    0,000000000e+00    0,000000000e+00
      212000000   -1,869499683e-02   -8,134924620e-02    6,782221198e-01    4,100626409e-01    0,000000000e+00    0,000000000e+00    0,000000000e+00    0,000000000e+00
      226000000   -6,168342754e-02   -6,923114508e-02    7,957922220e-01   -3,049970418e-02    0,000000000e+00    0,000000000e+00    0,000000000e+00    0,000000000e+00
      240000000   -8,263416588e-02   -2,562679350e-02    6,460716724e-01   -4,669843912e-01    0,000000000e+00    0,000000000e+00    0,000000000e+00    0,000000000e+00
      254000000   -6,346785277e-02    1,727748103e-02    2,759424746e-01   -7,432682514e-01    0,000000000e+00    0,000000000e+00    0,000000000e+00    0,000000000e+00
      268000000   -2,395553328e-02    2,887640335e-02   -1,785671711e-01   -7,646655440e-01    0,000000000e+00    0,000000000e+00    0,000000000e+00    0,000000000e+00
      282000000    4,200866446e-03    1,201875322e-02   -5,617151260e-01   -5,356083512e-01    0,000000000e+00    0,000000000e+00    0,000000000e+00    0,000000000e+00
      296000000    9,618038312e-03   -7,754832506e-03   -7,599898577e-01   -1,397140473e-01    0,000000000e+00    0,000000000e+00    0,000000000e+00    0,000000000e+00
      310000000    1,113618445e-02   -1,612304151e-02   -7,130097151e-01    2,988294363e-01    0,000000000e+00    0,000000000e+00    0,000000000e+00    0,000000000e+00
      324000000    1,973911189e-02   -2,656335011e-02   -4,266639352e-01    6,374378204e-01    0,000000000e+00    0,000000000e+00    0,000000000e+00    0,000000000e+00
      338000000    2,561216243e-02   -5,192688107e-02   -1,037072111e-02    7,629230618e-01    0,000000000e+00    0,000000000e+00    0,000000000e+00    0,000000000e+00
      352000000    7,365745492e-03   -8,453050256e-02    4,070384502e-01    6,398136020e-01    0,000000000e+00    0,000000000e+00    0,000000000e+00    0,000000000e+00
      366000000   -3,480082750e-02   -9,525986016e-02    6,903998256e-01    3,111162186e-01    0,000000000e+00    0,000000000e+00    0,000000000e+00    0,000000000e+00
      380000000   -7,089049369e-02   -7,123401016e-02    7,473220825e-01   -1,257460713e-01    0,000000000e+00    0,000000000e+00    0,000000000e+00    0,000000000e+00
      394000000   -7,245996594e-02   -3,224874288e-02    5,474879742e-01   -5,211136341e-01    0,000000000e+00    0,000000000e+00    0,000000000e+00    0,000000000e+00
      408000000   -4,673073813e-02   -1,618303172e-02    1,611576080e-01   -7,321671247e-01    0,000000000e+00    0,000000000e+00    0,000000000e+00    0,000000000e+00
      422000000   -2,820603549e-02   -3,187959641e-02   -2,671464384e-01   -6,949511170e-01    0,000000000e+00    0,000000000e+00    0,000000000e+00    0,000000000e+00
      436000000   -4,092549160e-02   -5,155098438e-02   -6,040813923e-01   -4,318249822e-01    0,000000000e+00    0,000000000e+00    0,000000000e+00    0,000000000e+00
      450000000   -6,722768396e-02   -4,405711964e-02   -7,405957580e-01   -2,150308341e-02    0,000000000e+00    0,000000000e+00    0,000000000e+00    0,000000000e+00
      464000000   -7,299348712e-02   -1,142713148e-02   -6,187427044e-01    3,978006244e-01    0,000000000e+00    0,000000000e+00    0,000000000e+00    0,000000000e+00
      478000000   -4,780362919e-02    1,167570055e-02   -2,818329632e-01    6,677514315e-01    0,000000000e+00    0,000000000e+00    0,000000000e+00    0,000000000e+00
      492000000   -1,555004623e-02    6,645546760e-03    1,379686296e-01    7,017115951e-01    0,000000000e+00    0,000000000e+00    0,000000000e+00    0,000000000e+00
      506000000   -2,832073253e-03   -1,562314294e-02    4,983808100e-01    5,029763579e-01    0,000000000e+00    0,000000000e+00    0,000000000e+00    0,000000000e+00
      520000000   -5,374434870e-03   -3,135288879e-02    6,878567338e-01    1,411123872e-01    0,000000000e+00    0,000000000e+00    0,000000000e+00    0,000000000e+00
      534000000   -4,208458588e-03   -3,813546523e-02    6,438779235e-01   -2,626155317e-01    0,000000000e+00    0,000000000e+00    0,000000000e+00    0,000000000e+00
      548000000    5,771298893e-03   -5,411017314e-02    3,806351721e-01   -5,673082471e-01    0,000000000e+00    0,000000000e+00    0,000000000e+00    0,000000000e+00
      562000000    3,337524366e-03   -8,908287436e-02    2,679932863e-03   -6,723216772e-01    0,000000000e+00    0,000000000e+00    0,000000000e+00    0,000000000e+00
      576000000   -3,392158821e-02   -1,246290505e-01   -3,687706292e-01   -5,571891665e-01    0,000000000e+00    0,000000000e+00    0,000000000e+00    0,000000000e+00
      590000000   -9,641921520e-02   -1,229851395e-01   -6,194053292e-01   -2,646970749e-01    0,000000000e+00    0,000000000e+00    0,000000000e+00    0,000000000e+00
      604000000   -1,397759616e-01   -7,177626342e-02   -6,651954651e-01    1,375574470e-01    0,000000000e+00    0,000000000e+00    0,000000000e+00    0,000000000e+00
      618000000   -1,297502965e-01   -9,157156572e-03   -4,646195173e-01    4,944430888e-01    0,000000000e+00    0,000000000e+00    0,000000000e+00    0,000000000e+00
      632000000   -8,387131989e-02    1,619552076e-02   -9,949643165e-02    6,634286046e-01    0,000000000e+00    0,000000000e+00    0,000000000e+00    0,000000000e+00
      646000000   -5,191878974e-02    7,926059188e-04    2,878927886e-01    5,950335264e-01    0,000000000e+00    0,000000000e+00    0,000000000e+00    0,000000000e+00
      660000000   -5,341790989e-02   -2,212879620e-02    5,670696497e-01    3,219869435e-01    0,000000000e+00    0,000000000e+00    0,000000000e+00    0,000000000e+00
      674000000   -6,978684664e-02   -1,814513095e-02    6,430416107e-01   -6,566825509e-02    0,000000000e+00    0,000000000e+00    0,000000000e+00    0,000000000e+00
      688000000   -6,780118495e-02    8,761775680e-03    4,705720842e-01   -4,274382293e-01    0,000000000e+00    0,000000000e+00    0,000000000e+00    0,000000000e+00
      702000000   -3,728963435e-02    2,625598386e-02    1,173053607e-01   -6,076020598e-01    0,000000000e+00    0,000000000e+00    0,000000000e+00    0,000000000e+00
      716000000    2,891762881e-03    1,751745865e-02   -2,644683123e-01   -5,468133092e-01    0,000000000e+00    0,000000000e+00    0,000000000e+00    0,000000000e+00
      730000000    3,624546155e-02   -1,118686609e-02   -5,287389159e-01   -2,688342929e-01    0,000000000e+00    0,000000000e+00    0,000000000e+00    0,000000000e+00
      744000000    6,507906318e-02   -6,192678958e-02   -5,641716123e-01    1,066622436e-01    0,000000000e+00    0,000000000e+00    0,000000000e+00    0,000000000e+00
      758000000    6,695974618e-02   -1,523345262e-01   -3,634822965e-01    4,106701612e-01    0,000000000e+00    0,000000000e+00    0,000000000e+00    0,000000000e+00
      772000000   -1,238098461e-02   -2,623871565e-01   -3,517591953e-02    5,150650144e-01    0,000000000e+00    0,000000000e+00    0,000000000e+00    0,000000000e+00
      786000000   -2,063596994e-01   -3,031996489e-01    2,737061083e-01    3,967854083e-01    0,000000000e+00    0,000000000e+00    0,000000000e+00    0,000000000e+00
      800000000   -4,262363017e-01   -1,303506941e-01    4,175319672e-01    9,919189662e-02    0,000000000e+00    0,000000000e+00    0,000000000e+00    0,000000000e+00
      814000000   -3,899425566e-01    2,208294123e-01    2,821916938e-01   -1,734409779e-01    0,000000000e+00    0,000000000e+00    0,000000000e+00    0,000000000e+00
      828000000   -4,924934730e-02    3,676109612e-01    5,481171608e-02   -1,889129877e-01    0,000000000e+00    0,000000000e+00    0,000000000e+00    0,000000000e+00
      842000000    2,347760946e-01    1,859211624e-01   -1,745257527e-02   -7,100058347e-02    0,000000000e+00    0,000000000e+00    0,000000000e+00    0,000000000e+00
      856000000    2,805624306e-01   -1,243976057e-01    4,501501098e-02   -1,355024334e-02    0,000000000e+00    0,000000000e+00    0,000000000e+00    0,000000000e+00
      870000000    7,490793616e-02   -3,771322072e-01    1,126994342e-01   -9,149501473e-02    0,000000000e+00    0,000000000e+00    0,000000000e+00    0,000000000e+00
      884000000   -2,959463596e-01   -3,618316352e-01    2,824074030e-02   -2,459046990e-01    0,000000000e+00    0,000000000e+00    0,000000000e+00    0,000000000e+00
      898000000   -4,715827703e-01    8,251609281e-03   -2,219352424e-01   -2,279756665e-01    0,000000000e+00    0,000000000e+00    0,000000000e+00    0,000000000e+00
      912000000   -2,268072069e-01    2,938710749e-01   -3,526566327e-01    6,249841675e-02    0,000000000e+00    0,000000000e+00    0,000000000e+00    0,000000000e+00
      926000000    6,524633616e-02    2,622880340e-01   -2,173101306e-01    2,619566023e-01    0,000000000e+00    0,000000000e+00    0,000000000e+00    0,000000000e+00
      940000000    2,176107019e-01    7,920687646e-02   -3,619376570e-02    3,294759691e-01    0,000000000e+00    0,000000000e+00    0,000000000e+00    0,000000000e+00
      954000000    2,212735713e-01   -1,283003241e-01    1,294255108e-01    3,071589470e-01    0,000000000e+00    0,000000000e+00    0,000000000e+00    0,000000000e+00
      968000000    1,188622043e-01   -3,015555143e-01    2,714960277e-01    2,190103829e-01    0,000000000e+00    0,000000000e+00    0,000000000e+00    0,000000000e+00
      982000000   -8,467207849e-02   -3,888030350e-01    3,660154641e-01    6,447656453e-02    0,000000000e+00    0,000000000e+00    0,000000000e+00    0,000000000e+00
      996000000   -3,185882568e-01   -3,318302929e-01    3,690562546e-01   -1,445132792e-01    0,000000000e+00    0,000000000e+00    0,000000000e+00    0,000000000e+00
     1010000000   -4,603285789e-01   -1,124514416e-01    2,217683047e-01   -3,394215703e-01    0,000000000e+00    0,000000000e+00    0,000000000e+00    0,000000000e+00
     1024000000   -4,106237590e-01    1,512047052e-01   -3,496243432e-02   -3,943023086e-01    0,000000000e+00    0,000000000e+00    0,000000000e+00    0,000000000e+00
     1038000000   -2,182248980e-01    2,894304693e-01   -2,480717450e-01   -2,601266801e-01    0,000000000e+00    0,000000000e+00    0,000000000e+00    0,000000000e+00
     1052000000   -8,828516118e-03    2,770704627e-01   -3,165115714e-01   -4,557659104e-02    0,000000000e+00    0,000000000e+00    0,000000000e+00    0,000000000e+00
     1066000000    1,343997717e-01    1,650213897e-01   -2,589542270e-01    1,430696249e-01    0,000000000e+00    0,000000000e+00    0,000000000e+00    0,000000000e+00
     1080000000    1,972337812e-01   -4,195570946e-04   -1,199368164e-01    2,638725340e-01    0,000000000e+00    0,000000000e+00    0,000000000e+00    0,000000000e+00
     1094000000    1,530111432e-01   -1,774647832e-01    6,626578420e-02    3,044850826e-01    0,000000000e+00    0,000000000e+00    0,000000000e+00    0,000000000e+00
     1108000000    4,199264222e-04   -3,070596159e-01    2,760912180e-01    2,468678355e-01    0,000000000e+00    0,000000000e+00    0,000000000e+00    0,000000000e+00
     1122000000   -2,441888750e-01   -2,663162947e-01    4,712782502e-01    1,096944418e-02    0,000000000e+00    0,000000000e+00    0,000000000e+00    0,000000000e+00
     1136000000   -3,179889321e-01    3,566278145e-02    3,991595507e-01   -3,940654099e-01    0,000000000e+00    0,000000000e+00    0,000000000e+00    0,000000000e+00
     1150000000   -3,899741173e-02    1,491930485e-01    5,427980330e-03   -5,426931977e-01    0,000000000e+00    0,000000000e+00    0,000000000e+00    0,000000000e+00
     1164000000    1,208635122e-01   -6,055533141e-02   -2,779884934e-01   -3,794884980e-01    0,000000000e+00    0,000000000e+00    0,000000000e+00    0,000000000e+00
     1178000000    1,639952138e-02   -3,061159551e-01   -3,686420023e-01   -1,543218642e-01    0,000000000e+00    0,000000000e+00    0,000000000e+00    0,000000000e+00
     1192000000   -2,659754753e-01   -3,734068871e-01   -3,238674402e-01    5,625469238e-02    0,000000000e+00    0,000000000e+00    0,000000000e+00    0,000000000e+00
     1206000000   -5,230844617e-01   -1,602384001e-01   -1,687902212e-01    1,817504317e-01    0,000000000e+00    0,000000000e+00    0,000000000e+00    0,000000000e+00
     1220000000   -5,074022412e-01    1,783738434e-01    4,903865512e-03    1,577107161e-01    0,000000000e+00    0,000000000e+00    0,000000000e+00    0,000000000e+00
     1234000000   -2,835976779e-01    3,614786863e-01    6,781812012e-02    6,466255337e-02    0,000000000e+00    0,000000000e+00    0,000000000e+00    0,000000000e+00
     1248000000   -4,358543456e-02    3,592030704e-01    5,312194303e-02   -7,120325696e-03    0,000000000e+00    0,000000000e+00    0,000000000e+00    0,000000000e+00
     1262000000    1,211444065e-01    2,598845363e-01    1,358227152e-02   -2,085354365e-02    0,000000000e+00    0,000000000e+00    0,000000000e+00    0,000000000e+00
     1276000000    2,145916373e-01    1,004487276e-01   -4,918565508e-03    5,356375128e-03    0,000000000e+00    0,000000000e+00    0,000000000e+00    0,000000000e+00
     1290000000    2,258068323e-01   -7,270745933e-02    1,990411431e-02    5,533929914e-02    0,000000000e+00    0,000000000e+00    0,000000000e+00    0,000000000e+00
     1304000000    1,560614705e-01   -2,444699258e-01    1,310961396e-01    6,421086192e-02    0,000000000e+00    0,000000000e+00    0,000000000e+00    0,000000000e+00
     1318000000    4,013258964e-02   -3,363632262e-01    1,337873936e-01   -1,630276740e-01    0,000000000e+00    0,000000000e+00    0,000000000e+00    0,000000000e+00
     1332000000   -1,311414093e-01   -4,399956465e-01   -4,910345003e-02   -4,883566871e-02    0,000000000e+00    0,000000000e+00    0,000000000e+00    0,000000000e+00
     1346000000   -3,913726807e-01   -4,113786221e-01    3,570591286e-02    6,941338629e-02    0,000000000e+00    0,000000000e+00    0,000000000e+00    0,000000000e+00
     1360000000   -6,111983061e-01   -1,944008023e-01    1,412207931e-01    6,544369459e-02    0,000000000e+00    0,000000000e+00    0,000000000e+00    0,000000000e+00
     1374000000   -6,356900334e-01    1,334999055e-01    2,018424571e-01    6,893118378e-03    0,000000000e+00    0,000000000e+00    0,000000000e+00    0,000000000e+00
     1388000000   -4,567724466e-01    3,691324890e-01    2,175373137e-01   -6,372373551e-02    0,000000000e+00    0,000000000e+00    0,000000000e+00    0,000000000e+00
     1402000000   -2,334092706e-01    4,506478906e-01    1,900816411e-01   -9,759578109e-02    0,000000000e+00    0,000000000e+00    0,000000000e+00    0,000000000e+00
     1416000000   -3,030286543e-02    4,101583958e-01    1,763322204e-01   -1,121909171e-01    0,000000000e+00    0,000000000e+00    0,000000000e+00    0,000000000e+00
     1430000000    1,282247454e-01    2,950285673e-01    1,706237942e-01   -1,441588551e-01    0,000000000e+00    0,000000000e+00    0,000000000e+00    0,000000000e+00
     1444000000    2,072668225e-01    1,467109919e-01    1,474694908e-01   -1,071783751e-01    0,000000000e+00    0,000000000e+00    0,000000000e+00    0,000000000e+00
     1458000000    2,351928502e-01   -1,756636240e-02    1,394445002e-01   -7,179827988e-02    0,000000000e+00    0,000000000e+00    0,000000000e+00    0,000000000e+00
     1472000000    1,895318627e-01   -2,005219012e-01    1,355933398e-01   -3,033234365e-02    0,000000000e+00    0,000000000e+00    0,000000000e+00    0,000000000e+00
     1486000000    6,174718589e-02   -3,736093938e-01    1,658060104e-01    4,301169515e-02    0,000000000e+00    0,000000000e+00    0,000000000e+00    0,000000000e+00
     1500000000   -1,762833893e-01   -4,981122017e-01    2,321774065e-01    9,079395980e-02    0,000000000e+00    0,000000000e+00    0,000000000e+00    0,000000000e+00
