! NanoVNA-App
! Date: 2025-09-25 15:35:01
! Start: 100MHz Stop: 1,5GHz Points: 101
! S-Parameter data: F S11 S21 S12 S22
# Hz S RI R 50
!     Frequency           S11_Real           S11_Imag           S21_Real           S21_Imag           S12_Real           S12_Imag           S22_Real           S22_Imag
      100000000   -2,882942744e-02   -4,170428030e-03    3,740950525e-01   -7,217096090e-01    0,000000000e+00    0,000000000e+00    0,000000000e+00    0,000000000e+00
      114000000   -1,646700501e-02    1,152252313e-02   -8,897182345e-02   -8,053073883e-01    0,000000000e+00    0,000000000e+00    0,000000000e+00    0,000000000e+00
      128000000    3,501414787e-03    1,050538197e-02   -5,145995021e-01   -6,203591228e-01    0,000000000e+00    0,000000000e+00    0,000000000e+00    0,000000000e+00
      142000000    1,456822921e-02   -2,973358613e-03   -7,670130730e-01   -2,365893573e-01    0,000000000e+00    0,000000000e+00    0,000000000e+00    0,000000000e+00
      156000000    1,427342091e-02   -1,489157416e-02   -7,637892365e-01    2,189529091e-01    0,000000000e+00    0,000000000e+00    0,000000000e+00    0,000000000e+00
      170000000    1,666184887e-02   -2,257167734e-02   -5,182294250e-01    6,049045324e-01    0,000000000e+00    0,000000000e+00    0,000000000e+00    0,000000000e+00
      184000000    2,100326121e-02   -3,710008785e-02   -1,014591679e-01    7,859454155e-01    0,000000000e+00    0,000000000e+00    0,000000000e+00    0,000000000e+00
      198000000    1,300167199e-02   -6,247352436e-02    3,431771100e-01    7,121653557e-01    0,000000000e+00    0,000000000e+00    0,000000000e+00    0,000000000e+00
      212000000   -1,861706190e-02   -8,130083978e-02    6,781747937e-01    4,098928869e-01    0,000000000e+00    0,000000000e+00    0,000000000e+00    0,000000000e+00
      226000000   -6,165268645e-02   -6,913822889e-02    7,958229780e-01   -3,068397194e-02    0,000000000e+00    0,000000000e+00    0,000000000e+00    0,000000000e+00
      240000000   -8,261254430e-02   -2,560777031e-02    6,463279128e-01   -4,671061039e-01    0,000000000e+00    0,000000000e+00    0,000000000e+00    0,000000000e+00
      254000000   -6,350014359e-02    1,726472192e-02    2,759065330e-01   -7,431214452e-01    0,000000000e+00    0,000000000e+00    0,000000000e+00    0,000000000e+00
      268000000   -2,391301095e-02    2,893375978e-02   -1,783486456e-01   -7,645794153e-01    0,000000000e+00    0,000000000e+00    0,000000000e+00    0,000000000e+00
      282000000    4,159818869e-03    1,193205174e-02   -5,617575645e-01   -5,354707241e-01    0,000000000e+00    0,000000000e+00    0,000000000e+00    0,000000000e+00
      296000000    9,754545987e-03   -7,894652896e-03   -7,596949935e-01   -1,395333260e-01    0,000000000e+00    0,000000000e+00    0,000000000e+00    0,000000000e+00
      310000000    1,105802227e-02   -1,635574549e-02   -7,114699483e-01    2,983571589e-01    0,000000000e+00    0,000000000e+00    0,000000000e+00    0,000000000e+00
      324000000    1,952365600e-02   -2,657449991e-02   -4,283105731e-01    6,384298205e-01    0,000000000e+00    0,000000000e+00    0,000000000e+00    0,000000000e+00
      338000000    2,548968978e-02   -5,212733522e-02   -6,162595470e-03    7,614670992e-01    0,000000000e+00    0,000000000e+00    0,000000000e+00    0,000000000e+00
      352000000    7,373250555e-03   -8,468534797e-02    4,061121047e-01    6,386609674e-01    0,000000000e+00    0,000000000e+00    0,000000000e+00    0,000000000e+00
      366000000   -3,474890441e-02   -9,558671713e-02    6,906819344e-01    3,111798465e-01    0,000000000e+00    0,000000000e+00    0,000000000e+00    0,000000000e+00
      380000000   -7,068573684e-02   -7,120090723e-02    7,481043339e-01   -1,263098866e-01    0,000000000e+00    0,000000000e+00    0,000000000e+00    0,000000000e+00
      394000000   -7,264949381e-02   -3,223232925e-02    5,465531349e-01   -5,228329301e-01    0,000000000e+00    0,000000000e+00    0,000000000e+00    0,000000000e+00
      408000000   -4,645889625e-02   -1,607345603e-02    1,613487303e-01   -7,316009998e-01    0,000000000e+00    0,000000000e+00    0,000000000e+00    0,000000000e+00
      422000000   -2,807356790e-02   -3,175678849e-02   -2,672695518e-01   -6,944931149e-01    0,000000000e+00    0,000000000e+00    0,000000000e+00    0,000000000e+00
      436000000   -4,065254331e-02   -5,219890922e-02   -6,045349240e-01   -4,322702289e-01    0,000000000e+00    0,000000000e+00    0,000000000e+00    0,000000000e+00
      450000000   -6,760479510e-02   -4,365512356e-02   -7,405233979e-01   -2,127492428e-02    0,000000000e+00    0,000000000e+00    0,000000000e+00    0,000000000e+00
      464000000   -7,365010679e-02   -1,142285392e-02   -6,186299920e-01    3,985119760e-01    0,000000000e+00    0,000000000e+00    0,000000000e+00    0,000000000e+00
      478000000   -4,750981182e-02    1,208800357e-02   -2,825042009e-01    6,680508852e-01    0,000000000e+00    0,000000000e+00    0,000000000e+00    0,000000000e+00
      492000000   -1,568142883e-02    5,839596968e-03    1,375377029e-01    7,012851238e-01    0,000000000e+00    0,000000000e+00    0,000000000e+00    0,000000000e+00
      506000000   -2,332865726e-03   -1,585066132e-02    4,984994531e-01    5,023392439e-01    0,000000000e+00    0,000000000e+00    0,000000000e+00    0,000000000e+00
      520000000   -4,889217205e-03   -3,170423582e-02    6,896340847e-01    1,423948705e-01    0,000000000e+00    0,000000000e+00    0,000000000e+00    0,000000000e+00
      534000000   -4,010328092e-03   -3,849570453e-02    6,435351968e-01   -2,623740435e-01    0,000000000e+00    0,000000000e+00    0,000000000e+00    0,000000000e+00
      548000000    5,692100152e-03   -5,355441943e-02    3,817320168e-01   -5,671223998e-01    0,000000000e+00    0,000000000e+00    0,000000000e+00    0,000000000e+00
      562000000    3,056672635e-03   -8,950269222e-02    2,188261831e-03   -6,718999743e-01    0,000000000e+00    0,000000000e+00    0,000000000e+00    0,000000000e+00
      576000000   -3,444305807e-02   -1,247011349e-01   -3,696604073e-01   -5,578547120e-01    0,000000000e+00    0,000000000e+00    0,000000000e+00    0,000000000e+00
      590000000   -9,641032666e-02   -1,226588637e-01   -6,206732988e-01   -2,650985718e-01    0,000000000e+00    0,000000000e+00    0,000000000e+00    0,000000000e+00
      604000000   -1,397377104e-01   -7,161930203e-02   -6,651428342e-01    1,380522251e-01    0,000000000e+00    0,000000000e+00    0,000000000e+00    0,000000000e+00
      618000000   -1,289816350e-01   -9,085275233e-03   -4,638363421e-01    4,944757521e-01    0,000000000e+00    0,000000000e+00    0,000000000e+00    0,000000000e+00
      632000000   -8,419329673e-02    1,635330543e-02   -9,808684886e-02    6,627283692e-01    0,000000000e+00    0,000000000e+00    0,000000000e+00    0,000000000e+00
      646000000   -5,101222545e-02    1,051992876e-03    2,871777713e-01    5,947949886e-01    0,000000000e+00    0,000000000e+00    0,000000000e+00    0,000000000e+00
      660000000   -5,247403681e-02   -2,184539288e-02    5,674721003e-01    3,230045438e-01    0,000000000e+00    0,000000000e+00    0,000000000e+00    0,000000000e+00
      674000000   -7,066941261e-02   -1,775896177e-02    6,430563331e-01   -6,537861377e-02    0,000000000e+00    0,000000000e+00    0,000000000e+00    0,000000000e+00
      688000000   -6,772037596e-02    9,315423667e-03    4,718408287e-01   -4,278880060e-01    0,000000000e+00    0,000000000e+00    0,000000000e+00    0,000000000e+00
      702000000   -3,759046644e-02    2,704495750e-02    1,180049926e-01   -6,105008721e-01    0,000000000e+00    0,000000000e+00    0,000000000e+00    0,000000000e+00
      716000000    2,991869114e-03    1,772511750e-02   -2,651850879e-01   -5,470452905e-01    0,000000000e+00    0,000000000e+00    0,000000000e+00    0,000000000e+00
      730000000    3,692574799e-02   -1,035230141e-02   -5,282945633e-01   -2,685050070e-01    0,000000000e+00    0,000000000e+00    0,000000000e+00    0,000000000e+00
      744000000    6,437163800e-02   -6,202331185e-02   -5,641843677e-01    1,065251827e-01    0,000000000e+00    0,000000000e+00    0,000000000e+00    0,000000000e+00
      758000000    6,673231721e-02   -1,514946222e-01   -3,625167310e-01    4,099967778e-01    0,000000000e+00    0,000000000e+00    0,000000000e+00    0,000000000e+00
      772000000   -1,305604354e-02   -2,618373930e-01   -3,426953405e-02    5,155292153e-01    0,000000000e+00    0,000000000e+00    0,000000000e+00    0,000000000e+00
      786000000   -2,064712495e-01   -3,028601706e-01    2,747400403e-01    3,953465819e-01    0,000000000e+00    0,000000000e+00    0,000000000e+00    0,000000000e+00
      800000000   -4,261814952e-01   -1,307983696e-01    4,172554016e-01    9,916516393e-02    0,000000000e+00    0,000000000e+00    0,000000000e+00    0,000000000e+00
      814000000   -3,893127441e-01    2,221742719e-01    2,821318209e-01   -1,737952977e-01    0,000000000e+00    0,000000000e+00    0,000000000e+00    0,000000000e+00
      828000000   -4,885887355e-02    3,676011264e-01    5,523662269e-02   -1,896713227e-01    0,000000000e+00    0,000000000e+00    0,000000000e+00    0,000000000e+00
      842000000    2,347659767e-01    1,859934777e-01   -1,738655567e-02   -7,057235390e-02    0,000000000e+00    0,000000000e+00    0,000000000e+00    0,000000000e+00
      856000000    2,802839279e-01   -1,242541894e-01    4,524111375e-02   -1,316800993e-02    0,000000000e+00    0,000000000e+00    0,000000000e+00    0,000000000e+00
      870000000    7,523109764e-02   -3,765655458e-01    1,138438433e-01   -9,125468135e-02    0,000000000e+00    0,000000000e+00    0,000000000e+00    0,000000000e+00
      884000000   -2,949222624e-01   -3,619842529e-01    2,852118015e-02   -2,458117157e-01    0,000000000e+00    0,000000000e+00    0,000000000e+00    0,000000000e+00
      898000000   -4,723739624e-01    8,832559921e-03   -2,224161029e-01   -2,278730571e-01    0,000000000e+00    0,000000000e+00    0,000000000e+00    0,000000000e+00
      912000000   -2,250941247e-01    2,934660614e-01   -3,422362506e-01    7,579805702e-02    0,000000000e+00    0,000000000e+00    0,000000000e+00    0,000000000e+00
      926000000    6,738971174e-02    2,649564445e-01   -2,155009657e-01    2,668028772e-01    0,000000000e+00    0,000000000e+00    0,000000000e+00    0,000000000e+00
      940000000    2,165520340e-01    7,938463241e-02   -3,739468008e-02    3,305649757e-01    0,000000000e+00    0,000000000e+00    0,000000000e+00    0,000000000e+00
      954000000    2,203879356e-01   -1,277085543e-01    1,316046417e-01    3,071970940e-01    0,000000000e+00    0,000000000e+00    0,000000000e+00    0,000000000e+00
      968000000    1,143524349e-01   -3,008696437e-01    2,709991336e-01    2,176500708e-01    0,000000000e+00    0,000000000e+00    0,000000000e+00    0,000000000e+00
      982000000   -8,269990236e-02   -3,900116682e-01    3,669061065e-01    6,741838902e-02    0,000000000e+00    0,000000000e+00    0,000000000e+00    0,000000000e+00
      996000000   -3,169369102e-01   -3,320867121e-01    3,701648712e-01   -1,459455490e-01    0,000000000e+00    0,000000000e+00    0,000000000e+00    0,000000000e+00
     1010000000   -4,681591094e-01   -1,123649180e-01    2,230623662e-01   -3,417756259e-01    0,000000000e+00    0,000000000e+00    0,000000000e+00    0,000000000e+00
     1024000000   -4,123092890e-01    1,532257795e-01   -3,369241953e-02   -3,948107362e-01    0,000000000e+00    0,000000000e+00    0,000000000e+00    0,000000000e+00
     1038000000   -2,177990079e-01    2,945625186e-01   -2,467527688e-01   -2,611247003e-01    0,000000000e+00    0,000000000e+00    0,000000000e+00    0,000000000e+00
     1052000000   -9,256413206e-03    2,817556262e-01   -3,177517354e-01   -4,724973440e-02    0,000000000e+00    0,000000000e+00    0,000000000e+00    0,000000000e+00
     1066000000    1,340285391e-01    1,632928699e-01   -2,591288388e-01    1,445144862e-01    0,000000000e+00    0,000000000e+00    0,000000000e+00    0,000000000e+00
     1080000000    1,956892759e-01    1,551399706e-03   -1,194541231e-01    2,634026706e-01    0,000000000e+00    0,000000000e+00    0,000000000e+00    0,000000000e+00
     1094000000    1,562558264e-01   -1,758210808e-01    6,357815862e-02    3,032973707e-01    0,000000000e+00    0,000000000e+00    0,000000000e+00    0,000000000e+00
     1108000000    3,605745267e-03   -3,059945107e-01    2,781010270e-01    2,461465597e-01    0,000000000e+00    0,000000000e+00    0,000000000e+00    0,000000000e+00
     1122000000   -2,525430024e-01   -2,636697888e-01    4,715366960e-01    1,303604338e-02    0,000000000e+00    0,000000000e+00    0,000000000e+00    0,000000000e+00
     1136000000   -3,206295669e-01    2,867654338e-02    3,979204297e-01   -3,926236928e-01    0,000000000e+00    0,000000000e+00    0,000000000e+00    0,000000000e+00
     1150000000   -4,003225267e-02    1,548413187e-01    7,013393100e-03   -5,413625836e-01    0,000000000e+00    0,000000000e+00    0,000000000e+00    0,000000000e+00
     1164000000    1,208894700e-01   -6,152013317e-02   -2,775833607e-01   -3,772997856e-01    0,000000000e+00    0,000000000e+00    0,000000000e+00    0,000000000e+00
     1178000000    1,604303718e-02   -3,065629900e-01   -3,725753427e-01   -1,505658478e-01    0,000000000e+00    0,000000000e+00    0,000000000e+00    0,000000000e+00
     1192000000   -2,650032043e-01   -3,682270348e-01   -3,236421943e-01    6,220098212e-02    0,000000000e+00    0,000000000e+00    0,000000000e+00    0,000000000e+00
     1206000000   -5,176324248e-01   -1,650525331e-01   -1,661538184e-01    1,785188466e-01    0,000000000e+00    0,000000000e+00    0,000000000e+00    0,000000000e+00
     1220000000   -5,065184236e-01    1,715294570e-01   -1,553343609e-03    1,557203680e-01    0,000000000e+00    0,000000000e+00    0,000000000e+00    0,000000000e+00
     1234000000   -2,917703390e-01    3,609878719e-01    6,680176407e-02    5,762711167e-02    0,000000000e+00    0,000000000e+00    0,000000000e+00    0,000000000e+00
     1248000000   -4,189862683e-02    3,694930077e-01    5,289389193e-02   -6,392919458e-03    0,000000000e+00    0,000000000e+00    0,000000000e+00    0,000000000e+00
     1262000000    1,260946095e-01    2,556598485e-01    2,030512504e-02   -2,324007079e-02    0,000000000e+00    0,000000000e+00    0,000000000e+00    0,000000000e+00
     1276000000    2,132499516e-01    1,020585001e-01    7,564932457e-04    4,887533840e-03    0,000000000e+00    0,000000000e+00    0,000000000e+00    0,000000000e+00
     1290000000    2,244553119e-01   -7,328637689e-02    1,843768544e-02    5,087076500e-02    0,000000000e+00    0,000000000e+00    0,000000000e+00    0,000000000e+00
     1304000000    1,560436934e-01   -2,411402464e-01    1,349590421e-01    6,825974584e-02    0,000000000e+00    0,000000000e+00    0,000000000e+00    0,000000000e+00
     1318000000    3,516280279e-02   -3,402532637e-01    1,302014887e-01   -1,678842455e-01    0,000000000e+00    0,000000000e+00    0,000000000e+00    0,000000000e+00
     1332000000   -1,293285191e-01   -4,445729852e-01   -4,048115388e-02   -5,272908881e-02    0,000000000e+00    0,000000000e+00    0,000000000e+00    0,000000000e+00
     1346000000   -3,898988366e-01   -4,073991179e-01    2,813414671e-02    6,767926365e-02    0,000000000e+00    0,000000000e+00    0,000000000e+00    0,000000000e+00
     1360000000   -6,185531616e-01   -1,857525259e-01    1,269879937e-01    6,265223771e-02    0,000000000e+00    0,000000000e+00    0,000000000e+00    0,000000000e+00
     1374000000   -6,368705034e-01    1,211520731e-01    1,983378977e-01    5,866006948e-03    0,000000000e+00    0,000000000e+00    0,000000000e+00    0,000000000e+00
     1388000000   -4,675025344e-01    3,629185557e-01    2,079432309e-01   -7,328471541e-02    0,000000000e+00    0,000000000e+00    0,000000000e+00    0,000000000e+00
     1402000000   -2,293988019e-01    4,527694881e-01    1,951237172e-01   -1,019197479e-01    0,000000000e+00    0,000000000e+00    0,000000000e+00    0,000000000e+00
     1416000000   -2,581668273e-02    4,101584554e-01    1,770222932e-01   -1,067391336e-01    0,000000000e+00    0,000000000e+00    0,000000000e+00    0,000000000e+00
     1430000000    1,201483160e-01    3,042591214e-01    1,667596996e-01   -9,485828131e-02    0,000000000e+00    0,000000000e+00    0,000000000e+00    0,000000000e+00
     1444000000    2,090557814e-01    1,498854607e-01    1,615839303e-01   -1,002835780e-01    0,000000000e+00    0,000000000e+00    0,000000000e+00    0,000000000e+00
     1458000000    2,336664945e-01   -1,785962656e-02    1,417966187e-01   -8,656234294e-02    0,000000000e+00    0,000000000e+00    0,000000000e+00    0,000000000e+00
     1472000000    1,868355721e-01   -2,018893957e-01    1,436742842e-01   -2,552632056e-02    0,000000000e+00    0,000000000e+00    0,000000000e+00    0,000000000e+00
     1486000000    5,852922797e-02   -3,748525381e-01    1,702063829e-01    1,486330479e-02    0,000000000e+00    0,000000000e+00    0,000000000e+00    0,000000000e+00
     1500000000   -1,739389598e-01   -4,968338311e-01    2,311044633e-01    9,720288962e-02    0,000000000e+00    0,000000000e+00    0,000000000e+00    0,000000000e+00
