! NanoVNA-App
! Date: 2025-09-25 15:33:20
! Start: 100MHz Stop: 1,5GHz Points: 101
! S-Parameter data: F S11 S21 S12 S22
# Hz S RI R 50
!     Frequency           S11_Real           S11_Imag           S21_Real           S21_Imag           S12_Real           S12_Imag           S22_Real           S22_Imag
      100000000   -2,886604890e-02   -4,170014057e-03    3,741454780e-01   -7,217544317e-01    0,000000000e+00    0,000000000e+00    0,000000000e+00    0,000000000e+00
      114000000   -1,649062522e-02    1,151744276e-02   -8,889235556e-02   -8,056144118e-01    0,000000000e+00    0,000000000e+00    0,000000000e+00    0,000000000e+00
      128000000    3,488836112e-03    1,054852363e-02   -5,146031976e-01   -6,207567453e-01    0,000000000e+00    0,000000000e+00    0,000000000e+00    0,000000000e+00
      142000000    1,455476880e-02   -2,938218648e-03   -7,670522928e-01   -2,365456969e-01    0,000000000e+00    0,000000000e+00    0,000000000e+00    0,000000000e+00
      156000000    1,613689028e-02   -1,433557272e-02   -7,723760009e-01    2,245761901e-01    0,000000000e+00    0,000000000e+00    0,000000000e+00    0,000000000e+00
      170000000    1,664590836e-02   -2,259706892e-02   -5,181301236e-01    6,045497656e-01    0,000000000e+00    0,000000000e+00    0,000000000e+00    0,000000000e+00
      184000000    2,099827677e-02   -3,709691763e-02   -1,014657617e-01    7,861865163e-01    0,000000000e+00    0,000000000e+00    0,000000000e+00    0,000000000e+00
      198000000    1,307419874e-02   -6,250533462e-02    3,431467116e-01    7,124580145e-01    0,000000000e+00    0,000000000e+00    0,000000000e+00    0,000000000e+00
      212000000   -1,867312379e-02   -8,130963147e-02    6,779945493e-01    4,100587666e-01    0,000000000e+00    0,000000000e+00    0,000000000e+00    0,000000000e+00
      226000000   -6,171811372e-02   -6,921845675e-02    7,958210707e-01   -3,054434247e-02    0,000000000e+00    0,000000000e+00    0,000000000e+00    0,000000000e+00
      240000000   -8,263294399e-02   -2,564155683e-02    6,462914944e-01   -4,670488834e-01    0,000000000e+00    0,000000000e+00    0,000000000e+00    0,000000000e+00
      254000000   -6,345573068e-02    1,726116985e-02    2,759748399e-01   -7,433463335e-01    0,000000000e+00    0,000000000e+00    0,000000000e+00    0,000000000e+00
      268000000   -2,393857017e-02    2,890126966e-02   -1,783506572e-01   -7,645784020e-01    0,000000000e+00    0,000000000e+00    0,000000000e+00    0,000000000e+00
      282000000    4,130459391e-03    1,187952328e-02   -5,619351864e-01   -5,357635617e-01    0,000000000e+00    0,000000000e+00    0,000000000e+00    0,000000000e+00
      296000000    9,796606377e-03   -7,853734307e-03   -7,599634528e-01   -1,396265328e-01    0,000000000e+00    0,000000000e+00    0,000000000e+00    0,000000000e+00
      310000000    1,100581512e-02   -1,616927236e-02   -7,120589018e-01    2,978770435e-01    0,000000000e+00    0,000000000e+00    0,000000000e+00    0,000000000e+00
      324000000    1,958887838e-02   -2,645701729e-02   -4,276348352e-01    6,386053562e-01    0,000000000e+00    0,000000000e+00    0,000000000e+00    0,000000000e+00
      338000000    2,559837140e-02   -5,221968889e-02   -7,311243564e-03    7,633983493e-01    0,000000000e+00    0,000000000e+00    0,000000000e+00    0,000000000e+00
      352000000    7,444827817e-03   -8,476087451e-02    4,067609310e-01    6,388660073e-01    0,000000000e+00    0,000000000e+00    0,000000000e+00    0,000000000e+00
      366000000   -3,450758755e-02   -9,547562152e-02    6,907345653e-01    3,113338649e-01    0,000000000e+00    0,000000000e+00    0,000000000e+00    0,000000000e+00
      380000000   -7,083029300e-02   -7,133445889e-02    7,477330565e-01   -1,261297166e-01    0,000000000e+00    0,000000000e+00    0,000000000e+00    0,000000000e+00
      394000000   -7,237859070e-02   -3,241182119e-02    5,472958684e-01   -5,226236582e-01    0,000000000e+00    0,000000000e+00    0,000000000e+00    0,000000000e+00
      408000000   -4,665496200e-02   -1,587768830e-02    1,594733149e-01   -7,312731147e-01    0,000000000e+00    0,000000000e+00    0,000000000e+00    0,000000000e+00
      422000000   -2,851147763e-02   -3,197328374e-02   -2,688191533e-01   -6,951620579e-01    0,000000000e+00    0,000000000e+00    0,000000000e+00    0,000000000e+00
      436000000   -4,038392007e-02   -5,169065297e-02   -6,038408279e-01   -4,317411780e-01    0,000000000e+00    0,000000000e+00    0,000000000e+00    0,000000000e+00
      450000000   -6,737387925e-02   -4,414109513e-02   -7,404718399e-01   -2,141784877e-02    0,000000000e+00    0,000000000e+00    0,000000000e+00    0,000000000e+00
      464000000   -7,369393855e-02   -1,154615730e-02   -6,190611124e-01    3,979456425e-01    0,000000000e+00    0,000000000e+00    0,000000000e+00    0,000000000e+00
      478000000   -4,797462374e-02    1,180806942e-02   -2,822411358e-01    6,674211025e-01    0,000000000e+00    0,000000000e+00    0,000000000e+00    0,000000000e+00
      492000000   -1,572247595e-02    6,205500569e-03    1,383578479e-01    7,014875412e-01    0,000000000e+00    0,000000000e+00    0,000000000e+00    0,000000000e+00
      506000000   -2,329128096e-03   -1,586188376e-02    4,987004995e-01    5,019802451e-01    0,000000000e+00    0,000000000e+00    0,000000000e+00    0,000000000e+00
      520000000   -4,763770383e-03   -3,155721724e-02    6,886862516e-01    1,405657530e-01    0,000000000e+00    0,000000000e+00    0,000000000e+00    0,000000000e+00
      534000000   -4,009022377e-03   -3,819386289e-02    6,435941458e-01   -2,629586458e-01    0,000000000e+00    0,000000000e+00    0,000000000e+00    0,000000000e+00
      548000000    6,033123937e-03   -5,405820534e-02    3,812861145e-01   -5,674030781e-01    0,000000000e+00    0,000000000e+00    0,000000000e+00    0,000000000e+00
      562000000    3,110489342e-03   -8,940435946e-02    1,875989838e-03   -6,724830866e-01    0,000000000e+00    0,000000000e+00    0,000000000e+00    0,000000000e+00
      576000000   -3,459702432e-02   -1,242625043e-01   -3,697075546e-01   -5,573731065e-01    0,000000000e+00    0,000000000e+00    0,000000000e+00    0,000000000e+00
      590000000   -9,632065147e-02   -1,228890195e-01   -6,193854213e-01   -2,628754675e-01    0,000000000e+00    0,000000000e+00    0,000000000e+00    0,000000000e+00
      604000000   -1,396776438e-01   -7,209999114e-02   -6,650177836e-01    1,371957213e-01    0,000000000e+00    0,000000000e+00    0,000000000e+00    0,000000000e+00
      618000000   -1,291793883e-01   -9,392729960e-03   -4,642910361e-01    4,948951304e-01    0,000000000e+00    0,000000000e+00    0,000000000e+00    0,000000000e+00
      632000000   -8,450932056e-02    1,712018624e-02   -9,942631423e-02    6,634946465e-01    0,000000000e+00    0,000000000e+00    0,000000000e+00    0,000000000e+00
      646000000   -5,057536066e-02    7,029112312e-04    2,868409157e-01    5,954022408e-01    0,000000000e+00    0,000000000e+00    0,000000000e+00    0,000000000e+00
      660000000   -5,355246738e-02   -2,195096202e-02    5,686188936e-01    3,226203322e-01    0,000000000e+00    0,000000000e+00    0,000000000e+00    0,000000000e+00
      674000000   -6,964796036e-02   -1,804104447e-02    6,430318356e-01   -6,543906033e-02    0,000000000e+00    0,000000000e+00    0,000000000e+00    0,000000000e+00
      688000000   -6,901989877e-02    8,433750831e-03    4,711039662e-01   -4,276584089e-01    0,000000000e+00    0,000000000e+00    0,000000000e+00    0,000000000e+00
      702000000   -3,700298443e-02    2,694245800e-02    1,176721975e-01   -6,081568003e-01    0,000000000e+00    0,000000000e+00    0,000000000e+00    0,000000000e+00
      716000000    2,751868684e-03    1,728703268e-02   -2,643832266e-01   -5,466631651e-01    0,000000000e+00    0,000000000e+00    0,000000000e+00    0,000000000e+00
      730000000    3,749681637e-02   -1,091683190e-02   -5,279650688e-01   -2,691282928e-01    0,000000000e+00    0,000000000e+00    0,000000000e+00    0,000000000e+00
      744000000    6,500206143e-02   -6,304252148e-02   -5,645834804e-01    1,067765877e-01    0,000000000e+00    0,000000000e+00    0,000000000e+00    0,000000000e+00
      758000000    6,614379585e-02   -1,525344551e-01   -3,636800647e-01    4,101637304e-01    0,000000000e+00    0,000000000e+00    0,000000000e+00    0,000000000e+00
      772000000   -1,177843381e-02   -2,625192106e-01   -3,483005613e-02    5,154858232e-01    0,000000000e+00    0,000000000e+00    0,000000000e+00    0,000000000e+00
      786000000   -2,065375596e-01   -3,020218015e-01    2,749506831e-01    3,948673308e-01    0,000000000e+00    0,000000000e+00    0,000000000e+00    0,000000000e+00
      800000000   -4,253129959e-01   -1,294747293e-01    4,173600078e-01    9,911873192e-02    0,000000000e+00    0,000000000e+00    0,000000000e+00    0,000000000e+00
      814000000   -3,892687857e-01    2,210767567e-01    2,822943330e-01   -1,733980179e-01    0,000000000e+00    0,000000000e+00    0,000000000e+00    0,000000000e+00
      828000000   -4,878731072e-02    3,681279421e-01    5,554829910e-02   -1,888019890e-01    0,000000000e+00    0,000000000e+00    0,000000000e+00    0,000000000e+00
      842000000    2,353053987e-01    1,865002364e-01   -1,739230566e-02   -7,050004601e-02    0,000000000e+00    0,000000000e+00    0,000000000e+00    0,000000000e+00
      856000000    2,802127302e-01   -1,245993003e-01    4,504321516e-02   -1,328991354e-02    0,000000000e+00    0,000000000e+00    0,000000000e+00    0,000000000e+00
      870000000    7,522711903e-02   -3,761614561e-01    1,136153266e-01   -9,159555286e-02    0,000000000e+00    0,000000000e+00    0,000000000e+00    0,000000000e+00
      884000000   -2,964459956e-01   -3,612848520e-01    2,765801176e-02   -2,449916303e-01    0,000000000e+00    0,000000000e+00    0,000000000e+00    0,000000000e+00
      898000000   -4,729595184e-01    9,065428749e-03   -2,224787772e-01   -2,277619392e-01    0,000000000e+00    0,000000000e+00    0,000000000e+00    0,000000000e+00
      912000000   -2,257771492e-01    2,951290607e-01   -3,414735496e-01    7,485304773e-02    0,000000000e+00    0,000000000e+00    0,000000000e+00    0,000000000e+00
      926000000    6,722590327e-02    2,648389041e-01   -2,187100947e-01    2,659923434e-01    0,000000000e+00    0,000000000e+00    0,000000000e+00    0,000000000e+00
      940000000    2,143335491e-01    8,144353330e-02   -3,688897938e-02    3,288169205e-01    0,000000000e+00    0,000000000e+00    0,000000000e+00    0,000000000e+00
      954000000    2,253452241e-01   -1,256966740e-01    1,325380355e-01    3,068640828e-01    0,000000000e+00    0,000000000e+00    0,000000000e+00    0,000000000e+00
      968000000    1,163962632e-01   -2,979739308e-01    2,723560035e-01    2,191504538e-01    0,000000000e+00    0,000000000e+00    0,000000000e+00    0,000000000e+00
      982000000   -8,330924064e-02   -3,864023089e-01    3,668937683e-01    6,456915289e-02    0,000000000e+00    0,000000000e+00    0,000000000e+00    0,000000000e+00
      996000000   -3,187717497e-01   -3,285512626e-01    3,679884672e-01   -1,446628869e-01    0,000000000e+00    0,000000000e+00    0,000000000e+00    0,000000000e+00
     1010000000   -4,618713856e-01   -1,061386988e-01    2,222924531e-01   -3,445622623e-01    0,000000000e+00    0,000000000e+00    0,000000000e+00    0,000000000e+00
     1024000000   -4,157925546e-01    1,528884321e-01   -3,284072503e-02   -3,937275112e-01    0,000000000e+00    0,000000000e+00    0,000000000e+00    0,000000000e+00
     1038000000   -2,154505551e-01    2,916911840e-01   -2,460134029e-01   -2,601078451e-01    0,000000000e+00    0,000000000e+00    0,000000000e+00    0,000000000e+00
     1052000000   -1,130927540e-02    2,769755721e-01   -3,156492412e-01   -4,642200842e-02    0,000000000e+00    0,000000000e+00    0,000000000e+00    0,000000000e+00
     1066000000    1,368612200e-01    1,615346372e-01   -2,575501800e-01    1,412829459e-01    0,000000000e+00    0,000000000e+00    0,000000000e+00    0,000000000e+00
     1080000000    1,962535828e-01   -2,079568803e-03   -1,191907153e-01    2,643873096e-01    0,000000000e+00    0,000000000e+00    0,000000000e+00    0,000000000e+00
     1094000000    1,558453888e-01   -1,724230796e-01    6,448457390e-02    3,041813076e-01    0,000000000e+00    0,000000000e+00    0,000000000e+00    0,000000000e+00
     1108000000    6,021504523e-04   -3,063440025e-01    2,766549587e-01    2,447572201e-01    0,000000000e+00    0,000000000e+00    0,000000000e+00    0,000000000e+00
     1122000000   -2,512534559e-01   -2,666206658e-01    4,732979238e-01    1,033859607e-02    0,000000000e+00    0,000000000e+00    0,000000000e+00    0,000000000e+00
     1136000000   -3,190816045e-01    3,809944913e-02    3,999128938e-01   -3,903970420e-01    0,000000000e+00    0,000000000e+00    0,000000000e+00    0,000000000e+00
     1150000000   -3,874043003e-02    1,482656598e-01    6,781030446e-03   -5,421429276e-01    0,000000000e+00    0,000000000e+00    0,000000000e+00    0,000000000e+00
     1164000000    1,211259887e-01   -6,254684180e-02   -2,789910436e-01   -3,784986138e-01    0,000000000e+00    0,000000000e+00    0,000000000e+00    0,000000000e+00
     1178000000    1,646089368e-02   -3,040449321e-01   -3,664385080e-01   -1,520583779e-01    0,000000000e+00    0,000000000e+00    0,000000000e+00    0,000000000e+00
     1192000000   -2,651117444e-01   -3,720197082e-01   -3,229982853e-01    5,770773441e-02    0,000000000e+00    0,000000000e+00    0,000000000e+00    0,000000000e+00
     1206000000   -5,171831846e-01   -1,583299041e-01   -1,559230089e-01    1,816022247e-01    0,000000000e+00    0,000000000e+00    0,000000000e+00    0,000000000e+00
     1220000000   -5,112903118e-01    1,718311012e-01    1,839644741e-03    1,596637666e-01    0,000000000e+00    0,000000000e+00    0,000000000e+00    0,000000000e+00
     1234000000   -2,842573225e-01    3,611620069e-01    7,263450325e-02    5,975117907e-02    0,000000000e+00    0,000000000e+00    0,000000000e+00    0,000000000e+00
     1248000000   -4,678767547e-02    3,648463488e-01    5,271189287e-02   -1,003936119e-02    0,000000000e+00    0,000000000e+00    0,000000000e+00    0,000000000e+00
     1262000000    1,174880490e-01    2,560943365e-01    1,713660359e-02   -2,354971133e-02    0,000000000e+00    0,000000000e+00    0,000000000e+00    0,000000000e+00
     1276000000    2,094688118e-01    9,927213192e-02   -4,712388851e-03   -2,721754427e-04    0,000000000e+00    0,000000000e+00    0,000000000e+00    0,000000000e+00
     1290000000    2,254231572e-01   -7,509900630e-02    2,230438031e-02    5,037742481e-02    0,000000000e+00    0,000000000e+00    0,000000000e+00    0,000000000e+00
     1304000000    1,542195827e-01   -2,439499944e-01    1,351839900e-01    6,579633802e-02    0,000000000e+00    0,000000000e+00    0,000000000e+00    0,000000000e+00
     1318000000    3,388267383e-02   -3,384402990e-01    1,238674894e-01   -1,672735065e-01    0,000000000e+00    0,000000000e+00    0,000000000e+00    0,000000000e+00
     1332000000   -1,305388659e-01   -4,381779730e-01   -4,403569177e-02   -5,076239258e-02    0,000000000e+00    0,000000000e+00    0,000000000e+00    0,000000000e+00
     1346000000   -3,974094689e-01   -4,061815441e-01    2,003586292e-02    7,257653773e-02    0,000000000e+00    0,000000000e+00    0,000000000e+00    0,000000000e+00
     1360000000   -6,084540486e-01   -1,842802763e-01    1,394666880e-01    7,544066012e-02    0,000000000e+00    0,000000000e+00    0,000000000e+00    0,000000000e+00
     1374000000   -6,323489547e-01    1,214785352e-01    2,080046982e-01   -5,916792899e-03    0,000000000e+00    0,000000000e+00    0,000000000e+00    0,000000000e+00
     1388000000   -4,643502235e-01    3,666690588e-01    2,133123577e-01   -5,848902091e-02    0,000000000e+00    0,000000000e+00    0,000000000e+00    0,000000000e+00
     1402000000   -2,411163300e-01    4,497560859e-01    1,782854944e-01   -1,021336094e-01    0,000000000e+00    0,000000000e+00    0,000000000e+00    0,000000000e+00
     1416000000   -2,163676172e-02    4,104529917e-01    1,682454199e-01   -1,010465920e-01    0,000000000e+00    0,000000000e+00    0,000000000e+00    0,000000000e+00
     1430000000    1,262632757e-01    2,903344333e-01    1,463806629e-01   -1,145844758e-01    0,000000000e+00    0,000000000e+00    0,000000000e+00    0,000000000e+00
     1444000000    2,098937333e-01    1,504587233e-01    1,542890072e-01   -9,310083091e-02    0,000000000e+00    0,000000000e+00    0,000000000e+00    0,000000000e+00
     1458000000    2,334067523e-01   -2,026872523e-02    1,376584321e-01   -7,785795629e-02    0,000000000e+00    0,000000000e+00    0,000000000e+00    0,000000000e+00
     1472000000    1,943781525e-01   -2,030065805e-01    1,435611099e-01   -1,634462737e-02    0,000000000e+00    0,000000000e+00    0,000000000e+00    0,000000000e+00
     1486000000    7,043796033e-02   -3,787111938e-01    1,794852763e-01    2,586550452e-02    0,000000000e+00    0,000000000e+00    0,000000000e+00    0,000000000e+00
     1500000000   -1,692150235e-01   -4,873847365e-01    2,550737262e-01    9,244631231e-02    0,000000000e+00    0,000000000e+00    0,000000000e+00    0,000000000e+00
