! NanoVNA-App
! Date: 2025-09-25 15:33:20
! Start: 100MHz Stop: 1,5GHz Points: 101
! S-Parameter data: F S11 S21 S12 S22
# Hz S RI R 50
!     Frequency           S11_Real           S11_Imag           S21_Real           S21_Imag           S12_Real           S12_Imag           S22_Real           S22_Imag
      100000000   -2,886614017e-02   -4,169091117e-03    3,741200268e-01   -7,218053937e-01    0,000000000e+00    0,000000000e+00    0,000000000e+00    0,000000000e+00
      114000000   -1,653267071e-02    1,152458228e-02   -8,892386407e-02   -8,054319620e-01    0,000000000e+00    0,000000000e+00    0,000000000e+00    0,000000000e+00
      128000000    3,485233057e-03    1,056711096e-02   -5,145027041e-01   -6,205623746e-01    0,000000000e+00    0,000000000e+00    0,000000000e+00    0,000000000e+00
      142000000    1,454766188e-02   -2,953696530e-03   -7,672144175e-01   -2,365940213e-01    0,000000000e+00    0,000000000e+00    0,000000000e+00    0,000000000e+00
      156000000    1,514579169e-02   -1,501770131e-02   -7,693297267e-01    2,198508978e-01    0,000000000e+00    0,000000000e+00    0,000000000e+00    0,000000000e+00
      170000000    1,670043543e-02   -2,249792591e-02   -5,183458328e-01    6,047919393e-01    0,000000000e+00    0,000000000e+00    0,000000000e+00    0,000000000e+00
      184000000    2,100466751e-02   -3,710998222e-02   -1,015073583e-01    7,863160372e-01    0,000000000e+00    0,000000000e+00    0,000000000e+00    0,000000000e+00
      198000000    1,305324864e-02   -6,247424707e-02    3,435111344e-01    7,125760317e-01    0,000000000e+00    0,000000000e+00    0,000000000e+00    0,000000000e+00
      212000000   -1,863737218e-02   -8,126624674e-02    6,780127883e-01    4,098732471e-01    0,000000000e+00    0,000000000e+00    0,000000000e+00    0,000000000e+00
      226000000   -6,168200821e-02   -6,917300075e-02    7,958290577e-01   -3,062793426e-02    0,000000000e+00    0,000000000e+00    0,000000000e+00    0,000000000e+00
      240000000   -8,260541409e-02   -2,558572963e-02    6,459705234e-01   -4,669966400e-01    0,000000000e+00    0,000000000e+00    0,000000000e+00    0,000000000e+00
      254000000   -6,352535635e-02    1,723386906e-02    2,760065496e-01   -7,430197001e-01    0,000000000e+00    0,000000000e+00    0,000000000e+00    0,000000000e+00
      268000000   -2,377936989e-02    2,893465571e-02   -1,778810620e-01   -7,645103335e-01    0,000000000e+00    0,000000000e+00    0,000000000e+00    0,000000000e+00
      282000000    4,113485571e-03    1,197580434e-02   -5,621546507e-01   -5,354269147e-01    0,000000000e+00    0,000000000e+00    0,000000000e+00    0,000000000e+00
      296000000    9,775757790e-03   -7,846132852e-03   -7,599598765e-01   -1,396166682e-01    0,000000000e+00    0,000000000e+00    0,000000000e+00    0,000000000e+00
      310000000    1,115775201e-02   -1,611270569e-02   -7,130237818e-01    2,997646332e-01    0,000000000e+00    0,000000000e+00    0,000000000e+00    0,000000000e+00
      324000000    1,973052509e-02   -2,655158564e-02   -4,277194142e-01    6,387233138e-01    0,000000000e+00    0,000000000e+00    0,000000000e+00    0,000000000e+00
      338000000    2,570911497e-02   -5,225626379e-02   -9,915384464e-03    7,636916637e-01    0,000000000e+00    0,000000000e+00    0,000000000e+00    0,000000000e+00
      352000000    7,544136140e-03   -8,471290022e-02    4,063411057e-01    6,388693452e-01    0,000000000e+00    0,000000000e+00    0,000000000e+00    0,000000000e+00
      366000000   -3,486186266e-02   -9,561277926e-02    6,907988191e-01    3,107187152e-01    0,000000000e+00    0,000000000e+00    0,000000000e+00    0,000000000e+00
      380000000   -7,070352882e-02   -7,123395056e-02    7,471422553e-01   -1,264178306e-01    0,000000000e+00    0,000000000e+00    0,000000000e+00    0,000000000e+00
      394000000   -7,240740955e-02   -3,246654943e-02    5,452822447e-01   -5,222949386e-01    0,000000000e+00    0,000000000e+00    0,000000000e+00    0,000000000e+00
      408000000   -4,674304277e-02   -1,585406065e-02    1,597424597e-01   -7,318889499e-01    0,000000000e+00    0,000000000e+00    0,000000000e+00    0,000000000e+00
      422000000   -2,844643965e-02   -3,187796101e-02   -2,677398324e-01   -6,950281262e-01    0,000000000e+00    0,000000000e+00    0,000000000e+00    0,000000000e+00
      436000000   -4,061600193e-02   -5,215891823e-02   -6,042004824e-01   -4,318214357e-01    0,000000000e+00    0,000000000e+00    0,000000000e+00    0,000000000e+00
      450000000   -6,734926999e-02   -4,386591911e-02   -7,403171659e-01   -2,143013664e-02    0,000000000e+00    0,000000000e+00    0,000000000e+00    0,000000000e+00
      464000000   -7,329723984e-02   -1,153279748e-02   -6,182206869e-01    3,975343704e-01    0,000000000e+00    0,000000000e+00    0,000000000e+00    0,000000000e+00
      478000000   -4,774605110e-02    1,199791580e-02   -2,830849290e-01    6,681538820e-01    0,000000000e+00    0,000000000e+00    0,000000000e+00    0,000000000e+00
      492000000   -1,553598233e-02    5,856464617e-03    1,381790042e-01    7,009063959e-01    0,000000000e+00    0,000000000e+00    0,000000000e+00    0,000000000e+00
      506000000   -2,349647461e-03   -1,547342725e-02    4,984628558e-01    5,022712946e-01    0,000000000e+00    0,000000000e+00    0,000000000e+00    0,000000000e+00
      520000000   -5,121357273e-03   -3,175103292e-02    6,881147623e-01    1,413534582e-01    0,000000000e+00    0,000000000e+00    0,000000000e+00    0,000000000e+00
      534000000   -3,711796133e-03   -3,837582096e-02    6,437051892e-01   -2,627680004e-01    0,000000000e+00    0,000000000e+00    0,000000000e+00    0,000000000e+00
      548000000    6,224406417e-03   -5,352504551e-02    3,815528452e-01   -5,670730472e-01    0,000000000e+00    0,000000000e+00    0,000000000e+00    0,000000000e+00
      562000000    3,268112428e-03   -8,922374249e-02    2,491229912e-03   -6,718292236e-01    0,000000000e+00    0,000000000e+00    0,000000000e+00    0,000000000e+00
      576000000   -3,397984430e-02   -1,244572923e-01   -3,688428104e-01   -5,572446585e-01    0,000000000e+00    0,000000000e+00    0,000000000e+00    0,000000000e+00
      590000000   -9,640071541e-02   -1,226802319e-01   -6,192069650e-01   -2,636609972e-01    0,000000000e+00    0,000000000e+00    0,000000000e+00    0,000000000e+00
      604000000   -1,395568848e-01   -7,218214124e-02   -6,652618051e-01    1,375449300e-01    0,000000000e+00    0,000000000e+00    0,000000000e+00    0,000000000e+00
      618000000   -1,299051493e-01   -8,782315068e-03   -4,651138186e-01    4,949546754e-01    0,000000000e+00    0,000000000e+00    0,000000000e+00    0,000000000e+00
      632000000   -8,355637640e-02    1,650015078e-02   -9,889545292e-02    6,638231874e-01    0,000000000e+00    0,000000000e+00    0,000000000e+00    0,000000000e+00
      646000000   -5,065223575e-02    1,038764371e-03    2,874821723e-01    5,956727266e-01    0,000000000e+00    0,000000000e+00    0,000000000e+00    0,000000000e+00
      660000000   -5,293050036e-02   -2,139093168e-02    5,664458275e-01    3,231109083e-01    0,000000000e+00    0,000000000e+00    0,000000000e+00    0,000000000e+00
      674000000   -7,060249895e-02   -1,727515645e-02    6,431711316e-01   -6,552903354e-02    0,000000000e+00    0,000000000e+00    0,000000000e+00    0,000000000e+00
      688000000   -6,894388050e-02    9,002191015e-03    4,705519676e-01   -4,278953969e-01    0,000000000e+00    0,000000000e+00    0,000000000e+00    0,000000000e+00
      702000000   -3,680381551e-02    2,681508660e-02    1,194787621e-01   -6,111090183e-01    0,000000000e+00    0,000000000e+00    0,000000000e+00    0,000000000e+00
      716000000    2,180454554e-03    1,724792458e-02   -2,647728622e-01   -5,469412208e-01    0,000000000e+00    0,000000000e+00    0,000000000e+00    0,000000000e+00
      730000000    3,633550182e-02   -1,067669317e-02   -5,283178687e-01   -2,695492804e-01    0,000000000e+00    0,000000000e+00    0,000000000e+00    0,000000000e+00
      744000000    6,592156738e-02   -6,255038828e-02   -5,642874837e-01    1,065539718e-01    0,000000000e+00    0,000000000e+00    0,000000000e+00    0,000000000e+00
      758000000    6,651131064e-02   -1,515359879e-01   -3,637859821e-01    4,108179510e-01    0,000000000e+00    0,000000000e+00    0,000000000e+00    0,000000000e+00
      772000000   -1,298000477e-02   -2,624378800e-01   -3,419106081e-02    5,152708292e-01    0,000000000e+00    0,000000000e+00    0,000000000e+00    0,000000000e+00
      786000000   -2,071026862e-01   -3,023682237e-01    2,742595375e-01    3,952104449e-01    0,000000000e+00    0,000000000e+00    0,000000000e+00    0,000000000e+00
      800000000   -4,247231185e-01   -1,296577305e-01    4,172404706e-01    9,880772978e-02    0,000000000e+00    0,000000000e+00    0,000000000e+00    0,000000000e+00
      814000000   -3,895599246e-01    2,211517543e-01    2,821002603e-01   -1,728401333e-01    0,000000000e+00    0,000000000e+00    0,000000000e+00    0,000000000e+00
      828000000   -5,045912787e-02    3,689664900e-01    5,502074212e-02   -1,888921112e-01    0,000000000e+00    0,000000000e+00    0,000000000e+00    0,000000000e+00
      842000000    2,347255945e-01    1,858452410e-01   -1,675954834e-02   -7,093324512e-02    0,000000000e+00    0,000000000e+00    0,000000000e+00    0,000000000e+00
      856000000    2,805317938e-01   -1,245268807e-01    4,497860000e-02   -1,311865915e-02    0,000000000e+00    0,000000000e+00    0,000000000e+00    0,000000000e+00
      870000000    7,490111142e-02   -3,763830066e-01    1,135296822e-01   -9,096202254e-02    0,000000000e+00    0,000000000e+00    0,000000000e+00    0,000000000e+00
      884000000   -2,961226106e-01   -3,612594306e-01    2,894345671e-02   -2,449845821e-01    0,000000000e+00    0,000000000e+00    0,000000000e+00    0,000000000e+00
      898000000   -4,721637070e-01    9,504147805e-03   -2,215501815e-01   -2,271409184e-01    0,000000000e+00    0,000000000e+00    0,000000000e+00    0,000000000e+00
      912000000   -2,251320630e-01    2,954037786e-01   -3,382771909e-01    7,073345780e-02    0,000000000e+00    0,000000000e+00    0,000000000e+00    0,000000000e+00
      926000000    6,691440195e-02    2,620424628e-01   -2,174207568e-01    2,607896030e-01    0,000000000e+00    0,000000000e+00    0,000000000e+00    0,000000000e+00
      940000000    2,163793445e-01    7,897605002e-02   -3,495920449e-02    3,296737969e-01    0,000000000e+00    0,000000000e+00    0,000000000e+00    0,000000000e+00
      954000000    2,234231383e-01   -1,293812692e-01    1,304073185e-01    3,077012002e-01    0,000000000e+00    0,000000000e+00    0,000000000e+00    0,000000000e+00
      968000000    1,138165742e-01   -3,002549708e-01    2,705003023e-01    2,183311433e-01    0,000000000e+00    0,000000000e+00    0,000000000e+00    0,000000000e+00
      982000000   -8,334720135e-02   -3,907543421e-01    3,663350642e-01    6,667920947e-02    0,000000000e+00    0,000000000e+00    0,000000000e+00    0,000000000e+00
      996000000   -3,151170015e-01   -3,318275809e-01    3,685138822e-01   -1,458739936e-01    0,000000000e+00    0,000000000e+00    0,000000000e+00    0,000000000e+00
     1010000000   -4,664685130e-01   -1,101880819e-01    2,240040600e-01   -3,402179778e-01    0,000000000e+00    0,000000000e+00    0,000000000e+00    0,000000000e+00
     1024000000   -4,154731333e-01    1,465274692e-01   -3,332673758e-02   -3,927020729e-01    0,000000000e+00    0,000000000e+00    0,000000000e+00    0,000000000e+00
     1038000000   -2,168839872e-01    2,881878614e-01   -2,481079400e-01   -2,594835460e-01    0,000000000e+00    0,000000000e+00    0,000000000e+00    0,000000000e+00
     1052000000   -1,176170260e-02    2,780450583e-01   -3,164219856e-01   -4,672029987e-02    0,000000000e+00    0,000000000e+00    0,000000000e+00    0,000000000e+00
     1066000000    1,378392130e-01    1,654109955e-01   -2,593781948e-01    1,447323412e-01    0,000000000e+00    0,000000000e+00    0,000000000e+00    0,000000000e+00
     1080000000    1,915957928e-01   -5,882369005e-04   -1,185415685e-01    2,653341889e-01    0,000000000e+00    0,000000000e+00    0,000000000e+00    0,000000000e+00
     1094000000    1,565899700e-01   -1,734139770e-01    6,407030672e-02    3,044088483e-01    0,000000000e+00    0,000000000e+00    0,000000000e+00    0,000000000e+00
     1108000000   -1,829292276e-03   -3,080595136e-01    2,764112651e-01    2,485637218e-01    0,000000000e+00    0,000000000e+00    0,000000000e+00    0,000000000e+00
     1122000000   -2,451343387e-01   -2,670363784e-01    4,725345373e-01    1,688642986e-02    0,000000000e+00    0,000000000e+00    0,000000000e+00    0,000000000e+00
     1136000000   -3,141024709e-01    3,282282129e-02    3,964290619e-01   -3,895888925e-01    0,000000000e+00    0,000000000e+00    0,000000000e+00    0,000000000e+00
     1150000000   -4,292237759e-02    1,501311362e-01    3,422873793e-03   -5,405146480e-01    0,000000000e+00    0,000000000e+00    0,000000000e+00    0,000000000e+00
     1164000000    1,232010722e-01   -6,476494670e-02   -2,752531767e-01   -3,786390126e-01    0,000000000e+00    0,000000000e+00    0,000000000e+00    0,000000000e+00
     1178000000    1,870859973e-02   -3,064736724e-01   -3,676826358e-01   -1,535189599e-01    0,000000000e+00    0,000000000e+00    0,000000000e+00    0,000000000e+00
     1192000000   -2,681060135e-01   -3,718900979e-01   -3,222163618e-01    5,557760224e-02    0,000000000e+00    0,000000000e+00    0,000000000e+00    0,000000000e+00
     1206000000   -5,188299417e-01   -1,625558287e-01   -1,620338559e-01    1,799402386e-01    0,000000000e+00    0,000000000e+00    0,000000000e+00    0,000000000e+00
     1220000000   -5,070716739e-01    1,714178622e-01    3,541367361e-03    1,605897695e-01    0,000000000e+00    0,000000000e+00    0,000000000e+00    0,000000000e+00
     1234000000   -2,882471681e-01    3,627096713e-01    6,786307693e-02    6,247795001e-02    0,000000000e+00    0,000000000e+00    0,000000000e+00    0,000000000e+00
     1248000000   -4,349296167e-02    3,682900965e-01    5,697686225e-02   -2,617091232e-04    0,000000000e+00    0,000000000e+00    0,000000000e+00    0,000000000e+00
     1262000000    1,180300489e-01    2,583634257e-01    1,307021640e-02   -2,189528383e-02    0,000000000e+00    0,000000000e+00    0,000000000e+00    0,000000000e+00
     1276000000    2,105911076e-01    1,032597572e-01   -1,014336012e-03    7,354833186e-03    0,000000000e+00    0,000000000e+00    0,000000000e+00    0,000000000e+00
     1290000000    2,255998105e-01   -7,591989636e-02    2,524837479e-02    4,940028861e-02    0,000000000e+00    0,000000000e+00    0,000000000e+00    0,000000000e+00
     1304000000    1,558879763e-01   -2,457589656e-01    1,296612620e-01    6,636822969e-02    0,000000000e+00    0,000000000e+00    0,000000000e+00    0,000000000e+00
     1318000000    3,388570622e-02   -3,401592672e-01    1,253972948e-01   -1,712576747e-01    0,000000000e+00    0,000000000e+00    0,000000000e+00    0,000000000e+00
     1332000000   -1,263151616e-01   -4,402444661e-01   -3,883274272e-02   -4,848295078e-02    0,000000000e+00    0,000000000e+00    0,000000000e+00    0,000000000e+00
     1346000000   -3,996369243e-01   -4,080985487e-01    2,531206608e-02    5,936291441e-02    0,000000000e+00    0,000000000e+00    0,000000000e+00    0,000000000e+00
     1360000000   -6,141207218e-01   -1,846714765e-01    1,313092560e-01    6,676729769e-02    0,000000000e+00    0,000000000e+00    0,000000000e+00    0,000000000e+00
     1374000000   -6,361538172e-01    1,254637986e-01    2,016766369e-01   -4,255048465e-03    0,000000000e+00    0,000000000e+00    0,000000000e+00    0,000000000e+00
     1388000000   -4,612175822e-01    3,672444522e-01    2,116327137e-01   -6,583885849e-02    0,000000000e+00    0,000000000e+00    0,000000000e+00    0,000000000e+00
     1402000000   -2,284728587e-01    4,475252628e-01    1,880721003e-01   -1,016913205e-01    0,000000000e+00    0,000000000e+00    0,000000000e+00    0,000000000e+00
     1416000000   -2,623248659e-02    4,202654064e-01    1,736037880e-01   -9,641770273e-02    0,000000000e+00    0,000000000e+00    0,000000000e+00    0,000000000e+00
     1430000000    1,225444973e-01    3,084529340e-01    1,844727695e-01   -9,372647852e-02    0,000000000e+00    0,000000000e+00    0,000000000e+00    0,000000000e+00
     1444000000    2,078731507e-01    1,491482556e-01    1,489390433e-01   -9,800229967e-02    0,000000000e+00    0,000000000e+00    0,000000000e+00    0,000000000e+00
     1458000000    2,323828340e-01   -1,648504287e-02    1,378834844e-01   -7,113286853e-02    0,000000000e+00    0,000000000e+00    0,000000000e+00    0,000000000e+00
     1472000000    1,919699609e-01   -1,990092844e-01    1,333746910e-01   -1,881310344e-02    0,000000000e+00    0,000000000e+00    0,000000000e+00    0,000000000e+00
     1486000000    6,633379310e-02   -3,750919104e-01    1,832361817e-01    3,299378976e-02    0,000000000e+00    0,000000000e+00    0,000000000e+00    0,000000000e+00
     1500000000   -1,732870340e-01   -5,038190484e-01    2,322617173e-01    9,020611644e-02    0,000000000e+00    0,000000000e+00    0,000000000e+00    0,000000000e+00
