! NanoVNA-App
! Date: 2025-09-25 15:31:54
! Start: 100MHz Stop: 1,5GHz Points: 101
! S-Parameter data: F S11 S21 S12 S22
# Hz S RI R 50
!     Frequency           S11_Real           S11_Imag           S21_Real           S21_Imag           S12_Real           S12_Imag           S22_Real           S22_Imag
      100000000   -2,885636128e-02   -4,180450924e-03    3,740993738e-01   -7,218018770e-01    0,000000000e+00    0,000000000e+00    0,000000000e+00    0,000000000e+00
      114000000   -1,651393622e-02    1,152472757e-02   -8,890849352e-02   -8,053979278e-01    0,000000000e+00    0,000000000e+00    0,000000000e+00    0,000000000e+00
      128000000    3,478790866e-03    1,055089850e-02   -5,145756602e-01   -6,203056574e-01    0,000000000e+00    0,000000000e+00    0,000000000e+00    0,000000000e+00
      142000000    1,456458122e-02   -2,958815778e-03   -7,669532299e-01   -2,365789264e-01    0,000000000e+00    0,000000000e+00    0,000000000e+00    0,000000000e+00
      156000000    1,568967663e-02   -1,449116133e-02   -7,689509392e-01    2,236723006e-01    0,000000000e+00    0,000000000e+00    0,000000000e+00    0,000000000e+00
      170000000    1,662292145e-02   -2,256195247e-02   -5,182087421e-01    6,045582891e-01    0,000000000e+00    0,000000000e+00    0,000000000e+00    0,000000000e+00
      184000000    2,100868709e-02   -3,704482317e-02   -1,012950391e-01    7,861937881e-01    0,000000000e+00    0,000000000e+00    0,000000000e+00    0,000000000e+00
      198000000    1,301269699e-02   -6,248604506e-02    3,432843685e-01    7,122244239e-01    0,000000000e+00    0,000000000e+00    0,000000000e+00    0,000000000e+00
      212000000   -1,865994930e-02   -8,132204413e-02    6,781036854e-01    4,099182487e-01    0,000000000e+00    0,000000000e+00    0,000000000e+00    0,000000000e+00
      226000000   -6,169248372e-02   -6,921730936e-02    7,958132029e-01   -3,053713031e-02    0,000000000e+00    0,000000000e+00    0,000000000e+00    0,000000000e+00
      240000000   -8,261171728e-02   -2,559833787e-02    6,463626623e-01   -4,672589302e-01    0,000000000e+00    0,000000000e+00    0,000000000e+00    0,000000000e+00
      254000000   -6,347195059e-02    1,722945087e-02    2,759928405e-01   -7,433025241e-01    0,000000000e+00    0,000000000e+00    0,000000000e+00    0,000000000e+00
      268000000   -2,380634844e-02    2,892742492e-02   -1,780139655e-01   -7,644317150e-01    0,000000000e+00    0,000000000e+00    0,000000000e+00    0,000000000e+00
      282000000    4,182395525e-03    1,197110303e-02   -5,617309213e-01   -5,356353521e-01    0,000000000e+00    0,000000000e+00    0,000000000e+00    0,000000000e+00
      296000000    9,733496234e-03   -7,830949500e-03   -7,598052621e-01   -1,398464739e-01    0,000000000e+00    0,000000000e+00    0,000000000e+00    0,000000000e+00
      310000000    1,121775154e-02   -1,632621139e-02   -7,117415071e-01    2,979595661e-01    0,000000000e+00    0,000000000e+00    0,000000000e+00    0,000000000e+00
      324000000    1,981227100e-02   -2,633087337e-02   -4,269865155e-01    6,376500726e-01    0,000000000e+00    0,000000000e+00    0,000000000e+00    0,000000000e+00
      338000000    2,552198619e-02   -5,216414481e-02   -1,000753138e-02    7,622739673e-01    0,000000000e+00    0,000000000e+00    0,000000000e+00    0,000000000e+00
      352000000    7,647241931e-03   -8,468379825e-02    4,070932567e-01    6,394085884e-01    0,000000000e+00    0,000000000e+00    0,000000000e+00    0,000000000e+00
      366000000   -3,453171626e-02   -9,544216841e-02    6,910672784e-01    3,114114106e-01    0,000000000e+00    0,000000000e+00    0,000000000e+00    0,000000000e+00
      380000000   -7,093137503e-02   -7,106807828e-02    7,472669482e-01   -1,257186085e-01    0,000000000e+00    0,000000000e+00    0,000000000e+00    0,000000000e+00
      394000000   -7,255277038e-02   -3,235085681e-02    5,463782549e-01   -5,216308832e-01    0,000000000e+00    0,000000000e+00    0,000000000e+00    0,000000000e+00
      408000000   -4,627706483e-02   -1,584786549e-02    1,620906591e-01   -7,319508791e-01    0,000000000e+00    0,000000000e+00    0,000000000e+00    0,000000000e+00
      422000000   -2,844143100e-02   -3,210328147e-02   -2,676744759e-01   -6,947776079e-01    0,000000000e+00    0,000000000e+00    0,000000000e+00    0,000000000e+00
      436000000   -4,068261757e-02   -5,188145116e-02   -6,045178175e-01   -4,317914546e-01    0,000000000e+00    0,000000000e+00    0,000000000e+00    0,000000000e+00
      450000000   -6,711580604e-02   -4,365673661e-02   -7,404122353e-01   -2,126957662e-02    0,000000000e+00    0,000000000e+00    0,000000000e+00    0,000000000e+00
      464000000   -7,317167521e-02   -1,147384942e-02   -6,182211637e-01    3,977259099e-01    0,000000000e+00    0,000000000e+00    0,000000000e+00    0,000000000e+00
      478000000   -4,788907990e-02    1,143749990e-02   -2,826127708e-01    6,668227315e-01    0,000000000e+00    0,000000000e+00    0,000000000e+00    0,000000000e+00
      492000000   -1,578389667e-02    6,104071159e-03    1,382095367e-01    7,019294500e-01    0,000000000e+00    0,000000000e+00    0,000000000e+00    0,000000000e+00
      506000000   -2,857644577e-03   -1,584827527e-02    4,979788065e-01    5,027964711e-01    0,000000000e+00    0,000000000e+00    0,000000000e+00    0,000000000e+00
      520000000   -5,068584345e-03   -3,164105490e-02    6,871387959e-01    1,414289474e-01    0,000000000e+00    0,000000000e+00    0,000000000e+00    0,000000000e+00
      534000000   -4,098285921e-03   -3,845838085e-02    6,437495351e-01   -2,629331052e-01    0,000000000e+00    0,000000000e+00    0,000000000e+00    0,000000000e+00
      548000000    6,080958061e-03   -5,381489545e-02    3,811714053e-01   -5,665318966e-01    0,000000000e+00    0,000000000e+00    0,000000000e+00    0,000000000e+00
      562000000    3,492597723e-03   -8,921793103e-02    3,090340411e-03   -6,720244288e-01    0,000000000e+00    0,000000000e+00    0,000000000e+00    0,000000000e+00
      576000000   -3,385217115e-02   -1,242639720e-01   -3,694007993e-01   -5,573024154e-01    0,000000000e+00    0,000000000e+00    0,000000000e+00    0,000000000e+00
      590000000   -9,660951048e-02   -1,227334067e-01   -6,227177978e-01   -2,636684775e-01    0,000000000e+00    0,000000000e+00    0,000000000e+00    0,000000000e+00
      604000000   -1,396582276e-01   -7,200361788e-02   -6,652951241e-01    1,374554783e-01    0,000000000e+00    0,000000000e+00    0,000000000e+00    0,000000000e+00
      618000000   -1,296765208e-01   -8,667484857e-03   -4,643021226e-01    4,945694208e-01    0,000000000e+00    0,000000000e+00    0,000000000e+00    0,000000000e+00
      632000000   -8,419551700e-02    1,727279648e-02   -9,889911115e-02    6,637030840e-01    0,000000000e+00    0,000000000e+00    0,000000000e+00    0,000000000e+00
      646000000   -5,163245276e-02    5,690319231e-04    2,873997092e-01    5,961526632e-01    0,000000000e+00    0,000000000e+00    0,000000000e+00    0,000000000e+00
      660000000   -5,342025310e-02   -2,129809186e-02    5,678305626e-01    3,221820891e-01    0,000000000e+00    0,000000000e+00    0,000000000e+00    0,000000000e+00
      674000000   -6,974754483e-02   -1,805179939e-02    6,432832479e-01   -6,574233621e-02    0,000000000e+00    0,000000000e+00    0,000000000e+00    0,000000000e+00
      688000000   -6,784981489e-02    8,966522291e-03    4,717862904e-01   -4,280693233e-01    0,000000000e+00    0,000000000e+00    0,000000000e+00    0,000000000e+00
      702000000   -3,728152066e-02    2,572740056e-02    1,177392378e-01   -6,105282903e-01    0,000000000e+00    0,000000000e+00    0,000000000e+00    0,000000000e+00
      716000000    1,631749095e-03    1,763938554e-02   -2,640776634e-01   -5,462328792e-01    0,000000000e+00    0,000000000e+00    0,000000000e+00    0,000000000e+00
      730000000    3,647946566e-02   -1,026990823e-02   -5,289924741e-01   -2,688488364e-01    0,000000000e+00    0,000000000e+00    0,000000000e+00    0,000000000e+00
      744000000    6,460282207e-02   -6,271343678e-02   -5,642613769e-01    1,062837392e-01    0,000000000e+00    0,000000000e+00    0,000000000e+00    0,000000000e+00
      758000000    6,598353386e-02   -1,527473330e-01   -3,630842566e-01    4,106668234e-01    0,000000000e+00    0,000000000e+00    0,000000000e+00    0,000000000e+00
      772000000   -1,225090027e-02   -2,623121440e-01   -3,460192680e-02    5,151014328e-01    0,000000000e+00    0,000000000e+00    0,000000000e+00    0,000000000e+00
      786000000   -2,073993385e-01   -3,034227788e-01    2,742089629e-01    3,953879774e-01    0,000000000e+00    0,000000000e+00    0,000000000e+00    0,000000000e+00
      800000000   -4,255687296e-01   -1,309155077e-01    4,171004593e-01    9,939014912e-02    0,000000000e+00    0,000000000e+00    0,000000000e+00    0,000000000e+00
      814000000   -3,906274736e-01    2,217994332e-01    2,823680639e-01   -1,734579653e-01    0,000000000e+00    0,000000000e+00    0,000000000e+00    0,000000000e+00
      828000000   -5,039938539e-02    3,686806262e-01    5,493301526e-02   -1,892253011e-01    0,000000000e+00    0,000000000e+00    0,000000000e+00    0,000000000e+00
      842000000    2,352670282e-01    1,858419478e-01   -1,672131754e-02   -7,102658600e-02    0,000000000e+00    0,000000000e+00    0,000000000e+00    0,000000000e+00
      856000000    2,801911235e-01   -1,244945079e-01    4,510861635e-02   -1,339883823e-02    0,000000000e+00    0,000000000e+00    0,000000000e+00    0,000000000e+00
      870000000    7,492214441e-02   -3,770994842e-01    1,136450395e-01   -9,083320946e-02    0,000000000e+00    0,000000000e+00    0,000000000e+00    0,000000000e+00
      884000000   -2,951354682e-01   -3,611713350e-01    2,827231772e-02   -2,459213585e-01    0,000000000e+00    0,000000000e+00    0,000000000e+00    0,000000000e+00
      898000000   -4,717821181e-01    9,521936066e-03   -2,221591324e-01   -2,269867361e-01    0,000000000e+00    0,000000000e+00    0,000000000e+00    0,000000000e+00
      912000000   -2,259153128e-01    2,948530316e-01   -3,470246196e-01    5,895713344e-02    0,000000000e+00    0,000000000e+00    0,000000000e+00    0,000000000e+00
      926000000    6,899773329e-02    2,628622651e-01   -2,143239975e-01    2,638841867e-01    0,000000000e+00    0,000000000e+00    0,000000000e+00    0,000000000e+00
      940000000    2,154740244e-01    7,915175706e-02   -3,656015173e-02    3,291569054e-01    0,000000000e+00    0,000000000e+00    0,000000000e+00    0,000000000e+00
      954000000    2,220150083e-01   -1,252482384e-01    1,313018948e-01    3,089964688e-01    0,000000000e+00    0,000000000e+00    0,000000000e+00    0,000000000e+00
      968000000    1,143332273e-01   -3,017744124e-01    2,708681822e-01    2,183513343e-01    0,000000000e+00    0,000000000e+00    0,000000000e+00    0,000000000e+00
      982000000   -8,213793486e-02   -3,887421489e-01    3,659006357e-01    6,562502682e-02    0,000000000e+00    0,000000000e+00    0,000000000e+00    0,000000000e+00
      996000000   -3,198335767e-01   -3,279144466e-01    3,677472472e-01   -1,454344541e-01    0,000000000e+00    0,000000000e+00    0,000000000e+00    0,000000000e+00
     1010000000   -4,618558288e-01   -1,081058383e-01    2,229914516e-01   -3,418014944e-01    0,000000000e+00    0,000000000e+00    0,000000000e+00    0,000000000e+00
     1024000000   -4,154625833e-01    1,528384686e-01   -3,358020633e-02   -3,916328251e-01    0,000000000e+00    0,000000000e+00    0,000000000e+00    0,000000000e+00
     1038000000   -2,130837888e-01    2,903976142e-01   -2,489943653e-01   -2,622451782e-01    0,000000000e+00    0,000000000e+00    0,000000000e+00    0,000000000e+00
     1052000000   -1,076301560e-02    2,780557275e-01   -3,180698454e-01   -4,564488307e-02    0,000000000e+00    0,000000000e+00    0,000000000e+00    0,000000000e+00
     1066000000    1,351946890e-01    1,667923331e-01   -2,587992251e-01    1,402334720e-01    0,000000000e+00    0,000000000e+00    0,000000000e+00    0,000000000e+00
     1080000000    1,956801265e-01   -1,857155701e-03   -1,190119982e-01    2,641186714e-01    0,000000000e+00    0,000000000e+00    0,000000000e+00    0,000000000e+00
     1094000000    1,508810967e-01   -1,745780557e-01    6,476061046e-02    3,041585386e-01    0,000000000e+00    0,000000000e+00    0,000000000e+00    0,000000000e+00
     1108000000   -2,736223629e-03   -3,073013425e-01    2,785520554e-01    2,459930480e-01    0,000000000e+00    0,000000000e+00    0,000000000e+00    0,000000000e+00
     1122000000   -2,504998744e-01   -2,608219087e-01    4,712481201e-01    1,127460971e-02    0,000000000e+00    0,000000000e+00    0,000000000e+00    0,000000000e+00
     1136000000   -3,157254755e-01    2,881400473e-02    3,974263668e-01   -3,916318417e-01    0,000000000e+00    0,000000000e+00    0,000000000e+00    0,000000000e+00
     1150000000   -3,826422617e-02    1,542396843e-01    5,678026471e-03   -5,420233011e-01    0,000000000e+00    0,000000000e+00    0,000000000e+00    0,000000000e+00
     1164000000    1,223258078e-01   -5,908899754e-02   -2,748785019e-01   -3,773349822e-01    0,000000000e+00    0,000000000e+00    0,000000000e+00    0,000000000e+00
     1178000000    1,622353867e-02   -3,066118360e-01   -3,658564091e-01   -1,521912515e-01    0,000000000e+00    0,000000000e+00    0,000000000e+00    0,000000000e+00
     1192000000   -2,669914067e-01   -3,737196028e-01   -3,234736919e-01    5,545781925e-02    0,000000000e+00    0,000000000e+00    0,000000000e+00    0,000000000e+00
     1206000000   -5,215288997e-01   -1,585496217e-01   -1,700226218e-01    1,809123904e-01    0,000000000e+00    0,000000000e+00    0,000000000e+00    0,000000000e+00
     1220000000   -5,049437881e-01    1,729670912e-01    4,724886734e-03    1,552871168e-01    0,000000000e+00    0,000000000e+00    0,000000000e+00    0,000000000e+00
     1234000000   -2,895859778e-01    3,635393977e-01    6,581801921e-02    6,390944868e-02    0,000000000e+00    0,000000000e+00    0,000000000e+00    0,000000000e+00
     1248000000   -4,571218789e-02    3,606413603e-01    4,943424463e-02   -5,865394138e-03    0,000000000e+00    0,000000000e+00    0,000000000e+00    0,000000000e+00
     1262000000    1,276294738e-01    2,611066997e-01    1,644133218e-02   -1,935258508e-02    0,000000000e+00    0,000000000e+00    0,000000000e+00    0,000000000e+00
     1276000000    2,146507353e-01    9,858978540e-02   -1,915484783e-03    2,025128575e-03    0,000000000e+00    0,000000000e+00    0,000000000e+00    0,000000000e+00
     1290000000    2,233848125e-01   -7,588928938e-02    1,575330645e-02    5,435591564e-02    0,000000000e+00    0,000000000e+00    0,000000000e+00    0,000000000e+00
     1304000000    1,534363925e-01   -2,385880053e-01    1,309028268e-01    6,652602553e-02    0,000000000e+00    0,000000000e+00    0,000000000e+00    0,000000000e+00
     1318000000    3,500108421e-02   -3,345085979e-01    1,228713989e-01   -1,624523699e-01    0,000000000e+00    0,000000000e+00    0,000000000e+00    0,000000000e+00
     1332000000   -1,299748272e-01   -4,411216378e-01   -5,203697458e-02   -4,595604911e-02    0,000000000e+00    0,000000000e+00    0,000000000e+00    0,000000000e+00
     1346000000   -3,943964541e-01   -4,056340754e-01    3,233530372e-02    7,199918479e-02    0,000000000e+00    0,000000000e+00    0,000000000e+00    0,000000000e+00
     1360000000   -6,083068252e-01   -1,921079159e-01    1,396225095e-01    6,543479115e-02    0,000000000e+00    0,000000000e+00    0,000000000e+00    0,000000000e+00
     1374000000   -6,359990835e-01    1,318037361e-01    2,009420097e-01    1,523430832e-02    0,000000000e+00    0,000000000e+00    0,000000000e+00    0,000000000e+00
     1388000000   -4,610848427e-01    3,725906610e-01    2,154346108e-01   -6,794815511e-02    0,000000000e+00    0,000000000e+00    0,000000000e+00    0,000000000e+00
     1402000000   -2,341913283e-01    4,507611096e-01    1,815756857e-01   -1,005202532e-01    0,000000000e+00    0,000000000e+00    0,000000000e+00    0,000000000e+00
     1416000000   -2,857255191e-02    4,129643738e-01    1,824887097e-01   -1,122310758e-01    0,000000000e+00    0,000000000e+00    0,000000000e+00    0,000000000e+00
     1430000000    1,194054782e-01    3,034923375e-01    1,809216887e-01   -8,961031586e-02    0,000000000e+00    0,000000000e+00    0,000000000e+00    0,000000000e+00
     1444000000    2,071352899e-01    1,492753178e-01    1,590238214e-01   -9,614113718e-02    0,000000000e+00    0,000000000e+00    0,000000000e+00    0,000000000e+00
     1458000000    2,324666828e-01   -1,646540500e-02    1,379047036e-01   -6,621389091e-02    0,000000000e+00    0,000000000e+00    0,000000000e+00    0,000000000e+00
     1472000000    1,954804212e-01   -2,008556426e-01    1,496746391e-01   -3,079879098e-02    0,000000000e+00    0,000000000e+00    0,000000000e+00    0,000000000e+00
     1486000000    6,251699477e-02   -3,711300492e-01    1,757809967e-01    3,884102404e-02    0,000000000e+00    0,000000000e+00    0,000000000e+00    0,000000000e+00
     1500000000   -1,783927232e-01   -4,952487946e-01    2,360098809e-01    1,030406952e-01    0,000000000e+00    0,000000000e+00    0,000000000e+00    0,000000000e+00
