! NanoVNA-App
! Date: 2025-09-25 15:37:32
! Start: 100MHz Stop: 1,5GHz Points: 101
! S-Parameter data: F S11 S21 S12 S22
# Hz S RI R 50
!     Frequency           S11_Real           S11_Imag           S21_Real           S21_Imag           S12_Real           S12_Imag           S22_Real           S22_Imag
      100000000   -2,882922813e-02   -4,168575630e-03    3,740540147e-01   -7,217642069e-01    0,000000000e+00    0,000000000e+00    0,000000000e+00    0,000000000e+00
      114000000   -1,645134576e-02    1,152662747e-02   -8,916299790e-02   -8,055666089e-01    0,000000000e+00    0,000000000e+00    0,000000000e+00    0,000000000e+00
      128000000    3,533379408e-03    1,050358173e-02   -5,145708323e-01   -6,203929186e-01    0,000000000e+00    0,000000000e+00    0,000000000e+00    0,000000000e+00
      142000000    1,457850263e-02   -2,973112511e-03   -7,671285868e-01   -2,365162671e-01    0,000000000e+00    0,000000000e+00    0,000000000e+00    0,000000000e+00
      156000000    1,475624274e-02   -1,484077424e-02   -7,658285499e-01    2,216189206e-01    0,000000000e+00    0,000000000e+00    0,000000000e+00    0,000000000e+00
      170000000    1,670634747e-02   -2,260397747e-02   -5,179954767e-01    6,046838164e-01    0,000000000e+00    0,000000000e+00    0,000000000e+00    0,000000000e+00
      184000000    2,102360874e-02   -3,709844872e-02   -1,013145074e-01    7,861262560e-01    0,000000000e+00    0,000000000e+00    0,000000000e+00    0,000000000e+00
      198000000    1,304130722e-02   -6,245731935e-02    3,433776498e-01    7,122987509e-01    0,000000000e+00    0,000000000e+00    0,000000000e+00    0,000000000e+00
      212000000   -1,860250160e-02   -8,134646714e-02    6,782009006e-01    4,099186361e-01    0,000000000e+00    0,000000000e+00    0,000000000e+00    0,000000000e+00
      226000000   -6,167970970e-02   -6,918777525e-02    7,957771420e-01   -3,055870160e-02    0,000000000e+00    0,000000000e+00    0,000000000e+00    0,000000000e+00
      240000000   -8,259679377e-02   -2,561915666e-02    6,459846497e-01   -4,673894346e-01    0,000000000e+00    0,000000000e+00    0,000000000e+00    0,000000000e+00
      254000000   -6,340771168e-02    1,723114029e-02    2,761445940e-01   -7,432937622e-01    0,000000000e+00    0,000000000e+00    0,000000000e+00    0,000000000e+00
      268000000   -2,386048809e-02    2,884889394e-02   -1,784570664e-01   -7,641690969e-01    0,000000000e+00    0,000000000e+00    0,000000000e+00    0,000000000e+00
      282000000    4,155261442e-03    1,185170282e-02   -5,621362329e-01   -5,351810455e-01    0,000000000e+00    0,000000000e+00    0,000000000e+00    0,000000000e+00
      296000000    9,733394720e-03   -7,907925174e-03   -7,597098351e-01   -1,395376623e-01    0,000000000e+00    0,000000000e+00    0,000000000e+00    0,000000000e+00
      310000000    1,118710730e-02   -1,632077433e-02   -7,135176063e-01    2,985869348e-01    0,000000000e+00    0,000000000e+00    0,000000000e+00    0,000000000e+00
      324000000    1,963617094e-02   -2,657486685e-02   -4,273574948e-01    6,360700727e-01    0,000000000e+00    0,000000000e+00    0,000000000e+00    0,000000000e+00
      338000000    2,565097064e-02   -5,212293938e-02   -8,461269550e-03    7,600623369e-01    0,000000000e+00    0,000000000e+00    0,000000000e+00    0,000000000e+00
      352000000    7,285633124e-03   -8,473736793e-02    4,064649343e-01    6,405797005e-01    0,000000000e+00    0,000000000e+00    0,000000000e+00    0,000000000e+00
      366000000   -3,470061347e-02   -9,547493607e-02    6,913694739e-01    3,113951385e-01    0,000000000e+00    0,000000000e+00    0,000000000e+00    0,000000000e+00
      380000000   -7,074680924e-02   -7,101902366e-02    7,471345067e-01   -1,263542771e-01    0,000000000e+00    0,000000000e+00    0,000000000e+00    0,000000000e+00
      394000000   -7,268766314e-02   -3,207683191e-02    5,463830233e-01   -5,215200186e-01    0,000000000e+00    0,000000000e+00    0,000000000e+00    0,000000000e+00
      408000000   -4,640666768e-02   -1,602580771e-02    1,604147702e-01   -7,315905690e-01    0,000000000e+00    0,000000000e+00    0,000000000e+00    0,000000000e+00
      422000000   -2,803177573e-02   -3,205321357e-02   -2,673156559e-01   -6,952039599e-01    0,000000000e+00    0,000000000e+00    0,000000000e+00    0,000000000e+00
      436000000   -4,059882835e-02   -5,178584158e-02   -6,035075784e-01   -4,321610034e-01    0,000000000e+00    0,000000000e+00    0,000000000e+00    0,000000000e+00
      450000000   -6,752943993e-02   -4,393175989e-02   -7,406912446e-01   -2,150729485e-02    0,000000000e+00    0,000000000e+00    0,000000000e+00    0,000000000e+00
      464000000   -7,342386246e-02   -1,154655591e-02   -6,186290383e-01    3,977385759e-01    0,000000000e+00    0,000000000e+00    0,000000000e+00    0,000000000e+00
      478000000   -4,762922972e-02    1,134742796e-02   -2,822665870e-01    6,673343778e-01    0,000000000e+00    0,000000000e+00    0,000000000e+00    0,000000000e+00
      492000000   -1,590891369e-02    6,027249619e-03    1,373423934e-01    7,012595534e-01    0,000000000e+00    0,000000000e+00    0,000000000e+00    0,000000000e+00
      506000000   -2,699783072e-03   -1,599607058e-02    4,980061650e-01    5,022135377e-01    0,000000000e+00    0,000000000e+00    0,000000000e+00    0,000000000e+00
      520000000   -5,011461675e-03   -3,179964796e-02    6,880529523e-01    1,406893879e-01    0,000000000e+00    0,000000000e+00    0,000000000e+00    0,000000000e+00
      534000000   -3,742514411e-03   -3,841366246e-02    6,437782049e-01   -2,629663348e-01    0,000000000e+00    0,000000000e+00    0,000000000e+00    0,000000000e+00
      548000000    5,921672098e-03   -5,360357091e-02    3,808234036e-01   -5,670177937e-01    0,000000000e+00    0,000000000e+00    0,000000000e+00    0,000000000e+00
      562000000    2,947792411e-03   -8,942439407e-02    1,789060887e-03   -6,719484925e-01    0,000000000e+00    0,000000000e+00    0,000000000e+00    0,000000000e+00
      576000000   -3,427668661e-02   -1,241063252e-01   -3,690535426e-01   -5,578879714e-01    0,000000000e+00    0,000000000e+00    0,000000000e+00    0,000000000e+00
      590000000   -9,636276215e-02   -1,230874062e-01   -6,199333072e-01   -2,645601630e-01    0,000000000e+00    0,000000000e+00    0,000000000e+00    0,000000000e+00
      604000000   -1,395970881e-01   -7,204800099e-02   -6,654444337e-01    1,377557963e-01    0,000000000e+00    0,000000000e+00    0,000000000e+00    0,000000000e+00
      618000000   -1,294063181e-01   -9,431008250e-03   -4,641050994e-01    4,946524203e-01    0,000000000e+00    0,000000000e+00    0,000000000e+00    0,000000000e+00
      632000000   -8,350967616e-02    1,640426368e-02   -9,926836193e-02    6,646231413e-01    0,000000000e+00    0,000000000e+00    0,000000000e+00    0,000000000e+00
      646000000   -5,042505637e-02    4,515086766e-04    2,878337204e-01    5,958015323e-01    0,000000000e+00    0,000000000e+00    0,000000000e+00    0,000000000e+00
      660000000   -5,255944282e-02   -2,132144757e-02    5,673117638e-01    3,227979243e-01    0,000000000e+00    0,000000000e+00    0,000000000e+00    0,000000000e+00
      674000000   -7,012131810e-02   -1,852689870e-02    6,430845261e-01   -6,505943835e-02    0,000000000e+00    0,000000000e+00    0,000000000e+00    0,000000000e+00
      688000000   -6,789793074e-02    8,428581059e-03    4,709937572e-01   -4,281268120e-01    0,000000000e+00    0,000000000e+00    0,000000000e+00    0,000000000e+00
      702000000   -3,706976399e-02    2,675864287e-02    1,154747009e-01   -6,139454842e-01    0,000000000e+00    0,000000000e+00    0,000000000e+00    0,000000000e+00
      716000000    1,642788877e-03    1,746563613e-02   -2,648125887e-01   -5,468605757e-01    0,000000000e+00    0,000000000e+00    0,000000000e+00    0,000000000e+00
      730000000    3,692289442e-02   -1,064414997e-02   -5,285174847e-01   -2,691907883e-01    0,000000000e+00    0,000000000e+00    0,000000000e+00    0,000000000e+00
      744000000    6,435580552e-02   -6,213947386e-02   -5,642136335e-01    1,064621881e-01    0,000000000e+00    0,000000000e+00    0,000000000e+00    0,000000000e+00
      758000000    6,677138805e-02   -1,516687423e-01   -3,633612990e-01    4,095426798e-01    0,000000000e+00    0,000000000e+00    0,000000000e+00    0,000000000e+00
      772000000   -1,276195701e-02   -2,622102797e-01   -3,451779112e-02    5,156351328e-01    0,000000000e+00    0,000000000e+00    0,000000000e+00    0,000000000e+00
      786000000   -2,068639547e-01   -3,021795750e-01    2,749309242e-01    3,953608871e-01    0,000000000e+00    0,000000000e+00    0,000000000e+00    0,000000000e+00
      800000000   -4,260208905e-01   -1,308953464e-01    4,173851609e-01    9,894977510e-02    0,000000000e+00    0,000000000e+00    0,000000000e+00    0,000000000e+00
      814000000   -3,889311552e-01    2,227269262e-01    2,822832763e-01   -1,732516587e-01    0,000000000e+00    0,000000000e+00    0,000000000e+00    0,000000000e+00
      828000000   -5,012511089e-02    3,683726788e-01    5,562759563e-02   -1,897847950e-01    0,000000000e+00    0,000000000e+00    0,000000000e+00    0,000000000e+00
      842000000    2,349874526e-01    1,859127134e-01   -1,757938229e-02   -7,119078934e-02    0,000000000e+00    0,000000000e+00    0,000000000e+00    0,000000000e+00
      856000000    2,806425095e-01   -1,245800257e-01    4,497431964e-02   -1,257863455e-02    0,000000000e+00    0,000000000e+00    0,000000000e+00    0,000000000e+00
      870000000    7,521729171e-02   -3,764903545e-01    1,138830334e-01   -9,080511332e-02    0,000000000e+00    0,000000000e+00    0,000000000e+00    0,000000000e+00
      884000000   -2,954015732e-01   -3,627462089e-01    2,834598906e-02   -2,459307462e-01    0,000000000e+00    0,000000000e+00    0,000000000e+00    0,000000000e+00
      898000000   -4,709350467e-01    8,979018778e-03   -2,216912806e-01   -2,274828255e-01    0,000000000e+00    0,000000000e+00    0,000000000e+00    0,000000000e+00
      912000000   -2,268484831e-01    2,939069867e-01   -3,391960859e-01    6,399682909e-02    0,000000000e+00    0,000000000e+00    0,000000000e+00    0,000000000e+00
      926000000    6,783822179e-02    2,624645531e-01   -2,148931921e-01    2,645464242e-01    0,000000000e+00    0,000000000e+00    0,000000000e+00    0,000000000e+00
      940000000    2,162316144e-01    7,830740511e-02   -3,661684692e-02    3,305670619e-01    0,000000000e+00    0,000000000e+00    0,000000000e+00    0,000000000e+00
      954000000    2,247181684e-01   -1,284079254e-01    1,304116994e-01    3,073901534e-01    0,000000000e+00    0,000000000e+00    0,000000000e+00    0,000000000e+00
      968000000    1,146087348e-01   -3,027427495e-01    2,724008262e-01    2,176727206e-01    0,000000000e+00    0,000000000e+00    0,000000000e+00    0,000000000e+00
      982000000   -8,230375499e-02   -3,855923414e-01    3,662858903e-01    6,652653962e-02    0,000000000e+00    0,000000000e+00    0,000000000e+00    0,000000000e+00
      996000000   -3,152867556e-01   -3,303150833e-01    3,696955144e-01   -1,455840766e-01    0,000000000e+00    0,000000000e+00    0,000000000e+00    0,000000000e+00
     1010000000   -4,601633847e-01   -1,092051938e-01    2,226876169e-01   -3,412415683e-01    0,000000000e+00    0,000000000e+00    0,000000000e+00    0,000000000e+00
     1024000000   -4,157100618e-01    1,479406655e-01   -3,370079026e-02   -3,930266201e-01    0,000000000e+00    0,000000000e+00    0,000000000e+00    0,000000000e+00
     1038000000   -2,151632607e-01    2,903056741e-01   -2,461885214e-01   -2,605223656e-01    0,000000000e+00    0,000000000e+00    0,000000000e+00    0,000000000e+00
     1052000000   -5,212286487e-03    2,789256573e-01   -3,197121322e-01   -4,737877473e-02    0,000000000e+00    0,000000000e+00    0,000000000e+00    0,000000000e+00
     1066000000    1,342013478e-01    1,616780758e-01   -2,572509050e-01    1,429946274e-01    0,000000000e+00    0,000000000e+00    0,000000000e+00    0,000000000e+00
     1080000000    1,933240145e-01   -2,305705799e-03   -1,190296412e-01    2,640138268e-01    0,000000000e+00    0,000000000e+00    0,000000000e+00    0,000000000e+00
     1094000000    1,509352177e-01   -1,751273870e-01    6,633056700e-02    3,058677614e-01    0,000000000e+00    0,000000000e+00    0,000000000e+00    0,000000000e+00
     1108000000   -3,238341014e-04   -3,049010336e-01    2,754457891e-01    2,472424805e-01    0,000000000e+00    0,000000000e+00    0,000000000e+00    0,000000000e+00
     1122000000   -2,448253483e-01   -2,613818944e-01    4,721399844e-01    1,179582626e-02    0,000000000e+00    0,000000000e+00    0,000000000e+00    0,000000000e+00
     1136000000   -3,218095303e-01    3,776914626e-02    4,006970525e-01   -3,933427036e-01    0,000000000e+00    0,000000000e+00    0,000000000e+00    0,000000000e+00
     1150000000   -3,723618761e-02    1,486772150e-01    5,145998672e-03   -5,454165339e-01    0,000000000e+00    0,000000000e+00    0,000000000e+00    0,000000000e+00
     1164000000    1,202970222e-01   -6,416326016e-02   -2,779345214e-01   -3,794486523e-01    0,000000000e+00    0,000000000e+00    0,000000000e+00    0,000000000e+00
     1178000000    1,810521074e-02   -3,029077649e-01   -3,669002950e-01   -1,490629017e-01    0,000000000e+00    0,000000000e+00    0,000000000e+00    0,000000000e+00
     1192000000   -2,698628008e-01   -3,712663352e-01   -3,247724175e-01    6,125910208e-02    0,000000000e+00    0,000000000e+00    0,000000000e+00    0,000000000e+00
     1206000000   -5,239377022e-01   -1,614132226e-01   -1,640248746e-01    1,817829162e-01    0,000000000e+00    0,000000000e+00    0,000000000e+00    0,000000000e+00
     1220000000   -5,072416663e-01    1,766059548e-01    4,264051095e-04    1,593311876e-01    0,000000000e+00    0,000000000e+00    0,000000000e+00    0,000000000e+00
     1234000000   -2,817901671e-01    3,605950475e-01    7,143013924e-02    6,056647003e-02    0,000000000e+00    0,000000000e+00    0,000000000e+00    0,000000000e+00
     1248000000   -4,209133610e-02    3,632788956e-01    5,993882567e-02   -9,405160323e-03    0,000000000e+00    0,000000000e+00    0,000000000e+00    0,000000000e+00
     1262000000    1,265017688e-01    2,592029870e-01    1,802926511e-02   -2,041563764e-02    0,000000000e+00    0,000000000e+00    0,000000000e+00    0,000000000e+00
     1276000000    2,116678357e-01    1,016147062e-01   -1,742550754e-03    8,948099799e-03    0,000000000e+00    0,000000000e+00    0,000000000e+00    0,000000000e+00
     1290000000    2,247456163e-01   -7,729659975e-02    2,020349912e-02    4,977414757e-02    0,000000000e+00    0,000000000e+00    0,000000000e+00    0,000000000e+00
     1304000000    1,579623669e-01   -2,400407046e-01    1,319204718e-01    6,722284108e-02    0,000000000e+00    0,000000000e+00    0,000000000e+00    0,000000000e+00
     1318000000    3,304395080e-02   -3,425979316e-01    1,263287961e-01   -1,651608944e-01    0,000000000e+00    0,000000000e+00    0,000000000e+00    0,000000000e+00
     1332000000   -1,284024566e-01   -4,395439923e-01   -4,760348797e-02   -4,439426214e-02    0,000000000e+00    0,000000000e+00    0,000000000e+00    0,000000000e+00
     1346000000   -3,945057988e-01   -4,082922935e-01    2,905748785e-02    7,795270532e-02    0,000000000e+00    0,000000000e+00    0,000000000e+00    0,000000000e+00
     1360000000   -6,033180952e-01   -1,814619899e-01    1,419360191e-01    7,871004194e-02    0,000000000e+00    0,000000000e+00    0,000000000e+00    0,000000000e+00
     1374000000   -6,332553625e-01    1,259720922e-01    2,065699100e-01   -4,304053728e-03    0,000000000e+00    0,000000000e+00    0,000000000e+00    0,000000000e+00
     1388000000   -4,616906047e-01    3,669998944e-01    2,141574472e-01   -6,966947019e-02    0,000000000e+00    0,000000000e+00    0,000000000e+00    0,000000000e+00
     1402000000   -2,340862900e-01    4,494469166e-01    1,827689558e-01   -1,028248891e-01    0,000000000e+00    0,000000000e+00    0,000000000e+00    0,000000000e+00
     1416000000   -2,478094399e-02    4,055018425e-01    1,842450351e-01   -1,180703565e-01    0,000000000e+00    0,000000000e+00    0,000000000e+00    0,000000000e+00
     1430000000    1,142663434e-01    2,951256931e-01    1,452551186e-01   -1,045597196e-01    0,000000000e+00    0,000000000e+00    0,000000000e+00    0,000000000e+00
     1444000000    2,078199387e-01    1,476758569e-01    1,498266011e-01   -1,077837273e-01    0,000000000e+00    0,000000000e+00    0,000000000e+00    0,000000000e+00
     1458000000    2,368246019e-01   -1,803002693e-02    1,526838243e-01   -7,532346994e-02    0,000000000e+00    0,000000000e+00    0,000000000e+00    0,000000000e+00
     1472000000    1,903539449e-01   -1,997373849e-01    1,347524375e-01   -2,624752186e-02    0,000000000e+00    0,000000000e+00    0,000000000e+00    0,000000000e+00
     1486000000    6,094910577e-02   -3,754216731e-01    1,596467495e-01    2,575263567e-02    0,000000000e+00    0,000000000e+00    0,000000000e+00    0,000000000e+00
     1500000000   -1,767097116e-01   -4,901007116e-01    2,353361100e-01    1,042359173e-01    0,000000000e+00    0,000000000e+00    0,000000000e+00    0,000000000e+00
