! NanoVNA-App
! Date: 2025-09-25 15:34:02
! Start: 100MHz Stop: 1,5GHz Points: 101
! S-Parameter data: F S11 S21 S12 S22
# Hz S RI R 50
!     Frequency           S11_Real           S11_Imag           S21_Real           S21_Imag           S12_Real           S12_Imag           S22_Real           S22_Imag
      100000000   -2,886871621e-02   -4,179147538e-03    3,741829097e-01   -7,218545079e-01    0,000000000e+00    0,000000000e+00    0,000000000e+00    0,000000000e+00
      114000000   -1,652212441e-02    1,150692441e-02   -8,914073557e-02   -8,053977489e-01    0,000000000e+00    0,000000000e+00    0,000000000e+00    0,000000000e+00
      128000000    3,450376913e-03    1,049844734e-02   -5,145560503e-01   -6,203250289e-01    0,000000000e+00    0,000000000e+00    0,000000000e+00    0,000000000e+00
      142000000    1,455138996e-02   -2,949809423e-03   -7,672801614e-01   -2,366909981e-01    0,000000000e+00    0,000000000e+00    0,000000000e+00    0,000000000e+00
      156000000    1,595259272e-02   -1,442318596e-02   -7,698268890e-01    2,242034376e-01    0,000000000e+00    0,000000000e+00    0,000000000e+00    0,000000000e+00
      170000000    1,667812653e-02   -2,252491750e-02   -5,181835890e-01    6,048186421e-01    0,000000000e+00    0,000000000e+00    0,000000000e+00    0,000000000e+00
      184000000    2,101860009e-02   -3,714029118e-02   -1,012954339e-01    7,860922217e-01    0,000000000e+00    0,000000000e+00    0,000000000e+00    0,000000000e+00
      198000000    1,301502623e-02   -6,247975677e-02    3,431999385e-01    7,124236226e-01    0,000000000e+00    0,000000000e+00    0,000000000e+00    0,000000000e+00
      212000000   -1,868325844e-02   -8,132192492e-02    6,781197190e-01    4,101563990e-01    0,000000000e+00    0,000000000e+00    0,000000000e+00    0,000000000e+00
      226000000   -6,167205423e-02   -6,918494403e-02    7,958400249e-01   -3,057544306e-02    0,000000000e+00    0,000000000e+00    0,000000000e+00    0,000000000e+00
      240000000   -8,263814449e-02   -2,560764737e-02    6,460362077e-01   -4,668632448e-01    0,000000000e+00    0,000000000e+00    0,000000000e+00    0,000000000e+00
      254000000   -6,353148073e-02    1,724235713e-02    2,762626708e-01   -7,432034016e-01    0,000000000e+00    0,000000000e+00    0,000000000e+00    0,000000000e+00
      268000000   -2,385158651e-02    2,888575941e-02   -1,779755056e-01   -7,641952038e-01    0,000000000e+00    0,000000000e+00    0,000000000e+00    0,000000000e+00
      282000000    4,101577215e-03    1,199293975e-02   -5,621386170e-01   -5,355822444e-01    0,000000000e+00    0,000000000e+00    0,000000000e+00    0,000000000e+00
      296000000    9,768468328e-03   -7,768388372e-03   -7,600534558e-01   -1,396582276e-01    0,000000000e+00    0,000000000e+00    0,000000000e+00    0,000000000e+00
      310000000    1,112038177e-02   -1,606791094e-02   -7,119348049e-01    2,992554903e-01    0,000000000e+00    0,000000000e+00    0,000000000e+00    0,000000000e+00
      324000000    1,959083043e-02   -2,658826672e-02   -4,270866215e-01    6,387910247e-01    0,000000000e+00    0,000000000e+00    0,000000000e+00    0,000000000e+00
      338000000    2,543841489e-02   -5,227440223e-02   -6,064367015e-03    7,620852590e-01    0,000000000e+00    0,000000000e+00    0,000000000e+00    0,000000000e+00
      352000000    7,158092223e-03   -8,467262983e-02    4,059214890e-01    6,389306188e-01    0,000000000e+00    0,000000000e+00    0,000000000e+00    0,000000000e+00
      366000000   -3,477117419e-02   -9,525489062e-02    6,914322972e-01    3,116833270e-01    0,000000000e+00    0,000000000e+00    0,000000000e+00    0,000000000e+00
      380000000   -7,080528140e-02   -7,118528336e-02    7,472501993e-01   -1,254085749e-01    0,000000000e+00    0,000000000e+00    0,000000000e+00    0,000000000e+00
      394000000   -7,283313572e-02   -3,232433274e-02    5,474538207e-01   -5,209871531e-01    0,000000000e+00    0,000000000e+00    0,000000000e+00    0,000000000e+00
      408000000   -4,647369683e-02   -1,612101868e-02    1,608476788e-01   -7,321948409e-01    0,000000000e+00    0,000000000e+00    0,000000000e+00    0,000000000e+00
      422000000   -2,842871845e-02   -3,205916658e-02   -2,679523230e-01   -6,953012347e-01    0,000000000e+00    0,000000000e+00    0,000000000e+00    0,000000000e+00
      436000000   -4,048600420e-02   -5,207530782e-02   -6,041030288e-01   -4,315598011e-01    0,000000000e+00    0,000000000e+00    0,000000000e+00    0,000000000e+00
      450000000   -6,780759990e-02   -4,395566881e-02   -7,407804728e-01   -2,140684985e-02    0,000000000e+00    0,000000000e+00    0,000000000e+00    0,000000000e+00
      464000000   -7,337562740e-02   -1,168624591e-02   -6,185094714e-01    3,975772262e-01    0,000000000e+00    0,000000000e+00    0,000000000e+00    0,000000000e+00
      478000000   -4,786191881e-02    1,159693953e-02   -2,818084359e-01    6,685706377e-01    0,000000000e+00    0,000000000e+00    0,000000000e+00    0,000000000e+00
      492000000   -1,586468145e-02    6,381874438e-03    1,377046853e-01    7,016572356e-01    0,000000000e+00    0,000000000e+00    0,000000000e+00    0,000000000e+00
      506000000   -2,162420424e-03   -1,572601311e-02    4,984966815e-01    5,025429130e-01    0,000000000e+00    0,000000000e+00    0,000000000e+00    0,000000000e+00
      520000000   -5,187556148e-03   -3,153183684e-02    6,875634789e-01    1,406506002e-01    0,000000000e+00    0,000000000e+00    0,000000000e+00    0,000000000e+00
      534000000   -4,033432342e-03   -3,829031065e-02    6,435623169e-01   -2,629503310e-01    0,000000000e+00    0,000000000e+00    0,000000000e+00    0,000000000e+00
      548000000    5,990209524e-03   -5,440564454e-02    3,806053102e-01   -5,672516227e-01    0,000000000e+00    0,000000000e+00    0,000000000e+00    0,000000000e+00
      562000000    2,874142257e-03   -8,897831291e-02    2,691766946e-03   -6,722086072e-01    0,000000000e+00    0,000000000e+00    0,000000000e+00    0,000000000e+00
      576000000   -3,437609226e-02   -1,242470220e-01   -3,692692220e-01   -5,564938188e-01    0,000000000e+00    0,000000000e+00    0,000000000e+00    0,000000000e+00
      590000000   -9,639287740e-02   -1,227757633e-01   -6,211857796e-01   -2,654640377e-01    0,000000000e+00    0,000000000e+00    0,000000000e+00    0,000000000e+00
      604000000   -1,395649463e-01   -7,179584354e-02   -6,653735638e-01    1,383369565e-01    0,000000000e+00    0,000000000e+00    0,000000000e+00    0,000000000e+00
      618000000   -1,291232705e-01   -9,266807698e-03   -4,649762511e-01    4,946219921e-01    0,000000000e+00    0,000000000e+00    0,000000000e+00    0,000000000e+00
      632000000   -8,451732248e-02    1,644461602e-02   -9,967613965e-02    6,642092466e-01    0,000000000e+00    0,000000000e+00    0,000000000e+00    0,000000000e+00
      646000000   -5,078416318e-02    7,571084279e-05    2,873845994e-01    5,955523849e-01    0,000000000e+00    0,000000000e+00    0,000000000e+00    0,000000000e+00
      660000000   -5,279172584e-02   -2,190855891e-02    5,675932765e-01    3,223382533e-01    0,000000000e+00    0,000000000e+00    0,000000000e+00    0,000000000e+00
      674000000   -7,071344554e-02   -1,801620051e-02    6,433352828e-01   -6,580191851e-02    0,000000000e+00    0,000000000e+00    0,000000000e+00    0,000000000e+00
      688000000   -6,852491945e-02    9,415678680e-03    4,714486897e-01   -4,282242060e-01    0,000000000e+00    0,000000000e+00    0,000000000e+00    0,000000000e+00
      702000000   -3,661204502e-02    2,605777606e-02    1,178631932e-01   -6,105861068e-01    0,000000000e+00    0,000000000e+00    0,000000000e+00    0,000000000e+00
      716000000    2,653074916e-03    1,819760539e-02   -2,637399137e-01   -5,462941527e-01    0,000000000e+00    0,000000000e+00    0,000000000e+00    0,000000000e+00
      730000000    3,700886294e-02   -1,046289969e-02   -5,283578634e-01   -2,690058947e-01    0,000000000e+00    0,000000000e+00    0,000000000e+00    0,000000000e+00
      744000000    6,473715603e-02   -6,181908399e-02   -5,644390583e-01    1,062506586e-01    0,000000000e+00    0,000000000e+00    0,000000000e+00    0,000000000e+00
      758000000    6,616158783e-02   -1,519987434e-01   -3,633979261e-01    4,101187587e-01    0,000000000e+00    0,000000000e+00    0,000000000e+00    0,000000000e+00
      772000000   -1,232059486e-02   -2,622698545e-01   -3,555757925e-02    5,147469044e-01    0,000000000e+00    0,000000000e+00    0,000000000e+00    0,000000000e+00
      786000000   -2,069211900e-01   -3,038265407e-01    2,747740149e-01    3,960818946e-01    0,000000000e+00    0,000000000e+00    0,000000000e+00    0,000000000e+00
      800000000   -4,264949262e-01   -1,302192211e-01    4,177339673e-01    9,938091785e-02    0,000000000e+00    0,000000000e+00    0,000000000e+00    0,000000000e+00
      814000000   -3,897072077e-01    2,208930403e-01    2,823500335e-01   -1,730325371e-01    0,000000000e+00    0,000000000e+00    0,000000000e+00    0,000000000e+00
      828000000   -4,970972985e-02    3,680471778e-01    5,566718057e-02   -1,891397238e-01    0,000000000e+00    0,000000000e+00    0,000000000e+00    0,000000000e+00
      842000000    2,349365950e-01    1,855800599e-01   -1,742359623e-02   -7,092354447e-02    0,000000000e+00    0,000000000e+00    0,000000000e+00    0,000000000e+00
      856000000    2,804786265e-01   -1,245040447e-01    4,547072574e-02   -1,301745698e-02    0,000000000e+00    0,000000000e+00    0,000000000e+00    0,000000000e+00
      870000000    7,434061170e-02   -3,770489991e-01    1,142151505e-01   -9,174736589e-02    0,000000000e+00    0,000000000e+00    0,000000000e+00    0,000000000e+00
      884000000   -2,960986495e-01   -3,617594242e-01    2,761476114e-02   -2,461282760e-01    0,000000000e+00    0,000000000e+00    0,000000000e+00    0,000000000e+00
      898000000   -4,713862538e-01    9,002092294e-03   -2,217927724e-01   -2,275305539e-01    0,000000000e+00    0,000000000e+00    0,000000000e+00    0,000000000e+00
      912000000   -2,266202122e-01    2,951132059e-01   -3,489949405e-01    5,953435600e-02    0,000000000e+00    0,000000000e+00    0,000000000e+00    0,000000000e+00
      926000000    6,733980030e-02    2,630685866e-01   -2,171855420e-01    2,623763680e-01    0,000000000e+00    0,000000000e+00    0,000000000e+00    0,000000000e+00
      940000000    2,153165042e-01    8,105078340e-02   -3,772220761e-02    3,288831711e-01    0,000000000e+00    0,000000000e+00    0,000000000e+00    0,000000000e+00
      954000000    2,241611034e-01   -1,288277209e-01    1,317015886e-01    3,051837683e-01    0,000000000e+00    0,000000000e+00    0,000000000e+00    0,000000000e+00
      968000000    1,162059009e-01   -2,977060378e-01    2,708772421e-01    2,182382047e-01    0,000000000e+00    0,000000000e+00    0,000000000e+00    0,000000000e+00
      982000000   -8,417393267e-02   -3,857315481e-01    3,658939302e-01    6,411262602e-02    0,000000000e+00    0,000000000e+00    0,000000000e+00    0,000000000e+00
      996000000   -3,208689988e-01   -3,318038881e-01    3,677596450e-01   -1,464719921e-01    0,000000000e+00    0,000000000e+00    0,000000000e+00    0,000000000e+00
     1010000000   -4,615503848e-01   -1,071745232e-01    2,224355340e-01   -3,423356116e-01    0,000000000e+00    0,000000000e+00    0,000000000e+00    0,000000000e+00
     1024000000   -4,135774374e-01    1,454153806e-01   -3,333033994e-02   -3,940462768e-01    0,000000000e+00    0,000000000e+00    0,000000000e+00    0,000000000e+00
     1038000000   -2,154368013e-01    2,875409126e-01   -2,485178113e-01   -2,612273097e-01    0,000000000e+00    0,000000000e+00    0,000000000e+00    0,000000000e+00
     1052000000   -5,743659101e-03    2,791818678e-01   -3,181730807e-01   -4,751118645e-02    0,000000000e+00    0,000000000e+00    0,000000000e+00    0,000000000e+00
     1066000000    1,361654252e-01    1,611859947e-01   -2,560213208e-01    1,408754587e-01    0,000000000e+00    0,000000000e+00    0,000000000e+00    0,000000000e+00
     1080000000    1,964776069e-01   -1,944152056e-03   -1,190577596e-01    2,638720274e-01    0,000000000e+00    0,000000000e+00    0,000000000e+00    0,000000000e+00
     1094000000    1,511859149e-01   -1,752983332e-01    6,468767673e-02    3,034818470e-01    0,000000000e+00    0,000000000e+00    0,000000000e+00    0,000000000e+00
     1108000000    3,656348272e-04   -3,078595400e-01    2,763565481e-01    2,492804676e-01    0,000000000e+00    0,000000000e+00    0,000000000e+00    0,000000000e+00
     1122000000   -2,456437051e-01   -2,661207020e-01    4,696318209e-01    1,479183231e-02    0,000000000e+00    0,000000000e+00    0,000000000e+00    0,000000000e+00
     1136000000   -3,149735034e-01    3,425811976e-02    3,968485892e-01   -3,927789629e-01    0,000000000e+00    0,000000000e+00    0,000000000e+00    0,000000000e+00
     1150000000   -3,837260976e-02    1,484160274e-01    5,700193811e-03   -5,412111878e-01    0,000000000e+00    0,000000000e+00    0,000000000e+00    0,000000000e+00
     1164000000    1,209762469e-01   -6,188972667e-02   -2,781795561e-01   -3,765633404e-01    0,000000000e+00    0,000000000e+00    0,000000000e+00    0,000000000e+00
     1178000000    1,819834113e-02   -3,031243384e-01   -3,644715846e-01   -1,489841789e-01    0,000000000e+00    0,000000000e+00    0,000000000e+00    0,000000000e+00
     1192000000   -2,677602768e-01   -3,736622334e-01   -3,226175010e-01    5,993489549e-02    0,000000000e+00    0,000000000e+00    0,000000000e+00    0,000000000e+00
     1206000000   -5,255845785e-01   -1,571449339e-01   -1,655889452e-01    1,832754165e-01    0,000000000e+00    0,000000000e+00    0,000000000e+00    0,000000000e+00
     1220000000   -5,059702396e-01    1,788597405e-01    3,953368403e-03    1,582133770e-01    0,000000000e+00    0,000000000e+00    0,000000000e+00    0,000000000e+00
     1234000000   -2,858956158e-01    3,675739765e-01    6,952448934e-02    6,672244519e-02    0,000000000e+00    0,000000000e+00    0,000000000e+00    0,000000000e+00
     1248000000   -4,828594252e-02    3,686491847e-01    5,281351879e-02   -2,368808724e-03    0,000000000e+00    0,000000000e+00    0,000000000e+00    0,000000000e+00
     1262000000    1,211542264e-01    2,535040975e-01    1,574336924e-02   -2,310463972e-02    0,000000000e+00    0,000000000e+00    0,000000000e+00    0,000000000e+00
     1276000000    2,121234387e-01    9,851357341e-02    1,830465277e-03    3,353219246e-03    0,000000000e+00    0,000000000e+00    0,000000000e+00    0,000000000e+00
     1290000000    2,224298120e-01   -7,506876439e-02    1,620553434e-02    4,964764416e-02    0,000000000e+00    0,000000000e+00    0,000000000e+00    0,000000000e+00
     1304000000    1,540637314e-01   -2,428369522e-01    1,345603615e-01    6,740933657e-02    0,000000000e+00    0,000000000e+00    0,000000000e+00    0,000000000e+00
     1318000000    3,645631298e-02   -3,387709558e-01    1,314340085e-01   -1,637269408e-01    0,000000000e+00    0,000000000e+00    0,000000000e+00    0,000000000e+00
     1332000000   -1,300293803e-01   -4,380909503e-01   -4,615189135e-02   -5,228728801e-02    0,000000000e+00    0,000000000e+00    0,000000000e+00    0,000000000e+00
     1346000000   -3,958546221e-01   -4,104908407e-01    1,828060858e-02    6,057678908e-02    0,000000000e+00    0,000000000e+00    0,000000000e+00    0,000000000e+00
     1360000000   -6,093182564e-01   -1,870451272e-01    1,323865354e-01    7,996501029e-02    0,000000000e+00    0,000000000e+00    0,000000000e+00    0,000000000e+00
     1374000000   -6,320543885e-01    1,271304041e-01    2,107680142e-01    6,984519772e-03    0,000000000e+00    0,000000000e+00    0,000000000e+00    0,000000000e+00
     1388000000   -4,747920632e-01    3,659416139e-01    2,052294910e-01   -6,885432452e-02    0,000000000e+00    0,000000000e+00    0,000000000e+00    0,000000000e+00
     1402000000   -2,345384359e-01    4,525883496e-01    1,843604892e-01   -9,307160228e-02    0,000000000e+00    0,000000000e+00    0,000000000e+00    0,000000000e+00
     1416000000   -2,493317425e-02    4,104343057e-01    1,737943739e-01   -1,002187356e-01    0,000000000e+00    0,000000000e+00    0,000000000e+00    0,000000000e+00
     1430000000    1,233605221e-01    2,937262654e-01    1,598445177e-01   -1,058571786e-01    0,000000000e+00    0,000000000e+00    0,000000000e+00    0,000000000e+00
     1444000000    2,066626251e-01    1,529183686e-01    1,534798443e-01   -1,081113517e-01    0,000000000e+00    0,000000000e+00    0,000000000e+00    0,000000000e+00
     1458000000    2,352753282e-01   -2,099057473e-02    1,546977311e-01   -7,445713878e-02    0,000000000e+00    0,000000000e+00    0,000000000e+00    0,000000000e+00
     1472000000    1,875378788e-01   -2,077354193e-01    1,447004974e-01   -3,364857659e-02    0,000000000e+00    0,000000000e+00    0,000000000e+00    0,000000000e+00
     1486000000    6,412776560e-02   -3,709827363e-01    1,641615331e-01    4,080130532e-02    0,000000000e+00    0,000000000e+00    0,000000000e+00    0,000000000e+00
     1500000000   -1,618426591e-01   -4,930404127e-01    2,506622672e-01    9,706615657e-02    0,000000000e+00    0,000000000e+00    0,000000000e+00    0,000000000e+00
