! NanoVNA-App
! Date: 2025-09-25 15:31:16
! Start: 100MHz Stop: 1,5GHz Points: 101
! S-Parameter data: F S11 S21 S12 S22
# Hz S RI R 50
!     Frequency           S11_Real           S11_Imag           S21_Real           S21_Imag           S12_Real           S12_Imag           S22_Real           S22_Imag
      100000000   -2,887408063e-02   -4,165423568e-03    3,740964532e-01   -7,218000889e-01    0,000000000e+00    0,000000000e+00    0,000000000e+00    0,000000000e+00
      114000000   -1,652593166e-02    1,153708249e-02   -8,900401741e-02   -8,055431843e-01    0,000000000e+00    0,000000000e+00    0,000000000e+00    0,000000000e+00
      128000000    3,388285870e-03    1,054402255e-02   -5,144906640e-01   -6,204518080e-01    0,000000000e+00    0,000000000e+00    0,000000000e+00    0,000000000e+00
      142000000    1,452836394e-02   -2,933161100e-03   -7,672510743e-01   -2,365539670e-01    0,000000000e+00    0,000000000e+00    0,000000000e+00    0,000000000e+00
      156000000    1,595810056e-02   -1,432727370e-02   -7,698891163e-01    2,242482007e-01    0,000000000e+00    0,000000000e+00    0,000000000e+00    0,000000000e+00
      170000000    1,666106656e-02   -2,260666154e-02   -5,181007385e-01    6,047850847e-01    0,000000000e+00    0,000000000e+00    0,000000000e+00    0,000000000e+00
      184000000    2,098486014e-02   -3,706951439e-02   -1,014233008e-01    7,865489721e-01    0,000000000e+00    0,000000000e+00    0,000000000e+00    0,000000000e+00
      198000000    1,304383762e-02   -6,246324629e-02    3,434465528e-01    7,121751904e-01    0,000000000e+00    0,000000000e+00    0,000000000e+00    0,000000000e+00
      212000000   -1,865867153e-02   -8,130272478e-02    6,781144142e-01    4,099071920e-01    0,000000000e+00    0,000000000e+00    0,000000000e+00    0,000000000e+00
      226000000   -6,174093112e-02   -6,915555149e-02    7,958484292e-01   -3,061040305e-02    0,000000000e+00    0,000000000e+00    0,000000000e+00    0,000000000e+00
      240000000   -8,262708783e-02   -2,562219836e-02    6,460282207e-01   -4,670117795e-01    0,000000000e+00    0,000000000e+00    0,000000000e+00    0,000000000e+00
      254000000   -6,346103549e-02    1,724427193e-02    2,760960162e-01   -7,432243228e-01    0,000000000e+00    0,000000000e+00    0,000000000e+00    0,000000000e+00
      268000000   -2,381330729e-02    2,897703275e-02   -1,780144274e-01   -7,638808489e-01    0,000000000e+00    0,000000000e+00    0,000000000e+00    0,000000000e+00
      282000000    4,147898871e-03    1,195492782e-02   -5,618335009e-01   -5,355092287e-01    0,000000000e+00    0,000000000e+00    0,000000000e+00    0,000000000e+00
      296000000    9,649654850e-03   -7,882185280e-03   -7,596719861e-01   -1,395793408e-01    0,000000000e+00    0,000000000e+00    0,000000000e+00    0,000000000e+00
      310000000    1,118586119e-02   -1,610110328e-02   -7,130555511e-01    2,973692417e-01    0,000000000e+00    0,000000000e+00    0,000000000e+00    0,000000000e+00
      324000000    1,974027045e-02   -2,641042694e-02   -4,277010560e-01    6,387099624e-01    0,000000000e+00    0,000000000e+00    0,000000000e+00    0,000000000e+00
      338000000    2,559608594e-02   -5,211812258e-02   -8,706663735e-03    7,596578598e-01    0,000000000e+00    0,000000000e+00    0,000000000e+00    0,000000000e+00
      352000000    7,373155560e-03   -8,462502807e-02    4,064123333e-01    6,399676204e-01    0,000000000e+00    0,000000000e+00    0,000000000e+00    0,000000000e+00
      366000000   -3,460716829e-02   -9,557759762e-02    6,900123954e-01    3,108981550e-01    0,000000000e+00    0,000000000e+00    0,000000000e+00    0,000000000e+00
      380000000   -7,075530291e-02   -7,100437582e-02    7,482927442e-01   -1,256401688e-01    0,000000000e+00    0,000000000e+00    0,000000000e+00    0,000000000e+00
      394000000   -7,264690101e-02   -3,240030259e-02    5,463665724e-01   -5,228635669e-01    0,000000000e+00    0,000000000e+00    0,000000000e+00    0,000000000e+00
      408000000   -4,635115713e-02   -1,597950980e-02    1,621369570e-01   -7,314204574e-01    0,000000000e+00    0,000000000e+00    0,000000000e+00    0,000000000e+00
      422000000   -2,828896791e-02   -3,203750402e-02   -2,679659426e-01   -6,956260204e-01    0,000000000e+00    0,000000000e+00    0,000000000e+00    0,000000000e+00
      436000000   -4,077186063e-02   -5,154485628e-02   -6,042495370e-01   -4,316907823e-01    0,000000000e+00    0,000000000e+00    0,000000000e+00    0,000000000e+00
      450000000   -6,755656004e-02   -4,379880428e-02   -7,405538559e-01   -2,158063091e-02    0,000000000e+00    0,000000000e+00    0,000000000e+00    0,000000000e+00
      464000000   -7,333703339e-02   -1,167719997e-02   -6,182345748e-01    3,969804943e-01    0,000000000e+00    0,000000000e+00    0,000000000e+00    0,000000000e+00
      478000000   -4,788058996e-02    1,164156385e-02   -2,824181318e-01    6,679192185e-01    0,000000000e+00    0,000000000e+00    0,000000000e+00    0,000000000e+00
      492000000   -1,583888754e-02    6,450091489e-03    1,381178498e-01    7,014024258e-01    0,000000000e+00    0,000000000e+00    0,000000000e+00    0,000000000e+00
      506000000   -2,525084652e-03   -1,580642909e-02    4,990223050e-01    5,026406050e-01    0,000000000e+00    0,000000000e+00    0,000000000e+00    0,000000000e+00
      520000000   -5,200188141e-03   -3,183924407e-02    6,891637444e-01    1,416476518e-01    0,000000000e+00    0,000000000e+00    0,000000000e+00    0,000000000e+00
      534000000   -4,243350122e-03   -3,795472160e-02    6,432754993e-01   -2,626008987e-01    0,000000000e+00    0,000000000e+00    0,000000000e+00    0,000000000e+00
      548000000    6,361809559e-03   -5,377395824e-02    3,814657032e-01   -5,670332909e-01    0,000000000e+00    0,000000000e+00    0,000000000e+00    0,000000000e+00
      562000000    3,348522354e-03   -8,912967145e-02    2,724696184e-03   -6,714712381e-01    0,000000000e+00    0,000000000e+00    0,000000000e+00    0,000000000e+00
      576000000   -3,431889042e-02   -1,244560257e-01   -3,694251776e-01   -5,570463538e-01    0,000000000e+00    0,000000000e+00    0,000000000e+00    0,000000000e+00
      590000000   -9,652836621e-02   -1,227604821e-01   -6,225461364e-01   -2,641859651e-01    0,000000000e+00    0,000000000e+00    0,000000000e+00    0,000000000e+00
      604000000   -1,395958066e-01   -7,202479988e-02   -6,653357148e-01    1,379579157e-01    0,000000000e+00    0,000000000e+00    0,000000000e+00    0,000000000e+00
      618000000   -1,296812147e-01   -8,975660428e-03   -4,644550681e-01    4,942281842e-01    0,000000000e+00    0,000000000e+00    0,000000000e+00    0,000000000e+00
      632000000   -8,448015153e-02    1,675090194e-02   -9,903773665e-02    6,641392112e-01    0,000000000e+00    0,000000000e+00    0,000000000e+00    0,000000000e+00
      646000000   -5,142383277e-02    2,729894768e-04    2,871955931e-01    5,955668092e-01    0,000000000e+00    0,000000000e+00    0,000000000e+00    0,000000000e+00
      660000000   -5,346696451e-02   -2,230831981e-02    5,675559044e-01    3,223885000e-01    0,000000000e+00    0,000000000e+00    0,000000000e+00    0,000000000e+00
      674000000   -7,003829628e-02   -1,808977127e-02    6,431859732e-01   -6,561442465e-02    0,000000000e+00    0,000000000e+00    0,000000000e+00    0,000000000e+00
      688000000   -6,914778799e-02    8,742923848e-03    4,713232219e-01   -4,287922680e-01    0,000000000e+00    0,000000000e+00    0,000000000e+00    0,000000000e+00
      702000000   -3,816689923e-02    2,623644657e-02    1,172999591e-01   -6,150294542e-01    0,000000000e+00    0,000000000e+00    0,000000000e+00    0,000000000e+00
      716000000    1,934535219e-03    1,835442334e-02   -2,644246221e-01   -5,459970832e-01    0,000000000e+00    0,000000000e+00    0,000000000e+00    0,000000000e+00
      730000000    3,633499146e-02   -1,098727528e-02   -5,282846689e-01   -2,695333660e-01    0,000000000e+00    0,000000000e+00    0,000000000e+00    0,000000000e+00
      744000000    6,459227949e-02   -6,296328455e-02   -5,641431212e-01    1,068141013e-01    0,000000000e+00    0,000000000e+00    0,000000000e+00    0,000000000e+00
      758000000    6,642179936e-02   -1,518423706e-01   -3,639361560e-01    4,104727507e-01    0,000000000e+00    0,000000000e+00    0,000000000e+00    0,000000000e+00
      772000000   -1,379063632e-02   -2,628529668e-01   -3,453863412e-02    5,147788525e-01    0,000000000e+00    0,000000000e+00    0,000000000e+00    0,000000000e+00
      786000000   -2,073753178e-01   -3,031110466e-01    2,753789723e-01    3,948881924e-01    0,000000000e+00    0,000000000e+00    0,000000000e+00    0,000000000e+00
      800000000   -4,259359241e-01   -1,294826716e-01    4,172772467e-01    9,888423234e-02    0,000000000e+00    0,000000000e+00    0,000000000e+00    0,000000000e+00
      814000000   -3,891080916e-01    2,213060856e-01    2,823640406e-01   -1,733794361e-01    0,000000000e+00    0,000000000e+00    0,000000000e+00    0,000000000e+00
      828000000   -4,880357161e-02    3,684570789e-01    5,550420657e-02   -1,888873130e-01    0,000000000e+00    0,000000000e+00    0,000000000e+00    0,000000000e+00
      842000000    2,349169105e-01    1,860527098e-01   -1,716640592e-02   -7,014581561e-02    0,000000000e+00    0,000000000e+00    0,000000000e+00    0,000000000e+00
      856000000    2,804884911e-01   -1,246950105e-01    4,561947659e-02   -1,312327478e-02    0,000000000e+00    0,000000000e+00    0,000000000e+00    0,000000000e+00
      870000000    7,483062893e-02   -3,764809072e-01    1,134460419e-01   -9,133253247e-02    0,000000000e+00    0,000000000e+00    0,000000000e+00    0,000000000e+00
      884000000   -2,956521511e-01   -3,614165187e-01    2,801210247e-02   -2,449255884e-01    0,000000000e+00    0,000000000e+00    0,000000000e+00    0,000000000e+00
      898000000   -4,712332189e-01    8,590005338e-03   -2,216050774e-01   -2,279879302e-01    0,000000000e+00    0,000000000e+00    0,000000000e+00    0,000000000e+00
      912000000   -2,253511846e-01    2,939454019e-01   -3,534561694e-01    6,324243546e-02    0,000000000e+00    0,000000000e+00    0,000000000e+00    0,000000000e+00
      926000000    6,680115312e-02    2,659143209e-01   -2,167338282e-01    2,657204270e-01    0,000000000e+00    0,000000000e+00    0,000000000e+00    0,000000000e+00
      940000000    2,145817578e-01    8,097431064e-02   -3,615155071e-02    3,295840919e-01    0,000000000e+00    0,000000000e+00    0,000000000e+00    0,000000000e+00
      954000000    2,236696631e-01   -1,264275461e-01    1,325720251e-01    3,073627949e-01    0,000000000e+00    0,000000000e+00    0,000000000e+00    0,000000000e+00
      968000000    1,166956574e-01   -2,990722954e-01    2,702718973e-01    2,185845673e-01    0,000000000e+00    0,000000000e+00    0,000000000e+00    0,000000000e+00
      982000000   -8,129224181e-02   -3,886818886e-01    3,655951023e-01    6,401778013e-02    0,000000000e+00    0,000000000e+00    0,000000000e+00    0,000000000e+00
      996000000   -3,139470816e-01   -3,283355236e-01    3,673633039e-01   -1,460204422e-01    0,000000000e+00    0,000000000e+00    0,000000000e+00    0,000000000e+00
     1010000000   -4,606837928e-01   -1,079993173e-01    2,217802852e-01   -3,423258364e-01    0,000000000e+00    0,000000000e+00    0,000000000e+00    0,000000000e+00
     1024000000   -4,140295684e-01    1,463961154e-01   -3,475454450e-02   -3,913243711e-01    0,000000000e+00    0,000000000e+00    0,000000000e+00    0,000000000e+00
     1038000000   -2,155385762e-01    2,884924412e-01   -2,474519461e-01   -2,571426928e-01    0,000000000e+00    0,000000000e+00    0,000000000e+00    0,000000000e+00
     1052000000   -5,545712076e-03    2,785177529e-01   -3,187924325e-01   -4,678634182e-02    0,000000000e+00    0,000000000e+00    0,000000000e+00    0,000000000e+00
     1066000000    1,379772127e-01    1,645731181e-01   -2,583183050e-01    1,428467482e-01    0,000000000e+00    0,000000000e+00    0,000000000e+00    0,000000000e+00
     1080000000    1,949677616e-01   -3,769420553e-03   -1,197639033e-01    2,645184100e-01    0,000000000e+00    0,000000000e+00    0,000000000e+00    0,000000000e+00
     1094000000    1,519418508e-01   -1,726483405e-01    6,451584399e-02    3,054690957e-01    0,000000000e+00    0,000000000e+00    0,000000000e+00    0,000000000e+00
     1108000000   -2,673928393e-03   -3,037946820e-01    2,774051428e-01    2,451846153e-01    0,000000000e+00    0,000000000e+00    0,000000000e+00    0,000000000e+00
     1122000000   -2,503546476e-01   -2,682000697e-01    4,710062146e-01    1,213334687e-02    0,000000000e+00    0,000000000e+00    0,000000000e+00    0,000000000e+00
     1136000000   -3,169754744e-01    2,740109153e-02    3,976025283e-01   -3,914538324e-01    0,000000000e+00    0,000000000e+00    0,000000000e+00    0,000000000e+00
     1150000000   -4,213807359e-02    1,547610015e-01    5,510462914e-03   -5,433099270e-01    0,000000000e+00    0,000000000e+00    0,000000000e+00    0,000000000e+00
     1164000000    1,263842434e-01   -6,207556650e-02   -2,758214474e-01   -3,796357810e-01    0,000000000e+00    0,000000000e+00    0,000000000e+00    0,000000000e+00
     1178000000    1,753138937e-02   -3,065913022e-01   -3,687478006e-01   -1,517724246e-01    0,000000000e+00    0,000000000e+00    0,000000000e+00    0,000000000e+00
     1192000000   -2,665187716e-01   -3,736860454e-01   -3,205102682e-01    5,611886829e-02    0,000000000e+00    0,000000000e+00    0,000000000e+00    0,000000000e+00
     1206000000   -5,157707334e-01   -1,582957059e-01   -1,670669764e-01    1,849772185e-01    0,000000000e+00    0,000000000e+00    0,000000000e+00    0,000000000e+00
     1220000000   -5,093101263e-01    1,767064780e-01    9,758080705e-04    1,675987095e-01    0,000000000e+00    0,000000000e+00    0,000000000e+00    0,000000000e+00
     1234000000   -2,861883342e-01    3,676886261e-01    6,729341298e-02    6,284721196e-02    0,000000000e+00    0,000000000e+00    0,000000000e+00    0,000000000e+00
     1248000000   -3,998354822e-02    3,684391081e-01    5,729437992e-02   -5,603792146e-03    0,000000000e+00    0,000000000e+00    0,000000000e+00    0,000000000e+00
     1262000000    1,201758906e-01    2,527098656e-01    1,766897179e-02   -1,967150532e-02    0,000000000e+00    0,000000000e+00    0,000000000e+00    0,000000000e+00
     1276000000    2,111059427e-01    9,708596766e-02    1,475083525e-03    1,925389864e-03    0,000000000e+00    0,000000000e+00    0,000000000e+00    0,000000000e+00
     1290000000    2,223585546e-01   -7,253904641e-02    1,557733212e-02    5,469094217e-02    0,000000000e+00    0,000000000e+00    0,000000000e+00    0,000000000e+00
     1304000000    1,559448838e-01   -2,399384230e-01    1,333574504e-01    7,191711664e-02    0,000000000e+00    0,000000000e+00    0,000000000e+00    0,000000000e+00
     1318000000    3,630325943e-02   -3,361892998e-01    1,316753328e-01   -1,676807553e-01    0,000000000e+00    0,000000000e+00    0,000000000e+00    0,000000000e+00
     1332000000   -1,270006299e-01   -4,362746179e-01   -4,422710091e-02   -4,515394196e-02    0,000000000e+00    0,000000000e+00    0,000000000e+00    0,000000000e+00
     1346000000   -3,969567418e-01   -4,102455676e-01    1,640547253e-02    6,357346475e-02    0,000000000e+00    0,000000000e+00    0,000000000e+00    0,000000000e+00
     1360000000   -6,100288033e-01   -1,808425635e-01    1,334323734e-01    6,872845441e-02    0,000000000e+00    0,000000000e+00    0,000000000e+00    0,000000000e+00
     1374000000   -6,341710091e-01    1,297622323e-01    2,009017915e-01    9,983920492e-03    0,000000000e+00    0,000000000e+00    0,000000000e+00    0,000000000e+00
     1388000000   -4,698691070e-01    3,695326447e-01    2,001739889e-01   -6,182646751e-02    0,000000000e+00    0,000000000e+00    0,000000000e+00    0,000000000e+00
     1402000000   -2,351769656e-01    4,520263672e-01    1,873519570e-01   -9,982617944e-02    0,000000000e+00    0,000000000e+00    0,000000000e+00    0,000000000e+00
     1416000000   -2,498553880e-02    4,145726562e-01    1,803963035e-01   -1,106892526e-01    0,000000000e+00    0,000000000e+00    0,000000000e+00    0,000000000e+00
     1430000000    1,128440797e-01    2,996509075e-01    1,706965566e-01   -9,128370881e-02    0,000000000e+00    0,000000000e+00    0,000000000e+00    0,000000000e+00
     1444000000    2,083059549e-01    1,525623947e-01    1,560490429e-01   -9,013231099e-02    0,000000000e+00    0,000000000e+00    0,000000000e+00    0,000000000e+00
     1458000000    2,364006341e-01   -2,395486459e-02    1,483762413e-01   -8,271755278e-02    0,000000000e+00    0,000000000e+00    0,000000000e+00    0,000000000e+00
     1472000000    1,917516887e-01   -2,066681534e-01    1,398236454e-01   -3,278203309e-02    0,000000000e+00    0,000000000e+00    0,000000000e+00    0,000000000e+00
     1486000000    6,011483073e-02   -3,740854561e-01    1,666704118e-01    2,632448822e-02    0,000000000e+00    0,000000000e+00    0,000000000e+00    0,000000000e+00
     1500000000   -1,780572385e-01   -4,962833822e-01    2,297606170e-01    9,290316701e-02    0,000000000e+00    0,000000000e+00    0,000000000e+00    0,000000000e+00
