! NanoVNA-App
! Date: 2025-09-25 15:34:21
! Start: 100MHz Stop: 1,5GHz Points: 101
! S-Parameter data: F S11 S21 S12 S22
# Hz S RI R 50
!     Frequency           S11_Real           S11_Imag           S21_Real           S21_Imag           S12_Real           S12_Imag           S22_Real           S22_Imag
      100000000   -2,886296995e-02   -4,157522693e-03    3,741373420e-01   -7,217667699e-01    0,000000000e+00    0,000000000e+00    0,000000000e+00    0,000000000e+00
      114000000   -1,650330983e-02    1,151084434e-02   -8,910710365e-02   -8,054976463e-01    0,000000000e+00    0,000000000e+00    0,000000000e+00    0,000000000e+00
      128000000    3,476490965e-03    1,057811920e-02   -5,145309567e-01   -6,204755902e-01    0,000000000e+00    0,000000000e+00    0,000000000e+00    0,000000000e+00
      142000000    1,455226541e-02   -2,951676259e-03   -7,672219872e-01   -2,366935313e-01    0,000000000e+00    0,000000000e+00    0,000000000e+00    0,000000000e+00
      156000000    1,606291346e-02   -1,430599205e-02   -7,703864574e-01    2,242237329e-01    0,000000000e+00    0,000000000e+00    0,000000000e+00    0,000000000e+00
      170000000    1,670420915e-02   -2,252956480e-02   -5,181599855e-01    6,046780944e-01    0,000000000e+00    0,000000000e+00    0,000000000e+00    0,000000000e+00
      184000000    2,101439424e-02   -3,701502830e-02   -1,013246924e-01    7,859637737e-01    0,000000000e+00    0,000000000e+00    0,000000000e+00    0,000000000e+00
      198000000    1,302086655e-02   -6,247825176e-02    3,434298933e-01    7,126663923e-01    0,000000000e+00    0,000000000e+00    0,000000000e+00    0,000000000e+00
      212000000   -1,864013821e-02   -8,135783672e-02    6,780789495e-01    4,099536836e-01    0,000000000e+00    0,000000000e+00    0,000000000e+00    0,000000000e+00
      226000000   -6,173959002e-02   -6,920617074e-02    7,958666682e-01   -3,054681979e-02    0,000000000e+00    0,000000000e+00    0,000000000e+00    0,000000000e+00
      240000000   -8,256103098e-02   -2,556948550e-02    6,459985971e-01   -4,670174420e-01    0,000000000e+00    0,000000000e+00    0,000000000e+00    0,000000000e+00
      254000000   -6,353657693e-02    1,726678386e-02    2,760052085e-01   -7,433510423e-01    0,000000000e+00    0,000000000e+00    0,000000000e+00    0,000000000e+00
      268000000   -2,390296757e-02    2,889491804e-02   -1,781855077e-01   -7,641818523e-01    0,000000000e+00    0,000000000e+00    0,000000000e+00    0,000000000e+00
      282000000    4,125921987e-03    1,189879607e-02   -5,619195700e-01   -5,358070731e-01    0,000000000e+00    0,000000000e+00    0,000000000e+00    0,000000000e+00
      296000000    9,624446742e-03   -7,803499233e-03   -7,598209381e-01   -1,397339404e-01    0,000000000e+00    0,000000000e+00    0,000000000e+00    0,000000000e+00
      310000000    1,115328725e-02   -1,643721014e-02   -7,127414942e-01    2,971785367e-01    0,000000000e+00    0,000000000e+00    0,000000000e+00    0,000000000e+00
      324000000    1,991355047e-02   -2,665084600e-02   -4,273663759e-01    6,384787560e-01    0,000000000e+00    0,000000000e+00    0,000000000e+00    0,000000000e+00
      338000000    2,539124526e-02   -5,206136778e-02   -6,427058950e-03    7,615650892e-01    0,000000000e+00    0,000000000e+00    0,000000000e+00    0,000000000e+00
      352000000    7,168312091e-03   -8,465601504e-02    4,054822922e-01    6,395522952e-01    0,000000000e+00    0,000000000e+00    0,000000000e+00    0,000000000e+00
      366000000   -3,468707949e-02   -9,555880725e-02    6,908414960e-01    3,113864958e-01    0,000000000e+00    0,000000000e+00    0,000000000e+00    0,000000000e+00
      380000000   -7,078859955e-02   -7,132915407e-02    7,470582724e-01   -1,261578649e-01    0,000000000e+00    0,000000000e+00    0,000000000e+00    0,000000000e+00
      394000000   -7,251852751e-02   -3,235675022e-02    5,461837053e-01   -5,230751038e-01    0,000000000e+00    0,000000000e+00    0,000000000e+00    0,000000000e+00
      408000000   -4,638457671e-02   -1,623076014e-02    1,612697095e-01   -7,330245972e-01    0,000000000e+00    0,000000000e+00    0,000000000e+00    0,000000000e+00
      422000000   -2,822526544e-02   -3,204528242e-02   -2,674928904e-01   -6,948732138e-01    0,000000000e+00    0,000000000e+00    0,000000000e+00    0,000000000e+00
      436000000   -4,080333188e-02   -5,200354010e-02   -6,042774320e-01   -4,319947064e-01    0,000000000e+00    0,000000000e+00    0,000000000e+00    0,000000000e+00
      450000000   -6,734847277e-02   -4,389140382e-02   -7,404421568e-01   -2,148391306e-02    0,000000000e+00    0,000000000e+00    0,000000000e+00    0,000000000e+00
      464000000   -7,369925827e-02   -1,134517696e-02   -6,185179949e-01    3,980389237e-01    0,000000000e+00    0,000000000e+00    0,000000000e+00    0,000000000e+00
      478000000   -4,738725722e-02    1,184314396e-02   -2,825625241e-01    6,675456762e-01    0,000000000e+00    0,000000000e+00    0,000000000e+00    0,000000000e+00
      492000000   -1,567779668e-02    6,250679027e-03    1,376949698e-01    7,020553946e-01    0,000000000e+00    0,000000000e+00    0,000000000e+00    0,000000000e+00
      506000000   -2,470377134e-03   -1,609094627e-02    4,980663359e-01    5,024728775e-01    0,000000000e+00    0,000000000e+00    0,000000000e+00    0,000000000e+00
      520000000   -5,191050004e-03   -3,139355406e-02    6,862205267e-01    1,418535560e-01    0,000000000e+00    0,000000000e+00    0,000000000e+00    0,000000000e+00
      534000000   -4,094879143e-03   -3,820317239e-02    6,436645985e-01   -2,629254758e-01    0,000000000e+00    0,000000000e+00    0,000000000e+00    0,000000000e+00
      548000000    5,935250781e-03   -5,340932310e-02    3,807989359e-01   -5,672696233e-01    0,000000000e+00    0,000000000e+00    0,000000000e+00    0,000000000e+00
      562000000    2,784400014e-03   -8,932607621e-02    2,256630687e-03   -6,723269820e-01    0,000000000e+00    0,000000000e+00    0,000000000e+00    0,000000000e+00
      576000000   -3,386290371e-02   -1,242783740e-01   -3,688154221e-01   -5,575761795e-01    0,000000000e+00    0,000000000e+00    0,000000000e+00    0,000000000e+00
      590000000   -9,641379863e-02   -1,226411387e-01   -6,225541234e-01   -2,636872530e-01    0,000000000e+00    0,000000000e+00    0,000000000e+00    0,000000000e+00
      604000000   -1,395058632e-01   -7,209511846e-02   -6,655247211e-01    1,376966387e-01    0,000000000e+00    0,000000000e+00    0,000000000e+00    0,000000000e+00
      618000000   -1,295122355e-01   -9,416211396e-03   -4,643425047e-01    4,948010445e-01    0,000000000e+00    0,000000000e+00    0,000000000e+00    0,000000000e+00
      632000000   -8,459341526e-02    1,709640771e-02   -9,919793159e-02    6,639105082e-01    0,000000000e+00    0,000000000e+00    0,000000000e+00    0,000000000e+00
      646000000   -5,158471316e-02    6,582182250e-04    2,872965634e-01    5,952815413e-01    0,000000000e+00    0,000000000e+00    0,000000000e+00    0,000000000e+00
      660000000   -5,365991965e-02   -2,186509781e-02    5,674192309e-01    3,239192665e-01    0,000000000e+00    0,000000000e+00    0,000000000e+00    0,000000000e+00
      674000000   -7,010465860e-02   -1,823940314e-02    6,429149508e-01   -6,557779759e-02    0,000000000e+00    0,000000000e+00    0,000000000e+00    0,000000000e+00
      688000000   -6,780236959e-02    8,595995605e-03    4,708937705e-01   -4,278816283e-01    0,000000000e+00    0,000000000e+00    0,000000000e+00    0,000000000e+00
      702000000   -3,758846223e-02    2,626965754e-02    1,167246550e-01   -6,084561348e-01    0,000000000e+00    0,000000000e+00    0,000000000e+00    0,000000000e+00
      716000000    2,498830669e-03    1,732154749e-02   -2,655258775e-01   -5,468607545e-01    0,000000000e+00    0,000000000e+00    0,000000000e+00    0,000000000e+00
      730000000    3,620500490e-02   -1,116167102e-02   -5,286807418e-01   -2,689956129e-01    0,000000000e+00    0,000000000e+00    0,000000000e+00    0,000000000e+00
      744000000    6,480973214e-02   -6,181721017e-02   -5,643230081e-01    1,064430773e-01    0,000000000e+00    0,000000000e+00    0,000000000e+00    0,000000000e+00
      758000000    6,613340229e-02   -1,518854350e-01   -3,631021678e-01    4,100294411e-01    0,000000000e+00    0,000000000e+00    0,000000000e+00    0,000000000e+00
      772000000   -1,267039217e-02   -2,623687088e-01   -3,493238613e-02    5,160148740e-01    0,000000000e+00    0,000000000e+00    0,000000000e+00    0,000000000e+00
      786000000   -2,067789882e-01   -3,024449050e-01    2,750318944e-01    3,953879178e-01    0,000000000e+00    0,000000000e+00    0,000000000e+00    0,000000000e+00
      800000000   -4,250257015e-01   -1,298046112e-01    4,170818925e-01    9,892490506e-02    0,000000000e+00    0,000000000e+00    0,000000000e+00    0,000000000e+00
      814000000   -3,897513151e-01    2,222511023e-01    2,820377946e-01   -1,732487082e-01    0,000000000e+00    0,000000000e+00    0,000000000e+00    0,000000000e+00
      828000000   -4,876934364e-02    3,683915436e-01    5,546001345e-02   -1,892856210e-01    0,000000000e+00    0,000000000e+00    0,000000000e+00    0,000000000e+00
      842000000    2,347919643e-01    1,858403981e-01   -1,686242782e-02   -7,059118897e-02    0,000000000e+00    0,000000000e+00    0,000000000e+00    0,000000000e+00
      856000000    2,805581987e-01   -1,241711751e-01    4,534576088e-02   -1,266590040e-02    0,000000000e+00    0,000000000e+00    0,000000000e+00    0,000000000e+00
      870000000    7,560325414e-02   -3,767837882e-01    1,137094423e-01   -9,084013104e-02    0,000000000e+00    0,000000000e+00    0,000000000e+00    0,000000000e+00
      884000000   -2,959055007e-01   -3,619377613e-01    2,774295583e-02   -2,462694347e-01    0,000000000e+00    0,000000000e+00    0,000000000e+00    0,000000000e+00
      898000000   -4,720652401e-01    8,177528158e-03   -2,221570760e-01   -2,273578644e-01    0,000000000e+00    0,000000000e+00    0,000000000e+00    0,000000000e+00
      912000000   -2,237749696e-01    2,947004139e-01   -3,497488201e-01    6,117287278e-02    0,000000000e+00    0,000000000e+00    0,000000000e+00    0,000000000e+00
      926000000    6,575952470e-02    2,652907372e-01   -2,194926888e-01    2,645510733e-01    0,000000000e+00    0,000000000e+00    0,000000000e+00    0,000000000e+00
      940000000    2,177750915e-01    8,024854213e-02   -3,598033264e-02    3,283603787e-01    0,000000000e+00    0,000000000e+00    0,000000000e+00    0,000000000e+00
      954000000    2,241491526e-01   -1,251288801e-01    1,322578490e-01    3,064643443e-01    0,000000000e+00    0,000000000e+00    0,000000000e+00    0,000000000e+00
      968000000    1,159820929e-01   -3,018873632e-01    2,705404162e-01    2,173153758e-01    0,000000000e+00    0,000000000e+00    0,000000000e+00    0,000000000e+00
      982000000   -8,403448761e-02   -3,865429163e-01    3,661976755e-01    6,537287682e-02    0,000000000e+00    0,000000000e+00    0,000000000e+00    0,000000000e+00
      996000000   -3,158388138e-01   -3,264645338e-01    3,680446744e-01   -1,445654929e-01    0,000000000e+00    0,000000000e+00    0,000000000e+00    0,000000000e+00
     1010000000   -4,597108960e-01   -1,116641685e-01    2,229091376e-01   -3,414032757e-01    0,000000000e+00    0,000000000e+00    0,000000000e+00    0,000000000e+00
     1024000000   -4,129684567e-01    1,529906541e-01   -3,511456773e-02   -3,941461742e-01    0,000000000e+00    0,000000000e+00    0,000000000e+00    0,000000000e+00
     1038000000   -2,155242115e-01    2,886999547e-01   -2,482561618e-01   -2,592053115e-01    0,000000000e+00    0,000000000e+00    0,000000000e+00    0,000000000e+00
     1052000000   -5,803192500e-03    2,801071405e-01   -3,202791512e-01   -4,706541821e-02    0,000000000e+00    0,000000000e+00    0,000000000e+00    0,000000000e+00
     1066000000    1,361294091e-01    1,606499106e-01   -2,609852850e-01    1,461971849e-01    0,000000000e+00    0,000000000e+00    0,000000000e+00    0,000000000e+00
     1080000000    1,957571208e-01   -1,783476560e-03   -1,200024039e-01    2,639317214e-01    0,000000000e+00    0,000000000e+00    0,000000000e+00    0,000000000e+00
     1094000000    1,567534953e-01   -1,733257025e-01    6,276902556e-02    3,057183325e-01    0,000000000e+00    0,000000000e+00    0,000000000e+00    0,000000000e+00
     1108000000   -8,826416451e-04   -3,031118810e-01    2,765891552e-01    2,460237294e-01    0,000000000e+00    0,000000000e+00    0,000000000e+00    0,000000000e+00
     1122000000   -2,503870726e-01   -2,633210123e-01    4,721793234e-01    1,072958764e-02    0,000000000e+00    0,000000000e+00    0,000000000e+00    0,000000000e+00
     1136000000   -3,157506585e-01    2,758447081e-02    3,983713686e-01   -3,917720914e-01    0,000000000e+00    0,000000000e+00    0,000000000e+00    0,000000000e+00
     1150000000   -3,769882023e-02    1,546427906e-01    3,892350243e-03   -5,413854718e-01    0,000000000e+00    0,000000000e+00    0,000000000e+00    0,000000000e+00
     1164000000    1,258500218e-01   -6,427040696e-02   -2,764658630e-01   -3,794173598e-01    0,000000000e+00    0,000000000e+00    0,000000000e+00    0,000000000e+00
     1178000000    1,685432345e-02   -3,036443293e-01   -3,677422702e-01   -1,494386643e-01    0,000000000e+00    0,000000000e+00    0,000000000e+00    0,000000000e+00
     1192000000   -2,695899904e-01   -3,690953851e-01   -3,254045546e-01    6,115208939e-02    0,000000000e+00    0,000000000e+00    0,000000000e+00    0,000000000e+00
     1206000000   -5,199419260e-01   -1,612966210e-01   -1,625407636e-01    1,834943146e-01    0,000000000e+00    0,000000000e+00    0,000000000e+00    0,000000000e+00
     1220000000   -5,079455972e-01    1,764773875e-01    2,029274357e-03    1,601236016e-01    0,000000000e+00    0,000000000e+00    0,000000000e+00    0,000000000e+00
     1234000000   -2,821188569e-01    3,642365038e-01    7,321313024e-02    6,418232620e-02    0,000000000e+00    0,000000000e+00    0,000000000e+00    0,000000000e+00
     1248000000   -4,675645381e-02    3,672311306e-01    5,515670404e-02   -2,881536027e-03    0,000000000e+00    0,000000000e+00    0,000000000e+00    0,000000000e+00
     1262000000    1,259703040e-01    2,536366582e-01    1,987312548e-02   -2,517716773e-02    0,000000000e+00    0,000000000e+00    0,000000000e+00    0,000000000e+00
     1276000000    2,124084085e-01    9,868211299e-02   -2,610681579e-03    5,840014666e-03    0,000000000e+00    0,000000000e+00    0,000000000e+00    0,000000000e+00
     1290000000    2,239788920e-01   -7,025830448e-02    1,687624305e-02    5,659664050e-02    0,000000000e+00    0,000000000e+00    0,000000000e+00    0,000000000e+00
     1304000000    1,574914157e-01   -2,449820936e-01    1,363835335e-01    6,546470523e-02    0,000000000e+00    0,000000000e+00    0,000000000e+00    0,000000000e+00
     1318000000    3,639735281e-02   -3,377828002e-01    1,266898066e-01   -1,609817296e-01    0,000000000e+00    0,000000000e+00    0,000000000e+00    0,000000000e+00
     1332000000   -1,296180636e-01   -4,412507415e-01   -4,543578252e-02   -4,782894999e-02    0,000000000e+00    0,000000000e+00    0,000000000e+00    0,000000000e+00
     1346000000   -3,989259601e-01   -4,106278419e-01    1,308245678e-02    7,548299432e-02    0,000000000e+00    0,000000000e+00    0,000000000e+00    0,000000000e+00
     1360000000   -6,025576591e-01   -1,816949397e-01    1,323717386e-01    7,894241810e-02    0,000000000e+00    0,000000000e+00    0,000000000e+00    0,000000000e+00
     1374000000   -6,347958446e-01    1,384488195e-01    1,933206171e-01    1,159488503e-02    0,000000000e+00    0,000000000e+00    0,000000000e+00    0,000000000e+00
     1388000000   -4,730314612e-01    3,710638285e-01    2,035918683e-01   -6,237604097e-02    0,000000000e+00    0,000000000e+00    0,000000000e+00    0,000000000e+00
     1402000000   -2,373751402e-01    4,520910382e-01    1,799768060e-01   -9,762711823e-02    0,000000000e+00    0,000000000e+00    0,000000000e+00    0,000000000e+00
     1416000000   -2,725985833e-02    4,086357951e-01    1,675385982e-01   -1,042886227e-01    0,000000000e+00    0,000000000e+00    0,000000000e+00    0,000000000e+00
     1430000000    1,282237172e-01    3,067080677e-01    1,714827418e-01   -1,132685989e-01    0,000000000e+00    0,000000000e+00    0,000000000e+00    0,000000000e+00
     1444000000    2,074403763e-01    1,492600590e-01    1,596262157e-01   -9,399597347e-02    0,000000000e+00    0,000000000e+00    0,000000000e+00    0,000000000e+00
     1458000000    2,351162136e-01   -2,021878399e-02    1,395505965e-01   -8,754603565e-02    0,000000000e+00    0,000000000e+00    0,000000000e+00    0,000000000e+00
     1472000000    1,926539689e-01   -2,059277147e-01    1,512871981e-01   -2,886988595e-02    0,000000000e+00    0,000000000e+00    0,000000000e+00    0,000000000e+00
     1486000000    6,030408293e-02   -3,778994977e-01    1,628372073e-01    2,872072160e-02    0,000000000e+00    0,000000000e+00    0,000000000e+00    0,000000000e+00
     1500000000   -1,712631732e-01   -5,013490915e-01    2,512216866e-01    8,897103369e-02    0,000000000e+00    0,000000000e+00    0,000000000e+00    0,000000000e+00
