! NanoVNA-App
! Date: 2025-09-25 15:37:13
! Start: 100MHz Stop: 1,5GHz Points: 101
! S-Parameter data: F S11 S21 S12 S22
# Hz S RI R 50
!     Frequency           S11_Real           S11_Imag           S21_Real           S21_Imag           S12_Real           S12_Imag           S22_Real           S22_Imag
      100000000   -2,881362662e-02   -4,157584161e-03    3,740760088e-01   -7,217172384e-01    0,000000000e+00    0,000000000e+00    0,000000000e+00    0,000000000e+00
      114000000   -1,648120396e-02    1,149475481e-02   -8,915510774e-02   -8,054481149e-01    0,000000000e+00    0,000000000e+00    0,000000000e+00    0,000000000e+00
      128000000    3,491803771e-03    1,058943290e-02   -5,144625306e-01   -6,204931140e-01    0,000000000e+00    0,000000000e+00    0,000000000e+00    0,000000000e+00
      142000000    1,458274852e-02   -2,967698732e-03   -7,672283053e-01   -2,366906554e-01    0,000000000e+00    0,000000000e+00    0,000000000e+00    0,000000000e+00
      156000000    1,447046921e-02   -1,494495850e-02   -7,644971013e-01    2,181144208e-01    0,000000000e+00    0,000000000e+00    0,000000000e+00    0,000000000e+00
      170000000    1,670169458e-02   -2,258276194e-02   -5,182502270e-01    6,048380733e-01    0,000000000e+00    0,000000000e+00    0,000000000e+00    0,000000000e+00
      184000000    2,103003114e-02   -3,707491234e-02   -1,012962982e-01    7,861124873e-01    0,000000000e+00    0,000000000e+00    0,000000000e+00    0,000000000e+00
      198000000    1,304584555e-02   -6,244974956e-02    3,434597552e-01    7,127255797e-01    0,000000000e+00    0,000000000e+00    0,000000000e+00    0,000000000e+00
      212000000   -1,861143485e-02   -8,129525930e-02    6,779691577e-01    4,098405540e-01    0,000000000e+00    0,000000000e+00    0,000000000e+00    0,000000000e+00
      226000000   -6,161284819e-02   -6,923957169e-02    7,957530022e-01   -3,061919101e-02    0,000000000e+00    0,000000000e+00    0,000000000e+00    0,000000000e+00
      240000000   -8,253254741e-02   -2,561800927e-02    6,460127234e-01   -4,670719206e-01    0,000000000e+00    0,000000000e+00    0,000000000e+00    0,000000000e+00
      254000000   -6,342758983e-02    1,728528552e-02    2,760473192e-01   -7,430548072e-01    0,000000000e+00    0,000000000e+00    0,000000000e+00    0,000000000e+00
      268000000   -2,379803173e-02    2,892029285e-02   -1,780934185e-01   -7,642108202e-01    0,000000000e+00    0,000000000e+00    0,000000000e+00    0,000000000e+00
      282000000    4,189223051e-03    1,188440900e-02   -5,618392825e-01   -5,356835127e-01    0,000000000e+00    0,000000000e+00    0,000000000e+00    0,000000000e+00
      296000000    9,709024802e-03   -7,884956896e-03   -7,597408295e-01   -1,395647526e-01    0,000000000e+00    0,000000000e+00    0,000000000e+00    0,000000000e+00
      310000000    1,126410905e-02   -1,631509885e-02   -7,129088044e-01    2,990674078e-01    0,000000000e+00    0,000000000e+00    0,000000000e+00    0,000000000e+00
      324000000    1,969998330e-02   -2,654951252e-02   -4,270673692e-01    6,374499798e-01    0,000000000e+00    0,000000000e+00    0,000000000e+00    0,000000000e+00
      338000000    2,529056929e-02   -5,218571052e-02   -6,755488459e-03    7,595027089e-01    0,000000000e+00    0,000000000e+00    0,000000000e+00    0,000000000e+00
      352000000    7,457187399e-03   -8,436667919e-02    4,077870250e-01    6,400363445e-01    0,000000000e+00    0,000000000e+00    0,000000000e+00    0,000000000e+00
      366000000   -3,461544961e-02   -9,550033510e-02    6,900344491e-01    3,112292290e-01    0,000000000e+00    0,000000000e+00    0,000000000e+00    0,000000000e+00
      380000000   -7,060000300e-02   -7,129457593e-02    7,471190691e-01   -1,256820112e-01    0,000000000e+00    0,000000000e+00    0,000000000e+00    0,000000000e+00
      394000000   -7,250724733e-02   -3,254661709e-02    5,472106338e-01   -5,210480094e-01    0,000000000e+00    0,000000000e+00    0,000000000e+00    0,000000000e+00
      408000000   -4,663772136e-02   -1,620857976e-02    1,605666578e-01   -7,334533334e-01    0,000000000e+00    0,000000000e+00    0,000000000e+00    0,000000000e+00
      422000000   -2,828686126e-02   -3,191232309e-02   -2,675585449e-01   -6,944758296e-01    0,000000000e+00    0,000000000e+00    0,000000000e+00    0,000000000e+00
      436000000   -4,050527886e-02   -5,183187127e-02   -6,039479375e-01   -4,318252802e-01    0,000000000e+00    0,000000000e+00    0,000000000e+00    0,000000000e+00
      450000000   -6,786552817e-02   -4,380108044e-02   -7,404404283e-01   -2,140793577e-02    0,000000000e+00    0,000000000e+00    0,000000000e+00    0,000000000e+00
      464000000   -7,302961498e-02   -1,141288225e-02   -6,187939644e-01    3,969334066e-01    0,000000000e+00    0,000000000e+00    0,000000000e+00    0,000000000e+00
      478000000   -4,787627980e-02    1,159400679e-02   -2,825783789e-01    6,680389047e-01    0,000000000e+00    0,000000000e+00    0,000000000e+00    0,000000000e+00
      492000000   -1,563383453e-02    5,935615860e-03    1,385044754e-01    7,011611462e-01    0,000000000e+00    0,000000000e+00    0,000000000e+00    0,000000000e+00
      506000000   -2,783121541e-03   -1,574430056e-02    4,980206490e-01    5,033133030e-01    0,000000000e+00    0,000000000e+00    0,000000000e+00    0,000000000e+00
      520000000   -5,139961839e-03   -3,172094002e-02    6,900737882e-01    1,416075677e-01    0,000000000e+00    0,000000000e+00    0,000000000e+00    0,000000000e+00
      534000000   -4,124556202e-03   -3,824079409e-02    6,431300044e-01   -2,628594041e-01    0,000000000e+00    0,000000000e+00    0,000000000e+00    0,000000000e+00
      548000000    5,861123092e-03   -5,368945748e-02    3,816343546e-01   -5,671495795e-01    0,000000000e+00    0,000000000e+00    0,000000000e+00    0,000000000e+00
      562000000    3,012974979e-03   -8,942159265e-02    2,125710482e-03   -6,725602150e-01    0,000000000e+00    0,000000000e+00    0,000000000e+00    0,000000000e+00
      576000000   -3,403394669e-02   -1,240947321e-01   -3,687708080e-01   -5,572778583e-01    0,000000000e+00    0,000000000e+00    0,000000000e+00    0,000000000e+00
      590000000   -9,629411995e-02   -1,224879995e-01   -6,200425625e-01   -2,626073062e-01    0,000000000e+00    0,000000000e+00    0,000000000e+00    0,000000000e+00
      604000000   -1,395645142e-01   -7,163266093e-02   -6,649364829e-01    1,383867860e-01    0,000000000e+00    0,000000000e+00    0,000000000e+00    0,000000000e+00
      618000000   -1,289958954e-01   -9,365613572e-03   -4,643096626e-01    4,944899082e-01    0,000000000e+00    0,000000000e+00    0,000000000e+00    0,000000000e+00
      632000000   -8,361661434e-02    1,718438976e-02   -9,959472716e-02    6,634467840e-01    0,000000000e+00    0,000000000e+00    0,000000000e+00    0,000000000e+00
      646000000   -5,095716938e-02   -2,426894935e-04    2,878367603e-01    5,949198008e-01    0,000000000e+00    0,000000000e+00    0,000000000e+00    0,000000000e+00
      660000000   -5,374911055e-02   -2,149256319e-02    5,677801371e-01    3,228137493e-01    0,000000000e+00    0,000000000e+00    0,000000000e+00    0,000000000e+00
      674000000   -7,086791843e-02   -1,779118180e-02    6,429700851e-01   -6,539335102e-02    0,000000000e+00    0,000000000e+00    0,000000000e+00    0,000000000e+00
      688000000   -6,841027737e-02    9,443868883e-03    4,714201093e-01   -4,274811447e-01    0,000000000e+00    0,000000000e+00    0,000000000e+00    0,000000000e+00
      702000000   -3,818903118e-02    2,626136690e-02    1,223981306e-01   -6,105872989e-01    0,000000000e+00    0,000000000e+00    0,000000000e+00    0,000000000e+00
      716000000    1,617119298e-03    1,728763059e-02   -2,646810114e-01   -5,456447005e-01    0,000000000e+00    0,000000000e+00    0,000000000e+00    0,000000000e+00
      730000000    3,713003919e-02   -1,153133996e-02   -5,283238888e-01   -2,688652873e-01    0,000000000e+00    0,000000000e+00    0,000000000e+00    0,000000000e+00
      744000000    6,571356207e-02   -6,244278699e-02   -5,644347668e-01    1,062634513e-01    0,000000000e+00    0,000000000e+00    0,000000000e+00    0,000000000e+00
      758000000    6,700238585e-02   -1,519329846e-01   -3,637621701e-01    4,107896984e-01    0,000000000e+00    0,000000000e+00    0,000000000e+00    0,000000000e+00
      772000000   -1,276165433e-02   -2,626474500e-01   -3,516261280e-02    5,153494477e-01    0,000000000e+00    0,000000000e+00    0,000000000e+00    0,000000000e+00
      786000000   -2,069760710e-01   -3,025336266e-01    2,744863629e-01    3,955962062e-01    0,000000000e+00    0,000000000e+00    0,000000000e+00    0,000000000e+00
      800000000   -4,259473681e-01   -1,302254796e-01    4,175878763e-01    9,926839918e-02    0,000000000e+00    0,000000000e+00    0,000000000e+00    0,000000000e+00
      814000000   -3,890055418e-01    2,217941880e-01    2,817546725e-01   -1,737361550e-01    0,000000000e+00    0,000000000e+00    0,000000000e+00    0,000000000e+00
      828000000   -4,887785390e-02    3,675131500e-01    5,570156872e-02   -1,891495585e-01    0,000000000e+00    0,000000000e+00    0,000000000e+00    0,000000000e+00
      842000000    2,351853102e-01    1,861902475e-01   -1,708790660e-02   -7,061342150e-02    0,000000000e+00    0,000000000e+00    0,000000000e+00    0,000000000e+00
      856000000    2,807838917e-01   -1,242633760e-01    4,559722915e-02   -1,299250498e-02    0,000000000e+00    0,000000000e+00    0,000000000e+00    0,000000000e+00
      870000000    7,541287690e-02   -3,767485917e-01    1,134066582e-01   -9,052111208e-02    0,000000000e+00    0,000000000e+00    0,000000000e+00    0,000000000e+00
      884000000   -2,949262261e-01   -3,624734581e-01    2,903345227e-02   -2,457568049e-01    0,000000000e+00    0,000000000e+00    0,000000000e+00    0,000000000e+00
      898000000   -4,725404084e-01    8,328997530e-03   -2,227049768e-01   -2,277096957e-01    0,000000000e+00    0,000000000e+00    0,000000000e+00    0,000000000e+00
      912000000   -2,254980356e-01    2,935389578e-01   -3,352690935e-01    7,047710568e-02    0,000000000e+00    0,000000000e+00    0,000000000e+00    0,000000000e+00
      926000000    6,715419143e-02    2,620222867e-01   -2,174897939e-01    2,622059286e-01    0,000000000e+00    0,000000000e+00    0,000000000e+00    0,000000000e+00
      940000000    2,168069929e-01    7,894991338e-02   -3,596405685e-02    3,288352787e-01    0,000000000e+00    0,000000000e+00    0,000000000e+00    0,000000000e+00
      954000000    2,242177427e-01   -1,296562701e-01    1,323320270e-01    3,069179356e-01    0,000000000e+00    0,000000000e+00    0,000000000e+00    0,000000000e+00
      968000000    1,138890311e-01   -3,010874391e-01    2,695534229e-01    2,182302773e-01    0,000000000e+00    0,000000000e+00    0,000000000e+00    0,000000000e+00
      982000000   -8,410866559e-02   -3,900723755e-01    3,656904101e-01    6,568796933e-02    0,000000000e+00    0,000000000e+00    0,000000000e+00    0,000000000e+00
      996000000   -3,162815273e-01   -3,320559263e-01    3,695724607e-01   -1,454340219e-01    0,000000000e+00    0,000000000e+00    0,000000000e+00    0,000000000e+00
     1010000000   -4,614366889e-01   -1,095187664e-01    2,238050550e-01   -3,413091302e-01    0,000000000e+00    0,000000000e+00    0,000000000e+00    0,000000000e+00
     1024000000   -4,109204113e-01    1,517650038e-01   -3,305776045e-02   -3,948751688e-01    0,000000000e+00    0,000000000e+00    0,000000000e+00    0,000000000e+00
     1038000000   -2,183083892e-01    2,939788997e-01   -2,482931912e-01   -2,617522180e-01    0,000000000e+00    0,000000000e+00    0,000000000e+00    0,000000000e+00
     1052000000   -5,312556401e-03    2,764922082e-01   -3,182467818e-01   -4,462169483e-02    0,000000000e+00    0,000000000e+00    0,000000000e+00    0,000000000e+00
     1066000000    1,349870116e-01    1,620323211e-01   -2,587956488e-01    1,407295316e-01    0,000000000e+00    0,000000000e+00    0,000000000e+00    0,000000000e+00
     1080000000    1,962524801e-01   -2,021215856e-03   -1,186286733e-01    2,630463541e-01    0,000000000e+00    0,000000000e+00    0,000000000e+00    0,000000000e+00
     1094000000    1,509135664e-01   -1,750939190e-01    6,406267732e-02    3,045127392e-01    0,000000000e+00    0,000000000e+00    0,000000000e+00    0,000000000e+00
     1108000000   -1,887891674e-03   -3,064476848e-01    2,774416506e-01    2,466755211e-01    0,000000000e+00    0,000000000e+00    0,000000000e+00    0,000000000e+00
     1122000000   -2,459565103e-01   -2,680230737e-01    4,726224542e-01    1,181529835e-02    0,000000000e+00    0,000000000e+00    0,000000000e+00    0,000000000e+00
     1136000000   -3,157550097e-01    3,348928690e-02    3,995053172e-01   -3,936731219e-01    0,000000000e+00    0,000000000e+00    0,000000000e+00    0,000000000e+00
     1150000000   -4,176529497e-02    1,543354839e-01    4,484245554e-03   -5,395417809e-01    0,000000000e+00    0,000000000e+00    0,000000000e+00    0,000000000e+00
     1164000000    1,213729531e-01   -6,343632936e-02   -2,780063748e-01   -3,781600893e-01    0,000000000e+00    0,000000000e+00    0,000000000e+00    0,000000000e+00
     1178000000    1,628755406e-02   -3,026364446e-01   -3,675571382e-01   -1,497287601e-01    0,000000000e+00    0,000000000e+00    0,000000000e+00    0,000000000e+00
     1192000000   -2,690118551e-01   -3,720344603e-01   -3,223927617e-01    6,006195396e-02    0,000000000e+00    0,000000000e+00    0,000000000e+00    0,000000000e+00
     1206000000   -5,195194483e-01   -1,579989791e-01   -1,617714763e-01    1,800990999e-01    0,000000000e+00    0,000000000e+00    0,000000000e+00    0,000000000e+00
     1220000000   -5,119017959e-01    1,716866642e-01    1,808253466e-03    1,600970328e-01    0,000000000e+00    0,000000000e+00    0,000000000e+00    0,000000000e+00
     1234000000   -2,867763042e-01    3,599404395e-01    6,703992188e-02    5,895895883e-02    0,000000000e+00    0,000000000e+00    0,000000000e+00    0,000000000e+00
     1248000000   -4,922657460e-02    3,677517772e-01    5,487481877e-02   -5,320262630e-03    0,000000000e+00    0,000000000e+00    0,000000000e+00    0,000000000e+00
     1262000000    1,209000945e-01    2,526711524e-01    1,411767676e-02   -2,622408792e-02    0,000000000e+00    0,000000000e+00    0,000000000e+00    0,000000000e+00
     1276000000    2,110993266e-01    9,724570811e-02   -1,356957364e-03    3,134117695e-03    0,000000000e+00    0,000000000e+00    0,000000000e+00    0,000000000e+00
     1290000000    2,249196023e-01   -7,160718739e-02    2,014623582e-02    5,034484342e-02    0,000000000e+00    0,000000000e+00    0,000000000e+00    0,000000000e+00
     1304000000    1,551814675e-01   -2,441074550e-01    1,336515546e-01    6,273636222e-02    0,000000000e+00    0,000000000e+00    0,000000000e+00    0,000000000e+00
     1318000000    3,538795933e-02   -3,345316947e-01    1,265739352e-01   -1,598886997e-01    0,000000000e+00    0,000000000e+00    0,000000000e+00    0,000000000e+00
     1332000000   -1,289123446e-01   -4,351763129e-01   -3,959291056e-02   -3,986294940e-02    0,000000000e+00    0,000000000e+00    0,000000000e+00    0,000000000e+00
     1346000000   -3,955916464e-01   -4,140925109e-01    2,519556507e-02    6,603291631e-02    0,000000000e+00    0,000000000e+00    0,000000000e+00    0,000000000e+00
     1360000000   -6,137397289e-01   -1,798193008e-01    1,332660317e-01    7,271926105e-02    0,000000000e+00    0,000000000e+00    0,000000000e+00    0,000000000e+00
     1374000000   -6,230433583e-01    1,344654560e-01    2,099099159e-01    8,045544848e-03    0,000000000e+00    0,000000000e+00    0,000000000e+00    0,000000000e+00
     1388000000   -4,673217535e-01    3,641774356e-01    2,020859569e-01   -7,480159402e-02    0,000000000e+00    0,000000000e+00    0,000000000e+00    0,000000000e+00
     1402000000   -2,334152013e-01    4,571770728e-01    1,878204197e-01   -1,059781462e-01    0,000000000e+00    0,000000000e+00    0,000000000e+00    0,000000000e+00
     1416000000   -2,470566891e-02    4,147767425e-01    1,806019545e-01   -9,716238827e-02    0,000000000e+00    0,000000000e+00    0,000000000e+00    0,000000000e+00
     1430000000    1,149986312e-01    3,036804795e-01    1,734504849e-01   -9,433729947e-02    0,000000000e+00    0,000000000e+00    0,000000000e+00    0,000000000e+00
     1444000000    2,084630430e-01    1,492065340e-01    1,572141349e-01   -1,039663926e-01    0,000000000e+00    0,000000000e+00    0,000000000e+00    0,000000000e+00
     1458000000    2,363106757e-01   -2,135244571e-02    1,518541873e-01   -8,102873713e-02    0,000000000e+00    0,000000000e+00    0,000000000e+00    0,000000000e+00
     1472000000    1,899356246e-01   -2,056623548e-01    1,460122019e-01   -3,597437963e-02    0,000000000e+00    0,000000000e+00    0,000000000e+00    0,000000000e+00
     1486000000    5,805869401e-02   -3,699675500e-01    1,697879881e-01    3,675856814e-02    0,000000000e+00    0,000000000e+00    0,000000000e+00    0,000000000e+00
     1500000000   -1,741798222e-01   -5,004684925e-01    2,386450320e-01    8,827308565e-02    0,000000000e+00    0,000000000e+00    0,000000000e+00    0,000000000e+00
