! NanoVNA-App
! Date: 2025-09-25 15:31:38
! Start: 100MHz Stop: 1,5GHz Points: 101
! S-Parameter data: F S11 S21 S12 S22
# Hz S RI R 50
!     Frequency           S11_Real           S11_Imag           S21_Real           S21_Imag           S12_Real           S12_Imag           S22_Real           S22_Imag
      100000000   -2,886829898e-02   -4,172569606e-03    3,741321266e-01   -7,217895389e-01    0,000000000e+00    0,000000000e+00    0,000000000e+00    0,000000000e+00
      114000000   -1,652606204e-02    1,151762065e-02   -8,891416341e-02   -8,054237366e-01    0,000000000e+00    0,000000000e+00    0,000000000e+00    0,000000000e+00
      128000000    3,486305941e-03    1,055427082e-02   -5,147266984e-01   -6,205480695e-01    0,000000000e+00    0,000000000e+00    0,000000000e+00    0,000000000e+00
      142000000    1,453973819e-02   -2,961719874e-03   -7,674040794e-01   -2,367802411e-01    0,000000000e+00    0,000000000e+00    0,000000000e+00    0,000000000e+00
      156000000    1,527729444e-02   -1,469787490e-02   -7,674556375e-01    2,226533294e-01    0,000000000e+00    0,000000000e+00    0,000000000e+00    0,000000000e+00
      170000000    1,663288660e-02   -2,249504998e-02   -5,181148648e-01    6,045281887e-01    0,000000000e+00    0,000000000e+00    0,000000000e+00    0,000000000e+00
      184000000    2,102064528e-02   -3,705607355e-02   -1,013464406e-01    7,862112522e-01    0,000000000e+00    0,000000000e+00    0,000000000e+00    0,000000000e+00
      198000000    1,301878504e-02   -6,243094057e-02    3,432701528e-01    7,120566368e-01    0,000000000e+00    0,000000000e+00    0,000000000e+00    0,000000000e+00
      212000000   -1,864359528e-02   -8,132691681e-02    6,781813502e-01    4,101286829e-01    0,000000000e+00    0,000000000e+00    0,000000000e+00    0,000000000e+00
      226000000   -6,173066050e-02   -6,915944070e-02    7,958280444e-01   -3,058482334e-02    0,000000000e+00    0,000000000e+00    0,000000000e+00    0,000000000e+00
      240000000   -8,257512748e-02   -2,563588135e-02    6,460659504e-01   -4,672520161e-01    0,000000000e+00    0,000000000e+00    0,000000000e+00    0,000000000e+00
      254000000   -6,350831687e-02    1,726504974e-02    2,761806548e-01   -7,434743643e-01    0,000000000e+00    0,000000000e+00    0,000000000e+00    0,000000000e+00
      268000000   -2,381703816e-02    2,898824774e-02   -1,782843173e-01   -7,640217543e-01    0,000000000e+00    0,000000000e+00    0,000000000e+00    0,000000000e+00
      282000000    4,155899864e-03    1,200287789e-02   -5,618039966e-01   -5,358144641e-01    0,000000000e+00    0,000000000e+00    0,000000000e+00    0,000000000e+00
      296000000    9,685207158e-03   -7,908971980e-03   -7,596305013e-01   -1,396667063e-01    0,000000000e+00    0,000000000e+00    0,000000000e+00    0,000000000e+00
      310000000    1,091411430e-02   -1,629769802e-02   -7,132558227e-01    2,980168760e-01    0,000000000e+00    0,000000000e+00    0,000000000e+00    0,000000000e+00
      324000000    1,970236003e-02   -2,651446313e-02   -4,278729260e-01    6,378993988e-01    0,000000000e+00    0,000000000e+00    0,000000000e+00    0,000000000e+00
      338000000    2,543802373e-02   -5,209069699e-02   -7,266902830e-03    7,601906061e-01    0,000000000e+00    0,000000000e+00    0,000000000e+00    0,000000000e+00
      352000000    7,509324700e-03   -8,491189033e-02    4,063222408e-01    6,390582919e-01    0,000000000e+00    0,000000000e+00    0,000000000e+00    0,000000000e+00
      366000000   -3,457679227e-02   -9,584004432e-02    6,907257438e-01    3,112623692e-01    0,000000000e+00    0,000000000e+00    0,000000000e+00    0,000000000e+00
      380000000   -7,099521905e-02   -7,122200727e-02    7,473518848e-01   -1,259106547e-01    0,000000000e+00    0,000000000e+00    0,000000000e+00    0,000000000e+00
      394000000   -7,250718027e-02   -3,231315687e-02    5,476951003e-01   -5,217911005e-01    0,000000000e+00    0,000000000e+00    0,000000000e+00    0,000000000e+00
      408000000   -4,639324918e-02   -1,636262983e-02    1,594887376e-01   -7,326482534e-01    0,000000000e+00    0,000000000e+00    0,000000000e+00    0,000000000e+00
      422000000   -2,827798761e-02   -3,209691495e-02   -2,676135600e-01   -6,951666474e-01    0,000000000e+00    0,000000000e+00    0,000000000e+00    0,000000000e+00
      436000000   -4,087200761e-02   -5,174022540e-02   -6,043428183e-01   -4,322098494e-01    0,000000000e+00    0,000000000e+00    0,000000000e+00    0,000000000e+00
      450000000   -6,731760502e-02   -4,379100725e-02   -7,405335307e-01   -2,119878680e-02    0,000000000e+00    0,000000000e+00    0,000000000e+00    0,000000000e+00
      464000000   -7,344330102e-02   -1,170846261e-02   -6,187091470e-01    3,974960148e-01    0,000000000e+00    0,000000000e+00    0,000000000e+00    0,000000000e+00
      478000000   -4,751092568e-02    1,175809372e-02   -2,820423543e-01    6,673990488e-01    0,000000000e+00    0,000000000e+00    0,000000000e+00    0,000000000e+00
      492000000   -1,590161771e-02    5,843407474e-03    1,378179193e-01    7,014226913e-01    0,000000000e+00    0,000000000e+00    0,000000000e+00    0,000000000e+00
      506000000   -2,165809972e-03   -1,571857184e-02    4,992955923e-01    5,023081899e-01    0,000000000e+00    0,000000000e+00    0,000000000e+00    0,000000000e+00
      520000000   -5,139422137e-03   -3,180713207e-02    6,891214252e-01    1,414271742e-01    0,000000000e+00    0,000000000e+00    0,000000000e+00    0,000000000e+00
      534000000   -3,925585188e-03   -3,797658533e-02    6,430319548e-01   -2,621704042e-01    0,000000000e+00    0,000000000e+00    0,000000000e+00    0,000000000e+00
      548000000    5,580170546e-03   -5,392421782e-02    3,814100027e-01   -5,672027469e-01    0,000000000e+00    0,000000000e+00    0,000000000e+00    0,000000000e+00
      562000000    3,242190462e-03   -8,890534192e-02    1,374229789e-03   -6,723387241e-01    0,000000000e+00    0,000000000e+00    0,000000000e+00    0,000000000e+00
      576000000   -3,415196761e-02   -1,244782209e-01   -3,696053922e-01   -5,574826002e-01    0,000000000e+00    0,000000000e+00    0,000000000e+00    0,000000000e+00
      590000000   -9,656743705e-02   -1,225787178e-01   -6,219841242e-01   -2,621779442e-01    0,000000000e+00    0,000000000e+00    0,000000000e+00    0,000000000e+00
      604000000   -1,397867352e-01   -7,207008451e-02   -6,650725603e-01    1,379448026e-01    0,000000000e+00    0,000000000e+00    0,000000000e+00    0,000000000e+00
      618000000   -1,295422614e-01   -9,514386766e-03   -4,644414186e-01    4,949153364e-01    0,000000000e+00    0,000000000e+00    0,000000000e+00    0,000000000e+00
      632000000   -8,395501226e-02    1,624440961e-02   -9,927813709e-02    6,631326079e-01    0,000000000e+00    0,000000000e+00    0,000000000e+00    0,000000000e+00
      646000000   -5,044778809e-02    3,606184910e-04    2,880587876e-01    5,955043435e-01    0,000000000e+00    0,000000000e+00    0,000000000e+00    0,000000000e+00
      660000000   -5,351613089e-02   -2,205994353e-02    5,675346851e-01    3,227021396e-01    0,000000000e+00    0,000000000e+00    0,000000000e+00    0,000000000e+00
      674000000   -7,053057104e-02   -1,708588563e-02    6,432498693e-01   -6,569389999e-02    0,000000000e+00    0,000000000e+00    0,000000000e+00    0,000000000e+00
      688000000   -6,801386178e-02    8,614562452e-03    4,709903002e-01   -4,288804233e-01    0,000000000e+00    0,000000000e+00    0,000000000e+00    0,000000000e+00
      702000000   -3,892348707e-02    2,605392598e-02    1,231122985e-01   -6,113848090e-01    0,000000000e+00    0,000000000e+00    0,000000000e+00    0,000000000e+00
      716000000    2,739131451e-03    1,826914772e-02   -2,648553848e-01   -5,476304889e-01    0,000000000e+00    0,000000000e+00    0,000000000e+00    0,000000000e+00
      730000000    3,705095500e-02   -1,047669072e-02   -5,287303925e-01   -2,689813972e-01    0,000000000e+00    0,000000000e+00    0,000000000e+00    0,000000000e+00
      744000000    6,488680094e-02   -6,209263206e-02   -5,649318099e-01    1,066112816e-01    0,000000000e+00    0,000000000e+00    0,000000000e+00    0,000000000e+00
      758000000    6,636872143e-02   -1,526578963e-01   -3,627830148e-01    4,102341533e-01    0,000000000e+00    0,000000000e+00    0,000000000e+00    0,000000000e+00
      772000000   -1,304867584e-02   -2,621885836e-01   -3,509806097e-02    5,158927441e-01    0,000000000e+00    0,000000000e+00    0,000000000e+00    0,000000000e+00
      786000000   -2,068733126e-01   -3,027230501e-01    2,743671834e-01    3,952191770e-01    0,000000000e+00    0,000000000e+00    0,000000000e+00    0,000000000e+00
      800000000   -4,249718785e-01   -1,293654144e-01    4,173725545e-01    9,866879880e-02    0,000000000e+00    0,000000000e+00    0,000000000e+00    0,000000000e+00
      814000000   -3,902259171e-01    2,220800817e-01    2,823611796e-01   -1,730832309e-01    0,000000000e+00    0,000000000e+00    0,000000000e+00    0,000000000e+00
      828000000   -4,937041178e-02    3,686429262e-01    5,526968092e-02   -1,892094314e-01    0,000000000e+00    0,000000000e+00    0,000000000e+00    0,000000000e+00
      842000000    2,352458835e-01    1,861601323e-01   -1,714678295e-02   -7,054261118e-02    0,000000000e+00    0,000000000e+00    0,000000000e+00    0,000000000e+00
      856000000    2,805064917e-01   -1,249127761e-01    4,542523623e-02   -1,324259024e-02    0,000000000e+00    0,000000000e+00    0,000000000e+00    0,000000000e+00
      870000000    7,529173046e-02   -3,757641315e-01    1,141896173e-01   -9,138332307e-02    0,000000000e+00    0,000000000e+00    0,000000000e+00    0,000000000e+00
      884000000   -2,953797877e-01   -3,613303900e-01    2,838135138e-02   -2,461085469e-01    0,000000000e+00    0,000000000e+00    0,000000000e+00    0,000000000e+00
      898000000   -4,722085893e-01    9,713872336e-03   -2,226565182e-01   -2,272860855e-01    0,000000000e+00    0,000000000e+00    0,000000000e+00    0,000000000e+00
      912000000   -2,251582444e-01    2,940977812e-01   -3,486913145e-01    7,690744102e-02    0,000000000e+00    0,000000000e+00    0,000000000e+00    0,000000000e+00
      926000000    6,840219349e-02    2,642642856e-01   -2,149138302e-01    2,645238340e-01    0,000000000e+00    0,000000000e+00    0,000000000e+00    0,000000000e+00
      940000000    2,149993032e-01    7,825879753e-02   -3,643909842e-02    3,294428289e-01    0,000000000e+00    0,000000000e+00    0,000000000e+00    0,000000000e+00
      954000000    2,233463526e-01   -1,306161731e-01    1,312837750e-01    3,067798615e-01    0,000000000e+00    0,000000000e+00    0,000000000e+00    0,000000000e+00
      968000000    1,179841980e-01   -3,015245795e-01    2,714528441e-01    2,173984796e-01    0,000000000e+00    0,000000000e+00    0,000000000e+00    0,000000000e+00
      982000000   -7,976533473e-02   -3,877029717e-01    3,653353453e-01    6,457702816e-02    0,000000000e+00    0,000000000e+00    0,000000000e+00    0,000000000e+00
      996000000   -3,175780773e-01   -3,309627473e-01    3,688177466e-01   -1,450867206e-01    0,000000000e+00    0,000000000e+00    0,000000000e+00    0,000000000e+00
     1010000000   -4,617942572e-01   -1,075680777e-01    2,227230966e-01   -3,428898454e-01    0,000000000e+00    0,000000000e+00    0,000000000e+00    0,000000000e+00
     1024000000   -4,129069448e-01    1,474619955e-01   -3,454198688e-02   -3,921520114e-01    0,000000000e+00    0,000000000e+00    0,000000000e+00    0,000000000e+00
     1038000000   -2,207291424e-01    2,904644310e-01   -2,478299141e-01   -2,621347010e-01    0,000000000e+00    0,000000000e+00    0,000000000e+00    0,000000000e+00
     1052000000   -6,776273716e-03    2,812334299e-01   -3,162654638e-01   -4,513762146e-02    0,000000000e+00    0,000000000e+00    0,000000000e+00    0,000000000e+00
     1066000000    1,359939724e-01    1,679356992e-01   -2,563852072e-01    1,421732605e-01    0,000000000e+00    0,000000000e+00    0,000000000e+00    0,000000000e+00
     1080000000    1,929716915e-01    9,770226898e-04   -1,215771362e-01    2,651911974e-01    0,000000000e+00    0,000000000e+00    0,000000000e+00    0,000000000e+00
     1094000000    1,521278173e-01   -1,750700772e-01    6,478983909e-02    3,036601543e-01    0,000000000e+00    0,000000000e+00    0,000000000e+00    0,000000000e+00
     1108000000   -3,294689348e-03   -3,071301877e-01    2,781721056e-01    2,463110983e-01    0,000000000e+00    0,000000000e+00    0,000000000e+00    0,000000000e+00
     1122000000   -2,456543893e-01   -2,662212849e-01    4,713143706e-01    1,359910145e-02    0,000000000e+00    0,000000000e+00    0,000000000e+00    0,000000000e+00
     1136000000   -3,204031289e-01    2,940536849e-02    3,989842236e-01   -3,922792375e-01    0,000000000e+00    0,000000000e+00    0,000000000e+00    0,000000000e+00
     1150000000   -4,218389839e-02    1,562681049e-01    3,227648325e-03   -5,405287147e-01    0,000000000e+00    0,000000000e+00    0,000000000e+00    0,000000000e+00
     1164000000    1,257044673e-01   -6,651522964e-02   -2,759653032e-01   -3,790023029e-01    0,000000000e+00    0,000000000e+00    0,000000000e+00    0,000000000e+00
     1178000000    1,574312150e-02   -3,035478294e-01   -3,677488863e-01   -1,537411660e-01    0,000000000e+00    0,000000000e+00    0,000000000e+00    0,000000000e+00
     1192000000   -2,655320466e-01   -3,695260882e-01   -3,246002793e-01    5,849253759e-02    0,000000000e+00    0,000000000e+00    0,000000000e+00    0,000000000e+00
     1206000000   -5,228047371e-01   -1,590946615e-01   -1,666950136e-01    1,858928949e-01    0,000000000e+00    0,000000000e+00    0,000000000e+00    0,000000000e+00
     1220000000   -5,047427416e-01    1,751538366e-01    4,640218336e-03    1,581109315e-01    0,000000000e+00    0,000000000e+00    0,000000000e+00    0,000000000e+00
     1234000000   -2,848935127e-01    3,692236245e-01    7,392137498e-02    6,378254294e-02    0,000000000e+00    0,000000000e+00    0,000000000e+00    0,000000000e+00
     1248000000   -4,533416778e-02    3,613471985e-01    5,640272051e-02   -2,243207768e-03    0,000000000e+00    0,000000000e+00    0,000000000e+00    0,000000000e+00
     1262000000    1,280504763e-01    2,557161152e-01    1,807386428e-02   -2,372850850e-02    0,000000000e+00    0,000000000e+00    0,000000000e+00    0,000000000e+00
     1276000000    2,119326741e-01    1,025899053e-01   -7,390191313e-04    7,094190456e-03    0,000000000e+00    0,000000000e+00    0,000000000e+00    0,000000000e+00
     1290000000    2,250968665e-01   -7,865128666e-02    1,857711188e-02    4,789287597e-02    0,000000000e+00    0,000000000e+00    0,000000000e+00    0,000000000e+00
     1304000000    1,552507430e-01   -2,454796135e-01    1,356696635e-01    6,031438336e-02    0,000000000e+00    0,000000000e+00    0,000000000e+00    0,000000000e+00
     1318000000    3,765610605e-02   -3,343939781e-01    1,359385997e-01   -1,652236134e-01    0,000000000e+00    0,000000000e+00    0,000000000e+00    0,000000000e+00
     1332000000   -1,305578947e-01   -4,433182776e-01   -4,512269795e-02   -5,491688848e-02    0,000000000e+00    0,000000000e+00    0,000000000e+00    0,000000000e+00
     1346000000   -3,898847699e-01   -4,156880975e-01    2,931486070e-02    6,133119389e-02    0,000000000e+00    0,000000000e+00    0,000000000e+00    0,000000000e+00
     1360000000   -6,059862971e-01   -1,921909750e-01    1,367769092e-01    7,017259300e-02    0,000000000e+00    0,000000000e+00    0,000000000e+00    0,000000000e+00
     1374000000   -6,276510954e-01    1,327291727e-01    2,026545256e-01    9,152182378e-03    0,000000000e+00    0,000000000e+00    0,000000000e+00    0,000000000e+00
     1388000000   -4,616269469e-01    3,746409416e-01    2,146034837e-01   -5,489064008e-02    0,000000000e+00    0,000000000e+00    0,000000000e+00    0,000000000e+00
     1402000000   -2,328058183e-01    4,560902119e-01    1,906906962e-01   -9,155503660e-02    0,000000000e+00    0,000000000e+00    0,000000000e+00    0,000000000e+00
     1416000000   -2,663853392e-02    4,104582369e-01    1,686790884e-01   -9,730438143e-02    0,000000000e+00    0,000000000e+00    0,000000000e+00    0,000000000e+00
     1430000000    1,212283447e-01    3,067831099e-01    1,561438441e-01   -1,047674641e-01    0,000000000e+00    0,000000000e+00    0,000000000e+00    0,000000000e+00
     1444000000    2,034790963e-01    1,550346166e-01    1,505906284e-01   -8,999450505e-02    0,000000000e+00    0,000000000e+00    0,000000000e+00    0,000000000e+00
     1458000000    2,367079854e-01   -1,912212186e-02    1,511504203e-01   -7,369375974e-02    0,000000000e+00    0,000000000e+00    0,000000000e+00    0,000000000e+00
     1472000000    1,911459714e-01   -2,038376033e-01    1,387096792e-01   -3,125176206e-02    0,000000000e+00    0,000000000e+00    0,000000000e+00    0,000000000e+00
     1486000000    6,563238055e-02   -3,793921471e-01    1,663007587e-01    2,363872901e-02    0,000000000e+00    0,000000000e+00    0,000000000e+00    0,000000000e+00
     1500000000   -1,725350171e-01   -4,867063165e-01    2,466561049e-01    9,522803873e-02    0,000000000e+00    0,000000000e+00    0,000000000e+00    0,000000000e+00
