! NanoVNA-App
! Date: 2025-09-25 15:37:12
! Start: 100MHz Stop: 1,5GHz Points: 101
! S-Parameter data: F S11 S21 S12 S22
# Hz S RI R 50
!     Frequency           S11_Real           S11_Imag           S21_Real           S21_Imag           S12_Real           S12_Imag           S22_Real           S22_Imag
      100000000   -2,882541530e-02   -4,171065986e-03    3,740916252e-01   -7,217639089e-01    0,000000000e+00    0,000000000e+00    0,000000000e+00    0,000000000e+00
      114000000   -1,645748690e-02    1,153663080e-02   -8,922879398e-02   -8,054361343e-01    0,000000000e+00    0,000000000e+00    0,000000000e+00    0,000000000e+00
      128000000    3,497402417e-03    1,058185659e-02   -5,145524144e-01   -6,204027534e-01    0,000000000e+00    0,000000000e+00    0,000000000e+00    0,000000000e+00
      142000000    1,459380146e-02   -2,962912433e-03   -7,668350935e-01   -2,364879251e-01    0,000000000e+00    0,000000000e+00    0,000000000e+00    0,000000000e+00
      156000000    1,602374017e-02   -1,441242173e-02   -7,700809836e-01    2,242224216e-01    0,000000000e+00    0,000000000e+00    0,000000000e+00    0,000000000e+00
      170000000    1,673385873e-02   -2,253261209e-02   -5,181154013e-01    6,046772599e-01    0,000000000e+00    0,000000000e+00    0,000000000e+00    0,000000000e+00
      184000000    2,104383335e-02   -3,704806417e-02   -1,015131399e-01    7,864821553e-01    0,000000000e+00    0,000000000e+00    0,000000000e+00    0,000000000e+00
      198000000    1,304478478e-02   -6,248270720e-02    3,434941173e-01    7,123386860e-01    0,000000000e+00    0,000000000e+00    0,000000000e+00    0,000000000e+00
      212000000   -1,863480359e-02   -8,133028448e-02    6,781178713e-01    4,099430740e-01    0,000000000e+00    0,000000000e+00    0,000000000e+00    0,000000000e+00
      226000000   -6,159039587e-02   -6,925608218e-02    7,957173586e-01   -3,053325228e-02    0,000000000e+00    0,000000000e+00    0,000000000e+00    0,000000000e+00
      240000000   -8,251029253e-02   -2,563023940e-02    6,458981037e-01   -4,670167267e-01    0,000000000e+00    0,000000000e+00    0,000000000e+00    0,000000000e+00
      254000000   -6,348943710e-02    1,725217327e-02    2,758889198e-01   -7,434369326e-01    0,000000000e+00    0,000000000e+00    0,000000000e+00    0,000000000e+00
      268000000   -2,387596108e-02    2,886469103e-02   -1,783191562e-01   -7,645980120e-01    0,000000000e+00    0,000000000e+00    0,000000000e+00    0,000000000e+00
      282000000    4,166362807e-03    1,195425447e-02   -5,617212653e-01   -5,356576443e-01    0,000000000e+00    0,000000000e+00    0,000000000e+00    0,000000000e+00
      296000000    9,638891555e-03   -7,965986617e-03   -7,599435449e-01   -1,396443844e-01    0,000000000e+00    0,000000000e+00    0,000000000e+00    0,000000000e+00
      310000000    1,117908116e-02   -1,608625241e-02   -7,134699225e-01    2,989007235e-01    0,000000000e+00    0,000000000e+00    0,000000000e+00    0,000000000e+00
      324000000    1,997249387e-02   -2,658028714e-02   -4,273807704e-01    6,379015446e-01    0,000000000e+00    0,000000000e+00    0,000000000e+00    0,000000000e+00
      338000000    2,573691495e-02   -5,230163038e-02   -9,405953810e-03    7,626649141e-01    0,000000000e+00    0,000000000e+00    0,000000000e+00    0,000000000e+00
      352000000    7,202964276e-03   -8,476123214e-02    4,066187143e-01    6,392691135e-01    0,000000000e+00    0,000000000e+00    0,000000000e+00    0,000000000e+00
      366000000   -3,484448418e-02   -9,560309350e-02    6,904351115e-01    3,109345734e-01    0,000000000e+00    0,000000000e+00    0,000000000e+00    0,000000000e+00
      380000000   -7,061638683e-02   -7,124277949e-02    7,477255464e-01   -1,255121231e-01    0,000000000e+00    0,000000000e+00    0,000000000e+00    0,000000000e+00
      394000000   -7,252967358e-02   -3,226168454e-02    5,463018417e-01   -5,213871002e-01    0,000000000e+00    0,000000000e+00    0,000000000e+00    0,000000000e+00
      408000000   -4,655535519e-02   -1,614886709e-02    1,607673913e-01   -7,318638563e-01    0,000000000e+00    0,000000000e+00    0,000000000e+00    0,000000000e+00
      422000000   -2,832040936e-02   -3,238410503e-02   -2,682590485e-01   -6,960635781e-01    0,000000000e+00    0,000000000e+00    0,000000000e+00    0,000000000e+00
      436000000   -4,065582156e-02   -5,172784254e-02   -6,033306718e-01   -4,311673939e-01    0,000000000e+00    0,000000000e+00    0,000000000e+00    0,000000000e+00
      450000000   -6,759370118e-02   -4,383736476e-02   -7,408433557e-01   -2,126133069e-02    0,000000000e+00    0,000000000e+00    0,000000000e+00    0,000000000e+00
      464000000   -7,350900769e-02   -1,148499269e-02   -6,184852719e-01    3,978592753e-01    0,000000000e+00    0,000000000e+00    0,000000000e+00    0,000000000e+00
      478000000   -4,774221778e-02    1,155572664e-02   -2,828613818e-01    6,681869030e-01    0,000000000e+00    0,000000000e+00    0,000000000e+00    0,000000000e+00
      492000000   -1,593332924e-02    6,183816120e-03    1,380922645e-01    7,025647163e-01    0,000000000e+00    0,000000000e+00    0,000000000e+00    0,000000000e+00
      506000000   -2,371727256e-03   -1,605348289e-02    4,983386993e-01    5,018822551e-01    0,000000000e+00    0,000000000e+00    0,000000000e+00    0,000000000e+00
      520000000   -5,238564219e-03   -3,165710717e-02    6,888821721e-01    1,415918171e-01    0,000000000e+00    0,000000000e+00    0,000000000e+00    0,000000000e+00
      534000000   -3,826110857e-03   -3,821892291e-02    6,438538432e-01   -2,621155381e-01    0,000000000e+00    0,000000000e+00    0,000000000e+00    0,000000000e+00
      548000000    5,949113984e-03   -5,363784730e-02    3,807213008e-01   -5,671872497e-01    0,000000000e+00    0,000000000e+00    0,000000000e+00    0,000000000e+00
      562000000    3,576380201e-03   -8,908896893e-02    2,977983560e-03   -6,718838215e-01    0,000000000e+00    0,000000000e+00    0,000000000e+00    0,000000000e+00
      576000000   -3,447226062e-02   -1,245484203e-01   -3,697997928e-01   -5,579183102e-01    0,000000000e+00    0,000000000e+00    0,000000000e+00    0,000000000e+00
      590000000   -9,643448144e-02   -1,227208152e-01   -6,191528440e-01   -2,631994486e-01    0,000000000e+00    0,000000000e+00    0,000000000e+00    0,000000000e+00
      604000000   -1,395130455e-01   -7,194245607e-02   -6,654714346e-01    1,376647502e-01    0,000000000e+00    0,000000000e+00    0,000000000e+00    0,000000000e+00
      618000000   -1,292035878e-01   -9,515166283e-03   -4,651133716e-01    4,943199456e-01    0,000000000e+00    0,000000000e+00    0,000000000e+00    0,000000000e+00
      632000000   -8,372767270e-02    1,668408699e-02   -9,937898070e-02    6,640624404e-01    0,000000000e+00    0,000000000e+00    0,000000000e+00    0,000000000e+00
      646000000   -5,113697425e-02    6,544365533e-06    2,870878279e-01    5,956603289e-01    0,000000000e+00    0,000000000e+00    0,000000000e+00    0,000000000e+00
      660000000   -5,281959474e-02   -2,188672684e-02    5,675457120e-01    3,226333559e-01    0,000000000e+00    0,000000000e+00    0,000000000e+00    0,000000000e+00
      674000000   -7,078238577e-02   -1,747175679e-02    6,433353424e-01   -6,523665786e-02    0,000000000e+00    0,000000000e+00    0,000000000e+00    0,000000000e+00
      688000000   -6,787991524e-02    9,264755994e-03    4,715374112e-01   -4,287977219e-01    0,000000000e+00    0,000000000e+00    0,000000000e+00    0,000000000e+00
      702000000   -3,752033412e-02    2,575213462e-02    1,182857677e-01   -6,108057499e-01    0,000000000e+00    0,000000000e+00    0,000000000e+00    0,000000000e+00
      716000000    1,936335349e-03    1,807666384e-02   -2,650074363e-01   -5,470654964e-01    0,000000000e+00    0,000000000e+00    0,000000000e+00    0,000000000e+00
      730000000    3,641906008e-02   -1,082413457e-02   -5,285647511e-01   -2,692758441e-01    0,000000000e+00    0,000000000e+00    0,000000000e+00    0,000000000e+00
      744000000    6,470671296e-02   -6,313695759e-02   -5,642516613e-01    1,063052267e-01    0,000000000e+00    0,000000000e+00    0,000000000e+00    0,000000000e+00
      758000000    6,690141559e-02   -1,528113931e-01   -3,632980287e-01    4,105137289e-01    0,000000000e+00    0,000000000e+00    0,000000000e+00    0,000000000e+00
      772000000   -1,310588140e-02   -2,629457116e-01   -3,520920873e-02    5,160320401e-01    0,000000000e+00    0,000000000e+00    0,000000000e+00    0,000000000e+00
      786000000   -2,067197710e-01   -3,034464419e-01    2,754618526e-01    3,959128857e-01    0,000000000e+00    0,000000000e+00    0,000000000e+00    0,000000000e+00
      800000000   -4,248521924e-01   -1,310103536e-01    4,167945981e-01    9,937557578e-02    0,000000000e+00    0,000000000e+00    0,000000000e+00    0,000000000e+00
      814000000   -3,885643780e-01    2,209681422e-01    2,824652791e-01   -1,730528027e-01    0,000000000e+00    0,000000000e+00    0,000000000e+00    0,000000000e+00
      828000000   -5,016222596e-02    3,686952889e-01    5,540912598e-02   -1,893787384e-01    0,000000000e+00    0,000000000e+00    0,000000000e+00    0,000000000e+00
      842000000    2,347381562e-01    1,859534979e-01   -1,721810177e-02   -7,057257742e-02    0,000000000e+00    0,000000000e+00    0,000000000e+00    0,000000000e+00
      856000000    2,803768218e-01   -1,245063171e-01    4,508632421e-02   -1,354660094e-02    0,000000000e+00    0,000000000e+00    0,000000000e+00    0,000000000e+00
      870000000    7,575481385e-02   -3,764583468e-01    1,138549075e-01   -9,140521288e-02    0,000000000e+00    0,000000000e+00    0,000000000e+00    0,000000000e+00
      884000000   -2,954299748e-01   -3,621279299e-01    2,862054855e-02   -2,456707656e-01    0,000000000e+00    0,000000000e+00    0,000000000e+00    0,000000000e+00
      898000000   -4,720544815e-01    8,093677461e-03   -2,219133824e-01   -2,278063744e-01    0,000000000e+00    0,000000000e+00    0,000000000e+00    0,000000000e+00
      912000000   -2,244461477e-01    2,946775258e-01   -3,529365063e-01    7,233504206e-02    0,000000000e+00    0,000000000e+00    0,000000000e+00    0,000000000e+00
      926000000    6,615027785e-02    2,646498978e-01   -2,177831680e-01    2,639527619e-01    0,000000000e+00    0,000000000e+00    0,000000000e+00    0,000000000e+00
      940000000    2,173582911e-01    8,093846589e-02   -3,553475440e-02    3,311464787e-01    0,000000000e+00    0,000000000e+00    0,000000000e+00    0,000000000e+00
      954000000    2,225060612e-01   -1,252537519e-01    1,313577145e-01    3,066632152e-01    0,000000000e+00    0,000000000e+00    0,000000000e+00    0,000000000e+00
      968000000    1,176087558e-01   -3,004579246e-01    2,717610300e-01    2,184600383e-01    0,000000000e+00    0,000000000e+00    0,000000000e+00    0,000000000e+00
      982000000   -7,981797308e-02   -3,851562738e-01    3,660427928e-01    6,451450288e-02    0,000000000e+00    0,000000000e+00    0,000000000e+00    0,000000000e+00
      996000000   -3,141621649e-01   -3,313049972e-01    3,690091074e-01   -1,443970352e-01    0,000000000e+00    0,000000000e+00    0,000000000e+00    0,000000000e+00
     1010000000   -4,598723352e-01   -1,126380488e-01    2,245091647e-01   -3,430985808e-01    0,000000000e+00    0,000000000e+00    0,000000000e+00    0,000000000e+00
     1024000000   -4,170395732e-01    1,479330957e-01   -3,374218941e-02   -3,936474323e-01    0,000000000e+00    0,000000000e+00    0,000000000e+00    0,000000000e+00
     1038000000   -2,147813588e-01    2,893658578e-01   -2,457247227e-01   -2,601531446e-01    0,000000000e+00    0,000000000e+00    0,000000000e+00    0,000000000e+00
     1052000000   -5,933885928e-03    2,801699936e-01   -3,168750405e-01   -4,647839442e-02    0,000000000e+00    0,000000000e+00    0,000000000e+00    0,000000000e+00
     1066000000    1,354400963e-01    1,606902182e-01   -2,566166818e-01    1,447505951e-01    0,000000000e+00    0,000000000e+00    0,000000000e+00    0,000000000e+00
     1080000000    1,936507523e-01    2,887990326e-03   -1,201329082e-01    2,616636455e-01    0,000000000e+00    0,000000000e+00    0,000000000e+00    0,000000000e+00
     1094000000    1,528856605e-01   -1,719792038e-01    6,660164148e-02    3,050629497e-01    0,000000000e+00    0,000000000e+00    0,000000000e+00    0,000000000e+00
     1108000000    1,911903964e-03   -3,048452437e-01    2,765310109e-01    2,469568402e-01    0,000000000e+00    0,000000000e+00    0,000000000e+00    0,000000000e+00
     1122000000   -2,480307370e-01   -2,607105374e-01    4,734689593e-01    1,268378738e-02    0,000000000e+00    0,000000000e+00    0,000000000e+00    0,000000000e+00
     1136000000   -3,206503987e-01    3,422721475e-02    4,019724131e-01   -3,919631839e-01    0,000000000e+00    0,000000000e+00    0,000000000e+00    0,000000000e+00
     1150000000   -3,722960129e-02    1,520371884e-01    5,606629420e-03   -5,410346985e-01    0,000000000e+00    0,000000000e+00    0,000000000e+00    0,000000000e+00
     1164000000    1,236872151e-01   -6,023849919e-02   -2,736813724e-01   -3,790160418e-01    0,000000000e+00    0,000000000e+00    0,000000000e+00    0,000000000e+00
     1178000000    1,389421988e-02   -3,059644401e-01   -3,707666099e-01   -1,521398425e-01    0,000000000e+00    0,000000000e+00    0,000000000e+00    0,000000000e+00
     1192000000   -2,636337876e-01   -3,700160980e-01   -3,200080991e-01    5,613656715e-02    0,000000000e+00    0,000000000e+00    0,000000000e+00    0,000000000e+00
     1206000000   -5,229669809e-01   -1,640103906e-01   -1,666348130e-01    1,782888472e-01    0,000000000e+00    0,000000000e+00    0,000000000e+00    0,000000000e+00
     1220000000   -5,117366314e-01    1,782211959e-01    3,483379493e-03    1,628632993e-01    0,000000000e+00    0,000000000e+00    0,000000000e+00    0,000000000e+00
     1234000000   -2,837264836e-01    3,623877764e-01    7,012336701e-02    6,249687821e-02    0,000000000e+00    0,000000000e+00    0,000000000e+00    0,000000000e+00
     1248000000   -4,129922017e-02    3,640254140e-01    5,286813527e-02   -2,672562143e-03    0,000000000e+00    0,000000000e+00    0,000000000e+00    0,000000000e+00
     1262000000    1,206794232e-01    2,603811920e-01    1,639016531e-02   -1,949456893e-02    0,000000000e+00    0,000000000e+00    0,000000000e+00    0,000000000e+00
     1276000000    2,122074366e-01    9,935804456e-02   -2,800110495e-03    2,761722775e-03    0,000000000e+00    0,000000000e+00    0,000000000e+00    0,000000000e+00
     1290000000    2,260470837e-01   -7,391797006e-02    2,101084217e-02    5,637289584e-02    0,000000000e+00    0,000000000e+00    0,000000000e+00    0,000000000e+00
     1304000000    1,555037946e-01   -2,453440130e-01    1,324544549e-01    6,680461019e-02    0,000000000e+00    0,000000000e+00    0,000000000e+00    0,000000000e+00
     1318000000    3,491345048e-02   -3,345555961e-01    1,276436001e-01   -1,666776091e-01    0,000000000e+00    0,000000000e+00    0,000000000e+00    0,000000000e+00
     1332000000   -1,258440763e-01   -4,345988333e-01   -4,249745607e-02   -4,053592682e-02    0,000000000e+00    0,000000000e+00    0,000000000e+00    0,000000000e+00
     1346000000   -3,946425617e-01   -4,026013911e-01    2,969457023e-02    6,593120843e-02    0,000000000e+00    0,000000000e+00    0,000000000e+00    0,000000000e+00
     1360000000   -6,102055907e-01   -1,830388457e-01    1,392508149e-01    7,671823353e-02    0,000000000e+00    0,000000000e+00    0,000000000e+00    0,000000000e+00
     1374000000   -6,251229048e-01    1,268182546e-01    2,208545059e-01    8,449139073e-03    0,000000000e+00    0,000000000e+00    0,000000000e+00    0,000000000e+00
     1388000000   -4,602577090e-01    3,698020875e-01    2,199124694e-01   -6,076220796e-02    0,000000000e+00    0,000000000e+00    0,000000000e+00    0,000000000e+00
     1402000000   -2,297769636e-01    4,522977471e-01    1,839154512e-01   -9,839014709e-02    0,000000000e+00    0,000000000e+00    0,000000000e+00    0,000000000e+00
     1416000000   -3,041685373e-02    4,104230702e-01    1,695234030e-01   -1,049598828e-01    0,000000000e+00    0,000000000e+00    0,000000000e+00    0,000000000e+00
     1430000000    1,089568213e-01    3,016429543e-01    1,491302550e-01   -8,519189805e-02    0,000000000e+00    0,000000000e+00    0,000000000e+00    0,000000000e+00
     1444000000    2,094715685e-01    1,449066103e-01    1,575857997e-01   -1,109850779e-01    0,000000000e+00    0,000000000e+00    0,000000000e+00    0,000000000e+00
     1458000000    2,314082831e-01   -2,016516402e-02    1,443077177e-01   -7,517730445e-02    0,000000000e+00    0,000000000e+00    0,000000000e+00    0,000000000e+00
     1472000000    1,972752661e-01   -2,050924450e-01    1,574733704e-01   -3,670649230e-02    0,000000000e+00    0,000000000e+00    0,000000000e+00    0,000000000e+00
     1486000000    5,998600274e-02   -3,796674609e-01    1,561607569e-01    2,944679931e-02    0,000000000e+00    0,000000000e+00    0,000000000e+00    0,000000000e+00
     1500000000   -1,724015623e-01   -4,888938367e-01    2,551979721e-01    1,043115184e-01    0,000000000e+00    0,000000000e+00    0,000000000e+00    0,000000000e+00
