! NanoVNA-App
! Date: 2025-09-25 15:31:15
! Start: 100MHz Stop: 1,5GHz Points: 101
! S-Parameter data: F S11 S21 S12 S22
# Hz S RI R 50
!     Frequency           S11_Real           S11_Imag           S21_Real           S21_Imag           S12_Real           S12_Imag           S22_Real           S22_Imag
      100000000   -2,886541001e-02   -4,179934971e-03    3,741303682e-01   -7,218479514e-01    0,000000000e+00    0,000000000e+00    0,000000000e+00    0,000000000e+00
      114000000   -1,652444713e-02    1,151319873e-02   -8,911830932e-02   -8,054208159e-01    0,000000000e+00    0,000000000e+00    0,000000000e+00    0,000000000e+00
      128000000    3,460175358e-03    1,057828963e-02   -5,146294832e-01   -6,204171181e-01    0,000000000e+00    0,000000000e+00    0,000000000e+00    0,000000000e+00
      142000000    1,453572512e-02   -2,941771410e-03   -7,672113776e-01   -2,366628200e-01    0,000000000e+00    0,000000000e+00    0,000000000e+00    0,000000000e+00
      156000000    1,514277793e-02   -1,501401141e-02   -7,693189979e-01    2,196909636e-01    0,000000000e+00    0,000000000e+00    0,000000000e+00    0,000000000e+00
      170000000    1,667194813e-02   -2,258520015e-02   -5,182501674e-01    6,049077511e-01    0,000000000e+00    0,000000000e+00    0,000000000e+00    0,000000000e+00
      184000000    2,098627575e-02   -3,702023998e-02   -1,014412642e-01    7,862917185e-01    0,000000000e+00    0,000000000e+00    0,000000000e+00    0,000000000e+00
      198000000    1,302804612e-02   -6,249699742e-02    3,434478343e-01    7,124394774e-01    0,000000000e+00    0,000000000e+00    0,000000000e+00    0,000000000e+00
      212000000   -1,864518411e-02   -8,132787049e-02    6,782243252e-01    4,100545943e-01    0,000000000e+00    0,000000000e+00    0,000000000e+00    0,000000000e+00
      226000000   -6,169884279e-02   -6,919960678e-02    7,958776951e-01   -3,059605137e-02    0,000000000e+00    0,000000000e+00    0,000000000e+00    0,000000000e+00
      240000000   -8,263668418e-02   -2,563339658e-02    6,460229158e-01   -4,670191407e-01    0,000000000e+00    0,000000000e+00    0,000000000e+00    0,000000000e+00
      254000000   -6,347955763e-02    1,729376055e-02    2,760248482e-01   -7,430147529e-01    0,000000000e+00    0,000000000e+00    0,000000000e+00    0,000000000e+00
      268000000   -2,390198968e-02    2,888127975e-02   -1,783056259e-01   -7,645550966e-01    0,000000000e+00    0,000000000e+00    0,000000000e+00    0,000000000e+00
      282000000    4,210726358e-03    1,197463181e-02   -5,620700121e-01   -5,357497334e-01    0,000000000e+00    0,000000000e+00    0,000000000e+00    0,000000000e+00
      296000000    9,747720324e-03   -7,850955240e-03   -7,597529292e-01   -1,396240443e-01    0,000000000e+00    0,000000000e+00    0,000000000e+00    0,000000000e+00
      310000000    1,145911776e-02   -1,616016962e-02   -7,118958831e-01    2,973511815e-01    0,000000000e+00    0,000000000e+00    0,000000000e+00    0,000000000e+00
      324000000    1,963226311e-02   -2,658494562e-02   -4,275566041e-01    6,370550394e-01    0,000000000e+00    0,000000000e+00    0,000000000e+00    0,000000000e+00
      338000000    2,586982399e-02   -5,188192055e-02   -9,339440614e-03    7,598432899e-01    0,000000000e+00    0,000000000e+00    0,000000000e+00    0,000000000e+00
      352000000    7,631507702e-03   -8,453949541e-02    4,070086777e-01    6,387866139e-01    0,000000000e+00    0,000000000e+00    0,000000000e+00    0,000000000e+00
      366000000   -3,469624370e-02   -9,525403380e-02    6,908980608e-01    3,113286495e-01    0,000000000e+00    0,000000000e+00    0,000000000e+00    0,000000000e+00
      380000000   -7,092737406e-02   -7,132117450e-02    7,478997707e-01   -1,262434572e-01    0,000000000e+00    0,000000000e+00    0,000000000e+00    0,000000000e+00
      394000000   -7,253964245e-02   -3,230895475e-02    5,461474657e-01   -5,225181580e-01    0,000000000e+00    0,000000000e+00    0,000000000e+00    0,000000000e+00
      408000000   -4,655161500e-02   -1,615828648e-02    1,607903242e-01   -7,318422794e-01    0,000000000e+00    0,000000000e+00    0,000000000e+00    0,000000000e+00
      422000000   -2,816274762e-02   -3,198096529e-02   -2,674459219e-01   -6,955306530e-01    0,000000000e+00    0,000000000e+00    0,000000000e+00    0,000000000e+00
      436000000   -4,080925882e-02   -5,198035017e-02   -6,042378545e-01   -4,319230616e-01    0,000000000e+00    0,000000000e+00    0,000000000e+00    0,000000000e+00
      450000000   -6,763575971e-02   -4,395977035e-02   -7,404212952e-01   -2,131212503e-02    0,000000000e+00    0,000000000e+00    0,000000000e+00    0,000000000e+00
      464000000   -7,331423461e-02   -1,178427879e-02   -6,185389757e-01    3,976593018e-01    0,000000000e+00    0,000000000e+00    0,000000000e+00    0,000000000e+00
      478000000   -4,789685085e-02    1,196165569e-02   -2,823677659e-01    6,680091023e-01    0,000000000e+00    0,000000000e+00    0,000000000e+00    0,000000000e+00
      492000000   -1,597833447e-02    6,102771964e-03    1,375935674e-01    7,020758986e-01    0,000000000e+00    0,000000000e+00    0,000000000e+00    0,000000000e+00
      506000000   -2,135703107e-03   -1,554964762e-02    4,989753664e-01    5,026226044e-01    0,000000000e+00    0,000000000e+00    0,000000000e+00    0,000000000e+00
      520000000   -5,012379959e-03   -3,170702979e-02    6,876628399e-01    1,403707117e-01    0,000000000e+00    0,000000000e+00    0,000000000e+00    0,000000000e+00
      534000000   -3,775937483e-03   -3,791905195e-02    6,428969502e-01   -2,620505393e-01    0,000000000e+00    0,000000000e+00    0,000000000e+00    0,000000000e+00
      548000000    6,375885569e-03   -5,416702479e-02    3,818831146e-01   -5,673738122e-01    0,000000000e+00    0,000000000e+00    0,000000000e+00    0,000000000e+00
      562000000    3,168289084e-03   -8,950345963e-02    2,605299233e-03   -6,723401546e-01    0,000000000e+00    0,000000000e+00    0,000000000e+00    0,000000000e+00
      576000000   -3,384448588e-02   -1,241522133e-01   -3,691519797e-01   -5,571224689e-01    0,000000000e+00    0,000000000e+00    0,000000000e+00    0,000000000e+00
      590000000   -9,644789994e-02   -1,228687614e-01   -6,228972077e-01   -2,625457048e-01    0,000000000e+00    0,000000000e+00    0,000000000e+00    0,000000000e+00
      604000000   -1,399762481e-01   -7,187228650e-02   -6,654503942e-01    1,378580332e-01    0,000000000e+00    0,000000000e+00    0,000000000e+00    0,000000000e+00
      618000000   -1,291528195e-01   -8,972592652e-03   -4,648009539e-01    4,943354130e-01    0,000000000e+00    0,000000000e+00    0,000000000e+00    0,000000000e+00
      632000000   -8,393799514e-02    1,745174080e-02   -9,870980680e-02    6,635449529e-01    0,000000000e+00    0,000000000e+00    0,000000000e+00    0,000000000e+00
      646000000   -5,052616075e-02    1,262247679e-04    2,877052724e-01    5,948210955e-01    0,000000000e+00    0,000000000e+00    0,000000000e+00    0,000000000e+00
      660000000   -5,253376067e-02   -2,148405835e-02    5,682201982e-01    3,240309954e-01    0,000000000e+00    0,000000000e+00    0,000000000e+00    0,000000000e+00
      674000000   -6,983559579e-02   -1,720424369e-02    6,429106593e-01   -6,541641802e-02    0,000000000e+00    0,000000000e+00    0,000000000e+00    0,000000000e+00
      688000000   -6,867448241e-02    9,427190758e-03    4,710937738e-01   -4,279509187e-01    0,000000000e+00    0,000000000e+00    0,000000000e+00    0,000000000e+00
      702000000   -3,839980066e-02    2,737081051e-02    1,180882081e-01   -6,135967374e-01    0,000000000e+00    0,000000000e+00    0,000000000e+00    0,000000000e+00
      716000000    1,716756960e-03    1,739915460e-02   -2,645673156e-01   -5,474424958e-01    0,000000000e+00    0,000000000e+00    0,000000000e+00    0,000000000e+00
      730000000    3,672865033e-02   -1,026254427e-02   -5,283051729e-01   -2,688868344e-01    0,000000000e+00    0,000000000e+00    0,000000000e+00    0,000000000e+00
      744000000    6,555006653e-02   -6,267387420e-02   -5,648548603e-01    1,068739519e-01    0,000000000e+00    0,000000000e+00    0,000000000e+00    0,000000000e+00
      758000000    6,614171714e-02   -1,526629031e-01   -3,631569147e-01    4,102053940e-01    0,000000000e+00    0,000000000e+00    0,000000000e+00    0,000000000e+00
      772000000   -1,234099269e-02   -2,629571259e-01   -3,403713182e-02    5,155562162e-01    0,000000000e+00    0,000000000e+00    0,000000000e+00    0,000000000e+00
      786000000   -2,071334869e-01   -3,024700582e-01    2,744919360e-01    3,951447904e-01    0,000000000e+00    0,000000000e+00    0,000000000e+00    0,000000000e+00
      800000000   -4,262434542e-01   -1,305857450e-01    4,173202515e-01    9,931858629e-02    0,000000000e+00    0,000000000e+00    0,000000000e+00    0,000000000e+00
      814000000   -3,895228505e-01    2,209694684e-01    2,818580866e-01   -1,730992198e-01    0,000000000e+00    0,000000000e+00    0,000000000e+00    0,000000000e+00
      828000000   -4,849126190e-02    3,676844239e-01    5,509212613e-02   -1,886601299e-01    0,000000000e+00    0,000000000e+00    0,000000000e+00    0,000000000e+00
      842000000    2,348966748e-01    1,857461780e-01   -1,694679260e-02   -7,073740661e-02    0,000000000e+00    0,000000000e+00    0,000000000e+00    0,000000000e+00
      856000000    2,803063095e-01   -1,244876385e-01    4,534590617e-02   -1,357782073e-02    0,000000000e+00    0,000000000e+00    0,000000000e+00    0,000000000e+00
      870000000    7,524172962e-02   -3,759869337e-01    1,136912256e-01   -9,125584364e-02    0,000000000e+00    0,000000000e+00    0,000000000e+00    0,000000000e+00
      884000000   -2,958004177e-01   -3,621915579e-01    2,766832337e-02   -2,454693019e-01    0,000000000e+00    0,000000000e+00    0,000000000e+00    0,000000000e+00
      898000000   -4,718116820e-01    9,695122018e-03   -2,217452079e-01   -2,268861234e-01    0,000000000e+00    0,000000000e+00    0,000000000e+00    0,000000000e+00
      912000000   -2,257065028e-01    2,950981855e-01   -3,517392874e-01    7,631055266e-02    0,000000000e+00    0,000000000e+00    0,000000000e+00    0,000000000e+00
      926000000    6,824792176e-02    2,633912861e-01   -2,145318985e-01    2,645058036e-01    0,000000000e+00    0,000000000e+00    0,000000000e+00    0,000000000e+00
      940000000    2,155068666e-01    7,857957482e-02   -3,603204340e-02    3,296060562e-01    0,000000000e+00    0,000000000e+00    0,000000000e+00    0,000000000e+00
      954000000    2,201384455e-01   -1,263874620e-01    1,307228208e-01    3,058467507e-01    0,000000000e+00    0,000000000e+00    0,000000000e+00    0,000000000e+00
      968000000    1,180008203e-01   -2,994345725e-01    2,713814378e-01    2,181041837e-01    0,000000000e+00    0,000000000e+00    0,000000000e+00    0,000000000e+00
      982000000   -8,301181346e-02   -3,889009953e-01    3,670246005e-01    6,465043128e-02    0,000000000e+00    0,000000000e+00    0,000000000e+00    0,000000000e+00
      996000000   -3,180509508e-01   -3,270796537e-01    3,689888418e-01   -1,455699950e-01    0,000000000e+00    0,000000000e+00    0,000000000e+00    0,000000000e+00
     1010000000   -4,603252411e-01   -1,093330234e-01    2,224109918e-01   -3,425619304e-01    0,000000000e+00    0,000000000e+00    0,000000000e+00    0,000000000e+00
     1024000000   -4,138381183e-01    1,458752602e-01   -3,526211530e-02   -3,925553262e-01    0,000000000e+00    0,000000000e+00    0,000000000e+00    0,000000000e+00
     1038000000   -2,163212597e-01    2,876065373e-01   -2,471414953e-01   -2,613501251e-01    0,000000000e+00    0,000000000e+00    0,000000000e+00    0,000000000e+00
     1052000000   -1,054773200e-02    2,782127559e-01   -3,168608546e-01   -4,601867869e-02    0,000000000e+00    0,000000000e+00    0,000000000e+00    0,000000000e+00
     1066000000    1,351697296e-01    1,662274897e-01   -2,593229413e-01    1,418916881e-01    0,000000000e+00    0,000000000e+00    0,000000000e+00    0,000000000e+00
     1080000000    1,966813505e-01   -2,482341137e-03   -1,189313829e-01    2,640520930e-01    0,000000000e+00    0,000000000e+00    0,000000000e+00    0,000000000e+00
     1094000000    1,561688483e-01   -1,725861877e-01    6,309249997e-02    3,029468954e-01    0,000000000e+00    0,000000000e+00    0,000000000e+00    0,000000000e+00
     1108000000   -1,714235055e-03   -3,079664111e-01    2,780929804e-01    2,480633408e-01    0,000000000e+00    0,000000000e+00    0,000000000e+00    0,000000000e+00
     1122000000   -2,516078353e-01   -2,617536485e-01    4,709300697e-01    1,290377229e-02    0,000000000e+00    0,000000000e+00    0,000000000e+00    0,000000000e+00
     1136000000   -3,152535260e-01    3,143458813e-02    3,998784423e-01   -3,934890032e-01    0,000000000e+00    0,000000000e+00    0,000000000e+00    0,000000000e+00
     1150000000   -3,790671006e-02    1,532872319e-01    7,688845042e-03   -5,435341597e-01    0,000000000e+00    0,000000000e+00    0,000000000e+00    0,000000000e+00
     1164000000    1,247210652e-01   -6,583571434e-02   -2,758978009e-01   -3,810808361e-01    0,000000000e+00    0,000000000e+00    0,000000000e+00    0,000000000e+00
     1178000000    2,012180164e-02   -3,065429628e-01   -3,677693605e-01   -1,510112733e-01    0,000000000e+00    0,000000000e+00    0,000000000e+00    0,000000000e+00
     1192000000   -2,653654218e-01   -3,683091402e-01   -3,226987422e-01    6,096749380e-02    0,000000000e+00    0,000000000e+00    0,000000000e+00    0,000000000e+00
     1206000000   -5,183888078e-01   -1,655375957e-01   -1,637336463e-01    1,733933389e-01    0,000000000e+00    0,000000000e+00    0,000000000e+00    0,000000000e+00
     1220000000   -5,126065612e-01    1,709675938e-01    2,792573068e-03    1,568370312e-01    0,000000000e+00    0,000000000e+00    0,000000000e+00    0,000000000e+00
     1234000000   -2,888128757e-01    3,579310477e-01    6,446011364e-02    6,288057566e-02    0,000000000e+00    0,000000000e+00    0,000000000e+00    0,000000000e+00
     1248000000   -4,773993418e-02    3,583415747e-01    5,312119424e-02   -9,269464761e-03    0,000000000e+00    0,000000000e+00    0,000000000e+00    0,000000000e+00
     1262000000    1,255702376e-01    2,536391318e-01    1,840190217e-02   -2,534169704e-02    0,000000000e+00    0,000000000e+00    0,000000000e+00    0,000000000e+00
     1276000000    2,075954080e-01    1,000008509e-01   -9,496980347e-03    1,196294324e-03    0,000000000e+00    0,000000000e+00    0,000000000e+00    0,000000000e+00
     1290000000    2,244039178e-01   -7,209759206e-02    1,986028254e-02    5,729803815e-02    0,000000000e+00    0,000000000e+00    0,000000000e+00    0,000000000e+00
     1304000000    1,571246237e-01   -2,423046827e-01    1,358362883e-01    6,502394378e-02    0,000000000e+00    0,000000000e+00    0,000000000e+00    0,000000000e+00
     1318000000    3,274124861e-02   -3,376584351e-01    1,291916370e-01   -1,658274531e-01    0,000000000e+00    0,000000000e+00    0,000000000e+00    0,000000000e+00
     1332000000   -1,345927566e-01   -4,329218268e-01   -4,546559975e-02   -4,238246009e-02    0,000000000e+00    0,000000000e+00    0,000000000e+00    0,000000000e+00
     1346000000   -3,876783252e-01   -4,090952873e-01    3,314051032e-02    6,716024131e-02    0,000000000e+00    0,000000000e+00    0,000000000e+00    0,000000000e+00
     1360000000   -6,092787981e-01   -1,943590045e-01    1,310352832e-01    6,808746606e-02    0,000000000e+00    0,000000000e+00    0,000000000e+00    0,000000000e+00
     1374000000   -6,362372637e-01    1,217119917e-01    2,058500350e-01   -1,151543297e-02    0,000000000e+00    0,000000000e+00    0,000000000e+00    0,000000000e+00
     1388000000   -4,674549699e-01    3,719874620e-01    2,076818347e-01   -5,575622246e-02    0,000000000e+00    0,000000000e+00    0,000000000e+00    0,000000000e+00
     1402000000   -2,388790548e-01    4,605617225e-01    1,862380654e-01   -9,539728612e-02    0,000000000e+00    0,000000000e+00    0,000000000e+00    0,000000000e+00
     1416000000   -2,599445544e-02    4,145423174e-01    1,765113324e-01   -1,058619022e-01    0,000000000e+00    0,000000000e+00    0,000000000e+00    0,000000000e+00
     1430000000    1,221993342e-01    3,037546575e-01    1,932109445e-01   -1,072441116e-01    0,000000000e+00    0,000000000e+00    0,000000000e+00    0,000000000e+00
     1444000000    2,094297558e-01    1,544633210e-01    1,603646427e-01   -9,932056814e-02    0,000000000e+00    0,000000000e+00    0,000000000e+00    0,000000000e+00
     1458000000    2,364124954e-01   -2,247640863e-02    1,459842324e-01   -7,112778723e-02    0,000000000e+00    0,000000000e+00    0,000000000e+00    0,000000000e+00
     1472000000    1,901909858e-01   -2,036265880e-01    1,409507096e-01   -2,633931674e-02    0,000000000e+00    0,000000000e+00    0,000000000e+00    0,000000000e+00
     1486000000    5,465503410e-02   -3,754494190e-01    1,641062796e-01    3,790558130e-02    0,000000000e+00    0,000000000e+00    0,000000000e+00    0,000000000e+00
     1500000000   -1,703227460e-01   -4,879908562e-01    2,544983029e-01    1,054220796e-01    0,000000000e+00    0,000000000e+00    0,000000000e+00    0,000000000e+00
