! NanoVNA-App
! Date: 2025-09-25 15:32:36
! Start: 100MHz Stop: 1,5GHz Points: 101
! S-Parameter data: F S11 S21 S12 S22
# Hz S RI R 50
!     Frequency           S11_Real           S11_Imag           S21_Real           S21_Imag           S12_Real           S12_Imag           S22_Real           S22_Imag
      100000000   -2,887389623e-02   -4,181952681e-03    3,741223812e-01   -7,217654586e-01    0,000000000e+00    0,000000000e+00    0,000000000e+00    0,000000000e+00
      114000000   -1,651111618e-02    1,149824169e-02   -8,912398666e-02   -8,055267334e-01    0,000000000e+00    0,000000000e+00    0,000000000e+00    0,000000000e+00
      128000000    3,441225737e-03    1,059204619e-02   -5,146090984e-01   -6,206716299e-01    0,000000000e+00    0,000000000e+00    0,000000000e+00    0,000000000e+00
      142000000    1,454353146e-02   -2,947956324e-03   -7,672547698e-01   -2,365827113e-01    0,000000000e+00    0,000000000e+00    0,000000000e+00    0,000000000e+00
      156000000    1,426488347e-02   -1,477322169e-02   -7,639347315e-01    2,188760638e-01    0,000000000e+00    0,000000000e+00    0,000000000e+00    0,000000000e+00
      170000000    1,671881601e-02   -2,256049588e-02   -5,182675719e-01    6,049339175e-01    0,000000000e+00    0,000000000e+00    0,000000000e+00    0,000000000e+00
      184000000    2,099468373e-02   -3,703330085e-02   -1,014094278e-01    7,859464884e-01    0,000000000e+00    0,000000000e+00    0,000000000e+00    0,000000000e+00
      198000000    1,300800312e-02   -6,243275851e-02    3,435350358e-01    7,128297687e-01    0,000000000e+00    0,000000000e+00    0,000000000e+00    0,000000000e+00
      212000000   -1,865793951e-02   -8,128550649e-02    6,779432297e-01    4,099825025e-01    0,000000000e+00    0,000000000e+00    0,000000000e+00    0,000000000e+00
      226000000   -6,175699830e-02   -6,918165088e-02    7,958494425e-01   -3,059702367e-02    0,000000000e+00    0,000000000e+00    0,000000000e+00    0,000000000e+00
      240000000   -8,257031441e-02   -2,564262599e-02    6,464799047e-01   -4,669817984e-01    0,000000000e+00    0,000000000e+00    0,000000000e+00    0,000000000e+00
      254000000   -6,352750957e-02    1,724304818e-02    2,762059569e-01   -7,435963750e-01    0,000000000e+00    0,000000000e+00    0,000000000e+00    0,000000000e+00
      268000000   -2,377364226e-02    2,893757075e-02   -1,781444699e-01   -7,643640041e-01    0,000000000e+00    0,000000000e+00    0,000000000e+00    0,000000000e+00
      282000000    4,114986397e-03    1,197563298e-02   -5,619305372e-01   -5,354533195e-01    0,000000000e+00    0,000000000e+00    0,000000000e+00    0,000000000e+00
      296000000    9,676776826e-03   -7,886796258e-03   -7,597715259e-01   -1,395721436e-01    0,000000000e+00    0,000000000e+00    0,000000000e+00    0,000000000e+00
      310000000    1,132055093e-02   -1,626166329e-02   -7,126485705e-01    2,979052961e-01    0,000000000e+00    0,000000000e+00    0,000000000e+00    0,000000000e+00
      324000000    1,969032548e-02   -2,663338743e-02   -4,275193512e-01    6,376841068e-01    0,000000000e+00    0,000000000e+00    0,000000000e+00    0,000000000e+00
      338000000    2,566835284e-02   -5,193938687e-02   -9,133281186e-03    7,607482076e-01    0,000000000e+00    0,000000000e+00    0,000000000e+00    0,000000000e+00
      352000000    7,419069763e-03   -8,481493592e-02    4,060098827e-01    6,391675472e-01    0,000000000e+00    0,000000000e+00    0,000000000e+00    0,000000000e+00
      366000000   -3,472987562e-02   -9,564538300e-02    6,904317141e-01    3,114977181e-01    0,000000000e+00    0,000000000e+00    0,000000000e+00    0,000000000e+00
      380000000   -7,098238170e-02   -7,109978050e-02    7,473354936e-01   -1,262419373e-01    0,000000000e+00    0,000000000e+00    0,000000000e+00    0,000000000e+00
      394000000   -7,279381156e-02   -3,234815598e-02    5,466643572e-01   -5,222174525e-01    0,000000000e+00    0,000000000e+00    0,000000000e+00    0,000000000e+00
      408000000   -4,638740793e-02   -1,609032601e-02    1,609753817e-01   -7,319818735e-01    0,000000000e+00    0,000000000e+00    0,000000000e+00    0,000000000e+00
      422000000   -2,846138738e-02   -3,178470582e-02   -2,674188614e-01   -6,941887140e-01    0,000000000e+00    0,000000000e+00    0,000000000e+00    0,000000000e+00
      436000000   -4,058811069e-02   -5,200453103e-02   -6,037479639e-01   -4,316885173e-01    0,000000000e+00    0,000000000e+00    0,000000000e+00    0,000000000e+00
      450000000   -6,770717353e-02   -4,387944937e-02   -7,411255240e-01   -2,154998854e-02    0,000000000e+00    0,000000000e+00    0,000000000e+00    0,000000000e+00
      464000000   -7,336093485e-02   -1,170515176e-02   -6,184999943e-01    3,977637887e-01    0,000000000e+00    0,000000000e+00    0,000000000e+00    0,000000000e+00
      478000000   -4,768795148e-02    1,205254626e-02   -2,823363543e-01    6,676739454e-01    0,000000000e+00    0,000000000e+00    0,000000000e+00    0,000000000e+00
      492000000   -1,558049023e-02    5,818175618e-03    1,375465840e-01    7,011059523e-01    0,000000000e+00    0,000000000e+00    0,000000000e+00    0,000000000e+00
      506000000   -2,945865737e-03   -1,571467891e-02    4,979596138e-01    5,024320483e-01    0,000000000e+00    0,000000000e+00    0,000000000e+00    0,000000000e+00
      520000000   -5,231558811e-03   -3,162308410e-02    6,870747209e-01    1,410711408e-01    0,000000000e+00    0,000000000e+00    0,000000000e+00    0,000000000e+00
      534000000   -3,856088966e-03   -3,848892450e-02    6,439745426e-01   -2,634806633e-01    0,000000000e+00    0,000000000e+00    0,000000000e+00    0,000000000e+00
      548000000    6,176125724e-03   -5,377333239e-02    3,813389540e-01   -5,683571696e-01    0,000000000e+00    0,000000000e+00    0,000000000e+00    0,000000000e+00
      562000000    3,456753911e-03   -8,953528851e-02    2,960267244e-03   -6,728287339e-01    0,000000000e+00    0,000000000e+00    0,000000000e+00    0,000000000e+00
      576000000   -3,441718966e-02   -1,244774908e-01   -3,698997200e-01   -5,581721067e-01    0,000000000e+00    0,000000000e+00    0,000000000e+00    0,000000000e+00
      590000000   -9,635682404e-02   -1,222621500e-01   -6,210725904e-01   -2,657859027e-01    0,000000000e+00    0,000000000e+00    0,000000000e+00    0,000000000e+00
      604000000   -1,393359900e-01   -7,199462503e-02   -6,647198200e-01    1,375463605e-01    0,000000000e+00    0,000000000e+00    0,000000000e+00    0,000000000e+00
      618000000   -1,299072653e-01   -8,857668377e-03   -4,649133086e-01    4,943872392e-01    0,000000000e+00    0,000000000e+00    0,000000000e+00    0,000000000e+00
      632000000   -8,405367285e-02    1,644487493e-02   -9,956112504e-02    6,632537842e-01    0,000000000e+00    0,000000000e+00    0,000000000e+00    0,000000000e+00
      646000000   -5,111027136e-02    1,185305417e-03    2,868823409e-01    5,959957242e-01    0,000000000e+00    0,000000000e+00    0,000000000e+00    0,000000000e+00
      660000000   -5,362845585e-02   -2,146804705e-02    5,669986010e-01    3,226258457e-01    0,000000000e+00    0,000000000e+00    0,000000000e+00    0,000000000e+00
      674000000   -6,966654211e-02   -1,756620221e-02    6,432499886e-01   -6,567326188e-02    0,000000000e+00    0,000000000e+00    0,000000000e+00    0,000000000e+00
      688000000   -6,819713116e-02    9,282931685e-03    4,714110494e-01   -4,278685451e-01    0,000000000e+00    0,000000000e+00    0,000000000e+00    0,000000000e+00
      702000000   -3,716374189e-02    2,758559398e-02    1,146570593e-01   -6,140207648e-01    0,000000000e+00    0,000000000e+00    0,000000000e+00    0,000000000e+00
      716000000    1,973437844e-03    1,836331189e-02   -2,648297846e-01   -5,471737385e-01    0,000000000e+00    0,000000000e+00    0,000000000e+00    0,000000000e+00
      730000000    3,700969741e-02   -1,153613441e-02   -5,281188488e-01   -2,689616382e-01    0,000000000e+00    0,000000000e+00    0,000000000e+00    0,000000000e+00
      744000000    6,575894356e-02   -6,233776361e-02   -5,646514297e-01    1,065045521e-01    0,000000000e+00    0,000000000e+00    0,000000000e+00    0,000000000e+00
      758000000    6,680966914e-02   -1,518413275e-01   -3,630395830e-01    4,100268781e-01    0,000000000e+00    0,000000000e+00    0,000000000e+00    0,000000000e+00
      772000000   -1,309879031e-02   -2,621763051e-01   -3,412033617e-02    5,155357122e-01    0,000000000e+00    0,000000000e+00    0,000000000e+00    0,000000000e+00
      786000000   -2,058430463e-01   -3,022633493e-01    2,745489776e-01    3,965251744e-01    0,000000000e+00    0,000000000e+00    0,000000000e+00    0,000000000e+00
      800000000   -4,250565171e-01   -1,293438226e-01    4,165847003e-01    9,915404767e-02    0,000000000e+00    0,000000000e+00    0,000000000e+00    0,000000000e+00
      814000000   -3,892562985e-01    2,224845290e-01    2,826443315e-01   -1,731318831e-01    0,000000000e+00    0,000000000e+00    0,000000000e+00    0,000000000e+00
      828000000   -4,969467968e-02    3,683888018e-01    5,530209467e-02   -1,891186982e-01    0,000000000e+00    0,000000000e+00    0,000000000e+00    0,000000000e+00
      842000000    2,349901199e-01    1,856162697e-01   -1,761605591e-02   -7,105953246e-02    0,000000000e+00    0,000000000e+00    0,000000000e+00    0,000000000e+00
      856000000    2,802911699e-01   -1,242110357e-01    4,525579140e-02   -1,248241961e-02    0,000000000e+00    0,000000000e+00    0,000000000e+00    0,000000000e+00
      870000000    7,506414503e-02   -3,763668239e-01    1,131324470e-01   -9,059799463e-02    0,000000000e+00    0,000000000e+00    0,000000000e+00    0,000000000e+00
      884000000   -2,953346074e-01   -3,619970381e-01    2,754847705e-02   -2,451780885e-01    0,000000000e+00    0,000000000e+00    0,000000000e+00    0,000000000e+00
      898000000   -4,716521204e-01    9,513023309e-03   -2,221482247e-01   -2,270896733e-01    0,000000000e+00    0,000000000e+00    0,000000000e+00    0,000000000e+00
      912000000   -2,259782404e-01    2,937752604e-01   -3,464136720e-01    5,939864740e-02    0,000000000e+00    0,000000000e+00    0,000000000e+00    0,000000000e+00
      926000000    6,819680333e-02    2,630504668e-01   -2,163624316e-01    2,630972564e-01    0,000000000e+00    0,000000000e+00    0,000000000e+00    0,000000000e+00
      940000000    2,175930142e-01    8,053898066e-02   -3,615004569e-02    3,300169408e-01    0,000000000e+00    0,000000000e+00    0,000000000e+00    0,000000000e+00
      954000000    2,209386379e-01   -1,291886866e-01    1,328925490e-01    3,075684905e-01    0,000000000e+00    0,000000000e+00    0,000000000e+00    0,000000000e+00
      968000000    1,139064208e-01   -2,998513877e-01    2,710984945e-01    2,203974724e-01    0,000000000e+00    0,000000000e+00    0,000000000e+00    0,000000000e+00
      982000000   -8,403111249e-02   -3,891385794e-01    3,645800650e-01    6,395952404e-02    0,000000000e+00    0,000000000e+00    0,000000000e+00    0,000000000e+00
      996000000   -3,149931133e-01   -3,308549225e-01    3,715127707e-01   -1,455747932e-01    0,000000000e+00    0,000000000e+00    0,000000000e+00    0,000000000e+00
     1010000000   -4,606822431e-01   -1,091851816e-01    2,208300233e-01   -3,420972824e-01    0,000000000e+00    0,000000000e+00    0,000000000e+00    0,000000000e+00
     1024000000   -4,160520136e-01    1,457769126e-01   -3,253545612e-02   -3,912257254e-01    0,000000000e+00    0,000000000e+00    0,000000000e+00    0,000000000e+00
     1038000000   -2,185959369e-01    2,954975069e-01   -2,479570359e-01   -2,601706982e-01    0,000000000e+00    0,000000000e+00    0,000000000e+00    0,000000000e+00
     1052000000   -1,158510894e-02    2,798509300e-01   -3,179104924e-01   -4,591819271e-02    0,000000000e+00    0,000000000e+00    0,000000000e+00    0,000000000e+00
     1066000000    1,339154392e-01    1,624382734e-01   -2,598562539e-01    1,403100938e-01    0,000000000e+00    0,000000000e+00    0,000000000e+00    0,000000000e+00
     1080000000    1,941716373e-01    1,465059584e-03   -1,194568872e-01    2,637095749e-01    0,000000000e+00    0,000000000e+00    0,000000000e+00    0,000000000e+00
     1094000000    1,508449167e-01   -1,732367575e-01    6,588478386e-02    3,053658605e-01    0,000000000e+00    0,000000000e+00    0,000000000e+00    0,000000000e+00
     1108000000   -4,462031648e-03   -3,068261743e-01    2,774264514e-01    2,457907647e-01    0,000000000e+00    0,000000000e+00    0,000000000e+00    0,000000000e+00
     1122000000   -2,488110811e-01   -2,598990500e-01    4,731827080e-01    1,203676034e-02    0,000000000e+00    0,000000000e+00    0,000000000e+00    0,000000000e+00
     1136000000   -3,221814632e-01    3,642757982e-02    3,990426958e-01   -3,934923708e-01    0,000000000e+00    0,000000000e+00    0,000000000e+00    0,000000000e+00
     1150000000   -3,746707365e-02    1,495782435e-01    6,488570478e-03   -5,442729592e-01    0,000000000e+00    0,000000000e+00    0,000000000e+00    0,000000000e+00
     1164000000    1,219288558e-01   -6,270303577e-02   -2,757435143e-01   -3,786180317e-01    0,000000000e+00    0,000000000e+00    0,000000000e+00    0,000000000e+00
     1178000000    1,595981233e-02   -3,036124408e-01   -3,669347465e-01   -1,484777331e-01    0,000000000e+00    0,000000000e+00    0,000000000e+00    0,000000000e+00
     1192000000   -2,711613476e-01   -3,729885519e-01   -3,251461089e-01    5,583528057e-02    0,000000000e+00    0,000000000e+00    0,000000000e+00    0,000000000e+00
     1206000000   -5,254979730e-01   -1,623750776e-01   -1,652397513e-01    1,816427708e-01    0,000000000e+00    0,000000000e+00    0,000000000e+00    0,000000000e+00
     1220000000   -5,136262774e-01    1,779413670e-01   -2,941246144e-03    1,599602252e-01    0,000000000e+00    0,000000000e+00    0,000000000e+00    0,000000000e+00
     1234000000   -2,819134593e-01    3,577854037e-01    7,163108885e-02    6,023259088e-02    0,000000000e+00    0,000000000e+00    0,000000000e+00    0,000000000e+00
     1248000000   -3,989559039e-02    3,642588854e-01    5,622669309e-02   -3,293730551e-03    0,000000000e+00    0,000000000e+00    0,000000000e+00    0,000000000e+00
     1262000000    1,217017397e-01    2,524573207e-01    1,714680344e-02   -2,197727747e-02    0,000000000e+00    0,000000000e+00    0,000000000e+00    0,000000000e+00
     1276000000    2,076344341e-01    1,047972366e-01   -3,688906552e-03    4,719928838e-03    0,000000000e+00    0,000000000e+00    0,000000000e+00    0,000000000e+00
     1290000000    2,256813943e-01   -7,478868216e-02    2,206104062e-02    5,212704092e-02    0,000000000e+00    0,000000000e+00    0,000000000e+00    0,000000000e+00
     1304000000    1,563753039e-01   -2,397623509e-01    1,309023947e-01    7,040234655e-02    0,000000000e+00    0,000000000e+00    0,000000000e+00    0,000000000e+00
     1318000000    3,472895548e-02   -3,377242088e-01    1,323844194e-01   -1,665165424e-01    0,000000000e+00    0,000000000e+00    0,000000000e+00    0,000000000e+00
     1332000000   -1,291267127e-01   -4,406288564e-01   -3,589117154e-02   -4,735307023e-02    0,000000000e+00    0,000000000e+00    0,000000000e+00    0,000000000e+00
     1346000000   -3,971064687e-01   -4,113307297e-01    2,107492462e-02    6,450963020e-02    0,000000000e+00    0,000000000e+00    0,000000000e+00    0,000000000e+00
     1360000000   -6,160526276e-01   -1,937128305e-01    1,380046755e-01    6,432794034e-02    0,000000000e+00    0,000000000e+00    0,000000000e+00    0,000000000e+00
     1374000000   -6,338357925e-01    1,288003176e-01    2,032274902e-01    9,196231142e-03    0,000000000e+00    0,000000000e+00    0,000000000e+00    0,000000000e+00
     1388000000   -4,727125168e-01    3,645996153e-01    2,016526610e-01   -6,775663048e-02    0,000000000e+00    0,000000000e+00    0,000000000e+00    0,000000000e+00
     1402000000   -2,338083088e-01    4,472934902e-01    1,871590614e-01   -1,043718085e-01    0,000000000e+00    0,000000000e+00    0,000000000e+00    0,000000000e+00
     1416000000   -2,906810679e-02    4,080490172e-01    1,714128554e-01   -1,133227497e-01    0,000000000e+00    0,000000000e+00    0,000000000e+00    0,000000000e+00
     1430000000    1,285839677e-01    2,952876687e-01    1,628748775e-01   -8,747828752e-02    0,000000000e+00    0,000000000e+00    0,000000000e+00    0,000000000e+00
     1444000000    2,056241035e-01    1,538715959e-01    1,631521732e-01   -9,249877930e-02    0,000000000e+00    0,000000000e+00    0,000000000e+00    0,000000000e+00
     1458000000    2,325474322e-01   -1,800973900e-02    1,358064562e-01   -6,833866984e-02    0,000000000e+00    0,000000000e+00    0,000000000e+00    0,000000000e+00
     1472000000    1,835618913e-01   -2,005640417e-01    1,392321289e-01   -4,033917561e-02    0,000000000e+00    0,000000000e+00    0,000000000e+00    0,000000000e+00
     1486000000    5,822907388e-02   -3,786828816e-01    1,768341660e-01    2,767976746e-02    0,000000000e+00    0,000000000e+00    0,000000000e+00    0,000000000e+00
     1500000000   -1,657720655e-01   -4,904355407e-01    2,685680389e-01    8,984786272e-02    0,000000000e+00    0,000000000e+00    0,000000000e+00    0,000000000e+00
