! NanoVNA-App
! Date: 2025-09-25 15:32:01
! Start: 100MHz Stop: 1,5GHz Points: 101
! S-Parameter data: F S11 S21 S12 S22
# Hz S RI R 50
!     Frequency           S11_Real           S11_Imag           S21_Real           S21_Imag           S12_Real           S12_Imag           S22_Real           S22_Imag
      100000000   -2,886766382e-02   -4,168333486e-03    3,740936518e-01   -7,217234373e-01    0,000000000e+00    0,000000000e+00    0,000000000e+00    0,000000000e+00
      114000000   -1,654823683e-02    1,151688024e-02   -8,910492063e-02   -8,054640293e-01    0,000000000e+00    0,000000000e+00    0,000000000e+00    0,000000000e+00
      128000000    3,422990441e-03    1,052796189e-02   -5,146077275e-01   -6,205056906e-01    0,000000000e+00    0,000000000e+00    0,000000000e+00    0,000000000e+00
      142000000    1,454924420e-02   -2,939474536e-03   -7,671755552e-01   -2,365588844e-01    0,000000000e+00    0,000000000e+00    0,000000000e+00    0,000000000e+00
      156000000    1,441823598e-02   -1,484014187e-02   -7,645446658e-01    2,180284709e-01    0,000000000e+00    0,000000000e+00    0,000000000e+00    0,000000000e+00
      170000000    1,673563756e-02   -2,253120020e-02   -5,180640817e-01    6,047838926e-01    0,000000000e+00    0,000000000e+00    0,000000000e+00    0,000000000e+00
      184000000    2,103514411e-02   -3,707066178e-02   -1,014892012e-01    7,864579558e-01    0,000000000e+00    0,000000000e+00    0,000000000e+00    0,000000000e+00
      198000000    1,298396662e-02   -6,245272607e-02    3,434904814e-01    7,124306560e-01    0,000000000e+00    0,000000000e+00    0,000000000e+00    0,000000000e+00
      212000000   -1,864221320e-02   -8,130399883e-02    6,782670021e-01    4,099721014e-01    0,000000000e+00    0,000000000e+00    0,000000000e+00    0,000000000e+00
      226000000   -6,169657782e-02   -6,914340705e-02    7,958195806e-01   -3,055375814e-02    0,000000000e+00    0,000000000e+00    0,000000000e+00    0,000000000e+00
      240000000   -8,261335641e-02   -2,557366155e-02    6,460589170e-01   -4,671420753e-01    0,000000000e+00    0,000000000e+00    0,000000000e+00    0,000000000e+00
      254000000   -6,349335611e-02    1,721011102e-02    2,761805058e-01   -7,431898713e-01    0,000000000e+00    0,000000000e+00    0,000000000e+00    0,000000000e+00
      268000000   -2,385788038e-02    2,896168269e-02   -1,780514717e-01   -7,644640803e-01    0,000000000e+00    0,000000000e+00    0,000000000e+00    0,000000000e+00
      282000000    4,202567972e-03    1,200995408e-02   -5,616745949e-01   -5,354755521e-01    0,000000000e+00    0,000000000e+00    0,000000000e+00    0,000000000e+00
      296000000    9,711818770e-03   -7,890697569e-03   -7,597045302e-01   -1,396207511e-01    0,000000000e+00    0,000000000e+00    0,000000000e+00    0,000000000e+00
      310000000    1,134784613e-02   -1,617006026e-02   -7,119666934e-01    2,992831469e-01    0,000000000e+00    0,000000000e+00    0,000000000e+00    0,000000000e+00
      324000000    1,969258301e-02   -2,663695253e-02   -4,277903140e-01    6,379271150e-01    0,000000000e+00    0,000000000e+00    0,000000000e+00    0,000000000e+00
      338000000    2,542492934e-02   -5,195441097e-02   -7,317788433e-03    7,614241838e-01    0,000000000e+00    0,000000000e+00    0,000000000e+00    0,000000000e+00
      352000000    7,249854971e-03   -8,503960818e-02    4,068183899e-01    6,389137506e-01    0,000000000e+00    0,000000000e+00    0,000000000e+00    0,000000000e+00
      366000000   -3,464157134e-02   -9,565692395e-02    6,906305552e-01    3,107386827e-01    0,000000000e+00    0,000000000e+00    0,000000000e+00    0,000000000e+00
      380000000   -7,079036534e-02   -7,110879570e-02    7,477389574e-01   -1,265328228e-01    0,000000000e+00    0,000000000e+00    0,000000000e+00    0,000000000e+00
      394000000   -7,230401039e-02   -3,232635185e-02    5,469324589e-01   -5,224820375e-01    0,000000000e+00    0,000000000e+00    0,000000000e+00    0,000000000e+00
      408000000   -4,637572542e-02   -1,599977538e-02    1,606607586e-01   -7,326423526e-01    0,000000000e+00    0,000000000e+00    0,000000000e+00    0,000000000e+00
      422000000   -2,861479484e-02   -3,188200668e-02   -2,683140635e-01   -6,947619319e-01    0,000000000e+00    0,000000000e+00    0,000000000e+00    0,000000000e+00
      436000000   -4,083018005e-02   -5,183233321e-02   -6,043426394e-01   -4,322470725e-01    0,000000000e+00    0,000000000e+00    0,000000000e+00    0,000000000e+00
      450000000   -6,750481576e-02   -4,384063557e-02   -7,406318188e-01   -2,137615718e-02    0,000000000e+00    0,000000000e+00    0,000000000e+00    0,000000000e+00
      464000000   -7,321938127e-02   -1,126659382e-02   -6,185344458e-01    3,979895413e-01    0,000000000e+00    0,000000000e+00    0,000000000e+00    0,000000000e+00
      478000000   -4,763630778e-02    1,143373735e-02   -2,825219631e-01    6,674612761e-01    0,000000000e+00    0,000000000e+00    0,000000000e+00    0,000000000e+00
      492000000   -1,595143043e-02    6,049972959e-03    1,370064914e-01    7,014459968e-01    0,000000000e+00    0,000000000e+00    0,000000000e+00    0,000000000e+00
      506000000   -2,429945627e-03   -1,552678552e-02    4,990283847e-01    5,023812056e-01    0,000000000e+00    0,000000000e+00    0,000000000e+00    0,000000000e+00
      520000000   -5,217014346e-03   -3,141206503e-02    6,886419654e-01    1,414611638e-01    0,000000000e+00    0,000000000e+00    0,000000000e+00    0,000000000e+00
      534000000   -4,091072362e-03   -3,805957735e-02    6,431010365e-01   -2,625291646e-01    0,000000000e+00    0,000000000e+00    0,000000000e+00    0,000000000e+00
      548000000    6,414091215e-03   -5,371605232e-02    3,811703920e-01   -5,669208765e-01    0,000000000e+00    0,000000000e+00    0,000000000e+00    0,000000000e+00
      562000000    3,154583974e-03   -8,969707787e-02    2,144729253e-03   -6,719512343e-01    0,000000000e+00    0,000000000e+00    0,000000000e+00    0,000000000e+00
      576000000   -3,387504444e-02   -1,247789264e-01   -3,686911464e-01   -5,572006702e-01    0,000000000e+00    0,000000000e+00    0,000000000e+00    0,000000000e+00
      590000000   -9,642616659e-02   -1,223204583e-01   -6,204316020e-01   -2,628661096e-01    0,000000000e+00    0,000000000e+00    0,000000000e+00    0,000000000e+00
      604000000   -1,392891854e-01   -7,175988704e-02   -6,649609208e-01    1,383932978e-01    0,000000000e+00    0,000000000e+00    0,000000000e+00    0,000000000e+00
      618000000   -1,290925294e-01   -9,480979294e-03   -4,644942284e-01    4,958183467e-01    0,000000000e+00    0,000000000e+00    0,000000000e+00    0,000000000e+00
      632000000   -8,454288542e-02    1,663940586e-02   -9,851851314e-02    6,636274457e-01    0,000000000e+00    0,000000000e+00    0,000000000e+00    0,000000000e+00
      646000000   -5,083576590e-02    8,225886268e-04    2,877877653e-01    5,960786343e-01    0,000000000e+00    0,000000000e+00    0,000000000e+00    0,000000000e+00
      660000000   -5,360575020e-02   -2,138279565e-02    5,675447583e-01    3,227992654e-01    0,000000000e+00    0,000000000e+00    0,000000000e+00    0,000000000e+00
      674000000   -7,080401480e-02   -1,757988147e-02    6,430009007e-01   -6,553707272e-02    0,000000000e+00    0,000000000e+00    0,000000000e+00    0,000000000e+00
      688000000   -6,879060715e-02    8,396680467e-03    4,716123939e-01   -4,283306301e-01    0,000000000e+00    0,000000000e+00    0,000000000e+00    0,000000000e+00
      702000000   -3,701860085e-02    2,609638125e-02    1,133126616e-01   -6,093940735e-01    0,000000000e+00    0,000000000e+00    0,000000000e+00    0,000000000e+00
      716000000    3,057623981e-03    1,766945794e-02   -2,638780475e-01   -5,469974279e-01    0,000000000e+00    0,000000000e+00    0,000000000e+00    0,000000000e+00
      730000000    3,758948669e-02   -1,063476689e-02   -5,283715725e-01   -2,686693966e-01    0,000000000e+00    0,000000000e+00    0,000000000e+00    0,000000000e+00
      744000000    6,474340707e-02   -6,266677380e-02   -5,644618273e-01    1,064409614e-01    0,000000000e+00    0,000000000e+00    0,000000000e+00    0,000000000e+00
      758000000    6,655209512e-02   -1,530798674e-01   -3,628765941e-01    4,097588658e-01    0,000000000e+00    0,000000000e+00    0,000000000e+00    0,000000000e+00
      772000000   -1,232622005e-02   -2,629842460e-01   -3,509968147e-02    5,153076649e-01    0,000000000e+00    0,000000000e+00    0,000000000e+00    0,000000000e+00
      786000000   -2,058435977e-01   -3,030452430e-01    2,747958004e-01    3,958151639e-01    0,000000000e+00    0,000000000e+00    0,000000000e+00    0,000000000e+00
      800000000   -4,251529872e-01   -1,297271103e-01    4,168330133e-01    9,915010631e-02    0,000000000e+00    0,000000000e+00    0,000000000e+00    0,000000000e+00
      814000000   -3,897523582e-01    2,204189003e-01    2,824101746e-01   -1,727297306e-01    0,000000000e+00    0,000000000e+00    0,000000000e+00    0,000000000e+00
      828000000   -5,020662025e-02    3,680293262e-01    5,540323630e-02   -1,890779436e-01    0,000000000e+00    0,000000000e+00    0,000000000e+00    0,000000000e+00
      842000000    2,350958735e-01    1,853880584e-01   -1,688214950e-02   -7,084030658e-02    0,000000000e+00    0,000000000e+00    0,000000000e+00    0,000000000e+00
      856000000    2,807014287e-01   -1,246685758e-01    4,533911869e-02   -1,308786776e-02    0,000000000e+00    0,000000000e+00    0,000000000e+00    0,000000000e+00
      870000000    7,525905222e-02   -3,758697212e-01    1,137685329e-01   -9,097139537e-02    0,000000000e+00    0,000000000e+00    0,000000000e+00    0,000000000e+00
      884000000   -2,954717278e-01   -3,611551821e-01    2,829211578e-02   -2,457727790e-01    0,000000000e+00    0,000000000e+00    0,000000000e+00    0,000000000e+00
      898000000   -4,713437855e-01    8,745756932e-03   -2,210814953e-01   -2,274004817e-01    0,000000000e+00    0,000000000e+00    0,000000000e+00    0,000000000e+00
      912000000   -2,256609201e-01    2,949061394e-01   -3,465417027e-01    5,960806832e-02    0,000000000e+00    0,000000000e+00    0,000000000e+00    0,000000000e+00
      926000000    6,580992788e-02    2,647358179e-01   -2,184634954e-01    2,656229436e-01    0,000000000e+00    0,000000000e+00    0,000000000e+00    0,000000000e+00
      940000000    2,181535363e-01    8,075087517e-02   -3,561504930e-02    3,306406438e-01    0,000000000e+00    0,000000000e+00    0,000000000e+00    0,000000000e+00
      954000000    2,232400626e-01   -1,252107322e-01    1,291003823e-01    3,072803915e-01    0,000000000e+00    0,000000000e+00    0,000000000e+00    0,000000000e+00
      968000000    1,153257489e-01   -2,982591093e-01    2,692493200e-01    2,193384320e-01    0,000000000e+00    0,000000000e+00    0,000000000e+00    0,000000000e+00
      982000000   -7,990229875e-02   -3,883607090e-01    3,656277359e-01    6,519185007e-02    0,000000000e+00    0,000000000e+00    0,000000000e+00    0,000000000e+00
      996000000   -3,144755065e-01   -3,275736868e-01    3,686506152e-01   -1,441951692e-01    0,000000000e+00    0,000000000e+00    0,000000000e+00    0,000000000e+00
     1010000000   -4,617697001e-01   -1,135738567e-01    2,230085731e-01   -3,430110812e-01    0,000000000e+00    0,000000000e+00    0,000000000e+00    0,000000000e+00
     1024000000   -4,094878137e-01    1,490473002e-01   -3,318201005e-02   -3,916141987e-01    0,000000000e+00    0,000000000e+00    0,000000000e+00    0,000000000e+00
     1038000000   -2,147435397e-01    2,921063602e-01   -2,485630512e-01   -2,606737614e-01    0,000000000e+00    0,000000000e+00    0,000000000e+00    0,000000000e+00
     1052000000   -8,647396229e-03    2,757849991e-01   -3,175739348e-01   -4,510203004e-02    0,000000000e+00    0,000000000e+00    0,000000000e+00    0,000000000e+00
     1066000000    1,369556636e-01    1,627295017e-01   -2,549070120e-01    1,433328986e-01    0,000000000e+00    0,000000000e+00    0,000000000e+00    0,000000000e+00
     1080000000    1,919716895e-01   -1,277785748e-03   -1,183068901e-01    2,646936774e-01    0,000000000e+00    0,000000000e+00    0,000000000e+00    0,000000000e+00
     1094000000    1,539378911e-01   -1,771828532e-01    6,523351371e-02    3,043855727e-01    0,000000000e+00    0,000000000e+00    0,000000000e+00    0,000000000e+00
     1108000000   -2,827635326e-04   -3,054088652e-01    2,756535113e-01    2,450968176e-01    0,000000000e+00    0,000000000e+00    0,000000000e+00    0,000000000e+00
     1122000000   -2,449728251e-01   -2,619817853e-01    4,708987474e-01    1,550072897e-02    0,000000000e+00    0,000000000e+00    0,000000000e+00    0,000000000e+00
     1136000000   -3,174091876e-01    3,471604735e-02    3,997710645e-01   -3,932507932e-01    0,000000000e+00    0,000000000e+00    0,000000000e+00    0,000000000e+00
     1150000000   -3,775231913e-02    1,493997276e-01    7,197541185e-03   -5,426507592e-01    0,000000000e+00    0,000000000e+00    0,000000000e+00    0,000000000e+00
     1164000000    1,274660975e-01   -6,167635694e-02   -2,727044821e-01   -3,781962991e-01    0,000000000e+00    0,000000000e+00    0,000000000e+00    0,000000000e+00
     1178000000    1,670502685e-02   -3,034626842e-01   -3,683744073e-01   -1,525252908e-01    0,000000000e+00    0,000000000e+00    0,000000000e+00    0,000000000e+00
     1192000000   -2,680832446e-01   -3,707588315e-01   -3,224646151e-01    5,751449987e-02    0,000000000e+00    0,000000000e+00    0,000000000e+00    0,000000000e+00
     1206000000   -5,174165964e-01   -1,571773291e-01   -1,627298594e-01    1,831140369e-01    0,000000000e+00    0,000000000e+00    0,000000000e+00    0,000000000e+00
     1220000000   -5,039292574e-01    1,762918979e-01    1,677196589e-03    1,584658176e-01    0,000000000e+00    0,000000000e+00    0,000000000e+00    0,000000000e+00
     1234000000   -2,838497758e-01    3,669985533e-01    7,224121690e-02    6,294587255e-02    0,000000000e+00    0,000000000e+00    0,000000000e+00    0,000000000e+00
     1248000000   -4,628503323e-02    3,677272201e-01    5,301533267e-02   -2,779126400e-03    0,000000000e+00    0,000000000e+00    0,000000000e+00    0,000000000e+00
     1262000000    1,282198131e-01    2,564283907e-01    1,960988715e-02   -2,193958685e-02    0,000000000e+00    0,000000000e+00    0,000000000e+00    0,000000000e+00
     1276000000    2,146599889e-01    1,016209200e-01   -3,116482869e-03    6,481003016e-03    0,000000000e+00    0,000000000e+00    0,000000000e+00    0,000000000e+00
     1290000000    2,233475447e-01   -7,584360242e-02    1,775884256e-02    5,489519984e-02    0,000000000e+00    0,000000000e+00    0,000000000e+00    0,000000000e+00
     1304000000    1,538320780e-01   -2,412708402e-01    1,345276237e-01    6,898667663e-02    0,000000000e+00    0,000000000e+00    0,000000000e+00    0,000000000e+00
     1318000000    3,348610178e-02   -3,333079815e-01    1,233507991e-01   -1,645496935e-01    0,000000000e+00    0,000000000e+00    0,000000000e+00    0,000000000e+00
     1332000000   -1,327528208e-01   -4,411205649e-01   -4,285974056e-02   -4,991074279e-02    0,000000000e+00    0,000000000e+00    0,000000000e+00    0,000000000e+00
     1346000000   -3,941127658e-01   -4,085594118e-01    2,219195478e-02    6,197188795e-02    0,000000000e+00    0,000000000e+00    0,000000000e+00    0,000000000e+00
     1360000000   -6,117954254e-01   -1,851557940e-01    1,334481239e-01    7,224311680e-02    0,000000000e+00    0,000000000e+00    0,000000000e+00    0,000000000e+00
     1374000000   -6,345006227e-01    1,220147312e-01    2,006665319e-01   -5,298474338e-03    0,000000000e+00    0,000000000e+00    0,000000000e+00    0,000000000e+00
     1388000000   -4,663915932e-01    3,681692481e-01    2,113675922e-01   -6,583815068e-02    0,000000000e+00    0,000000000e+00    0,000000000e+00    0,000000000e+00
     1402000000   -2,387930751e-01    4,514185786e-01    1,785390228e-01   -9,967365116e-02    0,000000000e+00    0,000000000e+00    0,000000000e+00    0,000000000e+00
     1416000000   -2,509698831e-02    4,114299119e-01    1,682587117e-01   -1,158012152e-01    0,000000000e+00    0,000000000e+00    0,000000000e+00    0,000000000e+00
     1430000000    1,188512295e-01    3,032945395e-01    1,677686721e-01   -8,921316266e-02    0,000000000e+00    0,000000000e+00    0,000000000e+00    0,000000000e+00
     1444000000    2,133136988e-01    1,496636719e-01    1,624884903e-01   -9,174881876e-02    0,000000000e+00    0,000000000e+00    0,000000000e+00    0,000000000e+00
     1458000000    2,382340729e-01   -1,495961659e-02    1,458188742e-01   -7,516785711e-02    0,000000000e+00    0,000000000e+00    0,000000000e+00    0,000000000e+00
     1472000000    1,882937998e-01   -2,005808651e-01    1,407066286e-01   -1,968790404e-02    0,000000000e+00    0,000000000e+00    0,000000000e+00    0,000000000e+00
     1486000000    7,030154020e-02   -3,741264939e-01    1,839997321e-01    3,218379244e-02    0,000000000e+00    0,000000000e+00    0,000000000e+00    0,000000000e+00
     1500000000   -1,669974029e-01   -4,950967729e-01    2,385361791e-01    7,855330408e-02    0,000000000e+00    0,000000000e+00    0,000000000e+00    0,000000000e+00
