! NanoVNA-App
! Date: 2025-09-25 15:36:32
! Start: 100MHz Stop: 1,5GHz Points: 101
! S-Parameter data: F S11 S21 S12 S22
# Hz S RI R 50
!     Frequency           S11_Real           S11_Imag           S21_Real           S21_Imag           S12_Real           S12_Imag           S22_Real           S22_Imag
      100000000   -2,881438471e-02   -4,179215990e-03    3,741114736e-01   -7,217903137e-01    0,000000000e+00    0,000000000e+00    0,000000000e+00    0,000000000e+00
      114000000   -1,648308896e-02    1,151286345e-02   -8,905586600e-02   -8,054381013e-01    0,000000000e+00    0,000000000e+00    0,000000000e+00    0,000000000e+00
      128000000    3,532029688e-03    1,055584569e-02   -5,147721767e-01   -6,205411553e-01    0,000000000e+00    0,000000000e+00    0,000000000e+00    0,000000000e+00
      142000000    1,458559837e-02   -2,981340745e-03   -7,672392130e-01   -2,366067767e-01    0,000000000e+00    0,000000000e+00    0,000000000e+00    0,000000000e+00
      156000000    1,481695287e-02   -1,479650382e-02   -7,660148740e-01    2,215720862e-01    0,000000000e+00    0,000000000e+00    0,000000000e+00    0,000000000e+00
      170000000    1,665236801e-02   -2,258577757e-02   -5,179911852e-01    6,046318412e-01    0,000000000e+00    0,000000000e+00    0,000000000e+00    0,000000000e+00
      184000000    2,101401053e-02   -3,710532933e-02   -1,012402326e-01    7,860470414e-01    0,000000000e+00    0,000000000e+00    0,000000000e+00    0,000000000e+00
      198000000    1,307161059e-02   -6,246192381e-02    3,433429003e-01    7,121769786e-01    0,000000000e+00    0,000000000e+00    0,000000000e+00    0,000000000e+00
      212000000   -1,862996444e-02   -8,131119609e-02    6,782415509e-01    4,101384878e-01    0,000000000e+00    0,000000000e+00    0,000000000e+00    0,000000000e+00
      226000000   -6,162532046e-02   -6,922783703e-02    7,957041264e-01   -3,055817075e-02    0,000000000e+00    0,000000000e+00    0,000000000e+00    0,000000000e+00
      240000000   -8,258736134e-02   -2,563300729e-02    6,460971236e-01   -4,671951234e-01    0,000000000e+00    0,000000000e+00    0,000000000e+00    0,000000000e+00
      254000000   -6,350664049e-02    1,724187657e-02    2,761761844e-01   -7,432484627e-01    0,000000000e+00    0,000000000e+00    0,000000000e+00    0,000000000e+00
      268000000   -2,376621775e-02    2,888603695e-02   -1,779625863e-01   -7,644785643e-01    0,000000000e+00    0,000000000e+00    0,000000000e+00    0,000000000e+00
      282000000    4,194626585e-03    1,193358935e-02   -5,619206429e-01   -5,354312062e-01    0,000000000e+00    0,000000000e+00    0,000000000e+00    0,000000000e+00
      296000000    9,653979912e-03   -7,969341241e-03   -7,598127127e-01   -1,395389736e-01    0,000000000e+00    0,000000000e+00    0,000000000e+00    0,000000000e+00
      310000000    1,125424448e-02   -1,625084504e-02   -7,114115953e-01    2,993311882e-01    0,000000000e+00    0,000000000e+00    0,000000000e+00    0,000000000e+00
      324000000    1,970558800e-02   -2,661489323e-02   -4,279057980e-01    6,374413967e-01    0,000000000e+00    0,000000000e+00    0,000000000e+00    0,000000000e+00
      338000000    2,559179626e-02   -5,210131034e-02   -7,505628746e-03    7,605074644e-01    0,000000000e+00    0,000000000e+00    0,000000000e+00    0,000000000e+00
      352000000    7,472812664e-03   -8,491251618e-02    4,069804847e-01    6,396313310e-01    0,000000000e+00    0,000000000e+00    0,000000000e+00    0,000000000e+00
      366000000   -3,443573415e-02   -9,577501565e-02    6,911875606e-01    3,111574352e-01    0,000000000e+00    0,000000000e+00    0,000000000e+00    0,000000000e+00
      380000000   -7,041274756e-02   -7,121765614e-02    7,480046153e-01   -1,259341389e-01    0,000000000e+00    0,000000000e+00    0,000000000e+00    0,000000000e+00
      394000000   -7,261759788e-02   -3,222458810e-02    5,463621616e-01   -5,207437277e-01    0,000000000e+00    0,000000000e+00    0,000000000e+00    0,000000000e+00
      408000000   -4,620840028e-02   -1,643644273e-02    1,592398137e-01   -7,323999405e-01    0,000000000e+00    0,000000000e+00    0,000000000e+00    0,000000000e+00
      422000000   -2,868772484e-02   -3,195580840e-02   -2,682333887e-01   -6,952162385e-01    0,000000000e+00    0,000000000e+00    0,000000000e+00    0,000000000e+00
      436000000   -4,079455882e-02   -5,201277882e-02   -6,047052741e-01   -4,321196377e-01    0,000000000e+00    0,000000000e+00    0,000000000e+00    0,000000000e+00
      450000000   -6,746995449e-02   -4,380059242e-02   -7,405722737e-01   -2,125746571e-02    0,000000000e+00    0,000000000e+00    0,000000000e+00    0,000000000e+00
      464000000   -7,353734970e-02   -1,146487333e-02   -6,186590195e-01    3,977755308e-01    0,000000000e+00    0,000000000e+00    0,000000000e+00    0,000000000e+00
      478000000   -4,822081700e-02    1,166434214e-02   -2,824238539e-01    6,674075127e-01    0,000000000e+00    0,000000000e+00    0,000000000e+00    0,000000000e+00
      492000000   -1,572667435e-02    5,805467721e-03    1,374425888e-01    7,010351419e-01    0,000000000e+00    0,000000000e+00    0,000000000e+00    0,000000000e+00
      506000000   -2,619847190e-03   -1,589176059e-02    4,982710481e-01    5,027306080e-01    0,000000000e+00    0,000000000e+00    0,000000000e+00    0,000000000e+00
      520000000   -4,855962005e-03   -3,145024553e-02    6,879780889e-01    1,411668509e-01    0,000000000e+00    0,000000000e+00    0,000000000e+00    0,000000000e+00
      534000000   -3,835526528e-03   -3,831033781e-02    6,431467533e-01   -2,628164291e-01    0,000000000e+00    0,000000000e+00    0,000000000e+00    0,000000000e+00
      548000000    5,722575821e-03   -5,355696380e-02    3,803471327e-01   -5,670573115e-01    0,000000000e+00    0,000000000e+00    0,000000000e+00    0,000000000e+00
      562000000    3,332116874e-03   -8,923942596e-02    2,386456821e-03   -6,730756760e-01    0,000000000e+00    0,000000000e+00    0,000000000e+00    0,000000000e+00
      576000000   -3,396699950e-02   -1,242931262e-01   -3,689316809e-01   -5,575813055e-01    0,000000000e+00    0,000000000e+00    0,000000000e+00    0,000000000e+00
      590000000   -9,632269293e-02   -1,229436472e-01   -6,193577051e-01   -2,639383078e-01    0,000000000e+00    0,000000000e+00    0,000000000e+00    0,000000000e+00
      604000000   -1,394412667e-01   -7,167095691e-02   -6,651915908e-01    1,381377727e-01    0,000000000e+00    0,000000000e+00    0,000000000e+00    0,000000000e+00
      618000000   -1,298485547e-01   -8,634074591e-03   -4,640341699e-01    4,944689870e-01    0,000000000e+00    0,000000000e+00    0,000000000e+00    0,000000000e+00
      632000000   -8,339682221e-02    1,668393053e-02   -9,869698435e-02    6,635036469e-01    0,000000000e+00    0,000000000e+00    0,000000000e+00    0,000000000e+00
      646000000   -5,145540833e-02    8,912167395e-04    2,879956961e-01    5,955173969e-01    0,000000000e+00    0,000000000e+00    0,000000000e+00    0,000000000e+00
      660000000   -5,250706896e-02   -2,150835842e-02    5,672589540e-01    3,219483793e-01    0,000000000e+00    0,000000000e+00    0,000000000e+00    0,000000000e+00
      674000000   -7,001813501e-02   -1,700405590e-02    6,429175735e-01   -6,529873610e-02    0,000000000e+00    0,000000000e+00    0,000000000e+00    0,000000000e+00
      688000000   -6,778895855e-02    8,245367557e-03    4,717292786e-01   -4,281083047e-01    0,000000000e+00    0,000000000e+00    0,000000000e+00    0,000000000e+00
      702000000   -3,824397549e-02    2,699558251e-02    1,179244891e-01   -6,143473983e-01    0,000000000e+00    0,000000000e+00    0,000000000e+00    0,000000000e+00
      716000000    1,623063232e-03    1,707218960e-02   -2,643900514e-01   -5,463306904e-01    0,000000000e+00    0,000000000e+00    0,000000000e+00    0,000000000e+00
      730000000    3,664551303e-02   -1,178882550e-02   -5,284606814e-01   -2,693390846e-01    0,000000000e+00    0,000000000e+00    0,000000000e+00    0,000000000e+00
      744000000    6,535829604e-02   -6,284909695e-02   -5,637202263e-01    1,064137816e-01    0,000000000e+00    0,000000000e+00    0,000000000e+00    0,000000000e+00
      758000000    6,719088554e-02   -1,521115303e-01   -3,634225726e-01    4,108176231e-01    0,000000000e+00    0,000000000e+00    0,000000000e+00    0,000000000e+00
      772000000   -1,313604414e-02   -2,627913654e-01   -3,517847136e-02    5,152093768e-01    0,000000000e+00    0,000000000e+00    0,000000000e+00    0,000000000e+00
      786000000   -2,059514523e-01   -3,030373454e-01    2,752841413e-01    3,961981237e-01    0,000000000e+00    0,000000000e+00    0,000000000e+00    0,000000000e+00
      800000000   -4,260948300e-01   -1,307526082e-01    4,174775481e-01    9,900322556e-02    0,000000000e+00    0,000000000e+00    0,000000000e+00    0,000000000e+00
      814000000   -3,904263675e-01    2,211330682e-01    2,819911242e-01   -1,731724590e-01    0,000000000e+00    0,000000000e+00    0,000000000e+00    0,000000000e+00
      828000000   -4,951171950e-02    3,673608601e-01    5,521764234e-02   -1,895158887e-01    0,000000000e+00    0,000000000e+00    0,000000000e+00    0,000000000e+00
      842000000    2,345604450e-01    1,858440638e-01   -1,715168171e-02   -7,075954974e-02    0,000000000e+00    0,000000000e+00    0,000000000e+00    0,000000000e+00
      856000000    2,802258730e-01   -1,243987605e-01    4,502146319e-02   -1,332771592e-02    0,000000000e+00    0,000000000e+00    0,000000000e+00    0,000000000e+00
      870000000    7,478768378e-02   -3,768935502e-01    1,134072840e-01   -9,142886102e-02    0,000000000e+00    0,000000000e+00    0,000000000e+00    0,000000000e+00
      884000000   -2,959647179e-01   -3,613928556e-01    2,857127599e-02   -2,449874878e-01    0,000000000e+00    0,000000000e+00    0,000000000e+00    0,000000000e+00
      898000000   -4,712518752e-01    8,649187163e-03   -2,215988040e-01   -2,282571793e-01    0,000000000e+00    0,000000000e+00    0,000000000e+00    0,000000000e+00
      912000000   -2,262012064e-01    2,941614687e-01   -3,414536715e-01    5,981197953e-02    0,000000000e+00    0,000000000e+00    0,000000000e+00    0,000000000e+00
      926000000    6,794096529e-02    2,643176913e-01   -2,141218483e-01    2,659598291e-01    0,000000000e+00    0,000000000e+00    0,000000000e+00    0,000000000e+00
      940000000    2,173161656e-01    8,100703359e-02   -3,541625664e-02    3,288882673e-01    0,000000000e+00    0,000000000e+00    0,000000000e+00    0,000000000e+00
      954000000    2,248367816e-01   -1,259645671e-01    1,307419688e-01    3,075544536e-01    0,000000000e+00    0,000000000e+00    0,000000000e+00    0,000000000e+00
      968000000    1,148254201e-01   -2,992637753e-01    2,692705095e-01    2,191886604e-01    0,000000000e+00    0,000000000e+00    0,000000000e+00    0,000000000e+00
      982000000   -8,465556055e-02   -3,859579861e-01    3,660726249e-01    6,541768461e-02    0,000000000e+00    0,000000000e+00    0,000000000e+00    0,000000000e+00
      996000000   -3,146873713e-01   -3,280151486e-01    3,686285913e-01   -1,450637877e-01    0,000000000e+00    0,000000000e+00    0,000000000e+00    0,000000000e+00
     1010000000   -4,625158906e-01   -1,127363145e-01    2,231051028e-01   -3,425586224e-01    0,000000000e+00    0,000000000e+00    0,000000000e+00    0,000000000e+00
     1024000000   -4,104523659e-01    1,493354887e-01   -3,415950388e-02   -3,932352364e-01    0,000000000e+00    0,000000000e+00    0,000000000e+00    0,000000000e+00
     1038000000   -2,192486823e-01    2,889649570e-01   -2,467040569e-01   -2,611618340e-01    0,000000000e+00    0,000000000e+00    0,000000000e+00    0,000000000e+00
     1052000000   -7,262743544e-03    2,768896818e-01   -3,176512718e-01   -4,517851397e-02    0,000000000e+00    0,000000000e+00    0,000000000e+00    0,000000000e+00
     1066000000    1,395976245e-01    1,628267914e-01   -2,597012222e-01    1,458711624e-01    0,000000000e+00    0,000000000e+00    0,000000000e+00    0,000000000e+00
     1080000000    1,924314350e-01   -2,383416751e-03   -1,204168573e-01    2,639959157e-01    0,000000000e+00    0,000000000e+00    0,000000000e+00    0,000000000e+00
     1094000000    1,531977355e-01   -1,729000062e-01    6,352295727e-02    3,032933772e-01    0,000000000e+00    0,000000000e+00    0,000000000e+00    0,000000000e+00
     1108000000    1,067793113e-03   -3,057691455e-01    2,763549984e-01    2,446210086e-01    0,000000000e+00    0,000000000e+00    0,000000000e+00    0,000000000e+00
     1122000000   -2,451634705e-01   -2,620489001e-01    4,704358280e-01    9,998046793e-03    0,000000000e+00    0,000000000e+00    0,000000000e+00    0,000000000e+00
     1136000000   -3,152785599e-01    3,297720477e-02    3,958436549e-01   -3,924211860e-01    0,000000000e+00    0,000000000e+00    0,000000000e+00    0,000000000e+00
     1150000000   -3,824755922e-02    1,551152468e-01    2,438224154e-03   -5,414174795e-01    0,000000000e+00    0,000000000e+00    0,000000000e+00    0,000000000e+00
     1164000000    1,239211336e-01   -6,018843129e-02   -2,773101628e-01   -3,789582253e-01    0,000000000e+00    0,000000000e+00    0,000000000e+00    0,000000000e+00
     1178000000    1,532341633e-02   -3,061358631e-01   -3,665773273e-01   -1,501306146e-01    0,000000000e+00    0,000000000e+00    0,000000000e+00    0,000000000e+00
     1192000000   -2,665989995e-01   -3,673835099e-01   -3,218517303e-01    6,055627763e-02    0,000000000e+00    0,000000000e+00    0,000000000e+00    0,000000000e+00
     1206000000   -5,215958357e-01   -1,632322371e-01   -1,659156382e-01    1,768082976e-01    0,000000000e+00    0,000000000e+00    0,000000000e+00    0,000000000e+00
     1220000000   -5,094400048e-01    1,703403741e-01   -1,841987832e-03    1,576277763e-01    0,000000000e+00    0,000000000e+00    0,000000000e+00    0,000000000e+00
     1234000000   -2,866283953e-01    3,598266244e-01    6,637132168e-02    6,147677824e-02    0,000000000e+00    0,000000000e+00    0,000000000e+00    0,000000000e+00
     1248000000   -4,468826577e-02    3,690941334e-01    5,305464566e-02   -3,026530147e-03    0,000000000e+00    0,000000000e+00    0,000000000e+00    0,000000000e+00
     1262000000    1,209612042e-01    2,597619295e-01    1,781371795e-02   -1,927920617e-02    0,000000000e+00    0,000000000e+00    0,000000000e+00    0,000000000e+00
     1276000000    2,088685781e-01    1,019852310e-01   -5,104804877e-03    7,104300894e-03    0,000000000e+00    0,000000000e+00    0,000000000e+00    0,000000000e+00
     1290000000    2,234099656e-01   -7,169748843e-02    1,826970093e-02    5,409801379e-02    0,000000000e+00    0,000000000e+00    0,000000000e+00    0,000000000e+00
     1304000000    1,554704607e-01   -2,433959991e-01    1,330054551e-01    6,464010477e-02    0,000000000e+00    0,000000000e+00    0,000000000e+00    0,000000000e+00
     1318000000    3,560778499e-02   -3,357165158e-01    1,302364916e-01   -1,625089347e-01    0,000000000e+00    0,000000000e+00    0,000000000e+00    0,000000000e+00
     1332000000   -1,285669059e-01   -4,412380755e-01   -4,249180853e-02   -5,191882327e-02    0,000000000e+00    0,000000000e+00    0,000000000e+00    0,000000000e+00
     1346000000   -3,957828283e-01   -4,093267918e-01    1,589007303e-02    6,759288162e-02    0,000000000e+00    0,000000000e+00    0,000000000e+00    0,000000000e+00
     1360000000   -5,999931097e-01   -1,851121932e-01    1,401802152e-01    7,706537843e-02    0,000000000e+00    0,000000000e+00    0,000000000e+00    0,000000000e+00
     1374000000   -6,334170103e-01    1,248979419e-01    2,110045999e-01    1,987365307e-03    0,000000000e+00    0,000000000e+00    0,000000000e+00    0,000000000e+00
     1388000000   -4,718246460e-01    3,702220917e-01    1,993604600e-01   -6,006020680e-02    0,000000000e+00    0,000000000e+00    0,000000000e+00    0,000000000e+00
     1402000000   -2,334961444e-01    4,553312957e-01    1,903168410e-01   -9,561058879e-02    0,000000000e+00    0,000000000e+00    0,000000000e+00    0,000000000e+00
     1416000000   -2,808682993e-02    4,168969393e-01    1,663555652e-01   -9,585739672e-02    0,000000000e+00    0,000000000e+00    0,000000000e+00    0,000000000e+00
     1430000000    1,192203239e-01    3,014978468e-01    1,892197877e-01   -9,022828192e-02    0,000000000e+00    0,000000000e+00    0,000000000e+00    0,000000000e+00
     1444000000    2,076035887e-01    1,485207379e-01    1,530735344e-01   -1,036547497e-01    0,000000000e+00    0,000000000e+00    0,000000000e+00    0,000000000e+00
     1458000000    2,353190333e-01   -2,463134937e-02    1,544192731e-01   -8,368188143e-02    0,000000000e+00    0,000000000e+00    0,000000000e+00    0,000000000e+00
     1472000000    1,902828962e-01   -1,979114115e-01    1,472229362e-01   -2,170383744e-02    0,000000000e+00    0,000000000e+00    0,000000000e+00    0,000000000e+00
     1486000000    6,644933671e-02   -3,734099865e-01    1,761838794e-01    2,789453790e-02    0,000000000e+00    0,000000000e+00    0,000000000e+00    0,000000000e+00
     1500000000   -1,699020565e-01   -4,929088652e-01    2,507972419e-01    1,062929332e-01    0,000000000e+00    0,000000000e+00    0,000000000e+00    0,000000000e+00
