! NanoVNA-App
! Date: 2025-09-25 15:36:38
! Start: 100MHz Stop: 1,5GHz Points: 101
! S-Parameter data: F S11 S21 S12 S22
# Hz S RI R 50
!     Frequency           S11_Real           S11_Imag           S21_Real           S21_Imag           S12_Real           S12_Imag           S22_Real           S22_Imag
      100000000   -2,882387489e-02   -4,159179982e-03    3,740676343e-01   -7,217655778e-01    0,000000000e+00    0,000000000e+00    0,000000000e+00    0,000000000e+00
      114000000   -1,647128351e-02    1,149142813e-02   -8,920289576e-02   -8,055102229e-01    0,000000000e+00    0,000000000e+00    0,000000000e+00    0,000000000e+00
      128000000    3,538479796e-03    1,053499617e-02   -5,145021081e-01   -6,204452515e-01    0,000000000e+00    0,000000000e+00    0,000000000e+00    0,000000000e+00
      142000000    1,457393542e-02   -2,957999008e-03   -7,670203447e-01   -2,364892215e-01    0,000000000e+00    0,000000000e+00    0,000000000e+00    0,000000000e+00
      156000000    1,605639234e-02   -1,425406244e-02   -7,702665329e-01    2,243157476e-01    0,000000000e+00    0,000000000e+00    0,000000000e+00    0,000000000e+00
      170000000    1,665768586e-02   -2,250351012e-02   -5,178807974e-01    6,047052145e-01    0,000000000e+00    0,000000000e+00    0,000000000e+00    0,000000000e+00
      184000000    2,103723772e-02   -3,708436713e-02   -1,013052315e-01    7,861441970e-01    0,000000000e+00    0,000000000e+00    0,000000000e+00    0,000000000e+00
      198000000    1,302860770e-02   -6,247533858e-02    3,432444632e-01    7,124577761e-01    0,000000000e+00    0,000000000e+00    0,000000000e+00    0,000000000e+00
      212000000   -1,861710288e-02   -8,134915680e-02    6,780945659e-01    4,098572135e-01    0,000000000e+00    0,000000000e+00    0,000000000e+00    0,000000000e+00
      226000000   -6,171088293e-02   -6,924812496e-02    7,958327532e-01   -3,056927025e-02    0,000000000e+00    0,000000000e+00    0,000000000e+00    0,000000000e+00
      240000000   -8,259611577e-02   -2,566005103e-02    6,460336447e-01   -4,669858217e-01    0,000000000e+00    0,000000000e+00    0,000000000e+00    0,000000000e+00
      254000000   -6,348902732e-02    1,729775406e-02    2,761024535e-01   -7,435402274e-01    0,000000000e+00    0,000000000e+00    0,000000000e+00    0,000000000e+00
      268000000   -2,384369448e-02    2,896590717e-02   -1,782444268e-01   -7,644125223e-01    0,000000000e+00    0,000000000e+00    0,000000000e+00    0,000000000e+00
      282000000    4,160806537e-03    1,195447240e-02   -5,622000098e-01   -5,356495976e-01    0,000000000e+00    0,000000000e+00    0,000000000e+00    0,000000000e+00
      296000000    9,701255709e-03   -7,913215086e-03   -7,597833276e-01   -1,394773722e-01    0,000000000e+00    0,000000000e+00    0,000000000e+00    0,000000000e+00
      310000000    1,113408059e-02   -1,614064351e-02   -7,115957141e-01    2,981416881e-01    0,000000000e+00    0,000000000e+00    0,000000000e+00    0,000000000e+00
      324000000    1,958337985e-02   -2,654985897e-02   -4,278114140e-01    6,377614141e-01    0,000000000e+00    0,000000000e+00    0,000000000e+00    0,000000000e+00
      338000000    2,560255304e-02   -5,201768503e-02   -7,575771306e-03    7,599459887e-01    0,000000000e+00    0,000000000e+00    0,000000000e+00    0,000000000e+00
      352000000    7,734836545e-03   -8,472806960e-02    4,066824913e-01    6,399481297e-01    0,000000000e+00    0,000000000e+00    0,000000000e+00    0,000000000e+00
      366000000   -3,458612412e-02   -9,537336230e-02    6,904867291e-01    3,114558160e-01    0,000000000e+00    0,000000000e+00    0,000000000e+00    0,000000000e+00
      380000000   -7,060427964e-02   -7,104341686e-02    7,480153441e-01   -1,259567738e-01    0,000000000e+00    0,000000000e+00    0,000000000e+00    0,000000000e+00
      394000000   -7,257232070e-02   -3,212123737e-02    5,460320115e-01   -5,222214460e-01    0,000000000e+00    0,000000000e+00    0,000000000e+00    0,000000000e+00
      408000000   -4,638141021e-02   -1,625854895e-02    1,607661545e-01   -7,339716554e-01    0,000000000e+00    0,000000000e+00    0,000000000e+00    0,000000000e+00
      422000000   -2,840788849e-02   -3,217230737e-02   -2,683466077e-01   -6,952503920e-01    0,000000000e+00    0,000000000e+00    0,000000000e+00    0,000000000e+00
      436000000   -4,070357233e-02   -5,181605741e-02   -6,043665409e-01   -4,320914745e-01    0,000000000e+00    0,000000000e+00    0,000000000e+00    0,000000000e+00
      450000000   -6,732756644e-02   -4,388415441e-02   -7,403849959e-01   -2,140195295e-02    0,000000000e+00    0,000000000e+00    0,000000000e+00    0,000000000e+00
      464000000   -7,332967967e-02   -1,179918088e-02   -6,187492013e-01    3,971109688e-01    0,000000000e+00    0,000000000e+00    0,000000000e+00    0,000000000e+00
      478000000   -4,748339951e-02    1,180424076e-02   -2,819169760e-01    6,676393151e-01    0,000000000e+00    0,000000000e+00    0,000000000e+00    0,000000000e+00
      492000000   -1,569028944e-02    6,258834619e-03    1,385425776e-01    7,017443776e-01    0,000000000e+00    0,000000000e+00    0,000000000e+00    0,000000000e+00
      506000000   -2,764487872e-03   -1,569161378e-02    4,979335964e-01    5,026273727e-01    0,000000000e+00    0,000000000e+00    0,000000000e+00    0,000000000e+00
      520000000   -4,817054607e-03   -3,125989437e-02    6,880962253e-01    1,411898583e-01    0,000000000e+00    0,000000000e+00    0,000000000e+00    0,000000000e+00
      534000000   -3,745825030e-03   -3,843644634e-02    6,433826089e-01   -2,622735202e-01    0,000000000e+00    0,000000000e+00    0,000000000e+00    0,000000000e+00
      548000000    5,790443625e-03   -5,409874395e-02    3,818058670e-01   -5,677222610e-01    0,000000000e+00    0,000000000e+00    0,000000000e+00    0,000000000e+00
      562000000    3,389702877e-03   -8,903679252e-02    2,845817711e-03   -6,720770001e-01    0,000000000e+00    0,000000000e+00    0,000000000e+00    0,000000000e+00
      576000000   -3,436615318e-02   -1,242272407e-01   -3,698303401e-01   -5,564790964e-01    0,000000000e+00    0,000000000e+00    0,000000000e+00    0,000000000e+00
      590000000   -9,646413475e-02   -1,229579970e-01   -6,193383932e-01   -2,628157139e-01    0,000000000e+00    0,000000000e+00    0,000000000e+00    0,000000000e+00
      604000000   -1,395329237e-01   -7,157427073e-02   -6,652488708e-01    1,380506009e-01    0,000000000e+00    0,000000000e+00    0,000000000e+00    0,000000000e+00
      618000000   -1,294344366e-01   -8,590394631e-03   -4,640440941e-01    4,945695400e-01    0,000000000e+00    0,000000000e+00    0,000000000e+00    0,000000000e+00
      632000000   -8,431698382e-02    1,707833260e-02   -9,963612258e-02    6,634535193e-01    0,000000000e+00    0,000000000e+00    0,000000000e+00    0,000000000e+00
      646000000   -5,164769292e-02    7,484988309e-04    2,873159647e-01    5,946416855e-01    0,000000000e+00    0,000000000e+00    0,000000000e+00    0,000000000e+00
      660000000   -5,284388363e-02   -2,144286409e-02    5,673661828e-01    3,224869370e-01    0,000000000e+00    0,000000000e+00    0,000000000e+00    0,000000000e+00
      674000000   -7,025863975e-02   -1,821201853e-02    6,430380344e-01   -6,541047245e-02    0,000000000e+00    0,000000000e+00    0,000000000e+00    0,000000000e+00
      688000000   -6,811144948e-02    8,306150325e-03    4,716109335e-01   -4,277718961e-01    0,000000000e+00    0,000000000e+00    0,000000000e+00    0,000000000e+00
      702000000   -3,758923337e-02    2,647864819e-02    1,195391119e-01   -6,065433025e-01    0,000000000e+00    0,000000000e+00    0,000000000e+00    0,000000000e+00
      716000000    2,074106829e-03    1,705244929e-02   -2,655573189e-01   -5,480845571e-01    0,000000000e+00    0,000000000e+00    0,000000000e+00    0,000000000e+00
      730000000    3,718834370e-02   -1,161726192e-02   -5,286624432e-01   -2,697716653e-01    0,000000000e+00    0,000000000e+00    0,000000000e+00    0,000000000e+00
      744000000    6,443206221e-02   -6,247289851e-02   -5,639792681e-01    1,064402834e-01    0,000000000e+00    0,000000000e+00    0,000000000e+00    0,000000000e+00
      758000000    6,593714654e-02   -1,525147408e-01   -3,636585474e-01    4,099636078e-01    0,000000000e+00    0,000000000e+00    0,000000000e+00    0,000000000e+00
      772000000   -1,261136029e-02   -2,628810108e-01   -3,537931293e-02    5,161505938e-01    0,000000000e+00    0,000000000e+00    0,000000000e+00    0,000000000e+00
      786000000   -2,071835548e-01   -3,028156757e-01    2,738747299e-01    3,957357109e-01    0,000000000e+00    0,000000000e+00    0,000000000e+00    0,000000000e+00
      800000000   -4,256551862e-01   -1,306737959e-01    4,172226787e-01    9,905651957e-02    0,000000000e+00    0,000000000e+00    0,000000000e+00    0,000000000e+00
      814000000   -3,897766173e-01    2,222341150e-01    2,825022638e-01   -1,734082997e-01    0,000000000e+00    0,000000000e+00    0,000000000e+00    0,000000000e+00
      828000000   -5,039216951e-02    3,690921068e-01    5,499530956e-02   -1,892576963e-01    0,000000000e+00    0,000000000e+00    0,000000000e+00    0,000000000e+00
      842000000    2,351849526e-01    1,857659817e-01   -1,728625409e-02   -7,047271729e-02    0,000000000e+00    0,000000000e+00    0,000000000e+00    0,000000000e+00
      856000000    2,802646756e-01   -1,241715848e-01    4,505147785e-02   -1,307629794e-02    0,000000000e+00    0,000000000e+00    0,000000000e+00    0,000000000e+00
      870000000    7,488388568e-02   -3,762988746e-01    1,132154539e-01   -9,085533768e-02    0,000000000e+00    0,000000000e+00    0,000000000e+00    0,000000000e+00
      884000000   -2,956862450e-01   -3,612585068e-01    2,847497351e-02   -2,453235984e-01    0,000000000e+00    0,000000000e+00    0,000000000e+00    0,000000000e+00
      898000000   -4,728202820e-01    8,584721945e-03   -2,226077616e-01   -2,270825654e-01    0,000000000e+00    0,000000000e+00    0,000000000e+00    0,000000000e+00
      912000000   -2,252298295e-01    2,936486602e-01   -3,395125270e-01    7,474535704e-02    0,000000000e+00    0,000000000e+00    0,000000000e+00    0,000000000e+00
      926000000    6,740621477e-02    2,625616193e-01   -2,153081149e-01    2,625500858e-01    0,000000000e+00    0,000000000e+00    0,000000000e+00    0,000000000e+00
      940000000    2,156130672e-01    8,137138933e-02   -3,603802621e-02    3,292844892e-01    0,000000000e+00    0,000000000e+00    0,000000000e+00    0,000000000e+00
      954000000    2,256786674e-01   -1,269883960e-01    1,322199851e-01    3,063715994e-01    0,000000000e+00    0,000000000e+00    0,000000000e+00    0,000000000e+00
      968000000    1,169927642e-01   -2,984348536e-01    2,709023654e-01    2,194773704e-01    0,000000000e+00    0,000000000e+00    0,000000000e+00    0,000000000e+00
      982000000   -8,196879178e-02   -3,845140338e-01    3,659347296e-01    6,565419585e-02    0,000000000e+00    0,000000000e+00    0,000000000e+00    0,000000000e+00
      996000000   -3,142445087e-01   -3,322392106e-01    3,690785468e-01   -1,442851871e-01    0,000000000e+00    0,000000000e+00    0,000000000e+00    0,000000000e+00
     1010000000   -4,591008425e-01   -1,098839045e-01    2,223997861e-01   -3,415237963e-01    0,000000000e+00    0,000000000e+00    0,000000000e+00    0,000000000e+00
     1024000000   -4,094311893e-01    1,503230929e-01   -3,312700987e-02   -3,939760625e-01    0,000000000e+00    0,000000000e+00    0,000000000e+00    0,000000000e+00
     1038000000   -2,181476802e-01    2,891485989e-01   -2,451785654e-01   -2,592836618e-01    0,000000000e+00    0,000000000e+00    0,000000000e+00    0,000000000e+00
     1052000000   -8,891258389e-03    2,764382362e-01   -3,158976138e-01   -4,750617594e-02    0,000000000e+00    0,000000000e+00    0,000000000e+00    0,000000000e+00
     1066000000    1,347162426e-01    1,644147038e-01   -2,571915388e-01    1,398597509e-01    0,000000000e+00    0,000000000e+00    0,000000000e+00    0,000000000e+00
     1080000000    1,926865727e-01   -1,985330600e-03   -1,203288659e-01    2,646626234e-01    0,000000000e+00    0,000000000e+00    0,000000000e+00    0,000000000e+00
     1094000000    1,531496048e-01   -1,775521636e-01    6,319005787e-02    3,041467369e-01    0,000000000e+00    0,000000000e+00    0,000000000e+00    0,000000000e+00
     1108000000    6,258987123e-04   -3,076624572e-01    2,765344083e-01    2,462624758e-01    0,000000000e+00    0,000000000e+00    0,000000000e+00    0,000000000e+00
     1122000000   -2,431367040e-01   -2,639845312e-01    4,720202088e-01    1,315749250e-02    0,000000000e+00    0,000000000e+00    0,000000000e+00    0,000000000e+00
     1136000000   -3,220545650e-01    3,044843860e-02    3,981748819e-01   -3,926755190e-01    0,000000000e+00    0,000000000e+00    0,000000000e+00    0,000000000e+00
     1150000000   -3,712186590e-02    1,500560790e-01    4,180943128e-03   -5,426044464e-01    0,000000000e+00    0,000000000e+00    0,000000000e+00    0,000000000e+00
     1164000000    1,274212748e-01   -6,285378337e-02   -2,755557299e-01   -3,782280982e-01    0,000000000e+00    0,000000000e+00    0,000000000e+00    0,000000000e+00
     1178000000    1,823162474e-02   -3,014172912e-01   -3,665885031e-01   -1,521902084e-01    0,000000000e+00    0,000000000e+00    0,000000000e+00    0,000000000e+00
     1192000000   -2,669285536e-01   -3,698022962e-01   -3,205145597e-01    5,797617137e-02    0,000000000e+00    0,000000000e+00    0,000000000e+00    0,000000000e+00
     1206000000   -5,229200721e-01   -1,638483405e-01   -1,682654172e-01    1,761277020e-01    0,000000000e+00    0,000000000e+00    0,000000000e+00    0,000000000e+00
     1220000000   -5,087676048e-01    1,706933975e-01    5,956685054e-04    1,586321443e-01    0,000000000e+00    0,000000000e+00    0,000000000e+00    0,000000000e+00
     1234000000   -2,869639099e-01    3,592556417e-01    7,258664072e-02    6,172805652e-02    0,000000000e+00    0,000000000e+00    0,000000000e+00    0,000000000e+00
     1248000000   -4,809154943e-02    3,640700281e-01    4,856285825e-02   -9,500179440e-03    0,000000000e+00    0,000000000e+00    0,000000000e+00    0,000000000e+00
     1262000000    1,231515482e-01    2,541845143e-01    1,890749484e-02   -2,491388284e-02    0,000000000e+00    0,000000000e+00    0,000000000e+00    0,000000000e+00
     1276000000    2,093558758e-01    1,033840850e-01   -6,494596135e-03    6,357225589e-03    0,000000000e+00    0,000000000e+00    0,000000000e+00    0,000000000e+00
     1290000000    2,222441137e-01   -7,238151133e-02    1,586979628e-02    4,965042695e-02    0,000000000e+00    0,000000000e+00    0,000000000e+00    0,000000000e+00
     1304000000    1,551338136e-01   -2,434176654e-01    1,318740696e-01    6,299441308e-02    0,000000000e+00    0,000000000e+00    0,000000000e+00    0,000000000e+00
     1318000000    3,086807951e-02   -3,330277801e-01    1,301532984e-01   -1,624494493e-01    0,000000000e+00    0,000000000e+00    0,000000000e+00    0,000000000e+00
     1332000000   -1,321458966e-01   -4,369728267e-01   -4,880387709e-02   -4,165205732e-02    0,000000000e+00    0,000000000e+00    0,000000000e+00    0,000000000e+00
     1346000000   -3,989921510e-01   -4,095738530e-01    1,089827716e-02    7,286833972e-02    0,000000000e+00    0,000000000e+00    0,000000000e+00    0,000000000e+00
     1360000000   -6,085997224e-01   -1,849108338e-01    1,391176879e-01    7,318033278e-02    0,000000000e+00    0,000000000e+00    0,000000000e+00    0,000000000e+00
     1374000000   -6,347610354e-01    1,305442452e-01    1,968488097e-01    3,686703276e-03    0,000000000e+00    0,000000000e+00    0,000000000e+00    0,000000000e+00
     1388000000   -4,693211317e-01    3,618268073e-01    1,999162287e-01   -7,354905456e-02    0,000000000e+00    0,000000000e+00    0,000000000e+00    0,000000000e+00
     1402000000   -2,316020578e-01    4,509070814e-01    1,876415312e-01   -1,070081219e-01    0,000000000e+00    0,000000000e+00    0,000000000e+00    0,000000000e+00
     1416000000   -2,536842972e-02    4,127115905e-01    1,672397405e-01   -1,062323377e-01    0,000000000e+00    0,000000000e+00    0,000000000e+00    0,000000000e+00
     1430000000    1,162989512e-01    2,966512442e-01    1,623568684e-01   -9,269728512e-02    0,000000000e+00    0,000000000e+00    0,000000000e+00    0,000000000e+00
     1444000000    2,104711533e-01    1,493368298e-01    1,581087708e-01   -1,053943411e-01    0,000000000e+00    0,000000000e+00    0,000000000e+00    0,000000000e+00
     1458000000    2,316543162e-01   -2,192208357e-02    1,377311945e-01   -7,706346363e-02    0,000000000e+00    0,000000000e+00    0,000000000e+00    0,000000000e+00
     1472000000    1,944264919e-01   -2,067905664e-01    1,433426291e-01   -3,133672848e-02    0,000000000e+00    0,000000000e+00    0,000000000e+00    0,000000000e+00
     1486000000    5,464160442e-02   -3,756903708e-01    1,579892784e-01    3,406635672e-02    0,000000000e+00    0,000000000e+00    0,000000000e+00    0,000000000e+00
     1500000000   -1,728784442e-01   -5,065323114e-01    2,498023659e-01    7,950752228e-02    0,000000000e+00    0,000000000e+00    0,000000000e+00    0,000000000e+00
