! NanoVNA-App
! Date: 2025-09-25 15:33:47
! Start: 100MHz Stop: 1,5GHz Points: 101
! S-Parameter data: F S11 S21 S12 S22
# Hz S RI R 50
!     Frequency           S11_Real           S11_Imag           S21_Real           S21_Imag           S12_Real           S12_Imag           S22_Real           S22_Imag
      100000000   -2,886356972e-02   -4,171784502e-03    3,741267920e-01   -7,217493653e-01    0,000000000e+00    0,000000000e+00    0,000000000e+00    0,000000000e+00
      114000000   -1,650055125e-02    1,151712239e-02   -8,911596984e-02   -8,056094050e-01    0,000000000e+00    0,000000000e+00    0,000000000e+00    0,000000000e+00
      128000000    3,496735822e-03    1,054686494e-02   -5,144689679e-01   -6,204701662e-01    0,000000000e+00    0,000000000e+00    0,000000000e+00    0,000000000e+00
      142000000    1,454098895e-02   -2,954768715e-03   -7,669578195e-01   -2,366372943e-01    0,000000000e+00    0,000000000e+00    0,000000000e+00    0,000000000e+00
      156000000    1,571734995e-02   -1,464060694e-02   -7,723976374e-01    2,236245722e-01    0,000000000e+00    0,000000000e+00    0,000000000e+00    0,000000000e+00
      170000000    1,663063094e-02   -2,253743634e-02   -5,181586146e-01    6,049838662e-01    0,000000000e+00    0,000000000e+00    0,000000000e+00    0,000000000e+00
      184000000    2,097087167e-02   -3,708051145e-02   -1,015528888e-01    7,860477567e-01    0,000000000e+00    0,000000000e+00    0,000000000e+00    0,000000000e+00
      198000000    1,306156535e-02   -6,245857105e-02    3,433355391e-01    7,122941017e-01    0,000000000e+00    0,000000000e+00    0,000000000e+00    0,000000000e+00
      212000000   -1,865754649e-02   -8,132167906e-02    6,779066324e-01    4,099583030e-01    0,000000000e+00    0,000000000e+00    0,000000000e+00    0,000000000e+00
      226000000   -6,174547598e-02   -6,920830905e-02    7,958909869e-01   -3,047055379e-02    0,000000000e+00    0,000000000e+00    0,000000000e+00    0,000000000e+00
      240000000   -8,264044672e-02   -2,564799227e-02    6,461119652e-01   -4,667819738e-01    0,000000000e+00    0,000000000e+00    0,000000000e+00    0,000000000e+00
      254000000   -6,351154298e-02    1,721333899e-02    2,760403156e-01   -7,433185577e-01    0,000000000e+00    0,000000000e+00    0,000000000e+00    0,000000000e+00
      268000000   -2,382962778e-02    2,888518386e-02   -1,781167835e-01   -7,647444010e-01    0,000000000e+00    0,000000000e+00    0,000000000e+00    0,000000000e+00
      282000000    4,192321561e-03    1,194762066e-02   -5,618362427e-01   -5,354151130e-01    0,000000000e+00    0,000000000e+00    0,000000000e+00    0,000000000e+00
      296000000    9,709785692e-03   -7,805465255e-03   -7,598837018e-01   -1,396272480e-01    0,000000000e+00    0,000000000e+00    0,000000000e+00    0,000000000e+00
      310000000    1,116484683e-02   -1,618722081e-02   -7,139339447e-01    2,979822755e-01    0,000000000e+00    0,000000000e+00    0,000000000e+00    0,000000000e+00
      324000000    1,976742782e-02   -2,662506513e-02   -4,274270236e-01    6,371538639e-01    0,000000000e+00    0,000000000e+00    0,000000000e+00    0,000000000e+00
      338000000    2,545423061e-02   -5,186631531e-02   -9,698779322e-03    7,611268759e-01    0,000000000e+00    0,000000000e+00    0,000000000e+00    0,000000000e+00
      352000000    7,455105893e-03   -8,489830047e-02    4,074029922e-01    6,393234730e-01    0,000000000e+00    0,000000000e+00    0,000000000e+00    0,000000000e+00
      366000000   -3,444683179e-02   -9,555293620e-02    6,912770867e-01    3,116569519e-01    0,000000000e+00    0,000000000e+00    0,000000000e+00    0,000000000e+00
      380000000   -7,085406035e-02   -7,124375552e-02    7,474550009e-01   -1,262295395e-01    0,000000000e+00    0,000000000e+00    0,000000000e+00    0,000000000e+00
      394000000   -7,248699665e-02   -3,253792599e-02    5,471677184e-01   -5,222320557e-01    0,000000000e+00    0,000000000e+00    0,000000000e+00    0,000000000e+00
      408000000   -4,652464762e-02   -1,609723456e-02    1,611917615e-01   -7,329750657e-01    0,000000000e+00    0,000000000e+00    0,000000000e+00    0,000000000e+00
      422000000   -2,841443382e-02   -3,198565915e-02   -2,684247494e-01   -6,950984597e-01    0,000000000e+00    0,000000000e+00    0,000000000e+00    0,000000000e+00
      436000000   -4,073229060e-02   -5,175359547e-02   -6,045747995e-01   -4,320183396e-01    0,000000000e+00    0,000000000e+00    0,000000000e+00    0,000000000e+00
      450000000   -6,760734320e-02   -4,365359619e-02   -7,408550382e-01   -2,083373256e-02    0,000000000e+00    0,000000000e+00    0,000000000e+00    0,000000000e+00
      464000000   -7,327942550e-02   -1,177883986e-02   -6,182410121e-01    3,979738355e-01    0,000000000e+00    0,000000000e+00    0,000000000e+00    0,000000000e+00
      478000000   -4,787551612e-02    1,172071043e-02   -2,827116847e-01    6,681226492e-01    0,000000000e+00    0,000000000e+00    0,000000000e+00    0,000000000e+00
      492000000   -1,579567790e-02    5,740990397e-03    1,374307424e-01    7,015264034e-01    0,000000000e+00    0,000000000e+00    0,000000000e+00    0,000000000e+00
      506000000   -2,503988100e-03   -1,589344069e-02    4,983849227e-01    5,029210448e-01    0,000000000e+00    0,000000000e+00    0,000000000e+00    0,000000000e+00
      520000000   -4,818093032e-03   -3,124509379e-02    6,880816221e-01    1,415705830e-01    0,000000000e+00    0,000000000e+00    0,000000000e+00    0,000000000e+00
      534000000   -3,685123054e-03   -3,814744204e-02    6,439787149e-01   -2,628782094e-01    0,000000000e+00    0,000000000e+00    0,000000000e+00    0,000000000e+00
      548000000    6,207779050e-03   -5,357643962e-02    3,817270994e-01   -5,667510629e-01    0,000000000e+00    0,000000000e+00    0,000000000e+00    0,000000000e+00
      562000000    3,304051934e-03   -8,972235024e-02    2,742821351e-03   -6,719179749e-01    0,000000000e+00    0,000000000e+00    0,000000000e+00    0,000000000e+00
      576000000   -3,391551599e-02   -1,246616319e-01   -3,687261045e-01   -5,571449995e-01    0,000000000e+00    0,000000000e+00    0,000000000e+00    0,000000000e+00
      590000000   -9,644144773e-02   -1,228163913e-01   -6,212807894e-01   -2,656581998e-01    0,000000000e+00    0,000000000e+00    0,000000000e+00    0,000000000e+00
      604000000   -1,393480599e-01   -7,201568782e-02   -6,651524901e-01    1,372978389e-01    0,000000000e+00    0,000000000e+00    0,000000000e+00    0,000000000e+00
      618000000   -1,297882497e-01   -8,846509270e-03   -4,642446935e-01    4,945319593e-01    0,000000000e+00    0,000000000e+00    0,000000000e+00    0,000000000e+00
      632000000   -8,354119211e-02    1,694794744e-02   -9,926106036e-02    6,646545529e-01    0,000000000e+00    0,000000000e+00    0,000000000e+00    0,000000000e+00
      646000000   -5,114849284e-02    1,272542169e-03    2,876532972e-01    5,957700610e-01    0,000000000e+00    0,000000000e+00    0,000000000e+00    0,000000000e+00
      660000000   -5,372614786e-02   -2,142683603e-02    5,674132109e-01    3,222686052e-01    0,000000000e+00    0,000000000e+00    0,000000000e+00    0,000000000e+00
      674000000   -6,942795217e-02   -1,784823835e-02    6,432533264e-01   -6,526105106e-02    0,000000000e+00    0,000000000e+00    0,000000000e+00    0,000000000e+00
      688000000   -6,904948503e-02    8,499207906e-03    4,715874791e-01   -4,280179143e-01    0,000000000e+00    0,000000000e+00    0,000000000e+00    0,000000000e+00
      702000000   -3,818208352e-02    2,596824057e-02    1,194390059e-01   -6,070449352e-01    0,000000000e+00    0,000000000e+00    0,000000000e+00    0,000000000e+00
      716000000    1,935400185e-03    1,837521419e-02   -2,647511065e-01   -5,474657416e-01    0,000000000e+00    0,000000000e+00    0,000000000e+00    0,000000000e+00
      730000000    3,782130778e-02   -1,070231106e-02   -5,284556150e-01   -2,690860629e-01    0,000000000e+00    0,000000000e+00    0,000000000e+00    0,000000000e+00
      744000000    6,462793797e-02   -6,291767210e-02   -5,645267963e-01    1,064056009e-01    0,000000000e+00    0,000000000e+00    0,000000000e+00    0,000000000e+00
      758000000    6,673289835e-02   -1,526828706e-01   -3,635803163e-01    4,103591144e-01    0,000000000e+00    0,000000000e+00    0,000000000e+00    0,000000000e+00
      772000000   -1,325075887e-02   -2,626779377e-01   -3,449152038e-02    5,158534646e-01    0,000000000e+00    0,000000000e+00    0,000000000e+00    0,000000000e+00
      786000000   -2,070150077e-01   -3,025822937e-01    2,741950154e-01    3,957778215e-01    0,000000000e+00    0,000000000e+00    0,000000000e+00    0,000000000e+00
      800000000   -4,257886410e-01   -1,311324090e-01    4,176564813e-01    9,942083806e-02    0,000000000e+00    0,000000000e+00    0,000000000e+00    0,000000000e+00
      814000000   -3,888101578e-01    2,204458714e-01    2,820417583e-01   -1,730918735e-01    0,000000000e+00    0,000000000e+00    0,000000000e+00    0,000000000e+00
      828000000   -4,865588620e-02    3,687784374e-01    5,498936772e-02   -1,889416426e-01    0,000000000e+00    0,000000000e+00    0,000000000e+00    0,000000000e+00
      842000000    2,352209687e-01    1,853329241e-01   -1,704836078e-02   -7,071845233e-02    0,000000000e+00    0,000000000e+00    0,000000000e+00    0,000000000e+00
      856000000    2,805686891e-01   -1,243379936e-01    4,500920698e-02   -1,319955010e-02    0,000000000e+00    0,000000000e+00    0,000000000e+00    0,000000000e+00
      870000000    7,466470450e-02   -3,763876259e-01    1,133935228e-01   -9,028557688e-02    0,000000000e+00    0,000000000e+00    0,000000000e+00    0,000000000e+00
      884000000   -2,958764136e-01   -3,613441288e-01    2,804049104e-02   -2,453843802e-01    0,000000000e+00    0,000000000e+00    0,000000000e+00    0,000000000e+00
      898000000   -4,714485705e-01    8,990406990e-03   -2,207459956e-01   -2,277812809e-01    0,000000000e+00    0,000000000e+00    0,000000000e+00    0,000000000e+00
      912000000   -2,258038819e-01    2,955010831e-01   -3,423347473e-01    7,671878487e-02    0,000000000e+00    0,000000000e+00    0,000000000e+00    0,000000000e+00
      926000000    6,778660417e-02    2,625197470e-01   -2,160505950e-01    2,631784678e-01    0,000000000e+00    0,000000000e+00    0,000000000e+00    0,000000000e+00
      940000000    2,173738927e-01    7,885860652e-02   -3,425358236e-02    3,279370368e-01    0,000000000e+00    0,000000000e+00    0,000000000e+00    0,000000000e+00
      954000000    2,231426686e-01   -1,291265339e-01    1,316849738e-01    3,064954877e-01    0,000000000e+00    0,000000000e+00    0,000000000e+00    0,000000000e+00
      968000000    1,178694963e-01   -3,007532358e-01    2,714931369e-01    2,194696218e-01    0,000000000e+00    0,000000000e+00    0,000000000e+00    0,000000000e+00
      982000000   -8,408229053e-02   -3,883561492e-01    3,652638197e-01    6,499774754e-02    0,000000000e+00    0,000000000e+00    0,000000000e+00    0,000000000e+00
      996000000   -3,156249523e-01   -3,276478648e-01    3,693457842e-01   -1,453578025e-01    0,000000000e+00    0,000000000e+00    0,000000000e+00    0,000000000e+00
     1010000000   -4,619072378e-01   -1,128053963e-01    2,238142639e-01   -3,445139825e-01    0,000000000e+00    0,000000000e+00    0,000000000e+00    0,000000000e+00
     1024000000   -4,189668596e-01    1,490682513e-01   -3,416845202e-02   -3,926489949e-01    0,000000000e+00    0,000000000e+00    0,000000000e+00    0,000000000e+00
     1038000000   -2,154747397e-01    2,949765921e-01   -2,476875186e-01   -2,608641386e-01    0,000000000e+00    0,000000000e+00    0,000000000e+00    0,000000000e+00
     1052000000   -7,016038056e-03    2,765828073e-01   -3,173501492e-01   -4,541730508e-02    0,000000000e+00    0,000000000e+00    0,000000000e+00    0,000000000e+00
     1066000000    1,353311837e-01    1,660653204e-01   -2,582686543e-01    1,391454935e-01    0,000000000e+00    0,000000000e+00    0,000000000e+00    0,000000000e+00
     1080000000    1,965349466e-01   -1,057135523e-03   -1,196671724e-01    2,626212835e-01    0,000000000e+00    0,000000000e+00    0,000000000e+00    0,000000000e+00
     1094000000    1,563069224e-01   -1,726670563e-01    6,639571488e-02    3,046832085e-01    0,000000000e+00    0,000000000e+00    0,000000000e+00    0,000000000e+00
     1108000000   -2,100232756e-03   -3,016942739e-01    2,774261832e-01    2,461041808e-01    0,000000000e+00    0,000000000e+00    0,000000000e+00    0,000000000e+00
     1122000000   -2,452015579e-01   -2,690259516e-01    4,713655412e-01    1,309347805e-02    0,000000000e+00    0,000000000e+00    0,000000000e+00    0,000000000e+00
     1136000000   -3,139138222e-01    3,504023701e-02    3,988305330e-01   -3,922824860e-01    0,000000000e+00    0,000000000e+00    0,000000000e+00    0,000000000e+00
     1150000000   -3,841462359e-02    1,556635201e-01    4,419636447e-03   -5,422369838e-01    0,000000000e+00    0,000000000e+00    0,000000000e+00    0,000000000e+00
     1164000000    1,241446733e-01   -6,464426965e-02   -2,738759816e-01   -3,812393844e-01    0,000000000e+00    0,000000000e+00    0,000000000e+00    0,000000000e+00
     1178000000    2,055699192e-02   -3,070481718e-01   -3,651127815e-01   -1,528738290e-01    0,000000000e+00    0,000000000e+00    0,000000000e+00    0,000000000e+00
     1192000000   -2,683569193e-01   -3,742402494e-01   -3,246501684e-01    5,355342105e-02    0,000000000e+00    0,000000000e+00    0,000000000e+00    0,000000000e+00
     1206000000   -5,202383995e-01   -1,636370271e-01   -1,613450944e-01    1,801374257e-01    0,000000000e+00    0,000000000e+00    0,000000000e+00    0,000000000e+00
     1220000000   -5,146999955e-01    1,757086366e-01   -2,702883445e-03    1,587387919e-01    0,000000000e+00    0,000000000e+00    0,000000000e+00    0,000000000e+00
     1234000000   -2,825000286e-01    3,626734912e-01    6,900509447e-02    6,234212220e-02    0,000000000e+00    0,000000000e+00    0,000000000e+00    0,000000000e+00
     1248000000   -4,081152007e-02    3,650358915e-01    5,586816370e-02   -4,664061591e-03    0,000000000e+00    0,000000000e+00    0,000000000e+00    0,000000000e+00
     1262000000    1,199177057e-01    2,520250380e-01    1,844663545e-02   -2,887144312e-02    0,000000000e+00    0,000000000e+00    0,000000000e+00    0,000000000e+00
     1276000000    2,086642832e-01    9,935494512e-02   -3,158114851e-03    9,766628034e-03    0,000000000e+00    0,000000000e+00    0,000000000e+00    0,000000000e+00
     1290000000    2,274098992e-01   -7,564456016e-02    2,199366689e-02    5,274624750e-02    0,000000000e+00    0,000000000e+00    0,000000000e+00    0,000000000e+00
     1304000000    1,561355293e-01   -2,434406132e-01    1,343791038e-01    6,864021719e-02    0,000000000e+00    0,000000000e+00    0,000000000e+00    0,000000000e+00
     1318000000    3,398929909e-02   -3,365690708e-01    1,284354478e-01   -1,672709882e-01    0,000000000e+00    0,000000000e+00    0,000000000e+00    0,000000000e+00
     1332000000   -1,254677624e-01   -4,397016466e-01   -4,357721657e-02   -4,797621816e-02    0,000000000e+00    0,000000000e+00    0,000000000e+00    0,000000000e+00
     1346000000   -4,041029215e-01   -4,081064761e-01    1,491051447e-02    6,541787833e-02    0,000000000e+00    0,000000000e+00    0,000000000e+00    0,000000000e+00
     1360000000   -6,067314744e-01   -1,843354702e-01    1,388203353e-01    8,089759946e-02    0,000000000e+00    0,000000000e+00    0,000000000e+00    0,000000000e+00
     1374000000   -6,337037086e-01    1,317575723e-01    2,029688656e-01    1,009614673e-02    0,000000000e+00    0,000000000e+00    0,000000000e+00    0,000000000e+00
     1388000000   -4,651892483e-01    3,671527505e-01    2,107506692e-01   -6,884072721e-02    0,000000000e+00    0,000000000e+00    0,000000000e+00    0,000000000e+00
     1402000000   -2,317474037e-01    4,549555480e-01    1,941598654e-01   -1,007507369e-01    0,000000000e+00    0,000000000e+00    0,000000000e+00    0,000000000e+00
     1416000000   -2,948346175e-02    4,123471081e-01    1,718320251e-01   -1,025122926e-01    0,000000000e+00    0,000000000e+00    0,000000000e+00    0,000000000e+00
     1430000000    1,211211979e-01    3,040427864e-01    1,860019714e-01   -1,206624508e-01    0,000000000e+00    0,000000000e+00    0,000000000e+00    0,000000000e+00
     1444000000    2,138602883e-01    1,518732756e-01    1,610568017e-01   -9,388075769e-02    0,000000000e+00    0,000000000e+00    0,000000000e+00    0,000000000e+00
     1458000000    2,348342389e-01   -1,974623464e-02    1,493000686e-01   -8,123493195e-02    0,000000000e+00    0,000000000e+00    0,000000000e+00    0,000000000e+00
     1472000000    1,850347817e-01   -2,032847553e-01    1,323044300e-01   -2,074117772e-02    0,000000000e+00    0,000000000e+00    0,000000000e+00    0,000000000e+00
     1486000000    6,544636190e-02   -3,779678345e-01    1,721499562e-01    3,134960309e-02    0,000000000e+00    0,000000000e+00    0,000000000e+00    0,000000000e+00
     1500000000   -1,693394482e-01   -4,925412238e-01    2,455004007e-01    1,024687588e-01    0,000000000e+00    0,000000000e+00    0,000000000e+00    0,000000000e+00
