! NanoVNA-App
! Date: 2025-09-25 15:32:59
! Start: 100MHz Stop: 1,5GHz Points: 101
! S-Parameter data: F S11 S21 S12 S22
# Hz S RI R 50
!     Frequency           S11_Real           S11_Imag           S21_Real           S21_Imag           S12_Real           S12_Imag           S22_Real           S22_Imag
      100000000   -2,888084948e-02   -4,157088231e-03    3,741269112e-01   -7,218225002e-01    0,000000000e+00    0,000000000e+00    0,000000000e+00    0,000000000e+00
      114000000   -1,649604738e-02    1,153519284e-02   -8,910814673e-02   -8,053315878e-01    0,000000000e+00    0,000000000e+00    0,000000000e+00    0,000000000e+00
      128000000    3,466083668e-03    1,058260445e-02   -5,145808458e-01   -6,204509139e-01    0,000000000e+00    0,000000000e+00    0,000000000e+00    0,000000000e+00
      142000000    1,454288047e-02   -2,970901784e-03   -7,671088576e-01   -2,366677672e-01    0,000000000e+00    0,000000000e+00    0,000000000e+00    0,000000000e+00
      156000000    1,583950780e-02   -1,470017061e-02   -7,722329497e-01    2,234208435e-01    0,000000000e+00    0,000000000e+00    0,000000000e+00    0,000000000e+00
      170000000    1,669590175e-02   -2,249784023e-02   -5,181227922e-01    6,044146419e-01    0,000000000e+00    0,000000000e+00    0,000000000e+00    0,000000000e+00
      184000000    2,101253904e-02   -3,705349192e-02   -1,014231369e-01    7,863652706e-01    0,000000000e+00    0,000000000e+00    0,000000000e+00    0,000000000e+00
      198000000    1,300496794e-02   -6,245231628e-02    3,433198333e-01    7,124373317e-01    0,000000000e+00    0,000000000e+00    0,000000000e+00    0,000000000e+00
      212000000   -1,869762689e-02   -8,129961044e-02    6,783419847e-01    4,099875093e-01    0,000000000e+00    0,000000000e+00    0,000000000e+00    0,000000000e+00
      226000000   -6,170681864e-02   -6,916629523e-02    7,958239913e-01   -3,056831658e-02    0,000000000e+00    0,000000000e+00    0,000000000e+00    0,000000000e+00
      240000000   -8,261808753e-02   -2,557871491e-02    6,460871696e-01   -4,671132863e-01    0,000000000e+00    0,000000000e+00    0,000000000e+00    0,000000000e+00
      254000000   -6,349632889e-02    1,723029837e-02    2,760991752e-01   -7,434942126e-01    0,000000000e+00    0,000000000e+00    0,000000000e+00    0,000000000e+00
      268000000   -2,390989289e-02    2,894198895e-02   -1,782329679e-01   -7,643460631e-01    0,000000000e+00    0,000000000e+00    0,000000000e+00    0,000000000e+00
      282000000    4,200216848e-03    1,197679713e-02   -5,620498061e-01   -5,355635881e-01    0,000000000e+00    0,000000000e+00    0,000000000e+00    0,000000000e+00
      296000000    9,702084586e-03   -7,938365452e-03   -7,597246766e-01   -1,398038864e-01    0,000000000e+00    0,000000000e+00    0,000000000e+00    0,000000000e+00
      310000000    1,104939915e-02   -1,615929231e-02   -7,133369446e-01    2,989531457e-01    0,000000000e+00    0,000000000e+00    0,000000000e+00    0,000000000e+00
      324000000    1,974154636e-02   -2,645243146e-02   -4,278802574e-01    6,385152340e-01    0,000000000e+00    0,000000000e+00    0,000000000e+00    0,000000000e+00
      338000000    2,548390627e-02   -5,233993754e-02   -6,895387080e-03    7,616902590e-01    0,000000000e+00    0,000000000e+00    0,000000000e+00    0,000000000e+00
      352000000    7,453467231e-03   -8,469462395e-02    4,073237181e-01    6,399195790e-01    0,000000000e+00    0,000000000e+00    0,000000000e+00    0,000000000e+00
      366000000   -3,477403149e-02   -9,536173195e-02    6,908564568e-01    3,112620711e-01    0,000000000e+00    0,000000000e+00    0,000000000e+00    0,000000000e+00
      380000000   -7,086711377e-02   -7,113999873e-02    7,472514510e-01   -1,259455085e-01    0,000000000e+00    0,000000000e+00    0,000000000e+00    0,000000000e+00
      394000000   -7,276211679e-02   -3,219404817e-02    5,463889837e-01   -5,215354562e-01    0,000000000e+00    0,000000000e+00    0,000000000e+00    0,000000000e+00
      408000000   -4,673218727e-02   -1,618422009e-02    1,609972566e-01   -7,329615355e-01    0,000000000e+00    0,000000000e+00    0,000000000e+00    0,000000000e+00
      422000000   -2,831536904e-02   -3,165319934e-02   -2,673728168e-01   -6,950663328e-01    0,000000000e+00    0,000000000e+00    0,000000000e+00    0,000000000e+00
      436000000   -4,049072415e-02   -5,180252716e-02   -6,046711802e-01   -4,322432578e-01    0,000000000e+00    0,000000000e+00    0,000000000e+00    0,000000000e+00
      450000000   -6,736689806e-02   -4,380135238e-02   -7,401144505e-01   -2,101082541e-02    0,000000000e+00    0,000000000e+00    0,000000000e+00    0,000000000e+00
      464000000   -7,335639000e-02   -1,190402824e-02   -6,185973287e-01    3,975743055e-01    0,000000000e+00    0,000000000e+00    0,000000000e+00    0,000000000e+00
      478000000   -4,766164348e-02    1,185979135e-02   -2,827154696e-01    6,680712104e-01    0,000000000e+00    0,000000000e+00    0,000000000e+00    0,000000000e+00
      492000000   -1,535908878e-02    6,066544913e-03    1,385185122e-01    7,014229298e-01    0,000000000e+00    0,000000000e+00    0,000000000e+00    0,000000000e+00
      506000000   -2,362378873e-03   -1,575714536e-02    4,985256493e-01    5,027964711e-01    0,000000000e+00    0,000000000e+00    0,000000000e+00    0,000000000e+00
      520000000   -5,312551744e-03   -3,171426058e-02    6,880378127e-01    1,413479298e-01    0,000000000e+00    0,000000000e+00    0,000000000e+00    0,000000000e+00
      534000000   -3,755091922e-03   -3,842530772e-02    6,439817548e-01   -2,633194923e-01    0,000000000e+00    0,000000000e+00    0,000000000e+00    0,000000000e+00
      548000000    5,784037523e-03   -5,393453687e-02    3,813572228e-01   -5,672165751e-01    0,000000000e+00    0,000000000e+00    0,000000000e+00    0,000000000e+00
      562000000    3,146476345e-03   -8,953735232e-02    2,466227626e-03   -6,718873978e-01    0,000000000e+00    0,000000000e+00    0,000000000e+00    0,000000000e+00
      576000000   -3,418792412e-02   -1,241296083e-01   -3,689025044e-01   -5,569449663e-01    0,000000000e+00    0,000000000e+00    0,000000000e+00    0,000000000e+00
      590000000   -9,635288268e-02   -1,225615218e-01   -6,195153594e-01   -2,630798817e-01    0,000000000e+00    0,000000000e+00    0,000000000e+00    0,000000000e+00
      604000000   -1,393657774e-01   -7,174074650e-02   -6,648436189e-01    1,383244991e-01    0,000000000e+00    0,000000000e+00    0,000000000e+00    0,000000000e+00
      618000000   -1,294156164e-01   -9,347163141e-03   -4,642321765e-01    4,940333664e-01    0,000000000e+00    0,000000000e+00    0,000000000e+00    0,000000000e+00
      632000000   -8,376206458e-02    1,661349088e-02   -9,946393222e-02    6,640427709e-01    0,000000000e+00    0,000000000e+00    0,000000000e+00    0,000000000e+00
      646000000   -5,159666017e-02    5,133463419e-04    2,869044244e-01    5,955153108e-01    0,000000000e+00    0,000000000e+00    0,000000000e+00    0,000000000e+00
      660000000   -5,274780467e-02   -2,106771804e-02    5,681752563e-01    3,227905035e-01    0,000000000e+00    0,000000000e+00    0,000000000e+00    0,000000000e+00
      674000000   -7,066861540e-02   -1,704019681e-02    6,430966854e-01   -6,553746760e-02    0,000000000e+00    0,000000000e+00    0,000000000e+00    0,000000000e+00
      688000000   -6,807304174e-02    8,438903838e-03    4,713400304e-01   -4,282422066e-01    0,000000000e+00    0,000000000e+00    0,000000000e+00    0,000000000e+00
      702000000   -3,644967079e-02    2,674107626e-02    1,176873073e-01   -6,071251631e-01    0,000000000e+00    0,000000000e+00    0,000000000e+00    0,000000000e+00
      716000000    2,709038788e-03    1,843995973e-02   -2,647090554e-01   -5,473088026e-01    0,000000000e+00    0,000000000e+00    0,000000000e+00    0,000000000e+00
      730000000    3,675448149e-02   -1,025114581e-02   -5,283874273e-01   -2,688800395e-01    0,000000000e+00    0,000000000e+00    0,000000000e+00    0,000000000e+00
      744000000    6,604242325e-02   -6,262710690e-02   -5,643137693e-01    1,065880358e-01    0,000000000e+00    0,000000000e+00    0,000000000e+00    0,000000000e+00
      758000000    6,602063775e-02   -1,526246667e-01   -3,630434275e-01    4,107798338e-01    0,000000000e+00    0,000000000e+00    0,000000000e+00    0,000000000e+00
      772000000   -1,251994167e-02   -2,629230022e-01   -3,440897912e-02    5,159612298e-01    0,000000000e+00    0,000000000e+00    0,000000000e+00    0,000000000e+00
      786000000   -2,065561563e-01   -3,029960394e-01    2,740604877e-01    3,948575556e-01    0,000000000e+00    0,000000000e+00    0,000000000e+00    0,000000000e+00
      800000000   -4,258836806e-01   -1,310409755e-01    4,176493585e-01    9,920377284e-02    0,000000000e+00    0,000000000e+00    0,000000000e+00    0,000000000e+00
      814000000   -3,901255429e-01    2,217353284e-01    2,827084363e-01   -1,734192669e-01    0,000000000e+00    0,000000000e+00    0,000000000e+00    0,000000000e+00
      828000000   -5,023749545e-02    3,684594631e-01    5,497030541e-02   -1,894397885e-01    0,000000000e+00    0,000000000e+00    0,000000000e+00    0,000000000e+00
      842000000    2,348146737e-01    1,856163591e-01   -1,716485806e-02   -7,115245610e-02    0,000000000e+00    0,000000000e+00    0,000000000e+00    0,000000000e+00
      856000000    2,805968225e-01   -1,245434210e-01    4,514201358e-02   -1,287218463e-02    0,000000000e+00    0,000000000e+00    0,000000000e+00    0,000000000e+00
      870000000    7,503831387e-02   -3,768295944e-01    1,136701629e-01   -9,132730961e-02    0,000000000e+00    0,000000000e+00    0,000000000e+00    0,000000000e+00
      884000000   -2,954026163e-01   -3,616492152e-01    2,838347293e-02   -2,454744279e-01    0,000000000e+00    0,000000000e+00    0,000000000e+00    0,000000000e+00
      898000000   -4,727573097e-01    9,586401284e-03   -2,227656543e-01   -2,274465561e-01    0,000000000e+00    0,000000000e+00    0,000000000e+00    0,000000000e+00
      912000000   -2,261116654e-01    2,935306132e-01   -3,438692391e-01    7,587274909e-02    0,000000000e+00    0,000000000e+00    0,000000000e+00    0,000000000e+00
      926000000    6,883930415e-02    2,630562782e-01   -2,153801322e-01    2,642078102e-01    0,000000000e+00    0,000000000e+00    0,000000000e+00    0,000000000e+00
      940000000    2,144836485e-01    8,073724806e-02   -3,484755382e-02    3,289033473e-01    0,000000000e+00    0,000000000e+00    0,000000000e+00    0,000000000e+00
      954000000    2,226829529e-01   -1,249773279e-01    1,304851770e-01    3,084335923e-01    0,000000000e+00    0,000000000e+00    0,000000000e+00    0,000000000e+00
      968000000    1,138605550e-01   -2,985629737e-01    2,714964747e-01    2,185942233e-01    0,000000000e+00    0,000000000e+00    0,000000000e+00    0,000000000e+00
      982000000   -8,452339470e-02   -3,875949681e-01    3,649674952e-01    6,505014002e-02    0,000000000e+00    0,000000000e+00    0,000000000e+00    0,000000000e+00
      996000000   -3,138966262e-01   -3,277758658e-01    3,704648614e-01   -1,448159516e-01    0,000000000e+00    0,000000000e+00    0,000000000e+00    0,000000000e+00
     1010000000   -4,617784917e-01   -1,078249514e-01    2,243284583e-01   -3,410003483e-01    0,000000000e+00    0,000000000e+00    0,000000000e+00    0,000000000e+00
     1024000000   -4,170717299e-01    1,490374506e-01   -3,154700994e-02   -3,921329975e-01    0,000000000e+00    0,000000000e+00    0,000000000e+00    0,000000000e+00
     1038000000   -2,153647244e-01    2,938130498e-01   -2,480154335e-01   -2,612549663e-01    0,000000000e+00    0,000000000e+00    0,000000000e+00    0,000000000e+00
     1052000000   -7,818737067e-03    2,761282921e-01   -3,146190047e-01   -4,663193226e-02    0,000000000e+00    0,000000000e+00    0,000000000e+00    0,000000000e+00
     1066000000    1,391379982e-01    1,617587209e-01   -2,537861168e-01    1,408793032e-01    0,000000000e+00    0,000000000e+00    0,000000000e+00    0,000000000e+00
     1080000000    1,914725304e-01   -1,791209332e-03   -1,199684665e-01    2,656224072e-01    0,000000000e+00    0,000000000e+00    0,000000000e+00    0,000000000e+00
     1094000000    1,559285671e-01   -1,721947938e-01    6,180576608e-02    3,036873341e-01    0,000000000e+00    0,000000000e+00    0,000000000e+00    0,000000000e+00
     1108000000   -1,243004110e-03   -3,058404028e-01    2,786256671e-01    2,456694990e-01    0,000000000e+00    0,000000000e+00    0,000000000e+00    0,000000000e+00
     1122000000   -2,463503927e-01   -2,673009336e-01    4,740992486e-01    1,496228389e-02    0,000000000e+00    0,000000000e+00    0,000000000e+00    0,000000000e+00
     1136000000   -3,136091232e-01    3,192349151e-02    3,988347352e-01   -3,911401629e-01    0,000000000e+00    0,000000000e+00    0,000000000e+00    0,000000000e+00
     1150000000   -3,670287132e-02    1,529717594e-01    4,600979853e-03   -5,386261344e-01    0,000000000e+00    0,000000000e+00    0,000000000e+00    0,000000000e+00
     1164000000    1,229862720e-01   -6,515195966e-02   -2,764134705e-01   -3,814602196e-01    0,000000000e+00    0,000000000e+00    0,000000000e+00    0,000000000e+00
     1178000000    1,698132418e-02   -3,027531207e-01   -3,680628538e-01   -1,488680393e-01    0,000000000e+00    0,000000000e+00    0,000000000e+00    0,000000000e+00
     1192000000   -2,679127157e-01   -3,712770343e-01   -3,262373209e-01    5,633357167e-02    0,000000000e+00    0,000000000e+00    0,000000000e+00    0,000000000e+00
     1206000000   -5,222795010e-01   -1,642029732e-01   -1,661958098e-01    1,831441820e-01    0,000000000e+00    0,000000000e+00    0,000000000e+00    0,000000000e+00
     1220000000   -5,122255087e-01    1,784323454e-01    2,744987141e-03    1,620206833e-01    0,000000000e+00    0,000000000e+00    0,000000000e+00    0,000000000e+00
     1234000000   -2,868081629e-01    3,676514924e-01    6,479650736e-02    6,347844750e-02    0,000000000e+00    0,000000000e+00    0,000000000e+00    0,000000000e+00
     1248000000   -3,935474902e-02    3,644073009e-01    5,533768237e-02   -4,601365421e-03    0,000000000e+00    0,000000000e+00    0,000000000e+00    0,000000000e+00
     1262000000    1,248037890e-01    2,520264983e-01    2,060005255e-02   -2,408831194e-02    0,000000000e+00    0,000000000e+00    0,000000000e+00    0,000000000e+00
     1276000000    2,125206143e-01    9,734699875e-02    4,565815616e-04    1,646895311e-03    0,000000000e+00    0,000000000e+00    0,000000000e+00    0,000000000e+00
     1290000000    2,206864208e-01   -7,675316930e-02    1,763805933e-02    5,212931335e-02    0,000000000e+00    0,000000000e+00    0,000000000e+00    0,000000000e+00
     1304000000    1,533658504e-01   -2,434261590e-01    1,297381967e-01    6,357470900e-02    0,000000000e+00    0,000000000e+00    0,000000000e+00    0,000000000e+00
     1318000000    3,573889658e-02   -3,379724324e-01    1,317487806e-01   -1,651648581e-01    0,000000000e+00    0,000000000e+00    0,000000000e+00    0,000000000e+00
     1332000000   -1,276686043e-01   -4,369866848e-01   -4,747805372e-02   -4,871895164e-02    0,000000000e+00    0,000000000e+00    0,000000000e+00    0,000000000e+00
     1346000000   -3,971376121e-01   -4,007984400e-01    2,155286074e-02    7,144364715e-02    0,000000000e+00    0,000000000e+00    0,000000000e+00    0,000000000e+00
     1360000000   -5,997663140e-01   -1,935117692e-01    1,392876208e-01    6,706841290e-02    0,000000000e+00    0,000000000e+00    0,000000000e+00    0,000000000e+00
     1374000000   -6,422310472e-01    1,247410625e-01    2,051435262e-01    7,678260561e-03    0,000000000e+00    0,000000000e+00    0,000000000e+00    0,000000000e+00
     1388000000   -4,653621316e-01    3,735755086e-01    2,093220204e-01   -5,471816286e-02    0,000000000e+00    0,000000000e+00    0,000000000e+00    0,000000000e+00
     1402000000   -2,291328013e-01    4,489692152e-01    1,925919354e-01   -1,052655503e-01    0,000000000e+00    0,000000000e+00    0,000000000e+00    0,000000000e+00
     1416000000   -2,716055885e-02    4,119507968e-01    1,733762026e-01   -9,771162271e-02    0,000000000e+00    0,000000000e+00    0,000000000e+00    0,000000000e+00
     1430000000    1,173612028e-01    3,080162108e-01    1,630462408e-01   -9,630338848e-02    0,000000000e+00    0,000000000e+00    0,000000000e+00    0,000000000e+00
     1444000000    2,027428746e-01    1,502491683e-01    1,499184817e-01   -9,971860796e-02    0,000000000e+00    0,000000000e+00    0,000000000e+00    0,000000000e+00
     1458000000    2,349272668e-01   -2,078872547e-02    1,343325824e-01   -7,272522151e-02    0,000000000e+00    0,000000000e+00    0,000000000e+00    0,000000000e+00
     1472000000    1,895028502e-01   -1,997560263e-01    1,409223080e-01   -1,929194853e-02    0,000000000e+00    0,000000000e+00    0,000000000e+00    0,000000000e+00
     1486000000    6,301578134e-02   -3,693402410e-01    1,778523773e-01    3,515988961e-02    0,000000000e+00    0,000000000e+00    0,000000000e+00    0,000000000e+00
     1500000000   -1,720381826e-01   -4,956040084e-01    2,548326254e-01    8,586039394e-02    0,000000000e+00    0,000000000e+00    0,000000000e+00    0,000000000e+00
