! NanoVNA-App
! Date: 2025-09-25 15:36:53
! Start: 100MHz Stop: 1,5GHz Points: 101
! S-Parameter data: F S11 S21 S12 S22
# Hz S RI R 50
!     Frequency           S11_Real           S11_Imag           S21_Real           S21_Imag           S12_Real           S12_Imag           S22_Real           S22_Imag
      100000000   -2,883581258e-02   -4,155916162e-03    3,741091490e-01   -7,217882276e-01    0,000000000e+00    0,000000000e+00    0,000000000e+00    0,000000000e+00
      114000000   -1,645306684e-02    1,148581412e-02   -8,916653693e-02   -8,055461049e-01    0,000000000e+00    0,000000000e+00    0,000000000e+00    0,000000000e+00
      128000000    3,546270309e-03    1,054488122e-02   -5,144937634e-01   -6,203607917e-01    0,000000000e+00    0,000000000e+00    0,000000000e+00    0,000000000e+00
      142000000    1,457102038e-02   -2,959988080e-03   -7,672738433e-01   -2,365756333e-01    0,000000000e+00    0,000000000e+00    0,000000000e+00    0,000000000e+00
      156000000    1,555499528e-02   -1,494265068e-02   -7,712295055e-01    2,217698693e-01    0,000000000e+00    0,000000000e+00    0,000000000e+00    0,000000000e+00
      170000000    1,667140611e-02   -2,249655314e-02   -5,179040432e-01    6,044358611e-01    0,000000000e+00    0,000000000e+00    0,000000000e+00    0,000000000e+00
      184000000    2,100854926e-02   -3,704944253e-02   -1,015217975e-01    7,858207226e-01    0,000000000e+00    0,000000000e+00    0,000000000e+00    0,000000000e+00
      198000000    1,304858457e-02   -6,246508658e-02    3,435175121e-01    7,125730515e-01    0,000000000e+00    0,000000000e+00    0,000000000e+00    0,000000000e+00
      212000000   -1,863846369e-02   -8,134775609e-02    6,782051921e-01    4,100064337e-01    0,000000000e+00    0,000000000e+00    0,000000000e+00    0,000000000e+00
      226000000   -6,168185920e-02   -6,924484670e-02    7,958210707e-01   -3,058876283e-02    0,000000000e+00    0,000000000e+00    0,000000000e+00    0,000000000e+00
      240000000   -8,256868273e-02   -2,566434629e-02    6,459678411e-01   -4,668931067e-01    0,000000000e+00    0,000000000e+00    0,000000000e+00    0,000000000e+00
      254000000   -6,347880512e-02    1,725784317e-02    2,760772705e-01   -7,434138656e-01    0,000000000e+00    0,000000000e+00    0,000000000e+00    0,000000000e+00
      268000000   -2,391621657e-02    2,889685333e-02   -1,782754958e-01   -7,643560171e-01    0,000000000e+00    0,000000000e+00    0,000000000e+00    0,000000000e+00
      282000000    4,221173469e-03    1,189870574e-02   -5,619269609e-01   -5,357777476e-01    0,000000000e+00    0,000000000e+00    0,000000000e+00    0,000000000e+00
      296000000    9,808995761e-03   -7,928633131e-03   -7,600700259e-01   -1,395203024e-01    0,000000000e+00    0,000000000e+00    0,000000000e+00    0,000000000e+00
      310000000    1,108402386e-02   -1,615260914e-02   -7,113235593e-01    2,980892658e-01    0,000000000e+00    0,000000000e+00    0,000000000e+00    0,000000000e+00
      324000000    1,961806789e-02   -2,650860325e-02   -4,278921485e-01    6,380251646e-01    0,000000000e+00    0,000000000e+00    0,000000000e+00    0,000000000e+00
      338000000    2,558746561e-02   -5,200516060e-02   -9,614920244e-03    7,604258060e-01    0,000000000e+00    0,000000000e+00    0,000000000e+00    0,000000000e+00
      352000000    7,449604571e-03   -8,467864245e-02    4,065699577e-01    6,396595240e-01    0,000000000e+00    0,000000000e+00    0,000000000e+00    0,000000000e+00
      366000000   -3,473622352e-02   -9,525641799e-02    6,908231378e-01    3,113863468e-01    0,000000000e+00    0,000000000e+00    0,000000000e+00    0,000000000e+00
      380000000   -7,087228447e-02   -7,107619196e-02    7,471860647e-01   -1,260967404e-01    0,000000000e+00    0,000000000e+00    0,000000000e+00    0,000000000e+00
      394000000   -7,269772142e-02   -3,257363662e-02    5,462883115e-01   -5,229734778e-01    0,000000000e+00    0,000000000e+00    0,000000000e+00    0,000000000e+00
      408000000   -4,626590386e-02   -1,593096741e-02    1,600874066e-01   -7,316077352e-01    0,000000000e+00    0,000000000e+00    0,000000000e+00    0,000000000e+00
      422000000   -2,836663090e-02   -3,185840324e-02   -2,678695321e-01   -6,949357986e-01    0,000000000e+00    0,000000000e+00    0,000000000e+00    0,000000000e+00
      436000000   -4,033788666e-02   -5,196929350e-02   -6,040473580e-01   -4,316715300e-01    0,000000000e+00    0,000000000e+00    0,000000000e+00    0,000000000e+00
      450000000   -6,733559817e-02   -4,369228706e-02   -7,403435707e-01   -2,077757567e-02    0,000000000e+00    0,000000000e+00    0,000000000e+00    0,000000000e+00
      464000000   -7,344270498e-02   -1,157818269e-02   -6,182085872e-01    3,976587951e-01    0,000000000e+00    0,000000000e+00    0,000000000e+00    0,000000000e+00
      478000000   -4,786834866e-02    1,199257653e-02   -2,828230560e-01    6,679995656e-01    0,000000000e+00    0,000000000e+00    0,000000000e+00    0,000000000e+00
      492000000   -1,551435329e-02    5,988451187e-03    1,373365223e-01    7,010953426e-01    0,000000000e+00    0,000000000e+00    0,000000000e+00    0,000000000e+00
      506000000   -2,346198540e-03   -1,602443494e-02    4,989676774e-01    5,025489926e-01    0,000000000e+00    0,000000000e+00    0,000000000e+00    0,000000000e+00
      520000000   -5,336418748e-03   -3,130473569e-02    6,874871850e-01    1,402186900e-01    0,000000000e+00    0,000000000e+00    0,000000000e+00    0,000000000e+00
      534000000   -3,858346259e-03   -3,842881694e-02    6,435749531e-01   -2,627485693e-01    0,000000000e+00    0,000000000e+00    0,000000000e+00    0,000000000e+00
      548000000    6,016866770e-03   -5,373992026e-02    3,811370730e-01   -5,672193766e-01    0,000000000e+00    0,000000000e+00    0,000000000e+00    0,000000000e+00
      562000000    3,416140098e-03   -8,954183012e-02    2,589673735e-03   -6,722101569e-01    0,000000000e+00    0,000000000e+00    0,000000000e+00    0,000000000e+00
      576000000   -3,393847495e-02   -1,241936535e-01   -3,694185019e-01   -5,575508475e-01    0,000000000e+00    0,000000000e+00    0,000000000e+00    0,000000000e+00
      590000000   -9,623659402e-02   -1,225155815e-01   -6,197100878e-01   -2,641945481e-01    0,000000000e+00    0,000000000e+00    0,000000000e+00    0,000000000e+00
      604000000   -1,397288591e-01   -7,189545780e-02   -6,653267145e-01    1,374396235e-01    0,000000000e+00    0,000000000e+00    0,000000000e+00    0,000000000e+00
      618000000   -1,292951703e-01   -8,693436161e-03   -4,651534855e-01    4,950016737e-01    0,000000000e+00    0,000000000e+00    0,000000000e+00    0,000000000e+00
      632000000   -8,337201923e-02    1,646343432e-02   -9,875839949e-02    6,638320088e-01    0,000000000e+00    0,000000000e+00    0,000000000e+00    0,000000000e+00
      646000000   -5,053318664e-02    9,607048123e-04    2,885597348e-01    5,942539573e-01    0,000000000e+00    0,000000000e+00    0,000000000e+00    0,000000000e+00
      660000000   -5,321112275e-02   -2,231508680e-02    5,683894157e-01    3,230511248e-01    0,000000000e+00    0,000000000e+00    0,000000000e+00    0,000000000e+00
      674000000   -6,952110678e-02   -1,768627949e-02    6,430561543e-01   -6,551367044e-02    0,000000000e+00    0,000000000e+00    0,000000000e+00    0,000000000e+00
      688000000   -6,896641105e-02    8,576039225e-03    4,716117084e-01   -4,281574190e-01    0,000000000e+00    0,000000000e+00    0,000000000e+00    0,000000000e+00
      702000000   -3,728440776e-02    2,581267804e-02    1,172938272e-01   -6,112242937e-01    0,000000000e+00    0,000000000e+00    0,000000000e+00    0,000000000e+00
      716000000    2,992953407e-03    1,747950166e-02   -2,644566298e-01   -5,462842584e-01    0,000000000e+00    0,000000000e+00    0,000000000e+00    0,000000000e+00
      730000000    3,648829833e-02   -1,154422946e-02   -5,283126831e-01   -2,686382830e-01    0,000000000e+00    0,000000000e+00    0,000000000e+00    0,000000000e+00
      744000000    6,512957811e-02   -6,285664439e-02   -5,640920401e-01    1,063746959e-01    0,000000000e+00    0,000000000e+00    0,000000000e+00    0,000000000e+00
      758000000    6,699936092e-02   -1,522260308e-01   -3,633288145e-01    4,106225669e-01    0,000000000e+00    0,000000000e+00    0,000000000e+00    0,000000000e+00
      772000000   -1,306124218e-02   -2,627872825e-01   -3,465507179e-02    5,154146552e-01    0,000000000e+00    0,000000000e+00    0,000000000e+00    0,000000000e+00
      786000000   -2,065327317e-01   -3,022791445e-01    2,749798298e-01    3,948111236e-01    0,000000000e+00    0,000000000e+00    0,000000000e+00    0,000000000e+00
      800000000   -4,246783853e-01   -1,306902319e-01    4,174162447e-01    9,898886085e-02    0,000000000e+00    0,000000000e+00    0,000000000e+00    0,000000000e+00
      814000000   -3,894175589e-01    2,219488919e-01    2,823032141e-01   -1,731642187e-01    0,000000000e+00    0,000000000e+00    0,000000000e+00    0,000000000e+00
      828000000   -4,950068891e-02    3,683891296e-01    5,547191948e-02   -1,894748509e-01    0,000000000e+00    0,000000000e+00    0,000000000e+00    0,000000000e+00
      842000000    2,353055030e-01    1,858402938e-01   -1,664918661e-02   -7,057330757e-02    0,000000000e+00    0,000000000e+00    0,000000000e+00    0,000000000e+00
      856000000    2,804895639e-01   -1,245366707e-01    4,512909055e-02   -1,333694346e-02    0,000000000e+00    0,000000000e+00    0,000000000e+00    0,000000000e+00
      870000000    7,454960048e-02   -3,758471310e-01    1,134360880e-01   -9,060972184e-02    0,000000000e+00    0,000000000e+00    0,000000000e+00    0,000000000e+00
      884000000   -2,957812548e-01   -3,620454967e-01    2,835482173e-02   -2,454520166e-01    0,000000000e+00    0,000000000e+00    0,000000000e+00    0,000000000e+00
      898000000   -4,721308053e-01    8,076180704e-03   -2,224791050e-01   -2,282692641e-01    0,000000000e+00    0,000000000e+00    0,000000000e+00    0,000000000e+00
      912000000   -2,276287675e-01    2,946118712e-01   -3,407599032e-01    7,541144639e-02    0,000000000e+00    0,000000000e+00    0,000000000e+00    0,000000000e+00
      926000000    6,686391681e-02    2,654265165e-01   -2,163587362e-01    2,654470503e-01    0,000000000e+00    0,000000000e+00    0,000000000e+00    0,000000000e+00
      940000000    2,177694291e-01    7,947945595e-02   -3,526183218e-02    3,290552199e-01    0,000000000e+00    0,000000000e+00    0,000000000e+00    0,000000000e+00
      954000000    2,241114080e-01   -1,262602210e-01    1,314717531e-01    3,078412116e-01    0,000000000e+00    0,000000000e+00    0,000000000e+00    0,000000000e+00
      968000000    1,165247634e-01   -3,022899628e-01    2,713277042e-01    2,174893469e-01    0,000000000e+00    0,000000000e+00    0,000000000e+00    0,000000000e+00
      982000000   -8,408664167e-02   -3,874929249e-01    3,661384583e-01    6,512012333e-02    0,000000000e+00    0,000000000e+00    0,000000000e+00    0,000000000e+00
      996000000   -3,144369423e-01   -3,288883865e-01    3,699724376e-01   -1,447264105e-01    0,000000000e+00    0,000000000e+00    0,000000000e+00    0,000000000e+00
     1010000000   -4,625616372e-01   -1,141175479e-01    2,211486399e-01   -3,403173387e-01    0,000000000e+00    0,000000000e+00    0,000000000e+00    0,000000000e+00
     1024000000   -4,104060531e-01    1,461629272e-01   -3,286033496e-02   -3,938952684e-01    0,000000000e+00    0,000000000e+00    0,000000000e+00    0,000000000e+00
     1038000000   -2,206218839e-01    2,913565934e-01   -2,467388064e-01   -2,632180154e-01    0,000000000e+00    0,000000000e+00    0,000000000e+00    0,000000000e+00
     1052000000   -9,780691005e-03    2,770794332e-01   -3,178041279e-01   -4,484590888e-02    0,000000000e+00    0,000000000e+00    0,000000000e+00    0,000000000e+00
     1066000000    1,378713846e-01    1,657413840e-01   -2,594146729e-01    1,424622536e-01    0,000000000e+00    0,000000000e+00    0,000000000e+00    0,000000000e+00
     1080000000    1,920550019e-01    2,034314210e-03   -1,163576618e-01    2,640221417e-01    0,000000000e+00    0,000000000e+00    0,000000000e+00    0,000000000e+00
     1094000000    1,567099839e-01   -1,739855260e-01    6,569121778e-02    3,047432601e-01    0,000000000e+00    0,000000000e+00    0,000000000e+00    0,000000000e+00
     1108000000    2,635631827e-04   -3,012757301e-01    2,766687572e-01    2,457589358e-01    0,000000000e+00    0,000000000e+00    0,000000000e+00    0,000000000e+00
     1122000000   -2,523249984e-01   -2,612877786e-01    4,725135565e-01    1,356972568e-02    0,000000000e+00    0,000000000e+00    0,000000000e+00    0,000000000e+00
     1136000000   -3,154373467e-01    3,276303038e-02    3,980620503e-01   -3,894148767e-01    0,000000000e+00    0,000000000e+00    0,000000000e+00    0,000000000e+00
     1150000000   -3,570654243e-02    1,529919654e-01    5,968783982e-03   -5,431832671e-01    0,000000000e+00    0,000000000e+00    0,000000000e+00    0,000000000e+00
     1164000000    1,243533343e-01   -6,127936020e-02   -2,775387168e-01   -3,781519234e-01    0,000000000e+00    0,000000000e+00    0,000000000e+00    0,000000000e+00
     1178000000    2,032573707e-02   -3,055581152e-01   -3,694523573e-01   -1,509657502e-01    0,000000000e+00    0,000000000e+00    0,000000000e+00    0,000000000e+00
     1192000000   -2,677961886e-01   -3,692632616e-01   -3,269343376e-01    5,699022114e-02    0,000000000e+00    0,000000000e+00    0,000000000e+00    0,000000000e+00
     1206000000   -5,233564973e-01   -1,617401987e-01   -1,702190489e-01    1,793089658e-01    0,000000000e+00    0,000000000e+00    0,000000000e+00    0,000000000e+00
     1220000000   -5,121392608e-01    1,685185283e-01    7,124199183e-04    1,560278684e-01    0,000000000e+00    0,000000000e+00    0,000000000e+00    0,000000000e+00
     1234000000   -2,837017477e-01    3,556811810e-01    6,801103801e-02    5,795949697e-02    0,000000000e+00    0,000000000e+00    0,000000000e+00    0,000000000e+00
     1248000000   -4,263539612e-02    3,646255434e-01    5,602610484e-02   -9,368323721e-03    0,000000000e+00    0,000000000e+00    0,000000000e+00    0,000000000e+00
     1262000000    1,267742813e-01    2,538021505e-01    2,031866461e-02   -1,941273548e-02    0,000000000e+00    0,000000000e+00    0,000000000e+00    0,000000000e+00
     1276000000    2,087687105e-01    9,677314013e-02   -3,759130137e-03    2,419558819e-03    0,000000000e+00    0,000000000e+00    0,000000000e+00    0,000000000e+00
     1290000000    2,225742191e-01   -7,466883957e-02    1,436015032e-02    5,240686238e-02    0,000000000e+00    0,000000000e+00    0,000000000e+00    0,000000000e+00
     1304000000    1,568970084e-01   -2,426833212e-01    1,341215372e-01    6,942756474e-02    0,000000000e+00    0,000000000e+00    0,000000000e+00    0,000000000e+00
     1318000000    3,525894135e-02   -3,304885030e-01    1,302651316e-01   -1,614223719e-01    0,000000000e+00    0,000000000e+00    0,000000000e+00    0,000000000e+00
     1332000000   -1,339106113e-01   -4,397362471e-01   -4,918727651e-02   -4,608437791e-02    0,000000000e+00    0,000000000e+00    0,000000000e+00    0,000000000e+00
     1346000000   -3,932324052e-01   -4,085322320e-01    1,930783316e-02    6,400623173e-02    0,000000000e+00    0,000000000e+00    0,000000000e+00    0,000000000e+00
     1360000000   -6,101893187e-01   -1,841816008e-01    1,287537664e-01    7,179034501e-02    0,000000000e+00    0,000000000e+00    0,000000000e+00    0,000000000e+00
     1374000000   -6,305048466e-01    1,347831637e-01    2,055031061e-01    1,179831289e-02    0,000000000e+00    0,000000000e+00    0,000000000e+00    0,000000000e+00
     1388000000   -4,606731832e-01    3,662807047e-01    2,227373719e-01   -6,376567483e-02    0,000000000e+00    0,000000000e+00    0,000000000e+00    0,000000000e+00
     1402000000   -2,360654026e-01    4,502358437e-01    1,807008833e-01   -9,682694077e-02    0,000000000e+00    0,000000000e+00    0,000000000e+00    0,000000000e+00
     1416000000   -3,073846176e-02    4,118074775e-01    1,730329394e-01   -1,069219038e-01    0,000000000e+00    0,000000000e+00    0,000000000e+00    0,000000000e+00
     1430000000    1,279756427e-01    3,045333922e-01    1,986242086e-01   -1,218602806e-01    0,000000000e+00    0,000000000e+00    0,000000000e+00    0,000000000e+00
     1444000000    2,106673419e-01    1,530944407e-01    1,584235579e-01   -9,536011517e-02    0,000000000e+00    0,000000000e+00    0,000000000e+00    0,000000000e+00
     1458000000    2,344374061e-01   -1,946051791e-02    1,480871141e-01   -7,820305228e-02    0,000000000e+00    0,000000000e+00    0,000000000e+00    0,000000000e+00
     1472000000    1,932612211e-01   -2,059992850e-01    1,458017975e-01   -3,685312346e-02    0,000000000e+00    0,000000000e+00    0,000000000e+00    0,000000000e+00
     1486000000    6,163913012e-02   -3,769473135e-01    1,720345318e-01    3,443075716e-02    0,000000000e+00    0,000000000e+00    0,000000000e+00    0,000000000e+00
     1500000000   -1,724577844e-01   -4,977388978e-01    2,371256500e-01    8,029628545e-02    0,000000000e+00    0,000000000e+00    0,000000000e+00    0,000000000e+00
