! NanoVNA-App
! Date: 2025-09-25 15:32:20
! Start: 100MHz Stop: 1,5GHz Points: 101
! S-Parameter data: F S11 S21 S12 S22
# Hz S RI R 50
!     Frequency           S11_Real           S11_Imag           S21_Real           S21_Imag           S12_Real           S12_Imag           S22_Real           S22_Imag
      100000000   -2,885462530e-02   -4,170633852e-03    3,740975261e-01   -7,218137383e-01    0,000000000e+00    0,000000000e+00    0,000000000e+00    0,000000000e+00
      114000000   -1,651436277e-02    1,153335255e-02   -8,890744299e-02   -8,055170178e-01    0,000000000e+00    0,000000000e+00    0,000000000e+00    0,000000000e+00
      128000000    3,471143311e-03    1,056687161e-02   -5,146821737e-01   -6,205403805e-01    0,000000000e+00    0,000000000e+00    0,000000000e+00    0,000000000e+00
      142000000    1,455777045e-02   -2,937091514e-03   -7,671083212e-01   -2,365156561e-01    0,000000000e+00    0,000000000e+00    0,000000000e+00    0,000000000e+00
      156000000    1,434772834e-02   -1,480701379e-02   -7,639594078e-01    2,188438922e-01    0,000000000e+00    0,000000000e+00    0,000000000e+00    0,000000000e+00
      170000000    1,673414744e-02   -2,250701562e-02   -5,184212327e-01    6,049503088e-01    0,000000000e+00    0,000000000e+00    0,000000000e+00    0,000000000e+00
      184000000    2,098663524e-02   -3,712129593e-02   -1,012478247e-01    7,861196995e-01    0,000000000e+00    0,000000000e+00    0,000000000e+00    0,000000000e+00
      198000000    1,303574909e-02   -6,243157387e-02    3,432973325e-01    7,123072147e-01    0,000000000e+00    0,000000000e+00    0,000000000e+00    0,000000000e+00
      212000000   -1,866430603e-02   -8,129803836e-02    6,783813238e-01    4,103513658e-01    0,000000000e+00    0,000000000e+00    0,000000000e+00    0,000000000e+00
      226000000   -6,173598021e-02   -6,916475296e-02    7,958735228e-01   -3,062087111e-02    0,000000000e+00    0,000000000e+00    0,000000000e+00    0,000000000e+00
      240000000   -8,260542899e-02   -2,561692707e-02    6,460466981e-01   -4,669666886e-01    0,000000000e+00    0,000000000e+00    0,000000000e+00    0,000000000e+00
      254000000   -6,352749467e-02    1,724965498e-02    2,759369612e-01   -7,434468865e-01    0,000000000e+00    0,000000000e+00    0,000000000e+00    0,000000000e+00
      268000000   -2,383109182e-02    2,890527248e-02   -1,782069206e-01   -7,641935945e-01    0,000000000e+00    0,000000000e+00    0,000000000e+00    0,000000000e+00
      282000000    4,188528750e-03    1,204273850e-02   -5,621644258e-01   -5,359084606e-01    0,000000000e+00    0,000000000e+00    0,000000000e+00    0,000000000e+00
      296000000    9,636917152e-03   -7,940589450e-03   -7,597528100e-01   -1,395173669e-01    0,000000000e+00    0,000000000e+00    0,000000000e+00    0,000000000e+00
      310000000    1,117696706e-02   -1,619395427e-02   -7,118834853e-01    2,990474105e-01    0,000000000e+00    0,000000000e+00    0,000000000e+00    0,000000000e+00
      324000000    1,993978024e-02   -2,651564404e-02   -4,282331467e-01    6,383924484e-01    0,000000000e+00    0,000000000e+00    0,000000000e+00    0,000000000e+00
      338000000    2,563869953e-02   -5,177864432e-02   -1,008418016e-02    7,602021694e-01    0,000000000e+00    0,000000000e+00    0,000000000e+00    0,000000000e+00
      352000000    7,238022052e-03   -8,489042521e-02    4,069860876e-01    6,389155984e-01    0,000000000e+00    0,000000000e+00    0,000000000e+00    0,000000000e+00
      366000000   -3,458216414e-02   -9,545959532e-02    6,905690432e-01    3,111164868e-01    0,000000000e+00    0,000000000e+00    0,000000000e+00    0,000000000e+00
      380000000   -7,078805566e-02   -7,112015039e-02    7,475667000e-01   -1,263770759e-01    0,000000000e+00    0,000000000e+00    0,000000000e+00    0,000000000e+00
      394000000   -7,234577090e-02   -3,225193173e-02    5,465803742e-01   -5,221800208e-01    0,000000000e+00    0,000000000e+00    0,000000000e+00    0,000000000e+00
      408000000   -4,648562148e-02   -1,618211716e-02    1,619816124e-01   -7,330928445e-01    0,000000000e+00    0,000000000e+00    0,000000000e+00    0,000000000e+00
      422000000   -2,817531303e-02   -3,197586536e-02   -2,669641376e-01   -6,948372722e-01    0,000000000e+00    0,000000000e+00    0,000000000e+00    0,000000000e+00
      436000000   -4,076107964e-02   -5,183921754e-02   -6,042201519e-01   -4,318766892e-01    0,000000000e+00    0,000000000e+00    0,000000000e+00    0,000000000e+00
      450000000   -6,750156730e-02   -4,370899871e-02   -7,406822443e-01   -2,131265588e-02    0,000000000e+00    0,000000000e+00    0,000000000e+00    0,000000000e+00
      464000000   -7,299648970e-02   -1,156743523e-02   -6,183815598e-01    3,979353309e-01    0,000000000e+00    0,000000000e+00    0,000000000e+00    0,000000000e+00
      478000000   -4,765381292e-02    1,205428876e-02   -2,818822265e-01    6,677188873e-01    0,000000000e+00    0,000000000e+00    0,000000000e+00    0,000000000e+00
      492000000   -1,561817899e-02    6,323178299e-03    1,377512217e-01    7,012270689e-01    0,000000000e+00    0,000000000e+00    0,000000000e+00    0,000000000e+00
      506000000   -2,375832992e-03   -1,588808745e-02    4,988392889e-01    5,025829077e-01    0,000000000e+00    0,000000000e+00    0,000000000e+00    0,000000000e+00
      520000000   -5,373721477e-03   -3,166392073e-02    6,885555983e-01    1,407962590e-01    0,000000000e+00    0,000000000e+00    0,000000000e+00    0,000000000e+00
      534000000   -4,101651255e-03   -3,806694224e-02    6,436321139e-01   -2,623589039e-01    0,000000000e+00    0,000000000e+00    0,000000000e+00    0,000000000e+00
      548000000    6,314374972e-03   -5,367394164e-02    3,815130293e-01   -5,672251582e-01    0,000000000e+00    0,000000000e+00    0,000000000e+00    0,000000000e+00
      562000000    3,096848726e-03   -8,917840570e-02    2,612815471e-03   -6,725566983e-01    0,000000000e+00    0,000000000e+00    0,000000000e+00    0,000000000e+00
      576000000   -3,429605067e-02   -1,247550622e-01   -3,690753877e-01   -5,577597618e-01    0,000000000e+00    0,000000000e+00    0,000000000e+00    0,000000000e+00
      590000000   -9,643985331e-02   -1,229003891e-01   -6,205048561e-01   -2,624701858e-01    0,000000000e+00    0,000000000e+00    0,000000000e+00    0,000000000e+00
      604000000   -1,396791935e-01   -7,151625305e-02   -6,651112437e-01    1,380882561e-01    0,000000000e+00    0,000000000e+00    0,000000000e+00    0,000000000e+00
      618000000   -1,295989752e-01   -8,867203258e-03   -4,644379020e-01    4,946854711e-01    0,000000000e+00    0,000000000e+00    0,000000000e+00    0,000000000e+00
      632000000   -8,355155587e-02    1,652413793e-02   -9,843943268e-02    6,634171009e-01    0,000000000e+00    0,000000000e+00    0,000000000e+00    0,000000000e+00
      646000000   -5,097785965e-02    1,240116893e-03    2,880764902e-01    5,951083302e-01    0,000000000e+00    0,000000000e+00    0,000000000e+00    0,000000000e+00
      660000000   -5,302615464e-02   -2,217009105e-02    5,669745803e-01    3,234753013e-01    0,000000000e+00    0,000000000e+00    0,000000000e+00    0,000000000e+00
      674000000   -7,084790617e-02   -1,711525396e-02    6,428402662e-01   -6,585998088e-02    0,000000000e+00    0,000000000e+00    0,000000000e+00    0,000000000e+00
      688000000   -6,782240421e-02    9,095171466e-03    4,708594680e-01   -4,280537665e-01    0,000000000e+00    0,000000000e+00    0,000000000e+00    0,000000000e+00
      702000000   -3,776349127e-02    2,660184354e-02    1,173762828e-01   -6,121983528e-01    0,000000000e+00    0,000000000e+00    0,000000000e+00    0,000000000e+00
      716000000    1,849528402e-03    1,748884469e-02   -2,650995851e-01   -5,472952724e-01    0,000000000e+00    0,000000000e+00    0,000000000e+00    0,000000000e+00
      730000000    3,725619614e-02   -1,155077200e-02   -5,283374786e-01   -2,685727775e-01    0,000000000e+00    0,000000000e+00    0,000000000e+00    0,000000000e+00
      744000000    6,582464278e-02   -6,247274205e-02   -5,644063950e-01    1,062978208e-01    0,000000000e+00    0,000000000e+00    0,000000000e+00    0,000000000e+00
      758000000    6,707660109e-02   -1,520419866e-01   -3,627202213e-01    4,099644125e-01    0,000000000e+00    0,000000000e+00    0,000000000e+00    0,000000000e+00
      772000000   -1,287076436e-02   -2,627954483e-01   -3,581173718e-02    5,152687430e-01    0,000000000e+00    0,000000000e+00    0,000000000e+00    0,000000000e+00
      786000000   -2,068818510e-01   -3,032173216e-01    2,737636864e-01    3,954730630e-01    0,000000000e+00    0,000000000e+00    0,000000000e+00    0,000000000e+00
      800000000   -4,249518514e-01   -1,305237412e-01    4,168870449e-01    9,875308722e-02    0,000000000e+00    0,000000000e+00    0,000000000e+00    0,000000000e+00
      814000000   -3,888752759e-01    2,207875699e-01    2,821097076e-01   -1,734109521e-01    0,000000000e+00    0,000000000e+00    0,000000000e+00    0,000000000e+00
      828000000   -4,879065976e-02    3,684487045e-01    5,549902469e-02   -1,889972836e-01    0,000000000e+00    0,000000000e+00    0,000000000e+00    0,000000000e+00
      842000000    2,354833633e-01    1,859838068e-01   -1,666185632e-02   -7,070929557e-02    0,000000000e+00    0,000000000e+00    0,000000000e+00    0,000000000e+00
      856000000    2,803751528e-01   -1,247601286e-01    4,525849968e-02   -1,323710196e-02    0,000000000e+00    0,000000000e+00    0,000000000e+00    0,000000000e+00
      870000000    7,547257841e-02   -3,757009506e-01    1,136469916e-01   -9,115225822e-02    0,000000000e+00    0,000000000e+00    0,000000000e+00    0,000000000e+00
      884000000   -2,953807712e-01   -3,608660102e-01    2,767188288e-02   -2,446840405e-01    0,000000000e+00    0,000000000e+00    0,000000000e+00    0,000000000e+00
      898000000   -4,718847275e-01    8,526733145e-03   -2,221122384e-01   -2,280496359e-01    0,000000000e+00    0,000000000e+00    0,000000000e+00    0,000000000e+00
      912000000   -2,253472656e-01    2,945458293e-01   -3,464107215e-01    7,564747334e-02    0,000000000e+00    0,000000000e+00    0,000000000e+00    0,000000000e+00
      926000000    6,786064804e-02    2,623206675e-01   -2,156832069e-01    2,612048090e-01    0,000000000e+00    0,000000000e+00    0,000000000e+00    0,000000000e+00
      940000000    2,172832042e-01    7,997100800e-02   -3,497909755e-02    3,305258453e-01    0,000000000e+00    0,000000000e+00    0,000000000e+00    0,000000000e+00
      954000000    2,207145095e-01   -1,294595003e-01    1,302554458e-01    3,069678247e-01    0,000000000e+00    0,000000000e+00    0,000000000e+00    0,000000000e+00
      968000000    1,159885526e-01   -2,977764308e-01    2,715316415e-01    2,196806967e-01    0,000000000e+00    0,000000000e+00    0,000000000e+00    0,000000000e+00
      982000000   -8,204819262e-02   -3,900199533e-01    3,646354079e-01    6,467914581e-02    0,000000000e+00    0,000000000e+00    0,000000000e+00    0,000000000e+00
      996000000   -3,202576041e-01   -3,293646872e-01    3,685959280e-01   -1,461732984e-01    0,000000000e+00    0,000000000e+00    0,000000000e+00    0,000000000e+00
     1010000000   -4,647634625e-01   -1,139070019e-01    2,240234762e-01   -3,406592607e-01    0,000000000e+00    0,000000000e+00    0,000000000e+00    0,000000000e+00
     1024000000   -4,139288068e-01    1,531053782e-01   -3,189327568e-02   -3,924452662e-01    0,000000000e+00    0,000000000e+00    0,000000000e+00    0,000000000e+00
     1038000000   -2,145508677e-01    2,917126119e-01   -2,457260787e-01   -2,609863579e-01    0,000000000e+00    0,000000000e+00    0,000000000e+00    0,000000000e+00
     1052000000   -1,015774347e-02    2,784777284e-01   -3,177843988e-01   -4,491300136e-02    0,000000000e+00    0,000000000e+00    0,000000000e+00    0,000000000e+00
     1066000000    1,376892328e-01    1,638232321e-01   -2,597577572e-01    1,443862617e-01    0,000000000e+00    0,000000000e+00    0,000000000e+00    0,000000000e+00
     1080000000    1,938464344e-01   -3,593288129e-03   -1,178202778e-01    2,644262314e-01    0,000000000e+00    0,000000000e+00    0,000000000e+00    0,000000000e+00
     1094000000    1,534947157e-01   -1,718223095e-01    6,542322785e-02    3,031124175e-01    0,000000000e+00    0,000000000e+00    0,000000000e+00    0,000000000e+00
     1108000000    1,649294281e-03   -3,039898276e-01    2,764042616e-01    2,448620498e-01    0,000000000e+00    0,000000000e+00    0,000000000e+00    0,000000000e+00
     1122000000   -2,469560057e-01   -2,618485093e-01    4,723797143e-01    1,485413406e-02    0,000000000e+00    0,000000000e+00    0,000000000e+00    0,000000000e+00
     1136000000   -3,222996593e-01    3,263682872e-02    3,982581198e-01   -3,933785856e-01    0,000000000e+00    0,000000000e+00    0,000000000e+00    0,000000000e+00
     1150000000   -4,250196740e-02    1,511611789e-01    7,450688165e-03   -5,426622629e-01    0,000000000e+00    0,000000000e+00    0,000000000e+00    0,000000000e+00
     1164000000    1,245295554e-01   -6,065766513e-02   -2,763912976e-01   -3,763045073e-01    0,000000000e+00    0,000000000e+00    0,000000000e+00    0,000000000e+00
     1178000000    1,729961857e-02   -3,034922481e-01   -3,689286113e-01   -1,481536627e-01    0,000000000e+00    0,000000000e+00    0,000000000e+00    0,000000000e+00
     1192000000   -2,617939711e-01   -3,703873754e-01   -3,199809194e-01    5,714693293e-02    0,000000000e+00    0,000000000e+00    0,000000000e+00    0,000000000e+00
     1206000000   -5,181144476e-01   -1,578272283e-01   -1,644068062e-01    1,831748039e-01    0,000000000e+00    0,000000000e+00    0,000000000e+00    0,000000000e+00
     1220000000   -5,103508830e-01    1,684830487e-01   -1,027838676e-03    1,536815315e-01    0,000000000e+00    0,000000000e+00    0,000000000e+00    0,000000000e+00
     1234000000   -2,884301245e-01    3,604526818e-01    6,629807502e-02    6,444915384e-02    0,000000000e+00    0,000000000e+00    0,000000000e+00    0,000000000e+00
     1248000000   -3,860526159e-02    3,661789000e-01    5,835974589e-02   -8,215086535e-03    0,000000000e+00    0,000000000e+00    0,000000000e+00    0,000000000e+00
     1262000000    1,198700443e-01    2,545318604e-01    1,482352521e-02   -2,315567993e-02    0,000000000e+00    0,000000000e+00    0,000000000e+00    0,000000000e+00
     1276000000    2,113455683e-01    1,015275866e-01   -1,539899502e-03    6,244311109e-03    0,000000000e+00    0,000000000e+00    0,000000000e+00    0,000000000e+00
     1290000000    2,245913595e-01   -7,587321848e-02    1,978801005e-02    4,842786491e-02    0,000000000e+00    0,000000000e+00    0,000000000e+00    0,000000000e+00
     1304000000    1,581127346e-01   -2,419797629e-01    1,312885731e-01    6,881155819e-02    0,000000000e+00    0,000000000e+00    0,000000000e+00    0,000000000e+00
     1318000000    3,333383054e-02   -3,354219496e-01    1,293612421e-01   -1,678689867e-01    0,000000000e+00    0,000000000e+00    0,000000000e+00    0,000000000e+00
     1332000000   -1,310368627e-01   -4,329705834e-01   -5,157607794e-02   -4,034395516e-02    0,000000000e+00    0,000000000e+00    0,000000000e+00    0,000000000e+00
     1346000000   -3,990140259e-01   -4,076852798e-01    2,201883495e-02    6,836465746e-02    0,000000000e+00    0,000000000e+00    0,000000000e+00    0,000000000e+00
     1360000000   -6,111090183e-01   -1,960539222e-01    1,327352077e-01    7,018391043e-02    0,000000000e+00    0,000000000e+00    0,000000000e+00    0,000000000e+00
     1374000000   -6,316968203e-01    1,162975580e-01    2,013068199e-01    1,826446620e-03    0,000000000e+00    0,000000000e+00    0,000000000e+00    0,000000000e+00
     1388000000   -4,601201117e-01    3,645184040e-01    2,135808766e-01   -6,246376038e-02    0,000000000e+00    0,000000000e+00    0,000000000e+00    0,000000000e+00
     1402000000   -2,342622131e-01    4,491664767e-01    1,821749210e-01   -1,005668640e-01    0,000000000e+00    0,000000000e+00    0,000000000e+00    0,000000000e+00
     1416000000   -2,410216257e-02    4,138400257e-01    1,800671518e-01   -1,026681587e-01    0,000000000e+00    0,000000000e+00    0,000000000e+00    0,000000000e+00
     1430000000    1,208643764e-01    2,998563945e-01    1,730005294e-01   -1,055379212e-01    0,000000000e+00    0,000000000e+00    0,000000000e+00    0,000000000e+00
     1444000000    2,105326802e-01    1,524155885e-01    1,598043889e-01   -1,016977131e-01    0,000000000e+00    0,000000000e+00    0,000000000e+00    0,000000000e+00
     1458000000    2,340662926e-01   -1,876113191e-02    1,446693093e-01   -6,700092554e-02    0,000000000e+00    0,000000000e+00    0,000000000e+00    0,000000000e+00
     1472000000    1,941315234e-01   -2,014512122e-01    1,475309581e-01   -3,021922708e-02    0,000000000e+00    0,000000000e+00    0,000000000e+00    0,000000000e+00
     1486000000    6,365882605e-02   -3,725757301e-01    1,786856353e-01    4,874237627e-02    0,000000000e+00    0,000000000e+00    0,000000000e+00    0,000000000e+00
     1500000000   -1,743470430e-01   -4,974160790e-01    2,420776635e-01    9,362254292e-02    0,000000000e+00    0,000000000e+00    0,000000000e+00    0,000000000e+00
