! NanoVNA-App
! Date: 2025-09-25 15:31:19
! Start: 100MHz Stop: 1,5GHz Points: 101
! S-Parameter data: F S11 S21 S12 S22
# Hz S RI R 50
!     Frequency           S11_Real           S11_Imag           S21_Real           S21_Imag           S12_Real           S12_Imag           S22_Real           S22_Imag
      100000000   -2,888299711e-02   -4,158208147e-03    3,741254210e-01   -7,218561172e-01    0,000000000e+00    0,000000000e+00    0,000000000e+00    0,000000000e+00
      114000000   -1,649642363e-02    1,151629072e-02   -8,909429610e-02   -8,055553436e-01    0,000000000e+00    0,000000000e+00    0,000000000e+00    0,000000000e+00
      128000000    3,480026964e-03    1,054480392e-02   -5,145704746e-01   -6,204781532e-01    0,000000000e+00    0,000000000e+00    0,000000000e+00    0,000000000e+00
      142000000    1,454271749e-02   -2,945445944e-03   -7,670357823e-01   -2,366867363e-01    0,000000000e+00    0,000000000e+00    0,000000000e+00    0,000000000e+00
      156000000    1,610565372e-02   -1,432235446e-02   -7,723771930e-01    2,245891541e-01    0,000000000e+00    0,000000000e+00    0,000000000e+00    0,000000000e+00
      170000000    1,666686311e-02   -2,258495428e-02   -5,180767179e-01    6,049355865e-01    0,000000000e+00    0,000000000e+00    0,000000000e+00    0,000000000e+00
      184000000    2,099194564e-02   -3,705409542e-02   -1,013123021e-01    7,863452435e-01    0,000000000e+00    0,000000000e+00    0,000000000e+00    0,000000000e+00
      198000000    1,304970589e-02   -6,247422099e-02    3,432451785e-01    7,120901942e-01    0,000000000e+00    0,000000000e+00    0,000000000e+00    0,000000000e+00
      212000000   -1,867572032e-02   -8,135127276e-02    6,780439019e-01    4,100884497e-01    0,000000000e+00    0,000000000e+00    0,000000000e+00    0,000000000e+00
      226000000   -6,175395846e-02   -6,914202124e-02    7,958390713e-01   -3,063232452e-02    0,000000000e+00    0,000000000e+00    0,000000000e+00    0,000000000e+00
      240000000   -8,255123347e-02   -2,557643689e-02    6,458877325e-01   -4,669527709e-01    0,000000000e+00    0,000000000e+00    0,000000000e+00    0,000000000e+00
      254000000   -6,352207065e-02    1,726934686e-02    2,763159573e-01   -7,432691455e-01    0,000000000e+00    0,000000000e+00    0,000000000e+00    0,000000000e+00
      268000000   -2,390057407e-02    2,894701064e-02   -1,782665253e-01   -7,643260360e-01    0,000000000e+00    0,000000000e+00    0,000000000e+00    0,000000000e+00
      282000000    4,131820984e-03    1,203452889e-02   -5,620645285e-01   -5,355187058e-01    0,000000000e+00    0,000000000e+00    0,000000000e+00    0,000000000e+00
      296000000    9,726355784e-03   -7,952854037e-03   -7,596980333e-01   -1,396046877e-01    0,000000000e+00    0,000000000e+00    0,000000000e+00    0,000000000e+00
      310000000    1,121313311e-02   -1,616181992e-02   -7,133699656e-01    2,984712422e-01    0,000000000e+00    0,000000000e+00    0,000000000e+00    0,000000000e+00
      324000000    1,973678917e-02   -2,651412599e-02   -4,280034900e-01    6,374000907e-01    0,000000000e+00    0,000000000e+00    0,000000000e+00    0,000000000e+00
      338000000    2,587850951e-02   -5,192380771e-02   -1,073317230e-02    7,629845142e-01    0,000000000e+00    0,000000000e+00    0,000000000e+00    0,000000000e+00
      352000000    7,365267258e-03   -8,495201170e-02    4,068340659e-01    6,405655146e-01    0,000000000e+00    0,000000000e+00    0,000000000e+00    0,000000000e+00
      366000000   -3,488586843e-02   -9,534703940e-02    6,910943389e-01    3,115009367e-01    0,000000000e+00    0,000000000e+00    0,000000000e+00    0,000000000e+00
      380000000   -7,068346441e-02   -7,123398036e-02    7,476075888e-01   -1,254000664e-01    0,000000000e+00    0,000000000e+00    0,000000000e+00    0,000000000e+00
      394000000   -7,258181274e-02   -3,237574548e-02    5,461369753e-01   -5,220908523e-01    0,000000000e+00    0,000000000e+00    0,000000000e+00    0,000000000e+00
      408000000   -4,647618905e-02   -1,595913805e-02    1,603094041e-01   -7,330842614e-01    0,000000000e+00    0,000000000e+00    0,000000000e+00    0,000000000e+00
      422000000   -2,830120735e-02   -3,213835135e-02   -2,665317357e-01   -6,951161623e-01    0,000000000e+00    0,000000000e+00    0,000000000e+00    0,000000000e+00
      436000000   -4,091062024e-02   -5,185932666e-02   -6,046525836e-01   -4,319172204e-01    0,000000000e+00    0,000000000e+00    0,000000000e+00    0,000000000e+00
      450000000   -6,786306947e-02   -4,417910054e-02   -7,407388091e-01   -2,125635184e-02    0,000000000e+00    0,000000000e+00    0,000000000e+00    0,000000000e+00
      464000000   -7,356642187e-02   -1,155016012e-02   -6,186999083e-01    3,978842497e-01    0,000000000e+00    0,000000000e+00    0,000000000e+00    0,000000000e+00
      478000000   -4,776912928e-02    1,207768545e-02   -2,819316685e-01    6,685382128e-01    0,000000000e+00    0,000000000e+00    0,000000000e+00    0,000000000e+00
      492000000   -1,547597814e-02    6,032005418e-03    1,375434548e-01    7,017207146e-01    0,000000000e+00    0,000000000e+00    0,000000000e+00    0,000000000e+00
      506000000   -2,400778001e-03   -1,556249708e-02    4,985781014e-01    5,030393600e-01    0,000000000e+00    0,000000000e+00    0,000000000e+00    0,000000000e+00
      520000000   -5,133155268e-03   -3,155399859e-02    6,878458858e-01    1,425755173e-01    0,000000000e+00    0,000000000e+00    0,000000000e+00    0,000000000e+00
      534000000   -3,798280377e-03   -3,847344965e-02    6,434692740e-01   -2,631607354e-01    0,000000000e+00    0,000000000e+00    0,000000000e+00    0,000000000e+00
      548000000    5,655610934e-03   -5,371448025e-02    3,818224669e-01   -5,667492747e-01    0,000000000e+00    0,000000000e+00    0,000000000e+00    0,000000000e+00
      562000000    3,360461676e-03   -8,963731676e-02    2,737731673e-03   -6,723855734e-01    0,000000000e+00    0,000000000e+00    0,000000000e+00    0,000000000e+00
      576000000   -3,438537940e-02   -1,244368628e-01   -3,700017929e-01   -5,570169091e-01    0,000000000e+00    0,000000000e+00    0,000000000e+00    0,000000000e+00
      590000000   -9,639803320e-02   -1,226759255e-01   -6,217772365e-01   -2,621269524e-01    0,000000000e+00    0,000000000e+00    0,000000000e+00    0,000000000e+00
      604000000   -1,392045766e-01   -7,183945924e-02   -6,650919318e-01    1,379528195e-01    0,000000000e+00    0,000000000e+00    0,000000000e+00    0,000000000e+00
      618000000   -1,290279329e-01   -9,297502227e-03   -4,638512135e-01    4,953902364e-01    0,000000000e+00    0,000000000e+00    0,000000000e+00    0,000000000e+00
      632000000   -8,428668976e-02    1,615425386e-02   -9,988101572e-02    6,630202532e-01    0,000000000e+00    0,000000000e+00    0,000000000e+00    0,000000000e+00
      646000000   -5,129988864e-02    9,776270017e-04    2,878907025e-01    5,951073170e-01    0,000000000e+00    0,000000000e+00    0,000000000e+00    0,000000000e+00
      660000000   -5,259055272e-02   -2,152001858e-02    5,682857037e-01    3,228760362e-01    0,000000000e+00    0,000000000e+00    0,000000000e+00    0,000000000e+00
      674000000   -7,074326277e-02   -1,770230755e-02    6,430583596e-01   -6,552288681e-02    0,000000000e+00    0,000000000e+00    0,000000000e+00    0,000000000e+00
      688000000   -6,877125800e-02    8,366890252e-03    4,715932310e-01   -4,289705455e-01    0,000000000e+00    0,000000000e+00    0,000000000e+00    0,000000000e+00
      702000000   -3,748941049e-02    2,710675821e-02    1,177420095e-01   -6,085090041e-01    0,000000000e+00    0,000000000e+00    0,000000000e+00    0,000000000e+00
      716000000    1,842821832e-03    1,843346469e-02   -2,646884024e-01   -5,471989512e-01    0,000000000e+00    0,000000000e+00    0,000000000e+00    0,000000000e+00
      730000000    3,623878211e-02   -1,075825468e-02   -5,284079909e-01   -2,689034939e-01    0,000000000e+00    0,000000000e+00    0,000000000e+00    0,000000000e+00
      744000000    6,568862498e-02   -6,224991009e-02   -5,645530224e-01    1,061545536e-01    0,000000000e+00    0,000000000e+00    0,000000000e+00    0,000000000e+00
      758000000    6,684794277e-02   -1,520008147e-01   -3,634122908e-01    4,095251262e-01    0,000000000e+00    0,000000000e+00    0,000000000e+00    0,000000000e+00
      772000000   -1,268397179e-02   -2,630928457e-01   -3,456265852e-02    5,154570937e-01    0,000000000e+00    0,000000000e+00    0,000000000e+00    0,000000000e+00
      786000000   -2,061859667e-01   -3,026137948e-01    2,737973630e-01    3,956221938e-01    0,000000000e+00    0,000000000e+00    0,000000000e+00    0,000000000e+00
      800000000   -4,250135422e-01   -1,302227676e-01    4,167557657e-01    9,879923612e-02    0,000000000e+00    0,000000000e+00    0,000000000e+00    0,000000000e+00
      814000000   -3,891760707e-01    2,226142585e-01    2,824387550e-01   -1,726786196e-01    0,000000000e+00    0,000000000e+00    0,000000000e+00    0,000000000e+00
      828000000   -4,988728091e-02    3,688772619e-01    5,473110080e-02   -1,892598718e-01    0,000000000e+00    0,000000000e+00    0,000000000e+00    0,000000000e+00
      842000000    2,350328714e-01    1,861903667e-01   -1,697114110e-02   -7,040456682e-02    0,000000000e+00    0,000000000e+00    0,000000000e+00    0,000000000e+00
      856000000    2,803578675e-01   -1,247444153e-01    4,572661594e-02   -1,339117158e-02    0,000000000e+00    0,000000000e+00    0,000000000e+00    0,000000000e+00
      870000000    7,448339462e-02   -3,758933246e-01    1,136077866e-01   -9,167820215e-02    0,000000000e+00    0,000000000e+00    0,000000000e+00    0,000000000e+00
      884000000   -2,952913046e-01   -3,616205752e-01    2,826000378e-02   -2,462585419e-01    0,000000000e+00    0,000000000e+00    0,000000000e+00    0,000000000e+00
      898000000   -4,713777900e-01    9,370209649e-03   -2,216892093e-01   -2,275785804e-01    0,000000000e+00    0,000000000e+00    0,000000000e+00    0,000000000e+00
      912000000   -2,250562459e-01    2,949629724e-01   -3,370480239e-01    6,912829727e-02    0,000000000e+00    0,000000000e+00    0,000000000e+00    0,000000000e+00
      926000000    6,631473452e-02    2,626420259e-01   -2,181269079e-01    2,609871328e-01    0,000000000e+00    0,000000000e+00    0,000000000e+00    0,000000000e+00
      940000000    2,154567391e-01    8,153012395e-02   -3,717141598e-02    3,290499449e-01    0,000000000e+00    0,000000000e+00    0,000000000e+00    0,000000000e+00
      954000000    2,249975055e-01   -1,283787340e-01    1,321805716e-01    3,083589673e-01    0,000000000e+00    0,000000000e+00    0,000000000e+00    0,000000000e+00
      968000000    1,136056930e-01   -3,000678122e-01    2,708927989e-01    2,184145004e-01    0,000000000e+00    0,000000000e+00    0,000000000e+00    0,000000000e+00
      982000000   -8,449063450e-02   -3,893186450e-01    3,656643331e-01    6,605511904e-02    0,000000000e+00    0,000000000e+00    0,000000000e+00    0,000000000e+00
      996000000   -3,128423393e-01   -3,262836933e-01    3,690589070e-01   -1,475596577e-01    0,000000000e+00    0,000000000e+00    0,000000000e+00    0,000000000e+00
     1010000000   -4,632117152e-01   -1,077125147e-01    2,239920944e-01   -3,407362700e-01    0,000000000e+00    0,000000000e+00    0,000000000e+00    0,000000000e+00
     1024000000   -4,138060212e-01    1,453258991e-01   -3,296383098e-02   -3,919557631e-01    0,000000000e+00    0,000000000e+00    0,000000000e+00    0,000000000e+00
     1038000000   -2,158301771e-01    2,914727032e-01   -2,469735593e-01   -2,584253848e-01    0,000000000e+00    0,000000000e+00    0,000000000e+00    0,000000000e+00
     1052000000   -1,053051092e-02    2,766976058e-01   -3,176111281e-01   -4,617413133e-02    0,000000000e+00    0,000000000e+00    0,000000000e+00    0,000000000e+00
     1066000000    1,362732798e-01    1,619477719e-01   -2,576814294e-01    1,416731626e-01    0,000000000e+00    0,000000000e+00    0,000000000e+00    0,000000000e+00
     1080000000    1,922732890e-01    1,958391629e-03   -1,188405603e-01    2,616831064e-01    0,000000000e+00    0,000000000e+00    0,000000000e+00    0,000000000e+00
     1094000000    1,573584229e-01   -1,759996116e-01    6,191947311e-02    3,062632382e-01    0,000000000e+00    0,000000000e+00    0,000000000e+00    0,000000000e+00
     1108000000   -3,714424791e-03   -3,070781529e-01    2,767921686e-01    2,482044846e-01    0,000000000e+00    0,000000000e+00    0,000000000e+00    0,000000000e+00
     1122000000   -2,454582751e-01   -2,675395608e-01    4,716822207e-01    1,384755410e-02    0,000000000e+00    0,000000000e+00    0,000000000e+00    0,000000000e+00
     1136000000   -3,199015856e-01    3,754694760e-02    3,964869976e-01   -3,920842409e-01    0,000000000e+00    0,000000000e+00    0,000000000e+00    0,000000000e+00
     1150000000   -3,890419379e-02    1,501488984e-01    5,235124379e-03   -5,442022085e-01    0,000000000e+00    0,000000000e+00    0,000000000e+00    0,000000000e+00
     1164000000    1,261765808e-01   -6,160666421e-02   -2,763279080e-01   -3,803265691e-01    0,000000000e+00    0,000000000e+00    0,000000000e+00    0,000000000e+00
     1178000000    1,911691763e-02   -3,039302528e-01   -3,658798933e-01   -1,524942815e-01    0,000000000e+00    0,000000000e+00    0,000000000e+00    0,000000000e+00
     1192000000   -2,688091695e-01   -3,692707121e-01   -3,220020831e-01    6,150757894e-02    0,000000000e+00    0,000000000e+00    0,000000000e+00    0,000000000e+00
     1206000000   -5,159615874e-01   -1,600782424e-01   -1,645733565e-01    1,798894107e-01    0,000000000e+00    0,000000000e+00    0,000000000e+00    0,000000000e+00
     1220000000   -5,076940060e-01    1,785453409e-01    1,254120143e-03    1,611658782e-01    0,000000000e+00    0,000000000e+00    0,000000000e+00    0,000000000e+00
     1234000000   -2,849299312e-01    3,587251902e-01    7,120801508e-02    6,084088981e-02    0,000000000e+00    0,000000000e+00    0,000000000e+00    0,000000000e+00
     1248000000   -4,905375466e-02    3,648905754e-01    5,129180104e-02   -6,979040336e-04    0,000000000e+00    0,000000000e+00    0,000000000e+00    0,000000000e+00
     1262000000    1,243101805e-01    2,585760653e-01    1,686660200e-02   -2,087033167e-02    0,000000000e+00    0,000000000e+00    0,000000000e+00    0,000000000e+00
     1276000000    2,081356496e-01    1,006450132e-01   -6,858968642e-03    7,493264508e-03    0,000000000e+00    0,000000000e+00    0,000000000e+00    0,000000000e+00
     1290000000    2,242042273e-01   -7,218468934e-02    2,074045502e-02    5,204884708e-02    0,000000000e+00    0,000000000e+00    0,000000000e+00    0,000000000e+00
     1304000000    1,553359628e-01   -2,393231243e-01    1,331250817e-01    7,059436291e-02    0,000000000e+00    0,000000000e+00    0,000000000e+00    0,000000000e+00
     1318000000    3,424526006e-02   -3,327612877e-01    1,270004958e-01   -1,602720171e-01    0,000000000e+00    0,000000000e+00    0,000000000e+00    0,000000000e+00
     1332000000   -1,233973205e-01   -4,375647306e-01   -4,069022834e-02   -4,012049735e-02    0,000000000e+00    0,000000000e+00    0,000000000e+00    0,000000000e+00
     1346000000   -3,985860944e-01   -4,129908383e-01    2,068414539e-02    5,654037744e-02    0,000000000e+00    0,000000000e+00    0,000000000e+00    0,000000000e+00
     1360000000   -6,056448817e-01   -1,944244355e-01    1,452236176e-01    7,488901168e-02    0,000000000e+00    0,000000000e+00    0,000000000e+00    0,000000000e+00
     1374000000   -6,251254678e-01    1,309426576e-01    2,074569017e-01    3,452984616e-03    0,000000000e+00    0,000000000e+00    0,000000000e+00    0,000000000e+00
     1388000000   -4,614240229e-01    3,696703315e-01    2,137250453e-01   -5,314863473e-02    0,000000000e+00    0,000000000e+00    0,000000000e+00    0,000000000e+00
     1402000000   -2,342555970e-01    4,530663788e-01    1,839902550e-01   -9,114454687e-02    0,000000000e+00    0,000000000e+00    0,000000000e+00    0,000000000e+00
     1416000000   -3,100995347e-02    4,151104093e-01    1,627925932e-01   -1,074640900e-01    0,000000000e+00    0,000000000e+00    0,000000000e+00    0,000000000e+00
     1430000000    1,304369718e-01    2,980782092e-01    1,519056708e-01   -1,343062967e-01    0,000000000e+00    0,000000000e+00    0,000000000e+00    0,000000000e+00
     1444000000    2,080483884e-01    1,534288973e-01    1,549300849e-01   -9,423714131e-02    0,000000000e+00    0,000000000e+00    0,000000000e+00    0,000000000e+00
     1458000000    2,325354069e-01   -2,352080867e-02    1,354068369e-01   -7,558020204e-02    0,000000000e+00    0,000000000e+00    0,000000000e+00    0,000000000e+00
     1472000000    1,913889199e-01   -1,986157596e-01    1,440727115e-01   -2,420949750e-02    0,000000000e+00    0,000000000e+00    0,000000000e+00    0,000000000e+00
     1486000000    6,376266479e-02   -3,764663935e-01    1,680945307e-01    3,395096585e-02    0,000000000e+00    0,000000000e+00    0,000000000e+00    0,000000000e+00
     1500000000   -1,698194295e-01   -4,993824959e-01    2,556155026e-01    9,532648325e-02    0,000000000e+00    0,000000000e+00    0,000000000e+00    0,000000000e+00
