! NanoVNA-App
! Date: 2025-09-25 15:35:45
! Start: 100MHz Stop: 1,5GHz Points: 101
! S-Parameter data: F S11 S21 S12 S22
# Hz S RI R 50
!     Frequency           S11_Real           S11_Imag           S21_Real           S21_Imag           S12_Real           S12_Imag           S22_Real           S22_Imag
      100000000   -2,884013206e-02   -4,167179111e-03    3,740839958e-01   -7,217530012e-01    0,000000000e+00    0,000000000e+00    0,000000000e+00    0,000000000e+00
      114000000   -1,647263579e-02    1,153228711e-02   -8,888611943e-02   -8,054396510e-01    0,000000000e+00    0,000000000e+00    0,000000000e+00    0,000000000e+00
      128000000    3,510519862e-03    1,055464800e-02   -5,147181153e-01   -6,205381155e-01    0,000000000e+00    0,000000000e+00    0,000000000e+00    0,000000000e+00
      142000000    1,457205694e-02   -2,965401625e-03   -7,671720386e-01   -2,365588248e-01    0,000000000e+00    0,000000000e+00    0,000000000e+00    0,000000000e+00
      156000000    1,479982771e-02   -1,496791840e-02   -7,668965459e-01    2,183431089e-01    0,000000000e+00    0,000000000e+00    0,000000000e+00    0,000000000e+00
      170000000    1,673839241e-02   -2,253566310e-02   -5,184289217e-01    6,048825383e-01    0,000000000e+00    0,000000000e+00    0,000000000e+00    0,000000000e+00
      184000000    2,101400122e-02   -3,711356595e-02   -1,015828177e-01    7,863551378e-01    0,000000000e+00    0,000000000e+00    0,000000000e+00    0,000000000e+00
      198000000    1,305523887e-02   -6,250298023e-02    3,434732556e-01    7,126424909e-01    0,000000000e+00    0,000000000e+00    0,000000000e+00    0,000000000e+00
      212000000   -1,861821674e-02   -8,135144413e-02    6,781544089e-01    4,100438356e-01    0,000000000e+00    0,000000000e+00    0,000000000e+00    0,000000000e+00
      226000000   -6,163295358e-02   -6,922445446e-02    7,957584262e-01   -3,056934848e-02    0,000000000e+00    0,000000000e+00    0,000000000e+00    0,000000000e+00
      240000000   -8,253882825e-02   -2,562425472e-02    6,460424662e-01   -4,671038091e-01    0,000000000e+00    0,000000000e+00    0,000000000e+00    0,000000000e+00
      254000000   -6,349395961e-02    1,725228690e-02    2,758843005e-01   -7,430589795e-01    0,000000000e+00    0,000000000e+00    0,000000000e+00    0,000000000e+00
      268000000   -2,386036702e-02    2,890043147e-02   -1,784777790e-01   -7,643315792e-01    0,000000000e+00    0,000000000e+00    0,000000000e+00    0,000000000e+00
      282000000    4,180027638e-03    1,189962309e-02   -5,619322062e-01   -5,355385542e-01    0,000000000e+00    0,000000000e+00    0,000000000e+00    0,000000000e+00
      296000000    9,764362127e-03   -7,894746028e-03   -7,597687244e-01   -1,394910663e-01    0,000000000e+00    0,000000000e+00    0,000000000e+00    0,000000000e+00
      310000000    1,120244805e-02   -1,625867002e-02   -7,114279270e-01    2,972280979e-01    0,000000000e+00    0,000000000e+00    0,000000000e+00    0,000000000e+00
      324000000    1,968990080e-02   -2,638665400e-02   -4,265975952e-01    6,371666193e-01    0,000000000e+00    0,000000000e+00    0,000000000e+00    0,000000000e+00
      338000000    2,552186139e-02   -5,202320963e-02   -7,227899041e-03    7,609396577e-01    0,000000000e+00    0,000000000e+00    0,000000000e+00    0,000000000e+00
      352000000    7,387345191e-03   -8,481100947e-02    4,070496857e-01    6,395681500e-01    0,000000000e+00    0,000000000e+00    0,000000000e+00    0,000000000e+00
      366000000   -3,463319689e-02   -9,540718794e-02    6,908285022e-01    3,115851879e-01    0,000000000e+00    0,000000000e+00    0,000000000e+00    0,000000000e+00
      380000000   -7,080583274e-02   -7,123433799e-02    7,477032542e-01   -1,260474324e-01    0,000000000e+00    0,000000000e+00    0,000000000e+00    0,000000000e+00
      394000000   -7,252410054e-02   -3,228475526e-02    5,462806225e-01   -5,229553580e-01    0,000000000e+00    0,000000000e+00    0,000000000e+00    0,000000000e+00
      408000000   -4,631858692e-02   -1,642889902e-02    1,612005979e-01   -7,309389114e-01    0,000000000e+00    0,000000000e+00    0,000000000e+00    0,000000000e+00
      422000000   -2,824268304e-02   -3,216842934e-02   -2,669766247e-01   -6,958848238e-01    0,000000000e+00    0,000000000e+00    0,000000000e+00    0,000000000e+00
      436000000   -4,058470577e-02   -5,187255144e-02   -6,041870117e-01   -4,315781295e-01    0,000000000e+00    0,000000000e+00    0,000000000e+00    0,000000000e+00
      450000000   -6,719633937e-02   -4,398744926e-02   -7,404649258e-01   -2,107042633e-02    0,000000000e+00    0,000000000e+00    0,000000000e+00    0,000000000e+00
      464000000   -7,325541973e-02   -1,136334985e-02   -6,184239388e-01    3,977833986e-01    0,000000000e+00    0,000000000e+00    0,000000000e+00    0,000000000e+00
      478000000   -4,777492955e-02    1,188752428e-02   -2,828103900e-01    6,679770947e-01    0,000000000e+00    0,000000000e+00    0,000000000e+00    0,000000000e+00
      492000000   -1,589380577e-02    6,114008836e-03    1,367077976e-01    7,012393475e-01    0,000000000e+00    0,000000000e+00    0,000000000e+00    0,000000000e+00
      506000000   -2,295585349e-03   -1,603026874e-02    4,985108078e-01    5,023500323e-01    0,000000000e+00    0,000000000e+00    0,000000000e+00    0,000000000e+00
      520000000   -4,852168262e-03   -3,111065552e-02    6,878958941e-01    1,411731094e-01    0,000000000e+00    0,000000000e+00    0,000000000e+00    0,000000000e+00
      534000000   -3,941518255e-03   -3,801003098e-02    6,433242559e-01   -2,620139420e-01    0,000000000e+00    0,000000000e+00    0,000000000e+00    0,000000000e+00
      548000000    6,366656628e-03   -5,392055959e-02    3,819022477e-01   -5,676208735e-01    0,000000000e+00    0,000000000e+00    0,000000000e+00    0,000000000e+00
      562000000    3,150899662e-03   -8,971448243e-02    2,307333751e-03   -6,732370257e-01    0,000000000e+00    0,000000000e+00    0,000000000e+00    0,000000000e+00
      576000000   -3,376457468e-02   -1,244825721e-01   -3,692055047e-01   -5,571964979e-01    0,000000000e+00    0,000000000e+00    0,000000000e+00    0,000000000e+00
      590000000   -9,637082368e-02   -1,227977276e-01   -6,207013726e-01   -2,652194500e-01    0,000000000e+00    0,000000000e+00    0,000000000e+00    0,000000000e+00
      604000000   -1,392683536e-01   -7,208637148e-02   -6,648148894e-01    1,375432909e-01    0,000000000e+00    0,000000000e+00    0,000000000e+00    0,000000000e+00
      618000000   -1,292538196e-01   -9,130380116e-03   -4,635606706e-01    4,946273565e-01    0,000000000e+00    0,000000000e+00    0,000000000e+00    0,000000000e+00
      632000000   -8,465500176e-02    1,650601625e-02   -9,865647554e-02    6,639974117e-01    0,000000000e+00    0,000000000e+00    0,000000000e+00    0,000000000e+00
      646000000   -5,103370547e-02    4,508280108e-05    2,881469727e-01    5,948952436e-01    0,000000000e+00    0,000000000e+00    0,000000000e+00    0,000000000e+00
      660000000   -5,363610014e-02   -2,128509618e-02    5,673995018e-01    3,223844469e-01    0,000000000e+00    0,000000000e+00    0,000000000e+00    0,000000000e+00
      674000000   -7,074934244e-02   -1,791522838e-02    6,432295442e-01   -6,592345238e-02    0,000000000e+00    0,000000000e+00    0,000000000e+00    0,000000000e+00
      688000000   -6,875332445e-02    8,129619062e-03    4,709424078e-01   -4,286054373e-01    0,000000000e+00    0,000000000e+00    0,000000000e+00    0,000000000e+00
      702000000   -3,719741479e-02    2,567008324e-02    1,191995218e-01   -6,122626662e-01    0,000000000e+00    0,000000000e+00    0,000000000e+00    0,000000000e+00
      716000000    3,074650886e-03    1,752501354e-02   -2,643762529e-01   -5,472276211e-01    0,000000000e+00    0,000000000e+00    0,000000000e+00    0,000000000e+00
      730000000    3,738862649e-02   -1,108460315e-02   -5,285227299e-01   -2,690854669e-01    0,000000000e+00    0,000000000e+00    0,000000000e+00    0,000000000e+00
      744000000    6,540433317e-02   -6,176953018e-02   -5,643028617e-01    1,065485030e-01    0,000000000e+00    0,000000000e+00    0,000000000e+00    0,000000000e+00
      758000000    6,636744738e-02   -1,513326168e-01   -3,632482290e-01    4,100671709e-01    0,000000000e+00    0,000000000e+00    0,000000000e+00    0,000000000e+00
      772000000   -1,341512147e-02   -2,626031339e-01   -3,465482965e-02    5,159298778e-01    0,000000000e+00    0,000000000e+00    0,000000000e+00    0,000000000e+00
      786000000   -2,061988264e-01   -3,019886017e-01    2,732192278e-01    3,951257467e-01    0,000000000e+00    0,000000000e+00    0,000000000e+00    0,000000000e+00
      800000000   -4,247862101e-01   -1,305689961e-01    4,174095094e-01    9,910350293e-02    0,000000000e+00    0,000000000e+00    0,000000000e+00    0,000000000e+00
      814000000   -3,889585137e-01    2,215547562e-01    2,819082439e-01   -1,732594818e-01    0,000000000e+00    0,000000000e+00    0,000000000e+00    0,000000000e+00
      828000000   -4,967803881e-02    3,681954443e-01    5,535238609e-02   -1,893702298e-01    0,000000000e+00    0,000000000e+00    0,000000000e+00    0,000000000e+00
      842000000    2,346592844e-01    1,858648062e-01   -1,728243381e-02   -7,075531036e-02    0,000000000e+00    0,000000000e+00    0,000000000e+00    0,000000000e+00
      856000000    2,804684043e-01   -1,246555895e-01    4,518631473e-02   -1,338964328e-02    0,000000000e+00    0,000000000e+00    0,000000000e+00    0,000000000e+00
      870000000    7,544015348e-02   -3,758428991e-01    1,131230816e-01   -9,090931714e-02    0,000000000e+00    0,000000000e+00    0,000000000e+00    0,000000000e+00
      884000000   -2,958699763e-01   -3,614833951e-01    2,798159607e-02   -2,461180687e-01    0,000000000e+00    0,000000000e+00    0,000000000e+00    0,000000000e+00
      898000000   -4,715625942e-01    9,174639359e-03   -2,212968618e-01   -2,272939831e-01    0,000000000e+00    0,000000000e+00    0,000000000e+00    0,000000000e+00
      912000000   -2,255338132e-01    2,948991656e-01   -3,533643782e-01    6,228369847e-02    0,000000000e+00    0,000000000e+00    0,000000000e+00    0,000000000e+00
      926000000    6,731117517e-02    2,627220154e-01   -2,169212252e-01    2,623568475e-01    0,000000000e+00    0,000000000e+00    0,000000000e+00    0,000000000e+00
      940000000    2,141049802e-01    8,038365841e-02   -3,716982156e-02    3,290960789e-01    0,000000000e+00    0,000000000e+00    0,000000000e+00    0,000000000e+00
      954000000    2,208185196e-01   -1,285517961e-01    1,298994422e-01    3,067959249e-01    0,000000000e+00    0,000000000e+00    0,000000000e+00    0,000000000e+00
      968000000    1,151280627e-01   -3,009816110e-01    2,710433006e-01    2,193399370e-01    0,000000000e+00    0,000000000e+00    0,000000000e+00    0,000000000e+00
      982000000   -8,459479362e-02   -3,861748576e-01    3,677502275e-01    6,448280066e-02    0,000000000e+00    0,000000000e+00    0,000000000e+00    0,000000000e+00
      996000000   -3,200995624e-01   -3,287979364e-01    3,690998852e-01   -1,461202800e-01    0,000000000e+00    0,000000000e+00    0,000000000e+00    0,000000000e+00
     1010000000   -4,599949419e-01   -1,081914976e-01    2,239598781e-01   -3,421031237e-01    0,000000000e+00    0,000000000e+00    0,000000000e+00    0,000000000e+00
     1024000000   -4,118945003e-01    1,454062164e-01   -3,293102980e-02   -3,924835622e-01    0,000000000e+00    0,000000000e+00    0,000000000e+00    0,000000000e+00
     1038000000   -2,199572772e-01    2,945490777e-01   -2,465713620e-01   -2,606810927e-01    0,000000000e+00    0,000000000e+00    0,000000000e+00    0,000000000e+00
     1052000000   -4,378121346e-03    2,793422639e-01   -3,181715012e-01   -4,719046876e-02    0,000000000e+00    0,000000000e+00    0,000000000e+00    0,000000000e+00
     1066000000    1,353424191e-01    1,610682011e-01   -2,571012676e-01    1,425825506e-01    0,000000000e+00    0,000000000e+00    0,000000000e+00    0,000000000e+00
     1080000000    1,948615909e-01   -3,160768421e-03   -1,189245358e-01    2,627195418e-01    0,000000000e+00    0,000000000e+00    0,000000000e+00    0,000000000e+00
     1094000000    1,510703713e-01   -1,753841937e-01    6,547558308e-02    3,032044470e-01    0,000000000e+00    0,000000000e+00    0,000000000e+00    0,000000000e+00
     1108000000    1,686119358e-03   -3,012211025e-01    2,787755132e-01    2,423582673e-01    0,000000000e+00    0,000000000e+00    0,000000000e+00    0,000000000e+00
     1122000000   -2,494775951e-01   -2,597417235e-01    4,734091163e-01    1,073252037e-02    0,000000000e+00    0,000000000e+00    0,000000000e+00    0,000000000e+00
     1136000000   -3,152998686e-01    3,159413859e-02    3,954783976e-01   -3,920395672e-01    0,000000000e+00    0,000000000e+00    0,000000000e+00    0,000000000e+00
     1150000000   -4,360864684e-02    1,491295993e-01    4,035200924e-03   -5,410200953e-01    0,000000000e+00    0,000000000e+00    0,000000000e+00    0,000000000e+00
     1164000000    1,242098883e-01   -6,024195999e-02   -2,771820724e-01   -3,770197332e-01    0,000000000e+00    0,000000000e+00    0,000000000e+00    0,000000000e+00
     1178000000    1,571214013e-02   -3,035352528e-01   -3,689674139e-01   -1,505052894e-01    0,000000000e+00    0,000000000e+00    0,000000000e+00    0,000000000e+00
     1192000000   -2,705627978e-01   -3,723133802e-01   -3,205422163e-01    5,679257587e-02    0,000000000e+00    0,000000000e+00    0,000000000e+00    0,000000000e+00
     1206000000   -5,210245252e-01   -1,619200706e-01   -1,648392975e-01    1,786210686e-01    0,000000000e+00    0,000000000e+00    0,000000000e+00    0,000000000e+00
     1220000000   -5,152279139e-01    1,728268415e-01    4,085363471e-04    1,604446173e-01    0,000000000e+00    0,000000000e+00    0,000000000e+00    0,000000000e+00
     1234000000   -2,833076715e-01    3,682537675e-01    6,875379384e-02    6,821534783e-02    0,000000000e+00    0,000000000e+00    0,000000000e+00    0,000000000e+00
     1248000000   -4,468942434e-02    3,724631965e-01    5,678645149e-02   -4,469340667e-03    0,000000000e+00    0,000000000e+00    0,000000000e+00    0,000000000e+00
     1262000000    1,269736886e-01    2,566123307e-01    2,203061990e-02   -2,509568818e-02    0,000000000e+00    0,000000000e+00    0,000000000e+00    0,000000000e+00
     1276000000    2,095129937e-01    9,729409963e-02   -5,810776725e-03    7,648123428e-04    0,000000000e+00    0,000000000e+00    0,000000000e+00    0,000000000e+00
     1290000000    2,241126001e-01   -7,416863739e-02    2,089834213e-02    4,932446033e-02    0,000000000e+00    0,000000000e+00    0,000000000e+00    0,000000000e+00
     1304000000    1,527639180e-01   -2,422049195e-01    1,326526552e-01    6,692533940e-02    0,000000000e+00    0,000000000e+00    0,000000000e+00    0,000000000e+00
     1318000000    3,455413878e-02   -3,393059075e-01    1,320013553e-01   -1,681221277e-01    0,000000000e+00    0,000000000e+00    0,000000000e+00    0,000000000e+00
     1332000000   -1,303667128e-01   -4,351809025e-01   -5,167558044e-02   -4,729978740e-02    0,000000000e+00    0,000000000e+00    0,000000000e+00    0,000000000e+00
     1346000000   -4,005878270e-01   -4,108391702e-01    2,269391902e-02    6,278101355e-02    0,000000000e+00    0,000000000e+00    0,000000000e+00    0,000000000e+00
     1360000000   -6,073738933e-01   -1,862789094e-01    1,409834772e-01    7,440002263e-02    0,000000000e+00    0,000000000e+00    0,000000000e+00    0,000000000e+00
     1374000000   -6,259420514e-01    1,202740669e-01    2,108502984e-01    3,437184263e-03    0,000000000e+00    0,000000000e+00    0,000000000e+00    0,000000000e+00
     1388000000   -4,687438905e-01    3,658037484e-01    2,033136338e-01   -6,683055311e-02    0,000000000e+00    0,000000000e+00    0,000000000e+00    0,000000000e+00
     1402000000   -2,309297472e-01    4,572957754e-01    1,836940944e-01   -9,070164710e-02    0,000000000e+00    0,000000000e+00    0,000000000e+00    0,000000000e+00
     1416000000   -2,819958329e-02    4,140954316e-01    1,627951264e-01   -1,007217765e-01    0,000000000e+00    0,000000000e+00    0,000000000e+00    0,000000000e+00
     1430000000    1,101022959e-01    2,919459343e-01    1,319942623e-01   -1,140546426e-01    0,000000000e+00    0,000000000e+00    0,000000000e+00    0,000000000e+00
     1444000000    2,059876770e-01    1,495638043e-01    1,512043029e-01   -9,155208617e-02    0,000000000e+00    0,000000000e+00    0,000000000e+00    0,000000000e+00
     1458000000    2,336565107e-01   -2,149050124e-02    1,379471272e-01   -7,168831676e-02    0,000000000e+00    0,000000000e+00    0,000000000e+00    0,000000000e+00
     1472000000    1,909135133e-01   -2,018274069e-01    1,450652182e-01   -2,427783795e-02    0,000000000e+00    0,000000000e+00    0,000000000e+00    0,000000000e+00
     1486000000    6,312856823e-02   -3,759075701e-01    1,829944402e-01    2,947665192e-02    0,000000000e+00    0,000000000e+00    0,000000000e+00    0,000000000e+00
     1500000000   -1,695287526e-01   -5,036718845e-01    2,495238930e-01    8,384677023e-02    0,000000000e+00    0,000000000e+00    0,000000000e+00    0,000000000e+00
