! NanoVNA-App
! Date: 2025-09-25 15:36:31
! Start: 100MHz Stop: 1,5GHz Points: 101
! S-Parameter data: F S11 S21 S12 S22
# Hz S RI R 50
!     Frequency           S11_Real           S11_Imag           S21_Real           S21_Imag           S12_Real           S12_Imag           S22_Real           S22_Imag
      100000000   -2,881976962e-02   -4,174174275e-03    3,740945160e-01   -7,217550874e-01    0,000000000e+00    0,000000000e+00    0,000000000e+00    0,000000000e+00
      114000000   -1,646750607e-02    1,154308114e-02   -8,916092664e-02   -8,054796457e-01    0,000000000e+00    0,000000000e+00    0,000000000e+00    0,000000000e+00
      128000000    3,537036479e-03    1,056135539e-02   -5,147282481e-01   -6,204763651e-01    0,000000000e+00    0,000000000e+00    0,000000000e+00    0,000000000e+00
      142000000    1,457343157e-02   -2,977308584e-03   -7,670317888e-01   -2,364408821e-01    0,000000000e+00    0,000000000e+00    0,000000000e+00    0,000000000e+00
      156000000    1,519441046e-02   -1,474344730e-02   -7,676970363e-01    2,227465659e-01    0,000000000e+00    0,000000000e+00    0,000000000e+00    0,000000000e+00
      170000000    1,672083884e-02   -2,257601544e-02   -5,181351900e-01    6,047605872e-01    0,000000000e+00    0,000000000e+00    0,000000000e+00    0,000000000e+00
      184000000    2,101729997e-02   -3,703437001e-02   -1,013835594e-01    7,863973975e-01    0,000000000e+00    0,000000000e+00    0,000000000e+00    0,000000000e+00
      198000000    1,302948222e-02   -6,245573610e-02    3,432928026e-01    7,125463486e-01    0,000000000e+00    0,000000000e+00    0,000000000e+00    0,000000000e+00
      212000000   -1,867213286e-02   -8,130127937e-02    6,780731678e-01    4,098881185e-01    0,000000000e+00    0,000000000e+00    0,000000000e+00    0,000000000e+00
      226000000   -6,170750782e-02   -6,922813505e-02    7,957975864e-01   -3,056936711e-02    0,000000000e+00    0,000000000e+00    0,000000000e+00    0,000000000e+00
      240000000   -8,253242821e-02   -2,558335476e-02    6,460767388e-01   -4,669857323e-01    0,000000000e+00    0,000000000e+00    0,000000000e+00    0,000000000e+00
      254000000   -6,344360858e-02    1,728869788e-02    2,763256133e-01   -7,431200743e-01    0,000000000e+00    0,000000000e+00    0,000000000e+00    0,000000000e+00
      268000000   -2,380397171e-02    2,891484275e-02   -1,781283766e-01   -7,643923163e-01    0,000000000e+00    0,000000000e+00    0,000000000e+00    0,000000000e+00
      282000000    4,211196210e-03    1,196592487e-02   -5,615687370e-01   -5,351601243e-01    0,000000000e+00    0,000000000e+00    0,000000000e+00    0,000000000e+00
      296000000    9,854586795e-03   -7,914688438e-03   -7,599846125e-01   -1,398437172e-01    0,000000000e+00    0,000000000e+00    0,000000000e+00    0,000000000e+00
      310000000    1,106575597e-02   -1,606372185e-02   -7,132998705e-01    2,983267009e-01    0,000000000e+00    0,000000000e+00    0,000000000e+00    0,000000000e+00
      324000000    1,960430481e-02   -2,646833099e-02   -4,275811613e-01    6,375350952e-01    0,000000000e+00    0,000000000e+00    0,000000000e+00    0,000000000e+00
      338000000    2,550151944e-02   -5,209067836e-02   -7,538574748e-03    7,631590962e-01    0,000000000e+00    0,000000000e+00    0,000000000e+00    0,000000000e+00
      352000000    7,587107364e-03   -8,484800905e-02    4,066312313e-01    6,384123564e-01    0,000000000e+00    0,000000000e+00    0,000000000e+00    0,000000000e+00
      366000000   -3,469492495e-02   -9,548672289e-02    6,898281574e-01    3,110812008e-01    0,000000000e+00    0,000000000e+00    0,000000000e+00    0,000000000e+00
      380000000   -7,084103674e-02   -7,116369903e-02    7,470567822e-01   -1,260993928e-01    0,000000000e+00    0,000000000e+00    0,000000000e+00    0,000000000e+00
      394000000   -7,268884033e-02   -3,231373802e-02    5,457631350e-01   -5,208836794e-01    0,000000000e+00    0,000000000e+00    0,000000000e+00    0,000000000e+00
      408000000   -4,644988105e-02   -1,605704613e-02    1,624301821e-01   -7,316498160e-01    0,000000000e+00    0,000000000e+00    0,000000000e+00    0,000000000e+00
      422000000   -2,832397819e-02   -3,184763342e-02   -2,678465247e-01   -6,948853731e-01    0,000000000e+00    0,000000000e+00    0,000000000e+00    0,000000000e+00
      436000000   -4,045766219e-02   -5,187638104e-02   -6,043153405e-01   -4,321039617e-01    0,000000000e+00    0,000000000e+00    0,000000000e+00    0,000000000e+00
      450000000   -6,762951612e-02   -4,394388571e-02   -7,408130765e-01   -2,108140104e-02    0,000000000e+00    0,000000000e+00    0,000000000e+00    0,000000000e+00
      464000000   -7,343173772e-02   -1,171900798e-02   -6,187021136e-01    3,977393508e-01    0,000000000e+00    0,000000000e+00    0,000000000e+00    0,000000000e+00
      478000000   -4,758689925e-02    1,206163876e-02   -2,828152776e-01    6,680902839e-01    0,000000000e+00    0,000000000e+00    0,000000000e+00    0,000000000e+00
      492000000   -1,564180292e-02    6,095374934e-03    1,375026107e-01    7,024116516e-01    0,000000000e+00    0,000000000e+00    0,000000000e+00    0,000000000e+00
      506000000   -3,074503271e-03   -1,562039554e-02    4,978293777e-01    5,022770762e-01    0,000000000e+00    0,000000000e+00    0,000000000e+00    0,000000000e+00
      520000000   -4,822304007e-03   -3,138723224e-02    6,880735159e-01    1,410098225e-01    0,000000000e+00    0,000000000e+00    0,000000000e+00    0,000000000e+00
      534000000   -3,935184330e-03   -3,787802160e-02    6,434399486e-01   -2,627451420e-01    0,000000000e+00    0,000000000e+00    0,000000000e+00    0,000000000e+00
      548000000    5,791601259e-03   -5,405868217e-02    3,811590374e-01   -5,672730803e-01    0,000000000e+00    0,000000000e+00    0,000000000e+00    0,000000000e+00
      562000000    3,263256513e-03   -8,905647695e-02    2,537250752e-03   -6,714513302e-01    0,000000000e+00    0,000000000e+00    0,000000000e+00    0,000000000e+00
      576000000   -3,405635431e-02   -1,244019568e-01   -3,691888750e-01   -5,569500327e-01    0,000000000e+00    0,000000000e+00    0,000000000e+00    0,000000000e+00
      590000000   -9,642354399e-02   -1,225517765e-01   -6,208418608e-01   -2,622670233e-01    0,000000000e+00    0,000000000e+00    0,000000000e+00    0,000000000e+00
      604000000   -1,393592656e-01   -7,180628926e-02   -6,648447514e-01    1,372347623e-01    0,000000000e+00    0,000000000e+00    0,000000000e+00    0,000000000e+00
      618000000   -1,297792941e-01   -9,077544324e-03   -4,648146927e-01    4,957420826e-01    0,000000000e+00    0,000000000e+00    0,000000000e+00    0,000000000e+00
      632000000   -8,380092680e-02    1,720542833e-02   -9,878068417e-02    6,646593213e-01    0,000000000e+00    0,000000000e+00    0,000000000e+00    0,000000000e+00
      646000000   -5,118253827e-02    1,243658480e-03    2,873387039e-01    5,952152610e-01    0,000000000e+00    0,000000000e+00    0,000000000e+00    0,000000000e+00
      660000000   -5,272104964e-02   -2,193156630e-02    5,676384568e-01    3,225481808e-01    0,000000000e+00    0,000000000e+00    0,000000000e+00    0,000000000e+00
      674000000   -6,995139271e-02   -1,717541739e-02    6,429263949e-01   -6,561146677e-02    0,000000000e+00    0,000000000e+00    0,000000000e+00    0,000000000e+00
      688000000   -6,851514429e-02    8,216679096e-03    4,701870382e-01   -4,279311299e-01    0,000000000e+00    0,000000000e+00    0,000000000e+00    0,000000000e+00
      702000000   -3,786213323e-02    2,702613920e-02    1,163435504e-01   -6,112166047e-01    0,000000000e+00    0,000000000e+00    0,000000000e+00    0,000000000e+00
      716000000    1,551707857e-03    1,750808395e-02   -2,642686069e-01   -5,468055010e-01    0,000000000e+00    0,000000000e+00    0,000000000e+00    0,000000000e+00
      730000000    3,678169847e-02   -1,039150916e-02   -5,284572840e-01   -2,690268755e-01    0,000000000e+00    0,000000000e+00    0,000000000e+00    0,000000000e+00
      744000000    6,565304846e-02   -6,265577674e-02   -5,641717315e-01    1,062700897e-01    0,000000000e+00    0,000000000e+00    0,000000000e+00    0,000000000e+00
      758000000    6,617289037e-02   -1,519371569e-01   -3,641844392e-01    4,107685685e-01    0,000000000e+00    0,000000000e+00    0,000000000e+00    0,000000000e+00
      772000000   -1,185339876e-02   -2,617811561e-01   -3,498783708e-02    5,157693624e-01    0,000000000e+00    0,000000000e+00    0,000000000e+00    0,000000000e+00
      786000000   -2,068390399e-01   -3,020454347e-01    2,741248608e-01    3,956197202e-01    0,000000000e+00    0,000000000e+00    0,000000000e+00    0,000000000e+00
      800000000   -4,247649908e-01   -1,307303011e-01    4,169551730e-01    9,922403097e-02    0,000000000e+00    0,000000000e+00    0,000000000e+00    0,000000000e+00
      814000000   -3,885461688e-01    2,217642665e-01    2,819363773e-01   -1,731739640e-01    0,000000000e+00    0,000000000e+00    0,000000000e+00    0,000000000e+00
      828000000   -4,964488000e-02    3,680341542e-01    5,534452200e-02   -1,890687943e-01    0,000000000e+00    0,000000000e+00    0,000000000e+00    0,000000000e+00
      842000000    2,347075343e-01    1,857556552e-01   -1,719870046e-02   -7,078218460e-02    0,000000000e+00    0,000000000e+00    0,000000000e+00    0,000000000e+00
      856000000    2,806086540e-01   -1,241911799e-01    4,480088130e-02   -1,286076661e-02    0,000000000e+00    0,000000000e+00    0,000000000e+00    0,000000000e+00
      870000000    7,505100965e-02   -3,768407702e-01    1,138240770e-01   -9,139764309e-02    0,000000000e+00    0,000000000e+00    0,000000000e+00    0,000000000e+00
      884000000   -2,953256369e-01   -3,624212146e-01    2,873593196e-02   -2,459145039e-01    0,000000000e+00    0,000000000e+00    0,000000000e+00    0,000000000e+00
      898000000   -4,728707075e-01    8,967577480e-03   -2,222651839e-01   -2,277267426e-01    0,000000000e+00    0,000000000e+00    0,000000000e+00    0,000000000e+00
      912000000   -2,260215729e-01    2,934044898e-01   -3,539787531e-01    7,128435373e-02    0,000000000e+00    0,000000000e+00    0,000000000e+00    0,000000000e+00
      926000000    6,544572115e-02    2,638598979e-01   -2,187903970e-01    2,647427619e-01    0,000000000e+00    0,000000000e+00    0,000000000e+00    0,000000000e+00
      940000000    2,168397903e-01    8,016502857e-02   -3,565960005e-02    3,291543126e-01    0,000000000e+00    0,000000000e+00    0,000000000e+00    0,000000000e+00
      954000000    2,234932780e-01   -1,292968839e-01    1,311756819e-01    3,083539903e-01    0,000000000e+00    0,000000000e+00    0,000000000e+00    0,000000000e+00
      968000000    1,141513214e-01   -3,006645441e-01    2,721585631e-01    2,183481306e-01    0,000000000e+00    0,000000000e+00    0,000000000e+00    0,000000000e+00
      982000000   -8,159735054e-02   -3,852462173e-01    3,670483828e-01    6,480511278e-02    0,000000000e+00    0,000000000e+00    0,000000000e+00    0,000000000e+00
      996000000   -3,185343146e-01   -3,270601034e-01    3,686504364e-01   -1,459442079e-01    0,000000000e+00    0,000000000e+00    0,000000000e+00    0,000000000e+00
     1010000000   -4,651241004e-01   -1,116321534e-01    2,223693579e-01   -3,416303396e-01    0,000000000e+00    0,000000000e+00    0,000000000e+00    0,000000000e+00
     1024000000   -4,135716856e-01    1,533167660e-01   -3,265829012e-02   -3,946837783e-01    0,000000000e+00    0,000000000e+00    0,000000000e+00    0,000000000e+00
     1038000000   -2,208309323e-01    2,941326499e-01   -2,473891228e-01   -2,629002631e-01    0,000000000e+00    0,000000000e+00    0,000000000e+00    0,000000000e+00
     1052000000   -1,016706973e-02    2,775423825e-01   -3,162871897e-01   -4,600263759e-02    0,000000000e+00    0,000000000e+00    0,000000000e+00    0,000000000e+00
     1066000000    1,351512522e-01    1,667548269e-01   -2,561986148e-01    1,421500593e-01    0,000000000e+00    0,000000000e+00    0,000000000e+00    0,000000000e+00
     1080000000    1,929723918e-01    1,955348125e-04   -1,176996976e-01    2,616718411e-01    0,000000000e+00    0,000000000e+00    0,000000000e+00    0,000000000e+00
     1094000000    1,569247097e-01   -1,744423807e-01    6,369145960e-02    3,021217287e-01    0,000000000e+00    0,000000000e+00    0,000000000e+00    0,000000000e+00
     1108000000   -1,249831286e-03   -3,081188798e-01    2,777408063e-01    2,469682395e-01    0,000000000e+00    0,000000000e+00    0,000000000e+00    0,000000000e+00
     1122000000   -2,520827651e-01   -2,628150880e-01    4,721479714e-01    1,342639979e-02    0,000000000e+00    0,000000000e+00    0,000000000e+00    0,000000000e+00
     1136000000   -3,221792877e-01    3,435331210e-02    3,978573084e-01   -3,918304145e-01    0,000000000e+00    0,000000000e+00    0,000000000e+00    0,000000000e+00
     1150000000   -4,239943996e-02    1,486798227e-01    5,364267621e-03   -5,450018644e-01    0,000000000e+00    0,000000000e+00    0,000000000e+00    0,000000000e+00
     1164000000    1,214182377e-01   -6,201894581e-02   -2,776238322e-01   -3,790568113e-01    0,000000000e+00    0,000000000e+00    0,000000000e+00    0,000000000e+00
     1178000000    1,723184623e-02   -3,072688282e-01   -3,696804643e-01   -1,537459344e-01    0,000000000e+00    0,000000000e+00    0,000000000e+00    0,000000000e+00
     1192000000   -2,667204440e-01   -3,734064102e-01   -3,226236403e-01    5,547855794e-02    0,000000000e+00    0,000000000e+00    0,000000000e+00    0,000000000e+00
     1206000000   -5,228431225e-01   -1,603524238e-01   -1,671868414e-01    1,800048649e-01    0,000000000e+00    0,000000000e+00    0,000000000e+00    0,000000000e+00
     1220000000   -5,085345507e-01    1,725982577e-01    1,032987493e-03    1,591586024e-01    0,000000000e+00    0,000000000e+00    0,000000000e+00    0,000000000e+00
     1234000000   -2,885143757e-01    3,673402667e-01    7,352623343e-02    6,330935657e-02    0,000000000e+00    0,000000000e+00    0,000000000e+00    0,000000000e+00
     1248000000   -3,837200627e-02    3,670320809e-01    5,781815574e-02   -9,211593308e-03    0,000000000e+00    0,000000000e+00    0,000000000e+00    0,000000000e+00
     1262000000    1,235700250e-01    2,532958686e-01    1,508487947e-02   -2,165800147e-02    0,000000000e+00    0,000000000e+00    0,000000000e+00    0,000000000e+00
     1276000000    2,126074880e-01    1,008303314e-01   -3,582814476e-03    7,955743931e-03    0,000000000e+00    0,000000000e+00    0,000000000e+00    0,000000000e+00
     1290000000    2,251138687e-01   -7,713943720e-02    1,867798716e-02    5,218083411e-02    0,000000000e+00    0,000000000e+00    0,000000000e+00    0,000000000e+00
     1304000000    1,558785886e-01   -2,410940975e-01    1,330389380e-01    6,775536388e-02    0,000000000e+00    0,000000000e+00    0,000000000e+00    0,000000000e+00
     1318000000    3,789131343e-02   -3,386180103e-01    1,269858330e-01   -1,688513309e-01    0,000000000e+00    0,000000000e+00    0,000000000e+00    0,000000000e+00
     1332000000   -1,278129816e-01   -4,361027777e-01   -3,906914592e-02   -4,937335104e-02    0,000000000e+00    0,000000000e+00    0,000000000e+00    0,000000000e+00
     1346000000   -3,994451761e-01   -4,081536531e-01    1,469351351e-02    6,648697704e-02    0,000000000e+00    0,000000000e+00    0,000000000e+00    0,000000000e+00
     1360000000   -6,155805588e-01   -1,951241493e-01    1,292927116e-01    6,979916990e-02    0,000000000e+00    0,000000000e+00    0,000000000e+00    0,000000000e+00
     1374000000   -6,283881664e-01    1,219667643e-01    2,083142102e-01    2,004174050e-03    0,000000000e+00    0,000000000e+00    0,000000000e+00    0,000000000e+00
     1388000000   -4,585225284e-01    3,653503060e-01    2,183048576e-01   -7,109085470e-02    0,000000000e+00    0,000000000e+00    0,000000000e+00    0,000000000e+00
     1402000000   -2,295063287e-01    4,499498606e-01    1,947436631e-01   -9,512376785e-02    0,000000000e+00    0,000000000e+00    0,000000000e+00    0,000000000e+00
     1416000000   -2,570508420e-02    4,119880795e-01    1,661819667e-01   -1,092572659e-01    0,000000000e+00    0,000000000e+00    0,000000000e+00    0,000000000e+00
     1430000000    1,237046495e-01    2,957473695e-01    1,610887051e-01   -1,023603752e-01    0,000000000e+00    0,000000000e+00    0,000000000e+00    0,000000000e+00
     1444000000    2,081486136e-01    1,523365825e-01    1,620411724e-01   -9,603757411e-02    0,000000000e+00    0,000000000e+00    0,000000000e+00    0,000000000e+00
     1458000000    2,364590615e-01   -1,942248829e-02    1,383650452e-01   -6,773595512e-02    0,000000000e+00    0,000000000e+00    0,000000000e+00    0,000000000e+00
     1472000000    1,976456940e-01   -2,043766677e-01    1,487416327e-01   -3,199548274e-02    0,000000000e+00    0,000000000e+00    0,000000000e+00    0,000000000e+00
     1486000000    5,813911557e-02   -3,805137277e-01    1,704530716e-01    2,223994397e-02    0,000000000e+00    0,000000000e+00    0,000000000e+00    0,000000000e+00
     1500000000   -1,733845621e-01   -5,039412975e-01    2,500040233e-01    8,671120554e-02    0,000000000e+00    0,000000000e+00    0,000000000e+00    0,000000000e+00
