! NanoVNA-App
! Date: 2025-09-25 15:32:21
! Start: 100MHz Stop: 1,5GHz Points: 101
! S-Parameter data: F S11 S21 S12 S22
# Hz S RI R 50
!     Frequency           S11_Real           S11_Imag           S21_Real           S21_Imag           S12_Real           S12_Imag           S22_Real           S22_Imag
      100000000   -2,886228636e-02   -4,169367254e-03    3,741248250e-01   -7,218295932e-01    0,000000000e+00    0,000000000e+00    0,000000000e+00    0,000000000e+00
      114000000   -1,650087722e-02    1,151894219e-02   -8,898227662e-02   -8,052946329e-01    0,000000000e+00    0,000000000e+00    0,000000000e+00    0,000000000e+00
      128000000    3,465382848e-03    1,056881156e-02   -5,146956444e-01   -6,205269098e-01    0,000000000e+00    0,000000000e+00    0,000000000e+00    0,000000000e+00
      142000000    1,452970225e-02   -2,954205731e-03   -7,672465444e-01   -2,366596907e-01    0,000000000e+00    0,000000000e+00    0,000000000e+00    0,000000000e+00
      156000000    1,472689305e-02   -1,483008917e-02   -7,660097480e-01    2,216350287e-01    0,000000000e+00    0,000000000e+00    0,000000000e+00    0,000000000e+00
      170000000    1,667201146e-02   -2,250729688e-02   -5,181615949e-01    6,048787832e-01    0,000000000e+00    0,000000000e+00    0,000000000e+00    0,000000000e+00
      184000000    2,103080601e-02   -3,702101856e-02   -1,014883667e-01    7,863152027e-01    0,000000000e+00    0,000000000e+00    0,000000000e+00    0,000000000e+00
      198000000    1,302182302e-02   -6,246637926e-02    3,433820903e-01    7,127619982e-01    0,000000000e+00    0,000000000e+00    0,000000000e+00    0,000000000e+00
      212000000   -1,864716224e-02   -8,124722540e-02    6,779653430e-01    4,099690020e-01    0,000000000e+00    0,000000000e+00    0,000000000e+00    0,000000000e+00
      226000000   -6,171282753e-02   -6,914869696e-02    7,958496809e-01   -3,063729033e-02    0,000000000e+00    0,000000000e+00    0,000000000e+00    0,000000000e+00
      240000000   -8,260384947e-02   -2,562851086e-02    6,461150646e-01   -4,670920670e-01    0,000000000e+00    0,000000000e+00    0,000000000e+00    0,000000000e+00
      254000000   -6,352397054e-02    1,723958366e-02    2,758754790e-01   -7,436134219e-01    0,000000000e+00    0,000000000e+00    0,000000000e+00    0,000000000e+00
      268000000   -2,383104526e-02    2,890566178e-02   -1,783366501e-01   -7,645470500e-01    0,000000000e+00    0,000000000e+00    0,000000000e+00    0,000000000e+00
      282000000    4,139465280e-03    1,193627901e-02   -5,619464517e-01   -5,355735421e-01    0,000000000e+00    0,000000000e+00    0,000000000e+00    0,000000000e+00
      296000000    9,670671076e-03   -7,921569981e-03   -7,598906159e-01   -1,396170408e-01    0,000000000e+00    0,000000000e+00    0,000000000e+00    0,000000000e+00
      310000000    1,110892650e-02   -1,622146554e-02   -7,126414776e-01    2,976765931e-01    0,000000000e+00    0,000000000e+00    0,000000000e+00    0,000000000e+00
      324000000    1,963047870e-02   -2,650776133e-02   -4,280807972e-01    6,380976439e-01    0,000000000e+00    0,000000000e+00    0,000000000e+00    0,000000000e+00
      338000000    2,583503723e-02   -5,196881667e-02   -9,003959596e-03    7,622894049e-01    0,000000000e+00    0,000000000e+00    0,000000000e+00    0,000000000e+00
      352000000    7,485418115e-03   -8,489356935e-02    4,072313309e-01    6,394044757e-01    0,000000000e+00    0,000000000e+00    0,000000000e+00    0,000000000e+00
      366000000   -3,458713368e-02   -9,551188350e-02    6,908240914e-01    3,109821975e-01    0,000000000e+00    0,000000000e+00    0,000000000e+00    0,000000000e+00
      380000000   -7,101552188e-02   -7,126624137e-02    7,473708987e-01   -1,261135042e-01    0,000000000e+00    0,000000000e+00    0,000000000e+00    0,000000000e+00
      394000000   -7,266545296e-02   -3,256782144e-02    5,469948649e-01   -5,219200253e-01    0,000000000e+00    0,000000000e+00    0,000000000e+00    0,000000000e+00
      408000000   -4,651831090e-02   -1,615135930e-02    1,609119028e-01   -7,328328490e-01    0,000000000e+00    0,000000000e+00    0,000000000e+00    0,000000000e+00
      422000000   -2,848239243e-02   -3,204468638e-02   -2,679517865e-01   -6,950192451e-01    0,000000000e+00    0,000000000e+00    0,000000000e+00    0,000000000e+00
      436000000   -4,084606469e-02   -5,188520253e-02   -6,041131020e-01   -4,325849414e-01    0,000000000e+00    0,000000000e+00    0,000000000e+00    0,000000000e+00
      450000000   -6,747969985e-02   -4,393338412e-02   -7,408767939e-01   -2,140540071e-02    0,000000000e+00    0,000000000e+00    0,000000000e+00    0,000000000e+00
      464000000   -7,335983962e-02   -1,160232164e-02   -6,184390783e-01    3,974267244e-01    0,000000000e+00    0,000000000e+00    0,000000000e+00    0,000000000e+00
      478000000   -4,783822596e-02    1,165365241e-02   -2,823983133e-01    6,669251919e-01    0,000000000e+00    0,000000000e+00    0,000000000e+00    0,000000000e+00
      492000000   -1,529455371e-02    6,526799873e-03    1,378011853e-01    7,019174695e-01    0,000000000e+00    0,000000000e+00    0,000000000e+00    0,000000000e+00
      506000000   -2,339402679e-03   -1,568796486e-02    4,986412823e-01    5,026803613e-01    0,000000000e+00    0,000000000e+00    0,000000000e+00    0,000000000e+00
      520000000   -4,873511381e-03   -3,167963400e-02    6,878050566e-01    1,404589862e-01    0,000000000e+00    0,000000000e+00    0,000000000e+00    0,000000000e+00
      534000000   -4,015481099e-03   -3,817982227e-02    6,435297132e-01   -2,625307739e-01    0,000000000e+00    0,000000000e+00    0,000000000e+00    0,000000000e+00
      548000000    5,877576303e-03   -5,406996608e-02    3,809172511e-01   -5,674144030e-01    0,000000000e+00    0,000000000e+00    0,000000000e+00    0,000000000e+00
      562000000    3,275687806e-03   -8,923074603e-02    2,278448781e-03   -6,720559001e-01    0,000000000e+00    0,000000000e+00    0,000000000e+00    0,000000000e+00
      576000000   -3,446527198e-02   -1,239587069e-01   -3,697545528e-01   -5,573450327e-01    0,000000000e+00    0,000000000e+00    0,000000000e+00    0,000000000e+00
      590000000   -9,633944929e-02   -1,227358729e-01   -6,197968125e-01   -2,633253038e-01    0,000000000e+00    0,000000000e+00    0,000000000e+00    0,000000000e+00
      604000000   -1,393559277e-01   -7,170017809e-02   -6,646229625e-01    1,383451074e-01    0,000000000e+00    0,000000000e+00    0,000000000e+00    0,000000000e+00
      618000000   -1,293524653e-01   -8,739953861e-03   -4,646184444e-01    4,949591756e-01    0,000000000e+00    0,000000000e+00    0,000000000e+00    0,000000000e+00
      632000000   -8,374977857e-02    1,633256860e-02   -1,002102867e-01    6,640802026e-01    0,000000000e+00    0,000000000e+00    0,000000000e+00    0,000000000e+00
      646000000   -5,164759606e-02    6,418626872e-04    2,877622545e-01    5,949572921e-01    0,000000000e+00    0,000000000e+00    0,000000000e+00    0,000000000e+00
      660000000   -5,256017670e-02   -2,149470896e-02    5,677263737e-01    3,230165541e-01    0,000000000e+00    0,000000000e+00    0,000000000e+00    0,000000000e+00
      674000000   -7,089225203e-02   -1,807352714e-02    6,433612108e-01   -6,573097408e-02    0,000000000e+00    0,000000000e+00    0,000000000e+00    0,000000000e+00
      688000000   -6,842315942e-02    8,418683894e-03    4,713882208e-01   -4,285741150e-01    0,000000000e+00    0,000000000e+00    0,000000000e+00    0,000000000e+00
      702000000   -3,802879900e-02    2,689644136e-02    1,193783805e-01   -6,060233712e-01    0,000000000e+00    0,000000000e+00    0,000000000e+00    0,000000000e+00
      716000000    1,638294314e-03    1,816489361e-02   -2,656354308e-01   -5,468077064e-01    0,000000000e+00    0,000000000e+00    0,000000000e+00    0,000000000e+00
      730000000    3,601116315e-02   -1,098785456e-02   -5,280668139e-01   -2,685053349e-01    0,000000000e+00    0,000000000e+00    0,000000000e+00    0,000000000e+00
      744000000    6,507976353e-02   -6,309998780e-02   -5,643672943e-01    1,065141410e-01    0,000000000e+00    0,000000000e+00    0,000000000e+00    0,000000000e+00
      758000000    6,654419750e-02   -1,519352347e-01   -3,628867269e-01    4,103491008e-01    0,000000000e+00    0,000000000e+00    0,000000000e+00    0,000000000e+00
      772000000   -1,261187531e-02   -2,625708580e-01   -3,527286276e-02    5,152660608e-01    0,000000000e+00    0,000000000e+00    0,000000000e+00    0,000000000e+00
      786000000   -2,069112808e-01   -3,032786250e-01    2,744967341e-01    3,955246508e-01    0,000000000e+00    0,000000000e+00    0,000000000e+00    0,000000000e+00
      800000000   -4,263080955e-01   -1,296986490e-01    4,173618555e-01    9,873595089e-02    0,000000000e+00    0,000000000e+00    0,000000000e+00    0,000000000e+00
      814000000   -3,893739283e-01    2,213252932e-01    2,817164361e-01   -1,734567881e-01    0,000000000e+00    0,000000000e+00    0,000000000e+00    0,000000000e+00
      828000000   -4,941208661e-02    3,685570061e-01    5,499133468e-02   -1,893693060e-01    0,000000000e+00    0,000000000e+00    0,000000000e+00    0,000000000e+00
      842000000    2,347440571e-01    1,855102777e-01   -1,682012342e-02   -7,088850439e-02    0,000000000e+00    0,000000000e+00    0,000000000e+00    0,000000000e+00
      856000000    2,803885937e-01   -1,244207919e-01    4,525857419e-02   -1,273187809e-02    0,000000000e+00    0,000000000e+00    0,000000000e+00    0,000000000e+00
      870000000    7,523862273e-02   -3,758188486e-01    1,139179096e-01   -9,144170582e-02    0,000000000e+00    0,000000000e+00    0,000000000e+00    0,000000000e+00
      884000000   -2,951588631e-01   -3,613668382e-01    2,870376222e-02   -2,455738932e-01    0,000000000e+00    0,000000000e+00    0,000000000e+00    0,000000000e+00
      898000000   -4,716612101e-01    9,501496330e-03   -2,208752185e-01   -2,267288566e-01    0,000000000e+00    0,000000000e+00    0,000000000e+00    0,000000000e+00
      912000000   -2,250483781e-01    2,958477139e-01   -3,455803990e-01    5,918956175e-02    0,000000000e+00    0,000000000e+00    0,000000000e+00    0,000000000e+00
      926000000    6,583262235e-02    2,651034296e-01   -2,178106457e-01    2,655569315e-01    0,000000000e+00    0,000000000e+00    0,000000000e+00    0,000000000e+00
      940000000    2,144226432e-01    7,946436107e-02   -3,474793583e-02    3,284530342e-01    0,000000000e+00    0,000000000e+00    0,000000000e+00    0,000000000e+00
      954000000    2,237482667e-01   -1,260587871e-01    1,316583306e-01    3,064261079e-01    0,000000000e+00    0,000000000e+00    0,000000000e+00    0,000000000e+00
      968000000    1,154698953e-01   -2,983258367e-01    2,697440386e-01    2,201923579e-01    0,000000000e+00    0,000000000e+00    0,000000000e+00    0,000000000e+00
      982000000   -8,386092633e-02   -3,858728409e-01    3,672410250e-01    6,411170214e-02    0,000000000e+00    0,000000000e+00    0,000000000e+00    0,000000000e+00
      996000000   -3,207686543e-01   -3,316006362e-01    3,674842715e-01   -1,464673877e-01    0,000000000e+00    0,000000000e+00    0,000000000e+00    0,000000000e+00
     1010000000   -4,614390731e-01   -1,077482328e-01    2,246245891e-01   -3,423717916e-01    0,000000000e+00    0,000000000e+00    0,000000000e+00    0,000000000e+00
     1024000000   -4,157325923e-01    1,524612159e-01   -3,390789777e-02   -3,944543004e-01    0,000000000e+00    0,000000000e+00    0,000000000e+00    0,000000000e+00
     1038000000   -2,146813869e-01    2,911702991e-01   -2,470265031e-01   -2,602965236e-01    0,000000000e+00    0,000000000e+00    0,000000000e+00    0,000000000e+00
     1052000000   -5,339174997e-03    2,802363634e-01   -3,188474178e-01   -4,784738272e-02    0,000000000e+00    0,000000000e+00    0,000000000e+00    0,000000000e+00
     1066000000    1,329849362e-01    1,614792049e-01   -2,580912113e-01    1,421411932e-01    0,000000000e+00    0,000000000e+00    0,000000000e+00    0,000000000e+00
     1080000000    1,945167482e-01   -3,442796646e-03   -1,199196503e-01    2,625966072e-01    0,000000000e+00    0,000000000e+00    0,000000000e+00    0,000000000e+00
     1094000000    1,521985084e-01   -1,730102301e-01    6,396367401e-02    3,025938272e-01    0,000000000e+00    0,000000000e+00    0,000000000e+00    0,000000000e+00
     1108000000    4,869716940e-04   -3,039493859e-01    2,766750157e-01    2,456365824e-01    0,000000000e+00    0,000000000e+00    0,000000000e+00    0,000000000e+00
     1122000000   -2,511965930e-01   -2,673037648e-01    4,745880961e-01    1,238690130e-02    0,000000000e+00    0,000000000e+00    0,000000000e+00    0,000000000e+00
     1136000000   -3,166130185e-01    2,785617113e-02    4,000319839e-01   -3,908016086e-01    0,000000000e+00    0,000000000e+00    0,000000000e+00    0,000000000e+00
     1150000000   -3,626612574e-02    1,511468291e-01    5,393392406e-03   -5,428563356e-01    0,000000000e+00    0,000000000e+00    0,000000000e+00    0,000000000e+00
     1164000000    1,215582639e-01   -6,624683738e-02   -2,761748433e-01   -3,783217669e-01    0,000000000e+00    0,000000000e+00    0,000000000e+00    0,000000000e+00
     1178000000    2,043388970e-02   -3,057939410e-01   -3,666052818e-01   -1,535776705e-01    0,000000000e+00    0,000000000e+00    0,000000000e+00    0,000000000e+00
     1192000000   -2,654966116e-01   -3,704334795e-01   -3,228332102e-01    5,616218597e-02    0,000000000e+00    0,000000000e+00    0,000000000e+00    0,000000000e+00
     1206000000   -5,209920406e-01   -1,641969681e-01   -1,698195040e-01    1,795884818e-01    0,000000000e+00    0,000000000e+00    0,000000000e+00    0,000000000e+00
     1220000000   -5,069177151e-01    1,765430570e-01   -2,549401834e-04    1,606210917e-01    0,000000000e+00    0,000000000e+00    0,000000000e+00    0,000000000e+00
     1234000000   -2,870026827e-01    3,685723841e-01    6,888685375e-02    6,635735929e-02    0,000000000e+00    0,000000000e+00    0,000000000e+00    0,000000000e+00
     1248000000   -3,991351649e-02    3,629814386e-01    5,374664813e-02   -8,552897722e-03    0,000000000e+00    0,000000000e+00    0,000000000e+00    0,000000000e+00
     1262000000    1,226164773e-01    2,531158030e-01    1,347346045e-02   -2,501375228e-02    0,000000000e+00    0,000000000e+00    0,000000000e+00    0,000000000e+00
     1276000000    2,091889232e-01    9,687835723e-02   -2,729159081e-03    3,310199594e-03    0,000000000e+00    0,000000000e+00    0,000000000e+00    0,000000000e+00
     1290000000    2,251218259e-01   -7,430696487e-02    1,841947623e-02    5,026338995e-02    0,000000000e+00    0,000000000e+00    0,000000000e+00    0,000000000e+00
     1304000000    1,549399346e-01   -2,432878911e-01    1,348525733e-01    6,678000093e-02    0,000000000e+00    0,000000000e+00    0,000000000e+00    0,000000000e+00
     1318000000    3,627743945e-02   -3,363035023e-01    1,291289777e-01   -1,635442376e-01    0,000000000e+00    0,000000000e+00    0,000000000e+00    0,000000000e+00
     1332000000   -1,272066236e-01   -4,319329858e-01   -4,561399296e-02   -3,599799424e-02    0,000000000e+00    0,000000000e+00    0,000000000e+00    0,000000000e+00
     1346000000   -3,995209336e-01   -4,086931944e-01    1,799811795e-02    6,745917350e-02    0,000000000e+00    0,000000000e+00    0,000000000e+00    0,000000000e+00
     1360000000   -6,076612473e-01   -1,904406250e-01    1,331698298e-01    7,634444535e-02    0,000000000e+00    0,000000000e+00    0,000000000e+00    0,000000000e+00
     1374000000   -6,323223710e-01    1,330993921e-01    2,063606083e-01    1,509684231e-02    0,000000000e+00    0,000000000e+00    0,000000000e+00    0,000000000e+00
     1388000000   -4,666621983e-01    3,679528832e-01    2,010313123e-01   -6,210599095e-02    0,000000000e+00    0,000000000e+00    0,000000000e+00    0,000000000e+00
     1402000000   -2,270925790e-01    4,546592534e-01    1,887340844e-01   -9,492090344e-02    0,000000000e+00    0,000000000e+00    0,000000000e+00    0,000000000e+00
     1416000000   -2,318185568e-02    4,102586210e-01    1,712360084e-01   -1,110892892e-01    0,000000000e+00    0,000000000e+00    0,000000000e+00    0,000000000e+00
     1430000000    1,261241436e-01    3,081035018e-01    1,783252656e-01   -1,100882515e-01    0,000000000e+00    0,000000000e+00    0,000000000e+00    0,000000000e+00
     1444000000    2,073608041e-01    1,481990814e-01    1,473802924e-01   -1,001353562e-01    0,000000000e+00    0,000000000e+00    0,000000000e+00    0,000000000e+00
     1458000000    2,383610457e-01   -2,495375276e-02    1,416199207e-01   -8,275743574e-02    0,000000000e+00    0,000000000e+00    0,000000000e+00    0,000000000e+00
     1472000000    1,842561513e-01   -2,001349479e-01    1,338982880e-01   -2,884281054e-02    0,000000000e+00    0,000000000e+00    0,000000000e+00    0,000000000e+00
     1486000000    5,853173509e-02   -3,797410429e-01    1,661775410e-01    2,607044391e-02    0,000000000e+00    0,000000000e+00    0,000000000e+00    0,000000000e+00
     1500000000   -1,802329421e-01   -4,914675951e-01    2,350175083e-01    1,048264951e-01    0,000000000e+00    0,000000000e+00    0,000000000e+00    0,000000000e+00
